--- [SIM ONLY] axi_random_wr_rd_test ---
MODE = UVM_MASTER
UVM_TESTNAME = axi_random_wr_rd_test
Reading C:/app/QuestaSim/tcl/vsim/pref.tcl 

# 10.2c

# vsim +UVM_TESTNAME=axi_random_wr_rd_test +UVM_MASTER +MEM_SEED=3900639822 +CPU_INSTR_COUNT=208 -coverage -do {run -all; quit} -c -sv_seed 3900639822 vopt_top 
# //  Questa Sim-64
# //  Version 10.2c Unknown Platform Jul 19 2013
# //
# //  Copyright 1991-2013 Mentor Graphics Corporation
# //  All Rights Reserved.
# //
# //  THIS WORK CONTAINS TRADE SECRET AND PROPRIETARY INFORMATION
# //  WHICH IS THE PROPERTY OF MENTOR GRAPHICS CORPORATION OR ITS
# //  LICENSORS AND IS SUBJECT TO LICENSE TERMS.
# //
# Loading sv_std.std
# Loading mtiUvm.uvm_pkg
# Loading work.soc_pkg(fast)
# Loading work.top_tb(fast)
# Loading work.clk_rst_inf(fast)
# Loading work.soc_inf(fast)
# Loading work.cpu_monitor_inf(fast)
# Loading work.TOP(fast)
# Loading work.AXI_Master(fast)
# Loading work.CPU(fast)
# Loading work.pc_reg(fast)
# Loading work.IF_ID(fast)
# Loading work.ControlUnit(fast)
# Loading work.MainDecoder(fast)
# Loading work.ALUControl(fast)
# Loading work.RegFile(fast)
# Loading work.signExtend(fast)
# Loading work.ID_EX(fast)
# Loading work.ALU(fast)
# Loading work.EX_MEM(fast)
# Loading work.MEM_WB(fast)
# Loading work.HazardUnit(fast)
# Loading work.LSU(fast)
# Loading work.AXI4_Lite_Interconnect(fast)
# Loading work.IRAM(fast)
# Loading work.DRAM(fast)
# Loading work.Timer(fast)
# Loading work.UART(fast)
# Loading work.SPI(fast)
# Loading work.axi4_lite_sva(fast)
# Loading work.cpu_sva(fast)
# Loading mtiUvm.questa_uvm_pkg(fast)
# Loading C:/app/QuestaSim/uvm-1.1d\win64\uvm_dpi.dll
# run -all 
# ----------------------------------------------------------------
# UVM-1.1d
# (C) 2007-2013 Mentor Graphics Corporation
# (C) 2007-2013 Cadence Design Systems, Inc.
# (C) 2006-2013 Synopsys, Inc.
# (C) 2011-2013 Cypress Semiconductor Corp.
# ----------------------------------------------------------------
# 
#   ***********       IMPORTANT RELEASE NOTES         ************
# 
#   You are using a version of the UVM library that has been compiled
#   with `UVM_NO_DEPRECATED undefined.
#   See http://www.eda.org/svdb/view.php?id=3313 for more details.
# 
#   You are using a version of the UVM library that has been compiled
#   with `UVM_OBJECT_MUST_HAVE_CONSTRUCTOR undefined.
#   See http://www.eda.org/svdb/view.php?id=3770 for more details.
# 
#       (Specify +UVM_NO_RELNOTES to turn off this notice)
# 
# UVM_INFO verilog_src/questa_uvm_pkg-1.2/src/questa_uvm_pkg.sv(215) @ 0: reporter [Questa UVM] QUESTA_UVM-1.2.2
# UVM_INFO verilog_src/questa_uvm_pkg-1.2/src/questa_uvm_pkg.sv(217) @ 0: reporter [Questa UVM]  questa_uvm::init(+struct)
# [IRAM] Loading file: instr.mem
# [IRAM] mem[0] = 100000b7
# [IRAM] mem[1] = 20000137
# [IRAM] mem[2] = 300001b7
# [IRAM] mem[3] = 40000237
# [IRAM] mem[4] = 05a00293
# [IRAM] mem[5] = 3050a023
# [IRAM] mem[6] = 3000a303
# [IRAM] mem[7] = 00629463
# [IRAM] mem[8] = 05a00393
# [IRAM] mem[9] = 0080006f
# [IRAM] mem[10] = 0a500393
# [IRAM] mem[11] = 3e70a823
# [IRAM] mem[12] = 00db46b3
# [IRAM] mem[13] = 00506263
# [IRAM] mem[14] = 00022003
# [IRAM] mem[15] = 00412283
# [IRAM] mem[16] = 00812003
# [IRAM] mem[17] = 40c0ac83
# [IRAM] mem[18] = 00d22223
# [IRAM] mem[19] = 00007263
# [IRAM] mem[20] = 00904263
# [IRAM] mem[21] = 89b7e313
# [IRAM] mem[22] = 01304263
# [IRAM] mem[23] = d138c813
# [IRAM] mem[24] = 6bc0ad03
# [IRAM] mem[25] = 01e12023
# [IRAM] mem[26] = 00422a03
# [IRAM] mem[27] = 1170a223
# [IRAM] mem[28] = 01b1a023
# [IRAM] mem[29] = 0040036f
# [IRAM] mem[30] = 01e01263
# [IRAM] mem[31] = 015af5b3
# [IRAM] mem[32] = 406e8e33
# [IRAM] mem[33] = 01d22023
# [IRAM] mem[34] = 01e12223
# [IRAM] mem[35] = 01e12223
# [IRAM] mem[36] = 00005263
# [IRAM] mem[37] = 01262733
# [IRAM] mem[38] = 00005263
# [IRAM] mem[39] = 40f7d933
# [IRAM] mem[40] = 00007263
# [IRAM] mem[41] = 0390a223
# [IRAM] mem[42] = 00b1a023
# [IRAM] mem[43] = 01212023
# [IRAM] mem[44] = 00400eef
# [IRAM] mem[45] = 1fab4393
# [IRAM] mem[46] = 00512223
# [IRAM] mem[47] = 00812003
# [IRAM] mem[48] = 00c22c83
# [IRAM] mem[49] = 00000263
# [IRAM] mem[50] = 01222023
# [IRAM] mem[51] = 00007263
# [IRAM] mem[52] = 00005263
# [IRAM] mem[53] = 00000263
# [IRAM] mem[54] = 0f294e93
# [IRAM] mem[55] = 0081a003
# [IRAM] mem[56] = 00007263
# [IRAM] mem[57] = 01506263
# [IRAM] mem[58] = 008c8733
# [IRAM] mem[59] = 00005263
# [IRAM] mem[60] = 6770a423
# [IRAM] mem[61] = 01f06263
# [IRAM] mem[62] = 00c22783
# [IRAM] mem[63] = 01d22623
# [IRAM] mem[64] = 012a5e33
# [IRAM] mem[65] = 00005263
# [IRAM] mem[66] = 016323b3
# [IRAM] mem[67] = 00822003
# [IRAM] mem[68] = 00012683
# [IRAM] mem[69] = 00f01263
# [IRAM] mem[70] = 66f9ae93
# [IRAM] mem[71] = 0040056f
# [IRAM] mem[72] = 00412783
# [IRAM] mem[73] = 7b29f293
# [IRAM] mem[74] = 00d12023
# [IRAM] mem[75] = 0194e8b3
# [IRAM] mem[76] = 01a01263
# [IRAM] mem[77] = 00422a83
# [IRAM] mem[78] = 0041a003
# [IRAM] mem[79] = 00722023
# [IRAM] mem[80] = 00d12223
# [IRAM] mem[81] = 00000263
# [IRAM] mem[82] = 01a47833
# [IRAM] mem[83] = 02f0a623
# [IRAM] mem[84] = 01822223
# [IRAM] mem[85] = 01181533
# [IRAM] mem[86] = 00005263
# [IRAM] mem[87] = 0101a023
# [IRAM] mem[88] = 00e60533
# [IRAM] mem[89] = 004007ef
# [IRAM] mem[90] = 00ece6b3
# [IRAM] mem[91] = 01a1a623
# [IRAM] mem[92] = 00c1a483
# [IRAM] mem[93] = 00007263
# [IRAM] mem[94] = 0081a003
# [IRAM] mem[95] = 00c1ac03
# [IRAM] mem[96] = 0041a003
# [IRAM] mem[97] = 5019f613
# [IRAM] mem[98] = 00c1af03
# [IRAM] mem[99] = 7130ae23
# [IRAM] mem[100] = 01d04263
# [IRAM] mem[101] = 01812023
# [IRAM] mem[102] = 5f80ac03
# [IRAM] mem[103] = 00000263
# [IRAM] mem[104] = 1380a603
# [IRAM] mem[105] = 0101a623
# [IRAM] mem[106] = 66cacd93
# [IRAM] mem[107] = 00007263
# [IRAM] mem[108] = 00412283
# [IRAM] mem[109] = 013c09b3
# [IRAM] mem[110] = 62f90c93
# [IRAM] mem[111] = 0040066f
# [IRAM] mem[112] = 0041a003
# [IRAM] mem[113] = 447fa513
# [IRAM] mem[114] = 41ef0833
# [IRAM] mem[115] = 00c06263
# [IRAM] mem[116] = 00b1a623
# [IRAM] mem[117] = 4240a803
# [IRAM] mem[118] = 00e94cb3
# [IRAM] mem[119] = 00e04263
# [IRAM] mem[120] = 0140a783
# [IRAM] mem[121] = bd668d93
# [IRAM] mem[122] = 0041a003
# [IRAM] mem[123] = f08ffe13
# [IRAM] mem[124] = 00c1ae03
# [IRAM] mem[125] = 40b70ab3
# [IRAM] mem[126] = 00812003
# [IRAM] mem[127] = 00822003
# [IRAM] mem[128] = 00f04263
# [IRAM] mem[129] = 01c1a623
# [IRAM] mem[130] = 00812003
# [IRAM] mem[131] = 0061a623
# [IRAM] mem[132] = 01b1a623
# [IRAM] mem[133] = 00e04263
# [IRAM] mem[134] = 6a00ad03
# [IRAM] mem[135] = cfc6a693
# [IRAM] mem[136] = 00c22403
# [IRAM] mem[137] = 01c12023
# [IRAM] mem[138] = 01822623
# [IRAM] mem[139] = 00c1a503
# [IRAM] mem[140] = 8b086313
# [IRAM] mem[141] = 00606263
# [IRAM] mem[142] = a9fcf913
# [IRAM] mem[143] = 008d72b3
# [IRAM] mem[144] = 2200a783
# [IRAM] mem[145] = 0078d4b3
# [IRAM] mem[146] = 00012e83
# [IRAM] mem[147] = 004004ef
# [IRAM] mem[148] = 0040076f
# [IRAM] mem[149] = 01e1a023
# [IRAM] mem[150] = 00822003
# [IRAM] mem[151] = 00000263
# [IRAM] mem[152] = 01d12023
# [IRAM] mem[153] = 00000263
# [IRAM] mem[154] = 0101a023
# [IRAM] mem[155] = 1fe0a223
# [IRAM] mem[156] = 00f06263
# [IRAM] mem[157] = 0107e8b3
# [IRAM] mem[158] = 00012f03
# [IRAM] mem[159] = 00007263
# [IRAM] mem[160] = 00022003
# [IRAM] mem[161] = 6280a223
# [IRAM] mem[162] = 2800a983
# [IRAM] mem[163] = 0041a003
# [IRAM] mem[164] = 0081a003
# [IRAM] mem[165] = 0081a003
# [IRAM] mem[166] = 01d01263
# [IRAM] mem[167] = 00412283
# [IRAM] mem[168] = 0081a003
# [IRAM] mem[169] = 006b43b3
# [IRAM] mem[170] = 00000263
# [IRAM] mem[171] = ed7cff93
# [IRAM] mem[172] = 5950ae23
# [IRAM] mem[173] = 00812003
# [IRAM] mem[174] = 00012683
# [IRAM] mem[175] = d178f913
# [IRAM] mem[176] = 01f06263
# [IRAM] mem[177] = 007bfb33
# [IRAM] mem[178] = 00f1a023
# [IRAM] mem[179] = 35a0ac23
# [IRAM] mem[180] = 00422383
# [IRAM] mem[181] = 01a12223
# [IRAM] mem[182] = 01604263
# [IRAM] mem[183] = 00d693b3
# [IRAM] mem[184] = 4040a503
# [IRAM] mem[185] = 00412503
# [IRAM] mem[186] = 0041a003
# [IRAM] mem[187] = 00c1ae03
# [IRAM] mem[188] = 004003ef
# [IRAM] mem[189] = 00c89db3
# [IRAM] mem[190] = 0c00a883
# [IRAM] mem[191] = 00d22223
# [IRAM] mem[192] = 00e50933
# [IRAM] mem[193] = 00012983
# [IRAM] mem[194] = 01201263
# [IRAM] mem[195] = 01101263
# [IRAM] mem[196] = 00812003
# [IRAM] mem[197] = 00022003
# [IRAM] mem[198] = 2a40ad03
# [IRAM] mem[199] = 01d12223
# [IRAM] mem[200] = 01955a33
# [IRAM] mem[201] = 4d10a423
# [IRAM] mem[202] = 01a7a733
# [IRAM] mem[203] = 40d80733
# [IRAM] mem[204] = 00012583
# [IRAM] mem[205] = 00412783
# [IRAM] mem[206] = 0b80ac83
# [IRAM] mem[207] = 0081a003
# [IRAM] mem[208] = 00000013
# [IRAM] mem[209] = 00000013
# [IRAM] mem[210] = 00000013
# [IRAM] mem[211] = 00000013
# [IRAM] mem[212] = 00000013
# [IRAM] mem[213] = 00000013
# [IRAM] mem[214] = 00000013
# [IRAM] mem[215] = 00000013
# [IRAM] mem[216] = 00000013
# [IRAM] mem[217] = 00000013
# [IRAM] mem[218] = 00000013
# [IRAM] mem[219] = 00000013
# [IRAM] mem[220] = 00000013
# [IRAM] mem[221] = 00000013
# [IRAM] mem[222] = 00000013
# [IRAM] mem[223] = 00000013
# [IRAM] mem[224] = 00000013
# [IRAM] mem[225] = 00000013
# [IRAM] mem[226] = 00000013
# [IRAM] mem[227] = 00000013
# [IRAM] mem[228] = 00000013
# [IRAM] mem[229] = 00000013
# [IRAM] mem[230] = 00000013
# [IRAM] mem[231] = 00000013
# [IRAM] mem[232] = 00000013
# [IRAM] mem[233] = 00000013
# [IRAM] mem[234] = 00000013
# [IRAM] mem[235] = 00000013
# [IRAM] mem[236] = 00000013
# [IRAM] mem[237] = 00000013
# [IRAM] mem[238] = 00000013
# [IRAM] mem[239] = 00000013
# [IRAM] mem[240] = 00000013
# [IRAM] mem[241] = 00000013
# [IRAM] mem[242] = 00000013
# [IRAM] mem[243] = 00000013
# [IRAM] mem[244] = 00000013
# [IRAM] mem[245] = 00000013
# [IRAM] mem[246] = 00000013
# [IRAM] mem[247] = 00000013
# [IRAM] mem[248] = 00000013
# [IRAM] mem[249] = 00000013
# [IRAM] mem[250] = 00000013
# [IRAM] mem[251] = 00000013
# [IRAM] mem[252] = 00000013
# [IRAM] mem[253] = 00000013
# [IRAM] mem[254] = 00000013
# [IRAM] mem[255] = 00000013
# [IRAM] Loaded 16384 instruction words
# [TB] Mode: UVM MASTER => driver controls AXI bus
# UVM_INFO @ 0: reporter [RNTST] Running test axi_random_wr_rd_test...
# ** Warning: (vsim-PLI-8707) No address specified on line 3 of file "instr.mem" 
# 
# while loading into associative array using readmem command.    : C:/Documents/DoAnThietKeViMach/Project/SoC/VERIFICATION/Scoreboard/axi_scoreboard.sv(31)
#    Time: 0 ps  Iteration: 8  Region: /uvm_pkg::uvm_phase::m_run_phases
# UVM_INFO C:/Documents/DoAnThietKeViMach/Project/SoC/VERIFICATION/Sequence/axi_random_wr_rd.sv(26) @ 0: uvm_test_top.env.agent.sequencer@@seq [SEQ] --- STARTING SMART RANDOM TEST (ID 11, 12) ---
# [DRAM WRITE] addr=10000000 data=e54abb33
# UVM_INFO C:/Documents/DoAnThietKeViMach/Project/SoC/VERIFICATION/Monitor/axi_monitor.sv(51) @ 65000: uvm_test_top.env.agent.monitor [MON_WR] Detected WRITE : Addr=10000000 Data=e54abb33 Strb=1111 Prot=000 BResp=00
# UVM_INFO C:/Documents/DoAnThietKeViMach/Project/SoC/VERIFICATION/Driver/axi_driver.sv(63) @ 75000: uvm_test_top.env.agent.driver [DRV] Write Done: Addr=10000000 Data=e54abb33 Prot=000
# [DRAM WRITE] addr=10000004 data=b711e802
# UVM_INFO C:/Documents/DoAnThietKeViMach/Project/SoC/VERIFICATION/Monitor/axi_monitor.sv(51) @ 115000: uvm_test_top.env.agent.monitor [MON_WR] Detected WRITE : Addr=10000004 Data=b711e802 Strb=1111 Prot=000 BResp=00
# UVM_INFO C:/Documents/DoAnThietKeViMach/Project/SoC/VERIFICATION/Driver/axi_driver.sv(63) @ 125000: uvm_test_top.env.agent.driver [DRV] Write Done: Addr=10000004 Data=b711e802 Prot=000
# [DRAM WRITE] addr=10000008 data=edee0259
# UVM_INFO C:/Documents/DoAnThietKeViMach/Project/SoC/VERIFICATION/Monitor/axi_monitor.sv(51) @ 165000: uvm_test_top.env.agent.monitor [MON_WR] Detected WRITE : Addr=10000008 Data=edee0259 Strb=1111 Prot=000 BResp=00
# UVM_INFO C:/Documents/DoAnThietKeViMach/Project/SoC/VERIFICATION/Driver/axi_driver.sv(63) @ 175000: uvm_test_top.env.agent.driver [DRV] Write Done: Addr=10000008 Data=edee0259 Prot=000
# [DRAM WRITE] addr=1000000c data=805b442b
# UVM_INFO C:/Documents/DoAnThietKeViMach/Project/SoC/VERIFICATION/Monitor/axi_monitor.sv(51) @ 215000: uvm_test_top.env.agent.monitor [MON_WR] Detected WRITE : Addr=1000000c Data=805b442b Strb=1111 Prot=000 BResp=00
# UVM_INFO C:/Documents/DoAnThietKeViMach/Project/SoC/VERIFICATION/Driver/axi_driver.sv(63) @ 225000: uvm_test_top.env.agent.driver [DRV] Write Done: Addr=1000000c Data=805b442b Prot=000
# [DRAM WRITE] addr=10000010 data=b33d8fda
# UVM_INFO C:/Documents/DoAnThietKeViMach/Project/SoC/VERIFICATION/Monitor/axi_monitor.sv(51) @ 265000: uvm_test_top.env.agent.monitor [MON_WR] Detected WRITE : Addr=10000010 Data=b33d8fda Strb=1111 Prot=000 BResp=00
# UVM_INFO C:/Documents/DoAnThietKeViMach/Project/SoC/VERIFICATION/Driver/axi_driver.sv(63) @ 275000: uvm_test_top.env.agent.driver [DRV] Write Done: Addr=10000010 Data=b33d8fda Prot=000
# [DRAM WRITE] addr=10000014 data=bf916226
# UVM_INFO C:/Documents/DoAnThietKeViMach/Project/SoC/VERIFICATION/Monitor/axi_monitor.sv(51) @ 315000: uvm_test_top.env.agent.monitor [MON_WR] Detected WRITE : Addr=10000014 Data=bf916226 Strb=1111 Prot=000 BResp=00
# UVM_INFO C:/Documents/DoAnThietKeViMach/Project/SoC/VERIFICATION/Driver/axi_driver.sv(63) @ 325000: uvm_test_top.env.agent.driver [DRV] Write Done: Addr=10000014 Data=bf916226 Prot=000
# [DRAM WRITE] addr=10000018 data=e0a7172b
# UVM_INFO C:/Documents/DoAnThietKeViMach/Project/SoC/VERIFICATION/Monitor/axi_monitor.sv(51) @ 365000: uvm_test_top.env.agent.monitor [MON_WR] Detected WRITE : Addr=10000018 Data=e0a7172b Strb=1111 Prot=000 BResp=00
# UVM_INFO C:/Documents/DoAnThietKeViMach/Project/SoC/VERIFICATION/Driver/axi_driver.sv(63) @ 375000: uvm_test_top.env.agent.driver [DRV] Write Done: Addr=10000018 Data=e0a7172b Prot=000
# [DRAM WRITE] addr=1000001c data=8ab40abf
# UVM_INFO C:/Documents/DoAnThietKeViMach/Project/SoC/VERIFICATION/Monitor/axi_monitor.sv(51) @ 415000: uvm_test_top.env.agent.monitor [MON_WR] Detected WRITE : Addr=1000001c Data=8ab40abf Strb=1111 Prot=000 BResp=00
# UVM_INFO C:/Documents/DoAnThietKeViMach/Project/SoC/VERIFICATION/Driver/axi_driver.sv(63) @ 425000: uvm_test_top.env.agent.driver [DRV] Write Done: Addr=1000001c Data=8ab40abf Prot=000
# [DRAM WRITE] addr=10000020 data=b8efee23
# UVM_INFO C:/Documents/DoAnThietKeViMach/Project/SoC/VERIFICATION/Monitor/axi_monitor.sv(51) @ 465000: uvm_test_top.env.agent.monitor [MON_WR] Detected WRITE : Addr=10000020 Data=b8efee23 Strb=1111 Prot=000 BResp=00
# UVM_INFO C:/Documents/DoAnThietKeViMach/Project/SoC/VERIFICATION/Driver/axi_driver.sv(63) @ 475000: uvm_test_top.env.agent.driver [DRV] Write Done: Addr=10000020 Data=b8efee23 Prot=000
# [DRAM WRITE] addr=10000024 data=9d922a86
# UVM_INFO C:/Documents/DoAnThietKeViMach/Project/SoC/VERIFICATION/Monitor/axi_monitor.sv(51) @ 515000: uvm_test_top.env.agent.monitor [MON_WR] Detected WRITE : Addr=10000024 Data=9d922a86 Strb=1111 Prot=000 BResp=00
# UVM_INFO C:/Documents/DoAnThietKeViMach/Project/SoC/VERIFICATION/Driver/axi_driver.sv(63) @ 525000: uvm_test_top.env.agent.driver [DRV] Write Done: Addr=10000024 Data=9d922a86 Prot=000
# [DRAM WRITE] addr=10000028 data=fd9b352a
# UVM_INFO C:/Documents/DoAnThietKeViMach/Project/SoC/VERIFICATION/Monitor/axi_monitor.sv(51) @ 565000: uvm_test_top.env.agent.monitor [MON_WR] Detected WRITE : Addr=10000028 Data=fd9b352a Strb=1111 Prot=000 BResp=00
# UVM_INFO C:/Documents/DoAnThietKeViMach/Project/SoC/VERIFICATION/Driver/axi_driver.sv(63) @ 575000: uvm_test_top.env.agent.driver [DRV] Write Done: Addr=10000028 Data=fd9b352a Prot=000
# [DRAM WRITE] addr=1000002c data=1a4ab40a
# UVM_INFO C:/Documents/DoAnThietKeViMach/Project/SoC/VERIFICATION/Monitor/axi_monitor.sv(51) @ 615000: uvm_test_top.env.agent.monitor [MON_WR] Detected WRITE : Addr=1000002c Data=1a4ab40a Strb=1111 Prot=000 BResp=00
# UVM_INFO C:/Documents/DoAnThietKeViMach/Project/SoC/VERIFICATION/Driver/axi_driver.sv(63) @ 625000: uvm_test_top.env.agent.driver [DRV] Write Done: Addr=1000002c Data=1a4ab40a Prot=000
# [DRAM WRITE] addr=10000030 data=8c816384
# UVM_INFO C:/Documents/DoAnThietKeViMach/Project/SoC/VERIFICATION/Monitor/axi_monitor.sv(51) @ 665000: uvm_test_top.env.agent.monitor [MON_WR] Detected WRITE : Addr=10000030 Data=8c816384 Strb=1111 Prot=000 BResp=00
# UVM_INFO C:/Documents/DoAnThietKeViMach/Project/SoC/VERIFICATION/Driver/axi_driver.sv(63) @ 675000: uvm_test_top.env.agent.driver [DRV] Write Done: Addr=10000030 Data=8c816384 Prot=000
# [DRAM WRITE] addr=10000034 data=8be87b5e
# UVM_INFO C:/Documents/DoAnThietKeViMach/Project/SoC/VERIFICATION/Monitor/axi_monitor.sv(51) @ 715000: uvm_test_top.env.agent.monitor [MON_WR] Detected WRITE : Addr=10000034 Data=8be87b5e Strb=1111 Prot=000 BResp=00
# UVM_INFO C:/Documents/DoAnThietKeViMach/Project/SoC/VERIFICATION/Driver/axi_driver.sv(63) @ 725000: uvm_test_top.env.agent.driver [DRV] Write Done: Addr=10000034 Data=8be87b5e Prot=000
# [DRAM WRITE] addr=10000038 data=86b09047
# UVM_INFO C:/Documents/DoAnThietKeViMach/Project/SoC/VERIFICATION/Monitor/axi_monitor.sv(51) @ 765000: uvm_test_top.env.agent.monitor [MON_WR] Detected WRITE : Addr=10000038 Data=86b09047 Strb=1111 Prot=000 BResp=00
# UVM_INFO C:/Documents/DoAnThietKeViMach/Project/SoC/VERIFICATION/Driver/axi_driver.sv(63) @ 775000: uvm_test_top.env.agent.driver [DRV] Write Done: Addr=10000038 Data=86b09047 Prot=000
# [DRAM WRITE] addr=1000003c data=0f4a9715
# UVM_INFO C:/Documents/DoAnThietKeViMach/Project/SoC/VERIFICATION/Monitor/axi_monitor.sv(51) @ 815000: uvm_test_top.env.agent.monitor [MON_WR] Detected WRITE : Addr=1000003c Data=0f4a9715 Strb=1111 Prot=000 BResp=00
# UVM_INFO C:/Documents/DoAnThietKeViMach/Project/SoC/VERIFICATION/Driver/axi_driver.sv(63) @ 825000: uvm_test_top.env.agent.driver [DRV] Write Done: Addr=1000003c Data=0f4a9715 Prot=000
# [DRAM WRITE] addr=10000040 data=8a9d2667
# UVM_INFO C:/Documents/DoAnThietKeViMach/Project/SoC/VERIFICATION/Monitor/axi_monitor.sv(51) @ 865000: uvm_test_top.env.agent.monitor [MON_WR] Detected WRITE : Addr=10000040 Data=8a9d2667 Strb=1111 Prot=000 BResp=00
# UVM_INFO C:/Documents/DoAnThietKeViMach/Project/SoC/VERIFICATION/Driver/axi_driver.sv(63) @ 875000: uvm_test_top.env.agent.driver [DRV] Write Done: Addr=10000040 Data=8a9d2667 Prot=000
# [DRAM WRITE] addr=10000044 data=96b0cd7c
# UVM_INFO C:/Documents/DoAnThietKeViMach/Project/SoC/VERIFICATION/Monitor/axi_monitor.sv(51) @ 915000: uvm_test_top.env.agent.monitor [MON_WR] Detected WRITE : Addr=10000044 Data=96b0cd7c Strb=1111 Prot=000 BResp=00
# UVM_INFO C:/Documents/DoAnThietKeViMach/Project/SoC/VERIFICATION/Driver/axi_driver.sv(63) @ 925000: uvm_test_top.env.agent.driver [DRV] Write Done: Addr=10000044 Data=96b0cd7c Prot=000
# [DRAM WRITE] addr=10000048 data=46c54c7e
# UVM_INFO C:/Documents/DoAnThietKeViMach/Project/SoC/VERIFICATION/Monitor/axi_monitor.sv(51) @ 965000: uvm_test_top.env.agent.monitor [MON_WR] Detected WRITE : Addr=10000048 Data=46c54c7e Strb=1111 Prot=000 BResp=00
# UVM_INFO C:/Documents/DoAnThietKeViMach/Project/SoC/VERIFICATION/Driver/axi_driver.sv(63) @ 975000: uvm_test_top.env.agent.driver [DRV] Write Done: Addr=10000048 Data=46c54c7e Prot=000
# [DRAM WRITE] addr=1000004c data=0e022f10
# UVM_INFO C:/Documents/DoAnThietKeViMach/Project/SoC/VERIFICATION/Monitor/axi_monitor.sv(51) @ 1015000: uvm_test_top.env.agent.monitor [MON_WR] Detected WRITE : Addr=1000004c Data=0e022f10 Strb=1111 Prot=000 BResp=00
# UVM_INFO C:/Documents/DoAnThietKeViMach/Project/SoC/VERIFICATION/Driver/axi_driver.sv(63) @ 1025000: uvm_test_top.env.agent.driver [DRV] Write Done: Addr=1000004c Data=0e022f10 Prot=000
# [DRAM WRITE] addr=10000050 data=b7e417db
# UVM_INFO C:/Documents/DoAnThietKeViMach/Project/SoC/VERIFICATION/Monitor/axi_monitor.sv(51) @ 1065000: uvm_test_top.env.agent.monitor [MON_WR] Detected WRITE : Addr=10000050 Data=b7e417db Strb=1111 Prot=000 BResp=00
# UVM_INFO C:/Documents/DoAnThietKeViMach/Project/SoC/VERIFICATION/Driver/axi_driver.sv(63) @ 1075000: uvm_test_top.env.agent.driver [DRV] Write Done: Addr=10000050 Data=b7e417db Prot=000
# [DRAM WRITE] addr=10000054 data=b9aabe1d
# UVM_INFO C:/Documents/DoAnThietKeViMach/Project/SoC/VERIFICATION/Monitor/axi_monitor.sv(51) @ 1115000: uvm_test_top.env.agent.monitor [MON_WR] Detected WRITE : Addr=10000054 Data=b9aabe1d Strb=1111 Prot=000 BResp=00
# UVM_INFO C:/Documents/DoAnThietKeViMach/Project/SoC/VERIFICATION/Driver/axi_driver.sv(63) @ 1125000: uvm_test_top.env.agent.driver [DRV] Write Done: Addr=10000054 Data=b9aabe1d Prot=000
# [DRAM WRITE] addr=10000058 data=4580aef1
# UVM_INFO C:/Documents/DoAnThietKeViMach/Project/SoC/VERIFICATION/Monitor/axi_monitor.sv(51) @ 1165000: uvm_test_top.env.agent.monitor [MON_WR] Detected WRITE : Addr=10000058 Data=4580aef1 Strb=1111 Prot=000 BResp=00
# UVM_INFO C:/Documents/DoAnThietKeViMach/Project/SoC/VERIFICATION/Driver/axi_driver.sv(63) @ 1175000: uvm_test_top.env.agent.driver [DRV] Write Done: Addr=10000058 Data=4580aef1 Prot=000
# [DRAM WRITE] addr=1000005c data=688771c9
# UVM_INFO C:/Documents/DoAnThietKeViMach/Project/SoC/VERIFICATION/Monitor/axi_monitor.sv(51) @ 1215000: uvm_test_top.env.agent.monitor [MON_WR] Detected WRITE : Addr=1000005c Data=688771c9 Strb=1111 Prot=000 BResp=00
# UVM_INFO C:/Documents/DoAnThietKeViMach/Project/SoC/VERIFICATION/Driver/axi_driver.sv(63) @ 1225000: uvm_test_top.env.agent.driver [DRV] Write Done: Addr=1000005c Data=688771c9 Prot=000
# [DRAM WRITE] addr=10000060 data=9a1c58fd
# UVM_INFO C:/Documents/DoAnThietKeViMach/Project/SoC/VERIFICATION/Monitor/axi_monitor.sv(51) @ 1265000: uvm_test_top.env.agent.monitor [MON_WR] Detected WRITE : Addr=10000060 Data=9a1c58fd Strb=1111 Prot=000 BResp=00
# UVM_INFO C:/Documents/DoAnThietKeViMach/Project/SoC/VERIFICATION/Driver/axi_driver.sv(63) @ 1275000: uvm_test_top.env.agent.driver [DRV] Write Done: Addr=10000060 Data=9a1c58fd Prot=000
# [DRAM WRITE] addr=10000064 data=cedb504f
# UVM_INFO C:/Documents/DoAnThietKeViMach/Project/SoC/VERIFICATION/Monitor/axi_monitor.sv(51) @ 1315000: uvm_test_top.env.agent.monitor [MON_WR] Detected WRITE : Addr=10000064 Data=cedb504f Strb=1111 Prot=000 BResp=00
# UVM_INFO C:/Documents/DoAnThietKeViMach/Project/SoC/VERIFICATION/Driver/axi_driver.sv(63) @ 1325000: uvm_test_top.env.agent.driver [DRV] Write Done: Addr=10000064 Data=cedb504f Prot=000
# [DRAM WRITE] addr=10000068 data=1243e740
# UVM_INFO C:/Documents/DoAnThietKeViMach/Project/SoC/VERIFICATION/Monitor/axi_monitor.sv(51) @ 1365000: uvm_test_top.env.agent.monitor [MON_WR] Detected WRITE : Addr=10000068 Data=1243e740 Strb=1111 Prot=000 BResp=00
# UVM_INFO C:/Documents/DoAnThietKeViMach/Project/SoC/VERIFICATION/Driver/axi_driver.sv(63) @ 1375000: uvm_test_top.env.agent.driver [DRV] Write Done: Addr=10000068 Data=1243e740 Prot=000
# [DRAM WRITE] addr=1000006c data=fbffe9ec
# UVM_INFO C:/Documents/DoAnThietKeViMach/Project/SoC/VERIFICATION/Monitor/axi_monitor.sv(51) @ 1415000: uvm_test_top.env.agent.monitor [MON_WR] Detected WRITE : Addr=1000006c Data=fbffe9ec Strb=1111 Prot=000 BResp=00
# UVM_INFO C:/Documents/DoAnThietKeViMach/Project/SoC/VERIFICATION/Driver/axi_driver.sv(63) @ 1425000: uvm_test_top.env.agent.driver [DRV] Write Done: Addr=1000006c Data=fbffe9ec Prot=000
# [DRAM WRITE] addr=10000070 data=fe517290
# UVM_INFO C:/Documents/DoAnThietKeViMach/Project/SoC/VERIFICATION/Monitor/axi_monitor.sv(51) @ 1465000: uvm_test_top.env.agent.monitor [MON_WR] Detected WRITE : Addr=10000070 Data=fe517290 Strb=1111 Prot=000 BResp=00
# UVM_INFO C:/Documents/DoAnThietKeViMach/Project/SoC/VERIFICATION/Driver/axi_driver.sv(63) @ 1475000: uvm_test_top.env.agent.driver [DRV] Write Done: Addr=10000070 Data=fe517290 Prot=000
# [DRAM WRITE] addr=10000074 data=316ba330
# UVM_INFO C:/Documents/DoAnThietKeViMach/Project/SoC/VERIFICATION/Monitor/axi_monitor.sv(51) @ 1515000: uvm_test_top.env.agent.monitor [MON_WR] Detected WRITE : Addr=10000074 Data=316ba330 Strb=1111 Prot=000 BResp=00
# UVM_INFO C:/Documents/DoAnThietKeViMach/Project/SoC/VERIFICATION/Driver/axi_driver.sv(63) @ 1525000: uvm_test_top.env.agent.driver [DRV] Write Done: Addr=10000074 Data=316ba330 Prot=000
# [DRAM WRITE] addr=10000078 data=83321cbe
# UVM_INFO C:/Documents/DoAnThietKeViMach/Project/SoC/VERIFICATION/Monitor/axi_monitor.sv(51) @ 1565000: uvm_test_top.env.agent.monitor [MON_WR] Detected WRITE : Addr=10000078 Data=83321cbe Strb=1111 Prot=000 BResp=00
# UVM_INFO C:/Documents/DoAnThietKeViMach/Project/SoC/VERIFICATION/Driver/axi_driver.sv(63) @ 1575000: uvm_test_top.env.agent.driver [DRV] Write Done: Addr=10000078 Data=83321cbe Prot=000
# [DRAM WRITE] addr=1000007c data=921226ee
# UVM_INFO C:/Documents/DoAnThietKeViMach/Project/SoC/VERIFICATION/Monitor/axi_monitor.sv(51) @ 1615000: uvm_test_top.env.agent.monitor [MON_WR] Detected WRITE : Addr=1000007c Data=921226ee Strb=1111 Prot=000 BResp=00
# UVM_INFO C:/Documents/DoAnThietKeViMach/Project/SoC/VERIFICATION/Driver/axi_driver.sv(63) @ 1625000: uvm_test_top.env.agent.driver [DRV] Write Done: Addr=1000007c Data=921226ee Prot=000
# [DRAM WRITE] addr=10000080 data=20cd4d4e
# UVM_INFO C:/Documents/DoAnThietKeViMach/Project/SoC/VERIFICATION/Monitor/axi_monitor.sv(51) @ 1665000: uvm_test_top.env.agent.monitor [MON_WR] Detected WRITE : Addr=10000080 Data=20cd4d4e Strb=1111 Prot=000 BResp=00
# UVM_INFO C:/Documents/DoAnThietKeViMach/Project/SoC/VERIFICATION/Driver/axi_driver.sv(63) @ 1675000: uvm_test_top.env.agent.driver [DRV] Write Done: Addr=10000080 Data=20cd4d4e Prot=000
# [DRAM WRITE] addr=10000084 data=f833b5cd
# UVM_INFO C:/Documents/DoAnThietKeViMach/Project/SoC/VERIFICATION/Monitor/axi_monitor.sv(51) @ 1715000: uvm_test_top.env.agent.monitor [MON_WR] Detected WRITE : Addr=10000084 Data=f833b5cd Strb=1111 Prot=000 BResp=00
# UVM_INFO C:/Documents/DoAnThietKeViMach/Project/SoC/VERIFICATION/Driver/axi_driver.sv(63) @ 1725000: uvm_test_top.env.agent.driver [DRV] Write Done: Addr=10000084 Data=f833b5cd Prot=000
# [DRAM WRITE] addr=10000088 data=5799a8d9
# UVM_INFO C:/Documents/DoAnThietKeViMach/Project/SoC/VERIFICATION/Monitor/axi_monitor.sv(51) @ 1765000: uvm_test_top.env.agent.monitor [MON_WR] Detected WRITE : Addr=10000088 Data=5799a8d9 Strb=1111 Prot=000 BResp=00
# UVM_INFO C:/Documents/DoAnThietKeViMach/Project/SoC/VERIFICATION/Driver/axi_driver.sv(63) @ 1775000: uvm_test_top.env.agent.driver [DRV] Write Done: Addr=10000088 Data=5799a8d9 Prot=000
# [DRAM WRITE] addr=1000008c data=74e18353
# UVM_INFO C:/Documents/DoAnThietKeViMach/Project/SoC/VERIFICATION/Monitor/axi_monitor.sv(51) @ 1815000: uvm_test_top.env.agent.monitor [MON_WR] Detected WRITE : Addr=1000008c Data=74e18353 Strb=1111 Prot=000 BResp=00
# UVM_INFO C:/Documents/DoAnThietKeViMach/Project/SoC/VERIFICATION/Driver/axi_driver.sv(63) @ 1825000: uvm_test_top.env.agent.driver [DRV] Write Done: Addr=1000008c Data=74e18353 Prot=000
# [DRAM WRITE] addr=10000090 data=e9cefdba
# UVM_INFO C:/Documents/DoAnThietKeViMach/Project/SoC/VERIFICATION/Monitor/axi_monitor.sv(51) @ 1865000: uvm_test_top.env.agent.monitor [MON_WR] Detected WRITE : Addr=10000090 Data=e9cefdba Strb=1111 Prot=000 BResp=00
# UVM_INFO C:/Documents/DoAnThietKeViMach/Project/SoC/VERIFICATION/Driver/axi_driver.sv(63) @ 1875000: uvm_test_top.env.agent.driver [DRV] Write Done: Addr=10000090 Data=e9cefdba Prot=000
# [DRAM WRITE] addr=10000094 data=37402002
# UVM_INFO C:/Documents/DoAnThietKeViMach/Project/SoC/VERIFICATION/Monitor/axi_monitor.sv(51) @ 1915000: uvm_test_top.env.agent.monitor [MON_WR] Detected WRITE : Addr=10000094 Data=37402002 Strb=1111 Prot=000 BResp=00
# UVM_INFO C:/Documents/DoAnThietKeViMach/Project/SoC/VERIFICATION/Driver/axi_driver.sv(63) @ 1925000: uvm_test_top.env.agent.driver [DRV] Write Done: Addr=10000094 Data=37402002 Prot=000
# [DRAM WRITE] addr=10000098 data=303ae3fd
# UVM_INFO C:/Documents/DoAnThietKeViMach/Project/SoC/VERIFICATION/Monitor/axi_monitor.sv(51) @ 1965000: uvm_test_top.env.agent.monitor [MON_WR] Detected WRITE : Addr=10000098 Data=303ae3fd Strb=1111 Prot=000 BResp=00
# UVM_INFO C:/Documents/DoAnThietKeViMach/Project/SoC/VERIFICATION/Driver/axi_driver.sv(63) @ 1975000: uvm_test_top.env.agent.driver [DRV] Write Done: Addr=10000098 Data=303ae3fd Prot=000
# [DRAM WRITE] addr=1000009c data=a68713ef
# UVM_INFO C:/Documents/DoAnThietKeViMach/Project/SoC/VERIFICATION/Monitor/axi_monitor.sv(51) @ 2015000: uvm_test_top.env.agent.monitor [MON_WR] Detected WRITE : Addr=1000009c Data=a68713ef Strb=1111 Prot=000 BResp=00
# UVM_INFO C:/Documents/DoAnThietKeViMach/Project/SoC/VERIFICATION/Driver/axi_driver.sv(63) @ 2025000: uvm_test_top.env.agent.driver [DRV] Write Done: Addr=1000009c Data=a68713ef Prot=000
# [DRAM WRITE] addr=100000a0 data=01995297
# UVM_INFO C:/Documents/DoAnThietKeViMach/Project/SoC/VERIFICATION/Monitor/axi_monitor.sv(51) @ 2065000: uvm_test_top.env.agent.monitor [MON_WR] Detected WRITE : Addr=100000a0 Data=01995297 Strb=1111 Prot=000 BResp=00
# UVM_INFO C:/Documents/DoAnThietKeViMach/Project/SoC/VERIFICATION/Driver/axi_driver.sv(63) @ 2075000: uvm_test_top.env.agent.driver [DRV] Write Done: Addr=100000a0 Data=01995297 Prot=000
# [DRAM WRITE] addr=100000a4 data=5bb5497e
# UVM_INFO C:/Documents/DoAnThietKeViMach/Project/SoC/VERIFICATION/Monitor/axi_monitor.sv(51) @ 2115000: uvm_test_top.env.agent.monitor [MON_WR] Detected WRITE : Addr=100000a4 Data=5bb5497e Strb=1111 Prot=000 BResp=00
# UVM_INFO C:/Documents/DoAnThietKeViMach/Project/SoC/VERIFICATION/Driver/axi_driver.sv(63) @ 2125000: uvm_test_top.env.agent.driver [DRV] Write Done: Addr=100000a4 Data=5bb5497e Prot=000
# [DRAM WRITE] addr=100000a8 data=ed807c2c
# UVM_INFO C:/Documents/DoAnThietKeViMach/Project/SoC/VERIFICATION/Monitor/axi_monitor.sv(51) @ 2165000: uvm_test_top.env.agent.monitor [MON_WR] Detected WRITE : Addr=100000a8 Data=ed807c2c Strb=1111 Prot=000 BResp=00
# UVM_INFO C:/Documents/DoAnThietKeViMach/Project/SoC/VERIFICATION/Driver/axi_driver.sv(63) @ 2175000: uvm_test_top.env.agent.driver [DRV] Write Done: Addr=100000a8 Data=ed807c2c Prot=000
# [DRAM WRITE] addr=100000ac data=5265e2e1
# UVM_INFO C:/Documents/DoAnThietKeViMach/Project/SoC/VERIFICATION/Monitor/axi_monitor.sv(51) @ 2215000: uvm_test_top.env.agent.monitor [MON_WR] Detected WRITE : Addr=100000ac Data=5265e2e1 Strb=1111 Prot=000 BResp=00
# UVM_INFO C:/Documents/DoAnThietKeViMach/Project/SoC/VERIFICATION/Driver/axi_driver.sv(63) @ 2225000: uvm_test_top.env.agent.driver [DRV] Write Done: Addr=100000ac Data=5265e2e1 Prot=000
# [DRAM WRITE] addr=100000b0 data=fc4ccdee
# UVM_INFO C:/Documents/DoAnThietKeViMach/Project/SoC/VERIFICATION/Monitor/axi_monitor.sv(51) @ 2265000: uvm_test_top.env.agent.monitor [MON_WR] Detected WRITE : Addr=100000b0 Data=fc4ccdee Strb=1111 Prot=000 BResp=00
# UVM_INFO C:/Documents/DoAnThietKeViMach/Project/SoC/VERIFICATION/Driver/axi_driver.sv(63) @ 2275000: uvm_test_top.env.agent.driver [DRV] Write Done: Addr=100000b0 Data=fc4ccdee Prot=000
# [DRAM WRITE] addr=100000b4 data=33b07925
# UVM_INFO C:/Documents/DoAnThietKeViMach/Project/SoC/VERIFICATION/Monitor/axi_monitor.sv(51) @ 2315000: uvm_test_top.env.agent.monitor [MON_WR] Detected WRITE : Addr=100000b4 Data=33b07925 Strb=1111 Prot=000 BResp=00
# UVM_INFO C:/Documents/DoAnThietKeViMach/Project/SoC/VERIFICATION/Driver/axi_driver.sv(63) @ 2325000: uvm_test_top.env.agent.driver [DRV] Write Done: Addr=100000b4 Data=33b07925 Prot=000
# [DRAM WRITE] addr=100000b8 data=8e2416a5
# UVM_INFO C:/Documents/DoAnThietKeViMach/Project/SoC/VERIFICATION/Monitor/axi_monitor.sv(51) @ 2365000: uvm_test_top.env.agent.monitor [MON_WR] Detected WRITE : Addr=100000b8 Data=8e2416a5 Strb=1111 Prot=000 BResp=00
# UVM_INFO C:/Documents/DoAnThietKeViMach/Project/SoC/VERIFICATION/Driver/axi_driver.sv(63) @ 2375000: uvm_test_top.env.agent.driver [DRV] Write Done: Addr=100000b8 Data=8e2416a5 Prot=000
# [DRAM WRITE] addr=100000bc data=5760322d
# UVM_INFO C:/Documents/DoAnThietKeViMach/Project/SoC/VERIFICATION/Monitor/axi_monitor.sv(51) @ 2415000: uvm_test_top.env.agent.monitor [MON_WR] Detected WRITE : Addr=100000bc Data=5760322d Strb=1111 Prot=000 BResp=00
# UVM_INFO C:/Documents/DoAnThietKeViMach/Project/SoC/VERIFICATION/Driver/axi_driver.sv(63) @ 2425000: uvm_test_top.env.agent.driver [DRV] Write Done: Addr=100000bc Data=5760322d Prot=000
# [DRAM WRITE] addr=100000c0 data=b2fc4ca8
# UVM_INFO C:/Documents/DoAnThietKeViMach/Project/SoC/VERIFICATION/Monitor/axi_monitor.sv(51) @ 2465000: uvm_test_top.env.agent.monitor [MON_WR] Detected WRITE : Addr=100000c0 Data=b2fc4ca8 Strb=1111 Prot=000 BResp=00
# UVM_INFO C:/Documents/DoAnThietKeViMach/Project/SoC/VERIFICATION/Driver/axi_driver.sv(63) @ 2475000: uvm_test_top.env.agent.driver [DRV] Write Done: Addr=100000c0 Data=b2fc4ca8 Prot=000
# [DRAM WRITE] addr=100000c4 data=02fb78c2
# UVM_INFO C:/Documents/DoAnThietKeViMach/Project/SoC/VERIFICATION/Monitor/axi_monitor.sv(51) @ 2515000: uvm_test_top.env.agent.monitor [MON_WR] Detected WRITE : Addr=100000c4 Data=02fb78c2 Strb=1111 Prot=000 BResp=00
# UVM_INFO C:/Documents/DoAnThietKeViMach/Project/SoC/VERIFICATION/Driver/axi_driver.sv(63) @ 2525000: uvm_test_top.env.agent.driver [DRV] Write Done: Addr=100000c4 Data=02fb78c2 Prot=000
# [DRAM WRITE] addr=100000c8 data=ec2c9152
# UVM_INFO C:/Documents/DoAnThietKeViMach/Project/SoC/VERIFICATION/Monitor/axi_monitor.sv(51) @ 2565000: uvm_test_top.env.agent.monitor [MON_WR] Detected WRITE : Addr=100000c8 Data=ec2c9152 Strb=1111 Prot=000 BResp=00
# UVM_INFO C:/Documents/DoAnThietKeViMach/Project/SoC/VERIFICATION/Driver/axi_driver.sv(63) @ 2575000: uvm_test_top.env.agent.driver [DRV] Write Done: Addr=100000c8 Data=ec2c9152 Prot=000
# [DRAM WRITE] addr=100000cc data=91bc831f
# UVM_INFO C:/Documents/DoAnThietKeViMach/Project/SoC/VERIFICATION/Monitor/axi_monitor.sv(51) @ 2615000: uvm_test_top.env.agent.monitor [MON_WR] Detected WRITE : Addr=100000cc Data=91bc831f Strb=1111 Prot=000 BResp=00
# UVM_INFO C:/Documents/DoAnThietKeViMach/Project/SoC/VERIFICATION/Driver/axi_driver.sv(63) @ 2625000: uvm_test_top.env.agent.driver [DRV] Write Done: Addr=100000cc Data=91bc831f Prot=000
# [DRAM WRITE] addr=100000d0 data=b79dfd4d
# UVM_INFO C:/Documents/DoAnThietKeViMach/Project/SoC/VERIFICATION/Monitor/axi_monitor.sv(51) @ 2665000: uvm_test_top.env.agent.monitor [MON_WR] Detected WRITE : Addr=100000d0 Data=b79dfd4d Strb=1111 Prot=000 BResp=00
# UVM_INFO C:/Documents/DoAnThietKeViMach/Project/SoC/VERIFICATION/Driver/axi_driver.sv(63) @ 2675000: uvm_test_top.env.agent.driver [DRV] Write Done: Addr=100000d0 Data=b79dfd4d Prot=000
# [DRAM WRITE] addr=100000d4 data=105627a2
# UVM_INFO C:/Documents/DoAnThietKeViMach/Project/SoC/VERIFICATION/Monitor/axi_monitor.sv(51) @ 2715000: uvm_test_top.env.agent.monitor [MON_WR] Detected WRITE : Addr=100000d4 Data=105627a2 Strb=1111 Prot=000 BResp=00
# UVM_INFO C:/Documents/DoAnThietKeViMach/Project/SoC/VERIFICATION/Driver/axi_driver.sv(63) @ 2725000: uvm_test_top.env.agent.driver [DRV] Write Done: Addr=100000d4 Data=105627a2 Prot=000
# [DRAM WRITE] addr=100000d8 data=bbd659b8
# UVM_INFO C:/Documents/DoAnThietKeViMach/Project/SoC/VERIFICATION/Monitor/axi_monitor.sv(51) @ 2765000: uvm_test_top.env.agent.monitor [MON_WR] Detected WRITE : Addr=100000d8 Data=bbd659b8 Strb=1111 Prot=000 BResp=00
# UVM_INFO C:/Documents/DoAnThietKeViMach/Project/SoC/VERIFICATION/Driver/axi_driver.sv(63) @ 2775000: uvm_test_top.env.agent.driver [DRV] Write Done: Addr=100000d8 Data=bbd659b8 Prot=000
# [DRAM WRITE] addr=100000dc data=10a2bdf6
# UVM_INFO C:/Documents/DoAnThietKeViMach/Project/SoC/VERIFICATION/Monitor/axi_monitor.sv(51) @ 2815000: uvm_test_top.env.agent.monitor [MON_WR] Detected WRITE : Addr=100000dc Data=10a2bdf6 Strb=1111 Prot=000 BResp=00
# UVM_INFO C:/Documents/DoAnThietKeViMach/Project/SoC/VERIFICATION/Driver/axi_driver.sv(63) @ 2825000: uvm_test_top.env.agent.driver [DRV] Write Done: Addr=100000dc Data=10a2bdf6 Prot=000
# [DRAM WRITE] addr=100000e0 data=7f4de4fa
# UVM_INFO C:/Documents/DoAnThietKeViMach/Project/SoC/VERIFICATION/Monitor/axi_monitor.sv(51) @ 2865000: uvm_test_top.env.agent.monitor [MON_WR] Detected WRITE : Addr=100000e0 Data=7f4de4fa Strb=1111 Prot=000 BResp=00
# UVM_INFO C:/Documents/DoAnThietKeViMach/Project/SoC/VERIFICATION/Driver/axi_driver.sv(63) @ 2875000: uvm_test_top.env.agent.driver [DRV] Write Done: Addr=100000e0 Data=7f4de4fa Prot=000
# [DRAM WRITE] addr=100000e4 data=090fa1cd
# UVM_INFO C:/Documents/DoAnThietKeViMach/Project/SoC/VERIFICATION/Monitor/axi_monitor.sv(51) @ 2915000: uvm_test_top.env.agent.monitor [MON_WR] Detected WRITE : Addr=100000e4 Data=090fa1cd Strb=1111 Prot=000 BResp=00
# UVM_INFO C:/Documents/DoAnThietKeViMach/Project/SoC/VERIFICATION/Driver/axi_driver.sv(63) @ 2925000: uvm_test_top.env.agent.driver [DRV] Write Done: Addr=100000e4 Data=090fa1cd Prot=000
# [DRAM WRITE] addr=100000e8 data=36eac040
# UVM_INFO C:/Documents/DoAnThietKeViMach/Project/SoC/VERIFICATION/Monitor/axi_monitor.sv(51) @ 2965000: uvm_test_top.env.agent.monitor [MON_WR] Detected WRITE : Addr=100000e8 Data=36eac040 Strb=1111 Prot=000 BResp=00
# UVM_INFO C:/Documents/DoAnThietKeViMach/Project/SoC/VERIFICATION/Driver/axi_driver.sv(63) @ 2975000: uvm_test_top.env.agent.driver [DRV] Write Done: Addr=100000e8 Data=36eac040 Prot=000
# [DRAM WRITE] addr=100000ec data=1d34b445
# UVM_INFO C:/Documents/DoAnThietKeViMach/Project/SoC/VERIFICATION/Monitor/axi_monitor.sv(51) @ 3015000: uvm_test_top.env.agent.monitor [MON_WR] Detected WRITE : Addr=100000ec Data=1d34b445 Strb=1111 Prot=000 BResp=00
# UVM_INFO C:/Documents/DoAnThietKeViMach/Project/SoC/VERIFICATION/Driver/axi_driver.sv(63) @ 3025000: uvm_test_top.env.agent.driver [DRV] Write Done: Addr=100000ec Data=1d34b445 Prot=000
# [DRAM WRITE] addr=100000f0 data=9133ea3e
# UVM_INFO C:/Documents/DoAnThietKeViMach/Project/SoC/VERIFICATION/Monitor/axi_monitor.sv(51) @ 3065000: uvm_test_top.env.agent.monitor [MON_WR] Detected WRITE : Addr=100000f0 Data=9133ea3e Strb=1111 Prot=000 BResp=00
# UVM_INFO C:/Documents/DoAnThietKeViMach/Project/SoC/VERIFICATION/Driver/axi_driver.sv(63) @ 3075000: uvm_test_top.env.agent.driver [DRV] Write Done: Addr=100000f0 Data=9133ea3e Prot=000
# [DRAM WRITE] addr=100000f4 data=ffdc45ae
# UVM_INFO C:/Documents/DoAnThietKeViMach/Project/SoC/VERIFICATION/Monitor/axi_monitor.sv(51) @ 3115000: uvm_test_top.env.agent.monitor [MON_WR] Detected WRITE : Addr=100000f4 Data=ffdc45ae Strb=1111 Prot=000 BResp=00
# UVM_INFO C:/Documents/DoAnThietKeViMach/Project/SoC/VERIFICATION/Driver/axi_driver.sv(63) @ 3125000: uvm_test_top.env.agent.driver [DRV] Write Done: Addr=100000f4 Data=ffdc45ae Prot=000
# [DRAM WRITE] addr=100000f8 data=3ba483e4
# UVM_INFO C:/Documents/DoAnThietKeViMach/Project/SoC/VERIFICATION/Monitor/axi_monitor.sv(51) @ 3165000: uvm_test_top.env.agent.monitor [MON_WR] Detected WRITE : Addr=100000f8 Data=3ba483e4 Strb=1111 Prot=000 BResp=00
# UVM_INFO C:/Documents/DoAnThietKeViMach/Project/SoC/VERIFICATION/Driver/axi_driver.sv(63) @ 3175000: uvm_test_top.env.agent.driver [DRV] Write Done: Addr=100000f8 Data=3ba483e4 Prot=000
# [DRAM WRITE] addr=100000fc data=e41b3eaf
# UVM_INFO C:/Documents/DoAnThietKeViMach/Project/SoC/VERIFICATION/Monitor/axi_monitor.sv(51) @ 3215000: uvm_test_top.env.agent.monitor [MON_WR] Detected WRITE : Addr=100000fc Data=e41b3eaf Strb=1111 Prot=000 BResp=00
# UVM_INFO C:/Documents/DoAnThietKeViMach/Project/SoC/VERIFICATION/Driver/axi_driver.sv(63) @ 3225000: uvm_test_top.env.agent.driver [DRV] Write Done: Addr=100000fc Data=e41b3eaf Prot=000
# [DRAM WRITE] addr=10000100 data=e7c5fb22
# UVM_INFO C:/Documents/DoAnThietKeViMach/Project/SoC/VERIFICATION/Monitor/axi_monitor.sv(51) @ 3265000: uvm_test_top.env.agent.monitor [MON_WR] Detected WRITE : Addr=10000100 Data=e7c5fb22 Strb=1111 Prot=000 BResp=00
# UVM_INFO C:/Documents/DoAnThietKeViMach/Project/SoC/VERIFICATION/Driver/axi_driver.sv(63) @ 3275000: uvm_test_top.env.agent.driver [DRV] Write Done: Addr=10000100 Data=e7c5fb22 Prot=000
# [DRAM WRITE] addr=10000104 data=91737c8e
# UVM_INFO C:/Documents/DoAnThietKeViMach/Project/SoC/VERIFICATION/Monitor/axi_monitor.sv(51) @ 3315000: uvm_test_top.env.agent.monitor [MON_WR] Detected WRITE : Addr=10000104 Data=91737c8e Strb=1111 Prot=000 BResp=00
# UVM_INFO C:/Documents/DoAnThietKeViMach/Project/SoC/VERIFICATION/Driver/axi_driver.sv(63) @ 3325000: uvm_test_top.env.agent.driver [DRV] Write Done: Addr=10000104 Data=91737c8e Prot=000
# [DRAM WRITE] addr=10000108 data=fd8be2df
# UVM_INFO C:/Documents/DoAnThietKeViMach/Project/SoC/VERIFICATION/Monitor/axi_monitor.sv(51) @ 3365000: uvm_test_top.env.agent.monitor [MON_WR] Detected WRITE : Addr=10000108 Data=fd8be2df Strb=1111 Prot=000 BResp=00
# UVM_INFO C:/Documents/DoAnThietKeViMach/Project/SoC/VERIFICATION/Driver/axi_driver.sv(63) @ 3375000: uvm_test_top.env.agent.driver [DRV] Write Done: Addr=10000108 Data=fd8be2df Prot=000
# [DRAM WRITE] addr=1000010c data=3445a976
# UVM_INFO C:/Documents/DoAnThietKeViMach/Project/SoC/VERIFICATION/Monitor/axi_monitor.sv(51) @ 3415000: uvm_test_top.env.agent.monitor [MON_WR] Detected WRITE : Addr=1000010c Data=3445a976 Strb=1111 Prot=000 BResp=00
# UVM_INFO C:/Documents/DoAnThietKeViMach/Project/SoC/VERIFICATION/Driver/axi_driver.sv(63) @ 3425000: uvm_test_top.env.agent.driver [DRV] Write Done: Addr=1000010c Data=3445a976 Prot=000
# [DRAM WRITE] addr=10000110 data=cdfd463a
# UVM_INFO C:/Documents/DoAnThietKeViMach/Project/SoC/VERIFICATION/Monitor/axi_monitor.sv(51) @ 3465000: uvm_test_top.env.agent.monitor [MON_WR] Detected WRITE : Addr=10000110 Data=cdfd463a Strb=1111 Prot=000 BResp=00
# UVM_INFO C:/Documents/DoAnThietKeViMach/Project/SoC/VERIFICATION/Driver/axi_driver.sv(63) @ 3475000: uvm_test_top.env.agent.driver [DRV] Write Done: Addr=10000110 Data=cdfd463a Prot=000
# [DRAM WRITE] addr=10000114 data=526ba6fa
# UVM_INFO C:/Documents/DoAnThietKeViMach/Project/SoC/VERIFICATION/Monitor/axi_monitor.sv(51) @ 3515000: uvm_test_top.env.agent.monitor [MON_WR] Detected WRITE : Addr=10000114 Data=526ba6fa Strb=1111 Prot=000 BResp=00
# UVM_INFO C:/Documents/DoAnThietKeViMach/Project/SoC/VERIFICATION/Driver/axi_driver.sv(63) @ 3525000: uvm_test_top.env.agent.driver [DRV] Write Done: Addr=10000114 Data=526ba6fa Prot=000
# [DRAM WRITE] addr=10000118 data=a4464fdb
# UVM_INFO C:/Documents/DoAnThietKeViMach/Project/SoC/VERIFICATION/Monitor/axi_monitor.sv(51) @ 3565000: uvm_test_top.env.agent.monitor [MON_WR] Detected WRITE : Addr=10000118 Data=a4464fdb Strb=1111 Prot=000 BResp=00
# UVM_INFO C:/Documents/DoAnThietKeViMach/Project/SoC/VERIFICATION/Driver/axi_driver.sv(63) @ 3575000: uvm_test_top.env.agent.driver [DRV] Write Done: Addr=10000118 Data=a4464fdb Prot=000
# [DRAM WRITE] addr=1000011c data=7ca2ee49
# UVM_INFO C:/Documents/DoAnThietKeViMach/Project/SoC/VERIFICATION/Monitor/axi_monitor.sv(51) @ 3615000: uvm_test_top.env.agent.monitor [MON_WR] Detected WRITE : Addr=1000011c Data=7ca2ee49 Strb=1111 Prot=000 BResp=00
# UVM_INFO C:/Documents/DoAnThietKeViMach/Project/SoC/VERIFICATION/Driver/axi_driver.sv(63) @ 3625000: uvm_test_top.env.agent.driver [DRV] Write Done: Addr=1000011c Data=7ca2ee49 Prot=000
# [DRAM WRITE] addr=10000120 data=6758fd9c
# UVM_INFO C:/Documents/DoAnThietKeViMach/Project/SoC/VERIFICATION/Monitor/axi_monitor.sv(51) @ 3665000: uvm_test_top.env.agent.monitor [MON_WR] Detected WRITE : Addr=10000120 Data=6758fd9c Strb=1111 Prot=000 BResp=00
# UVM_INFO C:/Documents/DoAnThietKeViMach/Project/SoC/VERIFICATION/Driver/axi_driver.sv(63) @ 3675000: uvm_test_top.env.agent.driver [DRV] Write Done: Addr=10000120 Data=6758fd9c Prot=000
# [DRAM WRITE] addr=10000124 data=8b9cd1b8
# UVM_INFO C:/Documents/DoAnThietKeViMach/Project/SoC/VERIFICATION/Monitor/axi_monitor.sv(51) @ 3715000: uvm_test_top.env.agent.monitor [MON_WR] Detected WRITE : Addr=10000124 Data=8b9cd1b8 Strb=1111 Prot=000 BResp=00
# UVM_INFO C:/Documents/DoAnThietKeViMach/Project/SoC/VERIFICATION/Driver/axi_driver.sv(63) @ 3725000: uvm_test_top.env.agent.driver [DRV] Write Done: Addr=10000124 Data=8b9cd1b8 Prot=000
# [DRAM WRITE] addr=10000128 data=ad35baa8
# UVM_INFO C:/Documents/DoAnThietKeViMach/Project/SoC/VERIFICATION/Monitor/axi_monitor.sv(51) @ 3765000: uvm_test_top.env.agent.monitor [MON_WR] Detected WRITE : Addr=10000128 Data=ad35baa8 Strb=1111 Prot=000 BResp=00
# UVM_INFO C:/Documents/DoAnThietKeViMach/Project/SoC/VERIFICATION/Driver/axi_driver.sv(63) @ 3775000: uvm_test_top.env.agent.driver [DRV] Write Done: Addr=10000128 Data=ad35baa8 Prot=000
# [DRAM WRITE] addr=1000012c data=05355c17
# UVM_INFO C:/Documents/DoAnThietKeViMach/Project/SoC/VERIFICATION/Monitor/axi_monitor.sv(51) @ 3815000: uvm_test_top.env.agent.monitor [MON_WR] Detected WRITE : Addr=1000012c Data=05355c17 Strb=1111 Prot=000 BResp=00
# UVM_INFO C:/Documents/DoAnThietKeViMach/Project/SoC/VERIFICATION/Driver/axi_driver.sv(63) @ 3825000: uvm_test_top.env.agent.driver [DRV] Write Done: Addr=1000012c Data=05355c17 Prot=000
# [DRAM WRITE] addr=10000130 data=165db668
# UVM_INFO C:/Documents/DoAnThietKeViMach/Project/SoC/VERIFICATION/Monitor/axi_monitor.sv(51) @ 3865000: uvm_test_top.env.agent.monitor [MON_WR] Detected WRITE : Addr=10000130 Data=165db668 Strb=1111 Prot=000 BResp=00
# UVM_INFO C:/Documents/DoAnThietKeViMach/Project/SoC/VERIFICATION/Driver/axi_driver.sv(63) @ 3875000: uvm_test_top.env.agent.driver [DRV] Write Done: Addr=10000130 Data=165db668 Prot=000
# [DRAM WRITE] addr=10000134 data=67c2cc3e
# UVM_INFO C:/Documents/DoAnThietKeViMach/Project/SoC/VERIFICATION/Monitor/axi_monitor.sv(51) @ 3915000: uvm_test_top.env.agent.monitor [MON_WR] Detected WRITE : Addr=10000134 Data=67c2cc3e Strb=1111 Prot=000 BResp=00
# UVM_INFO C:/Documents/DoAnThietKeViMach/Project/SoC/VERIFICATION/Driver/axi_driver.sv(63) @ 3925000: uvm_test_top.env.agent.driver [DRV] Write Done: Addr=10000134 Data=67c2cc3e Prot=000
# [DRAM WRITE] addr=10000138 data=e033b483
# UVM_INFO C:/Documents/DoAnThietKeViMach/Project/SoC/VERIFICATION/Monitor/axi_monitor.sv(51) @ 3965000: uvm_test_top.env.agent.monitor [MON_WR] Detected WRITE : Addr=10000138 Data=e033b483 Strb=1111 Prot=000 BResp=00
# UVM_INFO C:/Documents/DoAnThietKeViMach/Project/SoC/VERIFICATION/Driver/axi_driver.sv(63) @ 3975000: uvm_test_top.env.agent.driver [DRV] Write Done: Addr=10000138 Data=e033b483 Prot=000
# [DRAM WRITE] addr=1000013c data=32135803
# UVM_INFO C:/Documents/DoAnThietKeViMach/Project/SoC/VERIFICATION/Monitor/axi_monitor.sv(51) @ 4015000: uvm_test_top.env.agent.monitor [MON_WR] Detected WRITE : Addr=1000013c Data=32135803 Strb=1111 Prot=000 BResp=00
# UVM_INFO C:/Documents/DoAnThietKeViMach/Project/SoC/VERIFICATION/Driver/axi_driver.sv(63) @ 4025000: uvm_test_top.env.agent.driver [DRV] Write Done: Addr=1000013c Data=32135803 Prot=000
# [DRAM WRITE] addr=10000140 data=45cf8b52
# UVM_INFO C:/Documents/DoAnThietKeViMach/Project/SoC/VERIFICATION/Monitor/axi_monitor.sv(51) @ 4065000: uvm_test_top.env.agent.monitor [MON_WR] Detected WRITE : Addr=10000140 Data=45cf8b52 Strb=1111 Prot=000 BResp=00
# UVM_INFO C:/Documents/DoAnThietKeViMach/Project/SoC/VERIFICATION/Driver/axi_driver.sv(63) @ 4075000: uvm_test_top.env.agent.driver [DRV] Write Done: Addr=10000140 Data=45cf8b52 Prot=000
# [DRAM WRITE] addr=10000144 data=cede0798
# UVM_INFO C:/Documents/DoAnThietKeViMach/Project/SoC/VERIFICATION/Monitor/axi_monitor.sv(51) @ 4115000: uvm_test_top.env.agent.monitor [MON_WR] Detected WRITE : Addr=10000144 Data=cede0798 Strb=1111 Prot=000 BResp=00
# UVM_INFO C:/Documents/DoAnThietKeViMach/Project/SoC/VERIFICATION/Driver/axi_driver.sv(63) @ 4125000: uvm_test_top.env.agent.driver [DRV] Write Done: Addr=10000144 Data=cede0798 Prot=000
# [DRAM WRITE] addr=10000148 data=9788ee03
# UVM_INFO C:/Documents/DoAnThietKeViMach/Project/SoC/VERIFICATION/Monitor/axi_monitor.sv(51) @ 4165000: uvm_test_top.env.agent.monitor [MON_WR] Detected WRITE : Addr=10000148 Data=9788ee03 Strb=1111 Prot=000 BResp=00
# UVM_INFO C:/Documents/DoAnThietKeViMach/Project/SoC/VERIFICATION/Driver/axi_driver.sv(63) @ 4175000: uvm_test_top.env.agent.driver [DRV] Write Done: Addr=10000148 Data=9788ee03 Prot=000
# [DRAM WRITE] addr=1000014c data=b7987d08
# UVM_INFO C:/Documents/DoAnThietKeViMach/Project/SoC/VERIFICATION/Monitor/axi_monitor.sv(51) @ 4215000: uvm_test_top.env.agent.monitor [MON_WR] Detected WRITE : Addr=1000014c Data=b7987d08 Strb=1111 Prot=000 BResp=00
# UVM_INFO C:/Documents/DoAnThietKeViMach/Project/SoC/VERIFICATION/Driver/axi_driver.sv(63) @ 4225000: uvm_test_top.env.agent.driver [DRV] Write Done: Addr=1000014c Data=b7987d08 Prot=000
# [DRAM WRITE] addr=10000150 data=e924b9d8
# UVM_INFO C:/Documents/DoAnThietKeViMach/Project/SoC/VERIFICATION/Monitor/axi_monitor.sv(51) @ 4265000: uvm_test_top.env.agent.monitor [MON_WR] Detected WRITE : Addr=10000150 Data=e924b9d8 Strb=1111 Prot=000 BResp=00
# UVM_INFO C:/Documents/DoAnThietKeViMach/Project/SoC/VERIFICATION/Driver/axi_driver.sv(63) @ 4275000: uvm_test_top.env.agent.driver [DRV] Write Done: Addr=10000150 Data=e924b9d8 Prot=000
# [DRAM WRITE] addr=10000154 data=d63b436c
# UVM_INFO C:/Documents/DoAnThietKeViMach/Project/SoC/VERIFICATION/Monitor/axi_monitor.sv(51) @ 4315000: uvm_test_top.env.agent.monitor [MON_WR] Detected WRITE : Addr=10000154 Data=d63b436c Strb=1111 Prot=000 BResp=00
# UVM_INFO C:/Documents/DoAnThietKeViMach/Project/SoC/VERIFICATION/Driver/axi_driver.sv(63) @ 4325000: uvm_test_top.env.agent.driver [DRV] Write Done: Addr=10000154 Data=d63b436c Prot=000
# [DRAM WRITE] addr=10000158 data=b3764e8f
# UVM_INFO C:/Documents/DoAnThietKeViMach/Project/SoC/VERIFICATION/Monitor/axi_monitor.sv(51) @ 4365000: uvm_test_top.env.agent.monitor [MON_WR] Detected WRITE : Addr=10000158 Data=b3764e8f Strb=1111 Prot=000 BResp=00
# UVM_INFO C:/Documents/DoAnThietKeViMach/Project/SoC/VERIFICATION/Driver/axi_driver.sv(63) @ 4375000: uvm_test_top.env.agent.driver [DRV] Write Done: Addr=10000158 Data=b3764e8f Prot=000
# [DRAM WRITE] addr=1000015c data=a21f1c5e
# UVM_INFO C:/Documents/DoAnThietKeViMach/Project/SoC/VERIFICATION/Monitor/axi_monitor.sv(51) @ 4415000: uvm_test_top.env.agent.monitor [MON_WR] Detected WRITE : Addr=1000015c Data=a21f1c5e Strb=1111 Prot=000 BResp=00
# UVM_INFO C:/Documents/DoAnThietKeViMach/Project/SoC/VERIFICATION/Driver/axi_driver.sv(63) @ 4425000: uvm_test_top.env.agent.driver [DRV] Write Done: Addr=1000015c Data=a21f1c5e Prot=000
# [DRAM WRITE] addr=10000160 data=51586615
# UVM_INFO C:/Documents/DoAnThietKeViMach/Project/SoC/VERIFICATION/Monitor/axi_monitor.sv(51) @ 4465000: uvm_test_top.env.agent.monitor [MON_WR] Detected WRITE : Addr=10000160 Data=51586615 Strb=1111 Prot=000 BResp=00
# UVM_INFO C:/Documents/DoAnThietKeViMach/Project/SoC/VERIFICATION/Driver/axi_driver.sv(63) @ 4475000: uvm_test_top.env.agent.driver [DRV] Write Done: Addr=10000160 Data=51586615 Prot=000
# [DRAM WRITE] addr=10000164 data=06891899
# UVM_INFO C:/Documents/DoAnThietKeViMach/Project/SoC/VERIFICATION/Monitor/axi_monitor.sv(51) @ 4515000: uvm_test_top.env.agent.monitor [MON_WR] Detected WRITE : Addr=10000164 Data=06891899 Strb=1111 Prot=000 BResp=00
# UVM_INFO C:/Documents/DoAnThietKeViMach/Project/SoC/VERIFICATION/Driver/axi_driver.sv(63) @ 4525000: uvm_test_top.env.agent.driver [DRV] Write Done: Addr=10000164 Data=06891899 Prot=000
# [DRAM WRITE] addr=10000168 data=61b87984
# UVM_INFO C:/Documents/DoAnThietKeViMach/Project/SoC/VERIFICATION/Monitor/axi_monitor.sv(51) @ 4565000: uvm_test_top.env.agent.monitor [MON_WR] Detected WRITE : Addr=10000168 Data=61b87984 Strb=1111 Prot=000 BResp=00
# UVM_INFO C:/Documents/DoAnThietKeViMach/Project/SoC/VERIFICATION/Driver/axi_driver.sv(63) @ 4575000: uvm_test_top.env.agent.driver [DRV] Write Done: Addr=10000168 Data=61b87984 Prot=000
# [DRAM WRITE] addr=1000016c data=4c029550
# UVM_INFO C:/Documents/DoAnThietKeViMach/Project/SoC/VERIFICATION/Monitor/axi_monitor.sv(51) @ 4615000: uvm_test_top.env.agent.monitor [MON_WR] Detected WRITE : Addr=1000016c Data=4c029550 Strb=1111 Prot=000 BResp=00
# UVM_INFO C:/Documents/DoAnThietKeViMach/Project/SoC/VERIFICATION/Driver/axi_driver.sv(63) @ 4625000: uvm_test_top.env.agent.driver [DRV] Write Done: Addr=1000016c Data=4c029550 Prot=000
# [DRAM WRITE] addr=10000170 data=800674c4
# UVM_INFO C:/Documents/DoAnThietKeViMach/Project/SoC/VERIFICATION/Monitor/axi_monitor.sv(51) @ 4665000: uvm_test_top.env.agent.monitor [MON_WR] Detected WRITE : Addr=10000170 Data=800674c4 Strb=1111 Prot=000 BResp=00
# UVM_INFO C:/Documents/DoAnThietKeViMach/Project/SoC/VERIFICATION/Driver/axi_driver.sv(63) @ 4675000: uvm_test_top.env.agent.driver [DRV] Write Done: Addr=10000170 Data=800674c4 Prot=000
# [DRAM WRITE] addr=10000174 data=94486ff6
# UVM_INFO C:/Documents/DoAnThietKeViMach/Project/SoC/VERIFICATION/Monitor/axi_monitor.sv(51) @ 4715000: uvm_test_top.env.agent.monitor [MON_WR] Detected WRITE : Addr=10000174 Data=94486ff6 Strb=1111 Prot=000 BResp=00
# UVM_INFO C:/Documents/DoAnThietKeViMach/Project/SoC/VERIFICATION/Driver/axi_driver.sv(63) @ 4725000: uvm_test_top.env.agent.driver [DRV] Write Done: Addr=10000174 Data=94486ff6 Prot=000
# [DRAM WRITE] addr=10000178 data=fc7efb33
# UVM_INFO C:/Documents/DoAnThietKeViMach/Project/SoC/VERIFICATION/Monitor/axi_monitor.sv(51) @ 4765000: uvm_test_top.env.agent.monitor [MON_WR] Detected WRITE : Addr=10000178 Data=fc7efb33 Strb=1111 Prot=000 BResp=00
# UVM_INFO C:/Documents/DoAnThietKeViMach/Project/SoC/VERIFICATION/Driver/axi_driver.sv(63) @ 4775000: uvm_test_top.env.agent.driver [DRV] Write Done: Addr=10000178 Data=fc7efb33 Prot=000
# [DRAM WRITE] addr=1000017c data=cd45bda4
# UVM_INFO C:/Documents/DoAnThietKeViMach/Project/SoC/VERIFICATION/Monitor/axi_monitor.sv(51) @ 4815000: uvm_test_top.env.agent.monitor [MON_WR] Detected WRITE : Addr=1000017c Data=cd45bda4 Strb=1111 Prot=000 BResp=00
# UVM_INFO C:/Documents/DoAnThietKeViMach/Project/SoC/VERIFICATION/Driver/axi_driver.sv(63) @ 4825000: uvm_test_top.env.agent.driver [DRV] Write Done: Addr=1000017c Data=cd45bda4 Prot=000
# [DRAM WRITE] addr=10000180 data=0e74ee66
# UVM_INFO C:/Documents/DoAnThietKeViMach/Project/SoC/VERIFICATION/Monitor/axi_monitor.sv(51) @ 4865000: uvm_test_top.env.agent.monitor [MON_WR] Detected WRITE : Addr=10000180 Data=0e74ee66 Strb=1111 Prot=000 BResp=00
# UVM_INFO C:/Documents/DoAnThietKeViMach/Project/SoC/VERIFICATION/Driver/axi_driver.sv(63) @ 4875000: uvm_test_top.env.agent.driver [DRV] Write Done: Addr=10000180 Data=0e74ee66 Prot=000
# [DRAM WRITE] addr=10000184 data=3e580c62
# UVM_INFO C:/Documents/DoAnThietKeViMach/Project/SoC/VERIFICATION/Monitor/axi_monitor.sv(51) @ 4915000: uvm_test_top.env.agent.monitor [MON_WR] Detected WRITE : Addr=10000184 Data=3e580c62 Strb=1111 Prot=000 BResp=00
# UVM_INFO C:/Documents/DoAnThietKeViMach/Project/SoC/VERIFICATION/Driver/axi_driver.sv(63) @ 4925000: uvm_test_top.env.agent.driver [DRV] Write Done: Addr=10000184 Data=3e580c62 Prot=000
# [DRAM WRITE] addr=10000188 data=f623659b
# UVM_INFO C:/Documents/DoAnThietKeViMach/Project/SoC/VERIFICATION/Monitor/axi_monitor.sv(51) @ 4965000: uvm_test_top.env.agent.monitor [MON_WR] Detected WRITE : Addr=10000188 Data=f623659b Strb=1111 Prot=000 BResp=00
# UVM_INFO C:/Documents/DoAnThietKeViMach/Project/SoC/VERIFICATION/Driver/axi_driver.sv(63) @ 4975000: uvm_test_top.env.agent.driver [DRV] Write Done: Addr=10000188 Data=f623659b Prot=000
# [DRAM WRITE] addr=1000018c data=c9339fc1
# UVM_INFO C:/Documents/DoAnThietKeViMach/Project/SoC/VERIFICATION/Monitor/axi_monitor.sv(51) @ 5015000: uvm_test_top.env.agent.monitor [MON_WR] Detected WRITE : Addr=1000018c Data=c9339fc1 Strb=1111 Prot=000 BResp=00
# UVM_INFO C:/Documents/DoAnThietKeViMach/Project/SoC/VERIFICATION/Driver/axi_driver.sv(63) @ 5025000: uvm_test_top.env.agent.driver [DRV] Write Done: Addr=1000018c Data=c9339fc1 Prot=000
# [DRAM WRITE] addr=10000190 data=1e10b754
# UVM_INFO C:/Documents/DoAnThietKeViMach/Project/SoC/VERIFICATION/Monitor/axi_monitor.sv(51) @ 5065000: uvm_test_top.env.agent.monitor [MON_WR] Detected WRITE : Addr=10000190 Data=1e10b754 Strb=1111 Prot=000 BResp=00
# UVM_INFO C:/Documents/DoAnThietKeViMach/Project/SoC/VERIFICATION/Driver/axi_driver.sv(63) @ 5075000: uvm_test_top.env.agent.driver [DRV] Write Done: Addr=10000190 Data=1e10b754 Prot=000
# [DRAM WRITE] addr=10000194 data=198b66c1
# UVM_INFO C:/Documents/DoAnThietKeViMach/Project/SoC/VERIFICATION/Monitor/axi_monitor.sv(51) @ 5115000: uvm_test_top.env.agent.monitor [MON_WR] Detected WRITE : Addr=10000194 Data=198b66c1 Strb=1111 Prot=000 BResp=00
# UVM_INFO C:/Documents/DoAnThietKeViMach/Project/SoC/VERIFICATION/Driver/axi_driver.sv(63) @ 5125000: uvm_test_top.env.agent.driver [DRV] Write Done: Addr=10000194 Data=198b66c1 Prot=000
# [DRAM WRITE] addr=10000198 data=817a8ca1
# UVM_INFO C:/Documents/DoAnThietKeViMach/Project/SoC/VERIFICATION/Monitor/axi_monitor.sv(51) @ 5165000: uvm_test_top.env.agent.monitor [MON_WR] Detected WRITE : Addr=10000198 Data=817a8ca1 Strb=1111 Prot=000 BResp=00
# UVM_INFO C:/Documents/DoAnThietKeViMach/Project/SoC/VERIFICATION/Driver/axi_driver.sv(63) @ 5175000: uvm_test_top.env.agent.driver [DRV] Write Done: Addr=10000198 Data=817a8ca1 Prot=000
# [DRAM WRITE] addr=1000019c data=8fb214a6
# UVM_INFO C:/Documents/DoAnThietKeViMach/Project/SoC/VERIFICATION/Monitor/axi_monitor.sv(51) @ 5215000: uvm_test_top.env.agent.monitor [MON_WR] Detected WRITE : Addr=1000019c Data=8fb214a6 Strb=1111 Prot=000 BResp=00
# UVM_INFO C:/Documents/DoAnThietKeViMach/Project/SoC/VERIFICATION/Driver/axi_driver.sv(63) @ 5225000: uvm_test_top.env.agent.driver [DRV] Write Done: Addr=1000019c Data=8fb214a6 Prot=000
# [DRAM WRITE] addr=100001a0 data=57fc1ca3
# UVM_INFO C:/Documents/DoAnThietKeViMach/Project/SoC/VERIFICATION/Monitor/axi_monitor.sv(51) @ 5265000: uvm_test_top.env.agent.monitor [MON_WR] Detected WRITE : Addr=100001a0 Data=57fc1ca3 Strb=1111 Prot=000 BResp=00
# UVM_INFO C:/Documents/DoAnThietKeViMach/Project/SoC/VERIFICATION/Driver/axi_driver.sv(63) @ 5275000: uvm_test_top.env.agent.driver [DRV] Write Done: Addr=100001a0 Data=57fc1ca3 Prot=000
# [DRAM WRITE] addr=100001a4 data=15931c5e
# UVM_INFO C:/Documents/DoAnThietKeViMach/Project/SoC/VERIFICATION/Monitor/axi_monitor.sv(51) @ 5315000: uvm_test_top.env.agent.monitor [MON_WR] Detected WRITE : Addr=100001a4 Data=15931c5e Strb=1111 Prot=000 BResp=00
# UVM_INFO C:/Documents/DoAnThietKeViMach/Project/SoC/VERIFICATION/Driver/axi_driver.sv(63) @ 5325000: uvm_test_top.env.agent.driver [DRV] Write Done: Addr=100001a4 Data=15931c5e Prot=000
# [DRAM WRITE] addr=100001a8 data=d0da4d01
# UVM_INFO C:/Documents/DoAnThietKeViMach/Project/SoC/VERIFICATION/Monitor/axi_monitor.sv(51) @ 5365000: uvm_test_top.env.agent.monitor [MON_WR] Detected WRITE : Addr=100001a8 Data=d0da4d01 Strb=1111 Prot=000 BResp=00
# UVM_INFO C:/Documents/DoAnThietKeViMach/Project/SoC/VERIFICATION/Driver/axi_driver.sv(63) @ 5375000: uvm_test_top.env.agent.driver [DRV] Write Done: Addr=100001a8 Data=d0da4d01 Prot=000
# [DRAM WRITE] addr=100001ac data=42ccf653
# UVM_INFO C:/Documents/DoAnThietKeViMach/Project/SoC/VERIFICATION/Monitor/axi_monitor.sv(51) @ 5415000: uvm_test_top.env.agent.monitor [MON_WR] Detected WRITE : Addr=100001ac Data=42ccf653 Strb=1111 Prot=000 BResp=00
# UVM_INFO C:/Documents/DoAnThietKeViMach/Project/SoC/VERIFICATION/Driver/axi_driver.sv(63) @ 5425000: uvm_test_top.env.agent.driver [DRV] Write Done: Addr=100001ac Data=42ccf653 Prot=000
# [DRAM WRITE] addr=100001b0 data=7b66f155
# UVM_INFO C:/Documents/DoAnThietKeViMach/Project/SoC/VERIFICATION/Monitor/axi_monitor.sv(51) @ 5465000: uvm_test_top.env.agent.monitor [MON_WR] Detected WRITE : Addr=100001b0 Data=7b66f155 Strb=1111 Prot=000 BResp=00
# UVM_INFO C:/Documents/DoAnThietKeViMach/Project/SoC/VERIFICATION/Driver/axi_driver.sv(63) @ 5475000: uvm_test_top.env.agent.driver [DRV] Write Done: Addr=100001b0 Data=7b66f155 Prot=000
# [DRAM WRITE] addr=100001b4 data=72f96337
# UVM_INFO C:/Documents/DoAnThietKeViMach/Project/SoC/VERIFICATION/Monitor/axi_monitor.sv(51) @ 5515000: uvm_test_top.env.agent.monitor [MON_WR] Detected WRITE : Addr=100001b4 Data=72f96337 Strb=1111 Prot=000 BResp=00
# UVM_INFO C:/Documents/DoAnThietKeViMach/Project/SoC/VERIFICATION/Driver/axi_driver.sv(63) @ 5525000: uvm_test_top.env.agent.driver [DRV] Write Done: Addr=100001b4 Data=72f96337 Prot=000
# [DRAM WRITE] addr=100001b8 data=dd97bf21
# UVM_INFO C:/Documents/DoAnThietKeViMach/Project/SoC/VERIFICATION/Monitor/axi_monitor.sv(51) @ 5565000: uvm_test_top.env.agent.monitor [MON_WR] Detected WRITE : Addr=100001b8 Data=dd97bf21 Strb=1111 Prot=000 BResp=00
# UVM_INFO C:/Documents/DoAnThietKeViMach/Project/SoC/VERIFICATION/Driver/axi_driver.sv(63) @ 5575000: uvm_test_top.env.agent.driver [DRV] Write Done: Addr=100001b8 Data=dd97bf21 Prot=000
# [DRAM WRITE] addr=100001bc data=6e891fb5
# UVM_INFO C:/Documents/DoAnThietKeViMach/Project/SoC/VERIFICATION/Monitor/axi_monitor.sv(51) @ 5615000: uvm_test_top.env.agent.monitor [MON_WR] Detected WRITE : Addr=100001bc Data=6e891fb5 Strb=1111 Prot=000 BResp=00
# UVM_INFO C:/Documents/DoAnThietKeViMach/Project/SoC/VERIFICATION/Driver/axi_driver.sv(63) @ 5625000: uvm_test_top.env.agent.driver [DRV] Write Done: Addr=100001bc Data=6e891fb5 Prot=000
# [DRAM WRITE] addr=100001c0 data=3ae9bf06
# UVM_INFO C:/Documents/DoAnThietKeViMach/Project/SoC/VERIFICATION/Monitor/axi_monitor.sv(51) @ 5665000: uvm_test_top.env.agent.monitor [MON_WR] Detected WRITE : Addr=100001c0 Data=3ae9bf06 Strb=1111 Prot=000 BResp=00
# UVM_INFO C:/Documents/DoAnThietKeViMach/Project/SoC/VERIFICATION/Driver/axi_driver.sv(63) @ 5675000: uvm_test_top.env.agent.driver [DRV] Write Done: Addr=100001c0 Data=3ae9bf06 Prot=000
# [DRAM WRITE] addr=100001c4 data=21b31ed3
# UVM_INFO C:/Documents/DoAnThietKeViMach/Project/SoC/VERIFICATION/Monitor/axi_monitor.sv(51) @ 5715000: uvm_test_top.env.agent.monitor [MON_WR] Detected WRITE : Addr=100001c4 Data=21b31ed3 Strb=1111 Prot=000 BResp=00
# UVM_INFO C:/Documents/DoAnThietKeViMach/Project/SoC/VERIFICATION/Driver/axi_driver.sv(63) @ 5725000: uvm_test_top.env.agent.driver [DRV] Write Done: Addr=100001c4 Data=21b31ed3 Prot=000
# [DRAM WRITE] addr=100001c8 data=483f963a
# UVM_INFO C:/Documents/DoAnThietKeViMach/Project/SoC/VERIFICATION/Monitor/axi_monitor.sv(51) @ 5765000: uvm_test_top.env.agent.monitor [MON_WR] Detected WRITE : Addr=100001c8 Data=483f963a Strb=1111 Prot=000 BResp=00
# UVM_INFO C:/Documents/DoAnThietKeViMach/Project/SoC/VERIFICATION/Driver/axi_driver.sv(63) @ 5775000: uvm_test_top.env.agent.driver [DRV] Write Done: Addr=100001c8 Data=483f963a Prot=000
# [DRAM WRITE] addr=100001cc data=d3094768
# UVM_INFO C:/Documents/DoAnThietKeViMach/Project/SoC/VERIFICATION/Monitor/axi_monitor.sv(51) @ 5815000: uvm_test_top.env.agent.monitor [MON_WR] Detected WRITE : Addr=100001cc Data=d3094768 Strb=1111 Prot=000 BResp=00
# UVM_INFO C:/Documents/DoAnThietKeViMach/Project/SoC/VERIFICATION/Driver/axi_driver.sv(63) @ 5825000: uvm_test_top.env.agent.driver [DRV] Write Done: Addr=100001cc Data=d3094768 Prot=000
# [DRAM WRITE] addr=100001d0 data=9f7750e3
# UVM_INFO C:/Documents/DoAnThietKeViMach/Project/SoC/VERIFICATION/Monitor/axi_monitor.sv(51) @ 5865000: uvm_test_top.env.agent.monitor [MON_WR] Detected WRITE : Addr=100001d0 Data=9f7750e3 Strb=1111 Prot=000 BResp=00
# UVM_INFO C:/Documents/DoAnThietKeViMach/Project/SoC/VERIFICATION/Driver/axi_driver.sv(63) @ 5875000: uvm_test_top.env.agent.driver [DRV] Write Done: Addr=100001d0 Data=9f7750e3 Prot=000
# [DRAM WRITE] addr=100001d4 data=9d4d016c
# UVM_INFO C:/Documents/DoAnThietKeViMach/Project/SoC/VERIFICATION/Monitor/axi_monitor.sv(51) @ 5915000: uvm_test_top.env.agent.monitor [MON_WR] Detected WRITE : Addr=100001d4 Data=9d4d016c Strb=1111 Prot=000 BResp=00
# UVM_INFO C:/Documents/DoAnThietKeViMach/Project/SoC/VERIFICATION/Driver/axi_driver.sv(63) @ 5925000: uvm_test_top.env.agent.driver [DRV] Write Done: Addr=100001d4 Data=9d4d016c Prot=000
# [DRAM WRITE] addr=100001d8 data=65be524e
# UVM_INFO C:/Documents/DoAnThietKeViMach/Project/SoC/VERIFICATION/Monitor/axi_monitor.sv(51) @ 5965000: uvm_test_top.env.agent.monitor [MON_WR] Detected WRITE : Addr=100001d8 Data=65be524e Strb=1111 Prot=000 BResp=00
# UVM_INFO C:/Documents/DoAnThietKeViMach/Project/SoC/VERIFICATION/Driver/axi_driver.sv(63) @ 5975000: uvm_test_top.env.agent.driver [DRV] Write Done: Addr=100001d8 Data=65be524e Prot=000
# [DRAM WRITE] addr=100001dc data=0e9b6b9e
# UVM_INFO C:/Documents/DoAnThietKeViMach/Project/SoC/VERIFICATION/Monitor/axi_monitor.sv(51) @ 6015000: uvm_test_top.env.agent.monitor [MON_WR] Detected WRITE : Addr=100001dc Data=0e9b6b9e Strb=1111 Prot=000 BResp=00
# UVM_INFO C:/Documents/DoAnThietKeViMach/Project/SoC/VERIFICATION/Driver/axi_driver.sv(63) @ 6025000: uvm_test_top.env.agent.driver [DRV] Write Done: Addr=100001dc Data=0e9b6b9e Prot=000
# [DRAM WRITE] addr=100001e0 data=59237fa1
# UVM_INFO C:/Documents/DoAnThietKeViMach/Project/SoC/VERIFICATION/Monitor/axi_monitor.sv(51) @ 6065000: uvm_test_top.env.agent.monitor [MON_WR] Detected WRITE : Addr=100001e0 Data=59237fa1 Strb=1111 Prot=000 BResp=00
# UVM_INFO C:/Documents/DoAnThietKeViMach/Project/SoC/VERIFICATION/Driver/axi_driver.sv(63) @ 6075000: uvm_test_top.env.agent.driver [DRV] Write Done: Addr=100001e0 Data=59237fa1 Prot=000
# [DRAM WRITE] addr=100001e4 data=dfc74ae9
# UVM_INFO C:/Documents/DoAnThietKeViMach/Project/SoC/VERIFICATION/Monitor/axi_monitor.sv(51) @ 6115000: uvm_test_top.env.agent.monitor [MON_WR] Detected WRITE : Addr=100001e4 Data=dfc74ae9 Strb=1111 Prot=000 BResp=00
# UVM_INFO C:/Documents/DoAnThietKeViMach/Project/SoC/VERIFICATION/Driver/axi_driver.sv(63) @ 6125000: uvm_test_top.env.agent.driver [DRV] Write Done: Addr=100001e4 Data=dfc74ae9 Prot=000
# [DRAM WRITE] addr=100001e8 data=1280d02a
# UVM_INFO C:/Documents/DoAnThietKeViMach/Project/SoC/VERIFICATION/Monitor/axi_monitor.sv(51) @ 6165000: uvm_test_top.env.agent.monitor [MON_WR] Detected WRITE : Addr=100001e8 Data=1280d02a Strb=1111 Prot=000 BResp=00
# UVM_INFO C:/Documents/DoAnThietKeViMach/Project/SoC/VERIFICATION/Driver/axi_driver.sv(63) @ 6175000: uvm_test_top.env.agent.driver [DRV] Write Done: Addr=100001e8 Data=1280d02a Prot=000
# [DRAM WRITE] addr=100001ec data=bc3a0c5a
# UVM_INFO C:/Documents/DoAnThietKeViMach/Project/SoC/VERIFICATION/Monitor/axi_monitor.sv(51) @ 6215000: uvm_test_top.env.agent.monitor [MON_WR] Detected WRITE : Addr=100001ec Data=bc3a0c5a Strb=1111 Prot=000 BResp=00
# UVM_INFO C:/Documents/DoAnThietKeViMach/Project/SoC/VERIFICATION/Driver/axi_driver.sv(63) @ 6225000: uvm_test_top.env.agent.driver [DRV] Write Done: Addr=100001ec Data=bc3a0c5a Prot=000
# [DRAM WRITE] addr=100001f0 data=6d3a7b82
# UVM_INFO C:/Documents/DoAnThietKeViMach/Project/SoC/VERIFICATION/Monitor/axi_monitor.sv(51) @ 6265000: uvm_test_top.env.agent.monitor [MON_WR] Detected WRITE : Addr=100001f0 Data=6d3a7b82 Strb=1111 Prot=000 BResp=00
# UVM_INFO C:/Documents/DoAnThietKeViMach/Project/SoC/VERIFICATION/Driver/axi_driver.sv(63) @ 6275000: uvm_test_top.env.agent.driver [DRV] Write Done: Addr=100001f0 Data=6d3a7b82 Prot=000
# [DRAM WRITE] addr=100001f4 data=2aee7071
# UVM_INFO C:/Documents/DoAnThietKeViMach/Project/SoC/VERIFICATION/Monitor/axi_monitor.sv(51) @ 6315000: uvm_test_top.env.agent.monitor [MON_WR] Detected WRITE : Addr=100001f4 Data=2aee7071 Strb=1111 Prot=000 BResp=00
# UVM_INFO C:/Documents/DoAnThietKeViMach/Project/SoC/VERIFICATION/Driver/axi_driver.sv(63) @ 6325000: uvm_test_top.env.agent.driver [DRV] Write Done: Addr=100001f4 Data=2aee7071 Prot=000
# [DRAM WRITE] addr=100001f8 data=d8edce87
# UVM_INFO C:/Documents/DoAnThietKeViMach/Project/SoC/VERIFICATION/Monitor/axi_monitor.sv(51) @ 6365000: uvm_test_top.env.agent.monitor [MON_WR] Detected WRITE : Addr=100001f8 Data=d8edce87 Strb=1111 Prot=000 BResp=00
# UVM_INFO C:/Documents/DoAnThietKeViMach/Project/SoC/VERIFICATION/Driver/axi_driver.sv(63) @ 6375000: uvm_test_top.env.agent.driver [DRV] Write Done: Addr=100001f8 Data=d8edce87 Prot=000
# [DRAM WRITE] addr=100001fc data=7549fb6b
# UVM_INFO C:/Documents/DoAnThietKeViMach/Project/SoC/VERIFICATION/Monitor/axi_monitor.sv(51) @ 6415000: uvm_test_top.env.agent.monitor [MON_WR] Detected WRITE : Addr=100001fc Data=7549fb6b Strb=1111 Prot=000 BResp=00
# UVM_INFO C:/Documents/DoAnThietKeViMach/Project/SoC/VERIFICATION/Driver/axi_driver.sv(63) @ 6425000: uvm_test_top.env.agent.driver [DRV] Write Done: Addr=100001fc Data=7549fb6b Prot=000
# [DRAM WRITE] addr=10000200 data=6cd0c367
# UVM_INFO C:/Documents/DoAnThietKeViMach/Project/SoC/VERIFICATION/Monitor/axi_monitor.sv(51) @ 6465000: uvm_test_top.env.agent.monitor [MON_WR] Detected WRITE : Addr=10000200 Data=6cd0c367 Strb=1111 Prot=000 BResp=00
# UVM_INFO C:/Documents/DoAnThietKeViMach/Project/SoC/VERIFICATION/Driver/axi_driver.sv(63) @ 6475000: uvm_test_top.env.agent.driver [DRV] Write Done: Addr=10000200 Data=6cd0c367 Prot=000
# [DRAM WRITE] addr=10000204 data=ab8d0b18
# UVM_INFO C:/Documents/DoAnThietKeViMach/Project/SoC/VERIFICATION/Monitor/axi_monitor.sv(51) @ 6515000: uvm_test_top.env.agent.monitor [MON_WR] Detected WRITE : Addr=10000204 Data=ab8d0b18 Strb=1111 Prot=000 BResp=00
# UVM_INFO C:/Documents/DoAnThietKeViMach/Project/SoC/VERIFICATION/Driver/axi_driver.sv(63) @ 6525000: uvm_test_top.env.agent.driver [DRV] Write Done: Addr=10000204 Data=ab8d0b18 Prot=000
# [DRAM WRITE] addr=10000208 data=325bc6ed
# UVM_INFO C:/Documents/DoAnThietKeViMach/Project/SoC/VERIFICATION/Monitor/axi_monitor.sv(51) @ 6565000: uvm_test_top.env.agent.monitor [MON_WR] Detected WRITE : Addr=10000208 Data=325bc6ed Strb=1111 Prot=000 BResp=00
# UVM_INFO C:/Documents/DoAnThietKeViMach/Project/SoC/VERIFICATION/Driver/axi_driver.sv(63) @ 6575000: uvm_test_top.env.agent.driver [DRV] Write Done: Addr=10000208 Data=325bc6ed Prot=000
# [DRAM WRITE] addr=1000020c data=64de05cf
# UVM_INFO C:/Documents/DoAnThietKeViMach/Project/SoC/VERIFICATION/Monitor/axi_monitor.sv(51) @ 6615000: uvm_test_top.env.agent.monitor [MON_WR] Detected WRITE : Addr=1000020c Data=64de05cf Strb=1111 Prot=000 BResp=00
# UVM_INFO C:/Documents/DoAnThietKeViMach/Project/SoC/VERIFICATION/Driver/axi_driver.sv(63) @ 6625000: uvm_test_top.env.agent.driver [DRV] Write Done: Addr=1000020c Data=64de05cf Prot=000
# [DRAM WRITE] addr=10000210 data=402b4eb7
# UVM_INFO C:/Documents/DoAnThietKeViMach/Project/SoC/VERIFICATION/Monitor/axi_monitor.sv(51) @ 6665000: uvm_test_top.env.agent.monitor [MON_WR] Detected WRITE : Addr=10000210 Data=402b4eb7 Strb=1111 Prot=000 BResp=00
# UVM_INFO C:/Documents/DoAnThietKeViMach/Project/SoC/VERIFICATION/Driver/axi_driver.sv(63) @ 6675000: uvm_test_top.env.agent.driver [DRV] Write Done: Addr=10000210 Data=402b4eb7 Prot=000
# [DRAM WRITE] addr=10000214 data=41bfaef1
# UVM_INFO C:/Documents/DoAnThietKeViMach/Project/SoC/VERIFICATION/Monitor/axi_monitor.sv(51) @ 6715000: uvm_test_top.env.agent.monitor [MON_WR] Detected WRITE : Addr=10000214 Data=41bfaef1 Strb=1111 Prot=000 BResp=00
# UVM_INFO C:/Documents/DoAnThietKeViMach/Project/SoC/VERIFICATION/Driver/axi_driver.sv(63) @ 6725000: uvm_test_top.env.agent.driver [DRV] Write Done: Addr=10000214 Data=41bfaef1 Prot=000
# [DRAM WRITE] addr=10000218 data=e952dd1e
# UVM_INFO C:/Documents/DoAnThietKeViMach/Project/SoC/VERIFICATION/Monitor/axi_monitor.sv(51) @ 6765000: uvm_test_top.env.agent.monitor [MON_WR] Detected WRITE : Addr=10000218 Data=e952dd1e Strb=1111 Prot=000 BResp=00
# UVM_INFO C:/Documents/DoAnThietKeViMach/Project/SoC/VERIFICATION/Driver/axi_driver.sv(63) @ 6775000: uvm_test_top.env.agent.driver [DRV] Write Done: Addr=10000218 Data=e952dd1e Prot=000
# [DRAM WRITE] addr=1000021c data=14e5b7b3
# UVM_INFO C:/Documents/DoAnThietKeViMach/Project/SoC/VERIFICATION/Monitor/axi_monitor.sv(51) @ 6815000: uvm_test_top.env.agent.monitor [MON_WR] Detected WRITE : Addr=1000021c Data=14e5b7b3 Strb=1111 Prot=000 BResp=00
# UVM_INFO C:/Documents/DoAnThietKeViMach/Project/SoC/VERIFICATION/Driver/axi_driver.sv(63) @ 6825000: uvm_test_top.env.agent.driver [DRV] Write Done: Addr=1000021c Data=14e5b7b3 Prot=000
# [DRAM WRITE] addr=10000220 data=0fb51dc7
# UVM_INFO C:/Documents/DoAnThietKeViMach/Project/SoC/VERIFICATION/Monitor/axi_monitor.sv(51) @ 6865000: uvm_test_top.env.agent.monitor [MON_WR] Detected WRITE : Addr=10000220 Data=0fb51dc7 Strb=1111 Prot=000 BResp=00
# UVM_INFO C:/Documents/DoAnThietKeViMach/Project/SoC/VERIFICATION/Driver/axi_driver.sv(63) @ 6875000: uvm_test_top.env.agent.driver [DRV] Write Done: Addr=10000220 Data=0fb51dc7 Prot=000
# [DRAM WRITE] addr=10000224 data=1e2a4041
# UVM_INFO C:/Documents/DoAnThietKeViMach/Project/SoC/VERIFICATION/Monitor/axi_monitor.sv(51) @ 6915000: uvm_test_top.env.agent.monitor [MON_WR] Detected WRITE : Addr=10000224 Data=1e2a4041 Strb=1111 Prot=000 BResp=00
# UVM_INFO C:/Documents/DoAnThietKeViMach/Project/SoC/VERIFICATION/Driver/axi_driver.sv(63) @ 6925000: uvm_test_top.env.agent.driver [DRV] Write Done: Addr=10000224 Data=1e2a4041 Prot=000
# [DRAM WRITE] addr=10000228 data=b0d5cdd4
# UVM_INFO C:/Documents/DoAnThietKeViMach/Project/SoC/VERIFICATION/Monitor/axi_monitor.sv(51) @ 6965000: uvm_test_top.env.agent.monitor [MON_WR] Detected WRITE : Addr=10000228 Data=b0d5cdd4 Strb=1111 Prot=000 BResp=00
# UVM_INFO C:/Documents/DoAnThietKeViMach/Project/SoC/VERIFICATION/Driver/axi_driver.sv(63) @ 6975000: uvm_test_top.env.agent.driver [DRV] Write Done: Addr=10000228 Data=b0d5cdd4 Prot=000
# [DRAM WRITE] addr=1000022c data=2ae79fe7
# UVM_INFO C:/Documents/DoAnThietKeViMach/Project/SoC/VERIFICATION/Monitor/axi_monitor.sv(51) @ 7015000: uvm_test_top.env.agent.monitor [MON_WR] Detected WRITE : Addr=1000022c Data=2ae79fe7 Strb=1111 Prot=000 BResp=00
# UVM_INFO C:/Documents/DoAnThietKeViMach/Project/SoC/VERIFICATION/Driver/axi_driver.sv(63) @ 7025000: uvm_test_top.env.agent.driver [DRV] Write Done: Addr=1000022c Data=2ae79fe7 Prot=000
# [DRAM WRITE] addr=10000230 data=0b9a262f
# UVM_INFO C:/Documents/DoAnThietKeViMach/Project/SoC/VERIFICATION/Monitor/axi_monitor.sv(51) @ 7065000: uvm_test_top.env.agent.monitor [MON_WR] Detected WRITE : Addr=10000230 Data=0b9a262f Strb=1111 Prot=000 BResp=00
# UVM_INFO C:/Documents/DoAnThietKeViMach/Project/SoC/VERIFICATION/Driver/axi_driver.sv(63) @ 7075000: uvm_test_top.env.agent.driver [DRV] Write Done: Addr=10000230 Data=0b9a262f Prot=000
# [DRAM WRITE] addr=10000234 data=cb6a7a02
# UVM_INFO C:/Documents/DoAnThietKeViMach/Project/SoC/VERIFICATION/Monitor/axi_monitor.sv(51) @ 7115000: uvm_test_top.env.agent.monitor [MON_WR] Detected WRITE : Addr=10000234 Data=cb6a7a02 Strb=1111 Prot=000 BResp=00
# UVM_INFO C:/Documents/DoAnThietKeViMach/Project/SoC/VERIFICATION/Driver/axi_driver.sv(63) @ 7125000: uvm_test_top.env.agent.driver [DRV] Write Done: Addr=10000234 Data=cb6a7a02 Prot=000
# [DRAM WRITE] addr=10000238 data=43582230
# UVM_INFO C:/Documents/DoAnThietKeViMach/Project/SoC/VERIFICATION/Monitor/axi_monitor.sv(51) @ 7165000: uvm_test_top.env.agent.monitor [MON_WR] Detected WRITE : Addr=10000238 Data=43582230 Strb=1111 Prot=000 BResp=00
# UVM_INFO C:/Documents/DoAnThietKeViMach/Project/SoC/VERIFICATION/Driver/axi_driver.sv(63) @ 7175000: uvm_test_top.env.agent.driver [DRV] Write Done: Addr=10000238 Data=43582230 Prot=000
# [DRAM WRITE] addr=1000023c data=82967c37
# UVM_INFO C:/Documents/DoAnThietKeViMach/Project/SoC/VERIFICATION/Monitor/axi_monitor.sv(51) @ 7215000: uvm_test_top.env.agent.monitor [MON_WR] Detected WRITE : Addr=1000023c Data=82967c37 Strb=1111 Prot=000 BResp=00
# UVM_INFO C:/Documents/DoAnThietKeViMach/Project/SoC/VERIFICATION/Driver/axi_driver.sv(63) @ 7225000: uvm_test_top.env.agent.driver [DRV] Write Done: Addr=1000023c Data=82967c37 Prot=000
# [DRAM WRITE] addr=10000240 data=248a3cef
# UVM_INFO C:/Documents/DoAnThietKeViMach/Project/SoC/VERIFICATION/Monitor/axi_monitor.sv(51) @ 7265000: uvm_test_top.env.agent.monitor [MON_WR] Detected WRITE : Addr=10000240 Data=248a3cef Strb=1111 Prot=000 BResp=00
# UVM_INFO C:/Documents/DoAnThietKeViMach/Project/SoC/VERIFICATION/Driver/axi_driver.sv(63) @ 7275000: uvm_test_top.env.agent.driver [DRV] Write Done: Addr=10000240 Data=248a3cef Prot=000
# [DRAM WRITE] addr=10000244 data=918e8f12
# UVM_INFO C:/Documents/DoAnThietKeViMach/Project/SoC/VERIFICATION/Monitor/axi_monitor.sv(51) @ 7315000: uvm_test_top.env.agent.monitor [MON_WR] Detected WRITE : Addr=10000244 Data=918e8f12 Strb=1111 Prot=000 BResp=00
# UVM_INFO C:/Documents/DoAnThietKeViMach/Project/SoC/VERIFICATION/Driver/axi_driver.sv(63) @ 7325000: uvm_test_top.env.agent.driver [DRV] Write Done: Addr=10000244 Data=918e8f12 Prot=000
# [DRAM WRITE] addr=10000248 data=b99a25e3
# UVM_INFO C:/Documents/DoAnThietKeViMach/Project/SoC/VERIFICATION/Monitor/axi_monitor.sv(51) @ 7365000: uvm_test_top.env.agent.monitor [MON_WR] Detected WRITE : Addr=10000248 Data=b99a25e3 Strb=1111 Prot=000 BResp=00
# UVM_INFO C:/Documents/DoAnThietKeViMach/Project/SoC/VERIFICATION/Driver/axi_driver.sv(63) @ 7375000: uvm_test_top.env.agent.driver [DRV] Write Done: Addr=10000248 Data=b99a25e3 Prot=000
# [DRAM WRITE] addr=1000024c data=1db7031b
# UVM_INFO C:/Documents/DoAnThietKeViMach/Project/SoC/VERIFICATION/Monitor/axi_monitor.sv(51) @ 7415000: uvm_test_top.env.agent.monitor [MON_WR] Detected WRITE : Addr=1000024c Data=1db7031b Strb=1111 Prot=000 BResp=00
# UVM_INFO C:/Documents/DoAnThietKeViMach/Project/SoC/VERIFICATION/Driver/axi_driver.sv(63) @ 7425000: uvm_test_top.env.agent.driver [DRV] Write Done: Addr=1000024c Data=1db7031b Prot=000
# [DRAM WRITE] addr=10000250 data=a6444971
# UVM_INFO C:/Documents/DoAnThietKeViMach/Project/SoC/VERIFICATION/Monitor/axi_monitor.sv(51) @ 7465000: uvm_test_top.env.agent.monitor [MON_WR] Detected WRITE : Addr=10000250 Data=a6444971 Strb=1111 Prot=000 BResp=00
# UVM_INFO C:/Documents/DoAnThietKeViMach/Project/SoC/VERIFICATION/Driver/axi_driver.sv(63) @ 7475000: uvm_test_top.env.agent.driver [DRV] Write Done: Addr=10000250 Data=a6444971 Prot=000
# [DRAM WRITE] addr=10000254 data=dad3ae8b
# UVM_INFO C:/Documents/DoAnThietKeViMach/Project/SoC/VERIFICATION/Monitor/axi_monitor.sv(51) @ 7515000: uvm_test_top.env.agent.monitor [MON_WR] Detected WRITE : Addr=10000254 Data=dad3ae8b Strb=1111 Prot=000 BResp=00
# UVM_INFO C:/Documents/DoAnThietKeViMach/Project/SoC/VERIFICATION/Driver/axi_driver.sv(63) @ 7525000: uvm_test_top.env.agent.driver [DRV] Write Done: Addr=10000254 Data=dad3ae8b Prot=000
# [DRAM WRITE] addr=10000258 data=9c4b2bb7
# UVM_INFO C:/Documents/DoAnThietKeViMach/Project/SoC/VERIFICATION/Monitor/axi_monitor.sv(51) @ 7565000: uvm_test_top.env.agent.monitor [MON_WR] Detected WRITE : Addr=10000258 Data=9c4b2bb7 Strb=1111 Prot=000 BResp=00
# UVM_INFO C:/Documents/DoAnThietKeViMach/Project/SoC/VERIFICATION/Driver/axi_driver.sv(63) @ 7575000: uvm_test_top.env.agent.driver [DRV] Write Done: Addr=10000258 Data=9c4b2bb7 Prot=000
# [DRAM WRITE] addr=1000025c data=857663aa
# UVM_INFO C:/Documents/DoAnThietKeViMach/Project/SoC/VERIFICATION/Monitor/axi_monitor.sv(51) @ 7615000: uvm_test_top.env.agent.monitor [MON_WR] Detected WRITE : Addr=1000025c Data=857663aa Strb=1111 Prot=000 BResp=00
# UVM_INFO C:/Documents/DoAnThietKeViMach/Project/SoC/VERIFICATION/Driver/axi_driver.sv(63) @ 7625000: uvm_test_top.env.agent.driver [DRV] Write Done: Addr=1000025c Data=857663aa Prot=000
# [DRAM WRITE] addr=10000260 data=4ad5d40c
# UVM_INFO C:/Documents/DoAnThietKeViMach/Project/SoC/VERIFICATION/Monitor/axi_monitor.sv(51) @ 7665000: uvm_test_top.env.agent.monitor [MON_WR] Detected WRITE : Addr=10000260 Data=4ad5d40c Strb=1111 Prot=000 BResp=00
# UVM_INFO C:/Documents/DoAnThietKeViMach/Project/SoC/VERIFICATION/Driver/axi_driver.sv(63) @ 7675000: uvm_test_top.env.agent.driver [DRV] Write Done: Addr=10000260 Data=4ad5d40c Prot=000
# [DRAM WRITE] addr=10000264 data=7d529cc7
# UVM_INFO C:/Documents/DoAnThietKeViMach/Project/SoC/VERIFICATION/Monitor/axi_monitor.sv(51) @ 7715000: uvm_test_top.env.agent.monitor [MON_WR] Detected WRITE : Addr=10000264 Data=7d529cc7 Strb=1111 Prot=000 BResp=00
# UVM_INFO C:/Documents/DoAnThietKeViMach/Project/SoC/VERIFICATION/Driver/axi_driver.sv(63) @ 7725000: uvm_test_top.env.agent.driver [DRV] Write Done: Addr=10000264 Data=7d529cc7 Prot=000
# [DRAM WRITE] addr=10000268 data=a8552908
# UVM_INFO C:/Documents/DoAnThietKeViMach/Project/SoC/VERIFICATION/Monitor/axi_monitor.sv(51) @ 7765000: uvm_test_top.env.agent.monitor [MON_WR] Detected WRITE : Addr=10000268 Data=a8552908 Strb=1111 Prot=000 BResp=00
# UVM_INFO C:/Documents/DoAnThietKeViMach/Project/SoC/VERIFICATION/Driver/axi_driver.sv(63) @ 7775000: uvm_test_top.env.agent.driver [DRV] Write Done: Addr=10000268 Data=a8552908 Prot=000
# [DRAM WRITE] addr=1000026c data=c6009fde
# UVM_INFO C:/Documents/DoAnThietKeViMach/Project/SoC/VERIFICATION/Monitor/axi_monitor.sv(51) @ 7815000: uvm_test_top.env.agent.monitor [MON_WR] Detected WRITE : Addr=1000026c Data=c6009fde Strb=1111 Prot=000 BResp=00
# UVM_INFO C:/Documents/DoAnThietKeViMach/Project/SoC/VERIFICATION/Driver/axi_driver.sv(63) @ 7825000: uvm_test_top.env.agent.driver [DRV] Write Done: Addr=1000026c Data=c6009fde Prot=000
# [DRAM WRITE] addr=10000270 data=cb5c00e5
# UVM_INFO C:/Documents/DoAnThietKeViMach/Project/SoC/VERIFICATION/Monitor/axi_monitor.sv(51) @ 7865000: uvm_test_top.env.agent.monitor [MON_WR] Detected WRITE : Addr=10000270 Data=cb5c00e5 Strb=1111 Prot=000 BResp=00
# UVM_INFO C:/Documents/DoAnThietKeViMach/Project/SoC/VERIFICATION/Driver/axi_driver.sv(63) @ 7875000: uvm_test_top.env.agent.driver [DRV] Write Done: Addr=10000270 Data=cb5c00e5 Prot=000
# [DRAM WRITE] addr=10000274 data=8cd55357
# UVM_INFO C:/Documents/DoAnThietKeViMach/Project/SoC/VERIFICATION/Monitor/axi_monitor.sv(51) @ 7915000: uvm_test_top.env.agent.monitor [MON_WR] Detected WRITE : Addr=10000274 Data=8cd55357 Strb=1111 Prot=000 BResp=00
# UVM_INFO C:/Documents/DoAnThietKeViMach/Project/SoC/VERIFICATION/Driver/axi_driver.sv(63) @ 7925000: uvm_test_top.env.agent.driver [DRV] Write Done: Addr=10000274 Data=8cd55357 Prot=000
# [DRAM WRITE] addr=10000278 data=aec54663
# UVM_INFO C:/Documents/DoAnThietKeViMach/Project/SoC/VERIFICATION/Monitor/axi_monitor.sv(51) @ 7965000: uvm_test_top.env.agent.monitor [MON_WR] Detected WRITE : Addr=10000278 Data=aec54663 Strb=1111 Prot=000 BResp=00
# UVM_INFO C:/Documents/DoAnThietKeViMach/Project/SoC/VERIFICATION/Driver/axi_driver.sv(63) @ 7975000: uvm_test_top.env.agent.driver [DRV] Write Done: Addr=10000278 Data=aec54663 Prot=000
# [DRAM WRITE] addr=1000027c data=db64c589
# UVM_INFO C:/Documents/DoAnThietKeViMach/Project/SoC/VERIFICATION/Monitor/axi_monitor.sv(51) @ 8015000: uvm_test_top.env.agent.monitor [MON_WR] Detected WRITE : Addr=1000027c Data=db64c589 Strb=1111 Prot=000 BResp=00
# UVM_INFO C:/Documents/DoAnThietKeViMach/Project/SoC/VERIFICATION/Driver/axi_driver.sv(63) @ 8025000: uvm_test_top.env.agent.driver [DRV] Write Done: Addr=1000027c Data=db64c589 Prot=000
# [DRAM WRITE] addr=10000280 data=82d09eb9
# UVM_INFO C:/Documents/DoAnThietKeViMach/Project/SoC/VERIFICATION/Monitor/axi_monitor.sv(51) @ 8065000: uvm_test_top.env.agent.monitor [MON_WR] Detected WRITE : Addr=10000280 Data=82d09eb9 Strb=1111 Prot=000 BResp=00
# UVM_INFO C:/Documents/DoAnThietKeViMach/Project/SoC/VERIFICATION/Driver/axi_driver.sv(63) @ 8075000: uvm_test_top.env.agent.driver [DRV] Write Done: Addr=10000280 Data=82d09eb9 Prot=000
# [DRAM WRITE] addr=10000284 data=bd336d74
# UVM_INFO C:/Documents/DoAnThietKeViMach/Project/SoC/VERIFICATION/Monitor/axi_monitor.sv(51) @ 8115000: uvm_test_top.env.agent.monitor [MON_WR] Detected WRITE : Addr=10000284 Data=bd336d74 Strb=1111 Prot=000 BResp=00
# UVM_INFO C:/Documents/DoAnThietKeViMach/Project/SoC/VERIFICATION/Driver/axi_driver.sv(63) @ 8125000: uvm_test_top.env.agent.driver [DRV] Write Done: Addr=10000284 Data=bd336d74 Prot=000
# [DRAM WRITE] addr=10000288 data=b1e49ba8
# UVM_INFO C:/Documents/DoAnThietKeViMach/Project/SoC/VERIFICATION/Monitor/axi_monitor.sv(51) @ 8165000: uvm_test_top.env.agent.monitor [MON_WR] Detected WRITE : Addr=10000288 Data=b1e49ba8 Strb=1111 Prot=000 BResp=00
# UVM_INFO C:/Documents/DoAnThietKeViMach/Project/SoC/VERIFICATION/Driver/axi_driver.sv(63) @ 8175000: uvm_test_top.env.agent.driver [DRV] Write Done: Addr=10000288 Data=b1e49ba8 Prot=000
# [DRAM WRITE] addr=1000028c data=99e3fd89
# UVM_INFO C:/Documents/DoAnThietKeViMach/Project/SoC/VERIFICATION/Monitor/axi_monitor.sv(51) @ 8215000: uvm_test_top.env.agent.monitor [MON_WR] Detected WRITE : Addr=1000028c Data=99e3fd89 Strb=1111 Prot=000 BResp=00
# UVM_INFO C:/Documents/DoAnThietKeViMach/Project/SoC/VERIFICATION/Driver/axi_driver.sv(63) @ 8225000: uvm_test_top.env.agent.driver [DRV] Write Done: Addr=1000028c Data=99e3fd89 Prot=000
# [DRAM WRITE] addr=10000290 data=28431271
# UVM_INFO C:/Documents/DoAnThietKeViMach/Project/SoC/VERIFICATION/Monitor/axi_monitor.sv(51) @ 8265000: uvm_test_top.env.agent.monitor [MON_WR] Detected WRITE : Addr=10000290 Data=28431271 Strb=1111 Prot=000 BResp=00
# UVM_INFO C:/Documents/DoAnThietKeViMach/Project/SoC/VERIFICATION/Driver/axi_driver.sv(63) @ 8275000: uvm_test_top.env.agent.driver [DRV] Write Done: Addr=10000290 Data=28431271 Prot=000
# [DRAM WRITE] addr=10000294 data=be7d78f7
# UVM_INFO C:/Documents/DoAnThietKeViMach/Project/SoC/VERIFICATION/Monitor/axi_monitor.sv(51) @ 8315000: uvm_test_top.env.agent.monitor [MON_WR] Detected WRITE : Addr=10000294 Data=be7d78f7 Strb=1111 Prot=000 BResp=00
# UVM_INFO C:/Documents/DoAnThietKeViMach/Project/SoC/VERIFICATION/Driver/axi_driver.sv(63) @ 8325000: uvm_test_top.env.agent.driver [DRV] Write Done: Addr=10000294 Data=be7d78f7 Prot=000
# [DRAM WRITE] addr=10000298 data=0665edb6
# UVM_INFO C:/Documents/DoAnThietKeViMach/Project/SoC/VERIFICATION/Monitor/axi_monitor.sv(51) @ 8365000: uvm_test_top.env.agent.monitor [MON_WR] Detected WRITE : Addr=10000298 Data=0665edb6 Strb=1111 Prot=000 BResp=00
# UVM_INFO C:/Documents/DoAnThietKeViMach/Project/SoC/VERIFICATION/Driver/axi_driver.sv(63) @ 8375000: uvm_test_top.env.agent.driver [DRV] Write Done: Addr=10000298 Data=0665edb6 Prot=000
# [DRAM WRITE] addr=1000029c data=c04e4c48
# UVM_INFO C:/Documents/DoAnThietKeViMach/Project/SoC/VERIFICATION/Monitor/axi_monitor.sv(51) @ 8415000: uvm_test_top.env.agent.monitor [MON_WR] Detected WRITE : Addr=1000029c Data=c04e4c48 Strb=1111 Prot=000 BResp=00
# UVM_INFO C:/Documents/DoAnThietKeViMach/Project/SoC/VERIFICATION/Driver/axi_driver.sv(63) @ 8425000: uvm_test_top.env.agent.driver [DRV] Write Done: Addr=1000029c Data=c04e4c48 Prot=000
# [DRAM WRITE] addr=100002a0 data=b078f580
# UVM_INFO C:/Documents/DoAnThietKeViMach/Project/SoC/VERIFICATION/Monitor/axi_monitor.sv(51) @ 8465000: uvm_test_top.env.agent.monitor [MON_WR] Detected WRITE : Addr=100002a0 Data=b078f580 Strb=1111 Prot=000 BResp=00
# UVM_INFO C:/Documents/DoAnThietKeViMach/Project/SoC/VERIFICATION/Driver/axi_driver.sv(63) @ 8475000: uvm_test_top.env.agent.driver [DRV] Write Done: Addr=100002a0 Data=b078f580 Prot=000
# [DRAM WRITE] addr=100002a4 data=0523a872
# UVM_INFO C:/Documents/DoAnThietKeViMach/Project/SoC/VERIFICATION/Monitor/axi_monitor.sv(51) @ 8515000: uvm_test_top.env.agent.monitor [MON_WR] Detected WRITE : Addr=100002a4 Data=0523a872 Strb=1111 Prot=000 BResp=00
# UVM_INFO C:/Documents/DoAnThietKeViMach/Project/SoC/VERIFICATION/Driver/axi_driver.sv(63) @ 8525000: uvm_test_top.env.agent.driver [DRV] Write Done: Addr=100002a4 Data=0523a872 Prot=000
# [DRAM WRITE] addr=100002a8 data=1db11639
# UVM_INFO C:/Documents/DoAnThietKeViMach/Project/SoC/VERIFICATION/Monitor/axi_monitor.sv(51) @ 8565000: uvm_test_top.env.agent.monitor [MON_WR] Detected WRITE : Addr=100002a8 Data=1db11639 Strb=1111 Prot=000 BResp=00
# UVM_INFO C:/Documents/DoAnThietKeViMach/Project/SoC/VERIFICATION/Driver/axi_driver.sv(63) @ 8575000: uvm_test_top.env.agent.driver [DRV] Write Done: Addr=100002a8 Data=1db11639 Prot=000
# [DRAM WRITE] addr=100002ac data=92bcf812
# UVM_INFO C:/Documents/DoAnThietKeViMach/Project/SoC/VERIFICATION/Monitor/axi_monitor.sv(51) @ 8615000: uvm_test_top.env.agent.monitor [MON_WR] Detected WRITE : Addr=100002ac Data=92bcf812 Strb=1111 Prot=000 BResp=00
# UVM_INFO C:/Documents/DoAnThietKeViMach/Project/SoC/VERIFICATION/Driver/axi_driver.sv(63) @ 8625000: uvm_test_top.env.agent.driver [DRV] Write Done: Addr=100002ac Data=92bcf812 Prot=000
# [DRAM WRITE] addr=100002b0 data=c2c23a05
# UVM_INFO C:/Documents/DoAnThietKeViMach/Project/SoC/VERIFICATION/Monitor/axi_monitor.sv(51) @ 8665000: uvm_test_top.env.agent.monitor [MON_WR] Detected WRITE : Addr=100002b0 Data=c2c23a05 Strb=1111 Prot=000 BResp=00
# UVM_INFO C:/Documents/DoAnThietKeViMach/Project/SoC/VERIFICATION/Driver/axi_driver.sv(63) @ 8675000: uvm_test_top.env.agent.driver [DRV] Write Done: Addr=100002b0 Data=c2c23a05 Prot=000
# [DRAM WRITE] addr=100002b4 data=cb9bf787
# UVM_INFO C:/Documents/DoAnThietKeViMach/Project/SoC/VERIFICATION/Monitor/axi_monitor.sv(51) @ 8715000: uvm_test_top.env.agent.monitor [MON_WR] Detected WRITE : Addr=100002b4 Data=cb9bf787 Strb=1111 Prot=000 BResp=00
# UVM_INFO C:/Documents/DoAnThietKeViMach/Project/SoC/VERIFICATION/Driver/axi_driver.sv(63) @ 8725000: uvm_test_top.env.agent.driver [DRV] Write Done: Addr=100002b4 Data=cb9bf787 Prot=000
# [DRAM WRITE] addr=100002b8 data=79acb587
# UVM_INFO C:/Documents/DoAnThietKeViMach/Project/SoC/VERIFICATION/Monitor/axi_monitor.sv(51) @ 8765000: uvm_test_top.env.agent.monitor [MON_WR] Detected WRITE : Addr=100002b8 Data=79acb587 Strb=1111 Prot=000 BResp=00
# UVM_INFO C:/Documents/DoAnThietKeViMach/Project/SoC/VERIFICATION/Driver/axi_driver.sv(63) @ 8775000: uvm_test_top.env.agent.driver [DRV] Write Done: Addr=100002b8 Data=79acb587 Prot=000
# [DRAM WRITE] addr=100002bc data=cf674f71
# UVM_INFO C:/Documents/DoAnThietKeViMach/Project/SoC/VERIFICATION/Monitor/axi_monitor.sv(51) @ 8815000: uvm_test_top.env.agent.monitor [MON_WR] Detected WRITE : Addr=100002bc Data=cf674f71 Strb=1111 Prot=000 BResp=00
# UVM_INFO C:/Documents/DoAnThietKeViMach/Project/SoC/VERIFICATION/Driver/axi_driver.sv(63) @ 8825000: uvm_test_top.env.agent.driver [DRV] Write Done: Addr=100002bc Data=cf674f71 Prot=000
# [DRAM WRITE] addr=100002c0 data=9df98707
# UVM_INFO C:/Documents/DoAnThietKeViMach/Project/SoC/VERIFICATION/Monitor/axi_monitor.sv(51) @ 8865000: uvm_test_top.env.agent.monitor [MON_WR] Detected WRITE : Addr=100002c0 Data=9df98707 Strb=1111 Prot=000 BResp=00
# UVM_INFO C:/Documents/DoAnThietKeViMach/Project/SoC/VERIFICATION/Driver/axi_driver.sv(63) @ 8875000: uvm_test_top.env.agent.driver [DRV] Write Done: Addr=100002c0 Data=9df98707 Prot=000
# [DRAM WRITE] addr=100002c4 data=d6b8dbaa
# UVM_INFO C:/Documents/DoAnThietKeViMach/Project/SoC/VERIFICATION/Monitor/axi_monitor.sv(51) @ 8915000: uvm_test_top.env.agent.monitor [MON_WR] Detected WRITE : Addr=100002c4 Data=d6b8dbaa Strb=1111 Prot=000 BResp=00
# UVM_INFO C:/Documents/DoAnThietKeViMach/Project/SoC/VERIFICATION/Driver/axi_driver.sv(63) @ 8925000: uvm_test_top.env.agent.driver [DRV] Write Done: Addr=100002c4 Data=d6b8dbaa Prot=000
# [DRAM WRITE] addr=100002c8 data=c648a5ab
# UVM_INFO C:/Documents/DoAnThietKeViMach/Project/SoC/VERIFICATION/Monitor/axi_monitor.sv(51) @ 8965000: uvm_test_top.env.agent.monitor [MON_WR] Detected WRITE : Addr=100002c8 Data=c648a5ab Strb=1111 Prot=000 BResp=00
# UVM_INFO C:/Documents/DoAnThietKeViMach/Project/SoC/VERIFICATION/Driver/axi_driver.sv(63) @ 8975000: uvm_test_top.env.agent.driver [DRV] Write Done: Addr=100002c8 Data=c648a5ab Prot=000
# [DRAM WRITE] addr=100002cc data=b96ab11e
# UVM_INFO C:/Documents/DoAnThietKeViMach/Project/SoC/VERIFICATION/Monitor/axi_monitor.sv(51) @ 9015000: uvm_test_top.env.agent.monitor [MON_WR] Detected WRITE : Addr=100002cc Data=b96ab11e Strb=1111 Prot=000 BResp=00
# UVM_INFO C:/Documents/DoAnThietKeViMach/Project/SoC/VERIFICATION/Driver/axi_driver.sv(63) @ 9025000: uvm_test_top.env.agent.driver [DRV] Write Done: Addr=100002cc Data=b96ab11e Prot=000
# [DRAM WRITE] addr=100002d0 data=1ceb1e65
# UVM_INFO C:/Documents/DoAnThietKeViMach/Project/SoC/VERIFICATION/Monitor/axi_monitor.sv(51) @ 9065000: uvm_test_top.env.agent.monitor [MON_WR] Detected WRITE : Addr=100002d0 Data=1ceb1e65 Strb=1111 Prot=000 BResp=00
# UVM_INFO C:/Documents/DoAnThietKeViMach/Project/SoC/VERIFICATION/Driver/axi_driver.sv(63) @ 9075000: uvm_test_top.env.agent.driver [DRV] Write Done: Addr=100002d0 Data=1ceb1e65 Prot=000
# [DRAM WRITE] addr=100002d4 data=0d0f6a26
# UVM_INFO C:/Documents/DoAnThietKeViMach/Project/SoC/VERIFICATION/Monitor/axi_monitor.sv(51) @ 9115000: uvm_test_top.env.agent.monitor [MON_WR] Detected WRITE : Addr=100002d4 Data=0d0f6a26 Strb=1111 Prot=000 BResp=00
# UVM_INFO C:/Documents/DoAnThietKeViMach/Project/SoC/VERIFICATION/Driver/axi_driver.sv(63) @ 9125000: uvm_test_top.env.agent.driver [DRV] Write Done: Addr=100002d4 Data=0d0f6a26 Prot=000
# [DRAM WRITE] addr=100002d8 data=e8cc8191
# UVM_INFO C:/Documents/DoAnThietKeViMach/Project/SoC/VERIFICATION/Monitor/axi_monitor.sv(51) @ 9165000: uvm_test_top.env.agent.monitor [MON_WR] Detected WRITE : Addr=100002d8 Data=e8cc8191 Strb=1111 Prot=000 BResp=00
# UVM_INFO C:/Documents/DoAnThietKeViMach/Project/SoC/VERIFICATION/Driver/axi_driver.sv(63) @ 9175000: uvm_test_top.env.agent.driver [DRV] Write Done: Addr=100002d8 Data=e8cc8191 Prot=000
# [DRAM WRITE] addr=100002dc data=44bd6efb
# UVM_INFO C:/Documents/DoAnThietKeViMach/Project/SoC/VERIFICATION/Monitor/axi_monitor.sv(51) @ 9215000: uvm_test_top.env.agent.monitor [MON_WR] Detected WRITE : Addr=100002dc Data=44bd6efb Strb=1111 Prot=000 BResp=00
# UVM_INFO C:/Documents/DoAnThietKeViMach/Project/SoC/VERIFICATION/Driver/axi_driver.sv(63) @ 9225000: uvm_test_top.env.agent.driver [DRV] Write Done: Addr=100002dc Data=44bd6efb Prot=000
# [DRAM WRITE] addr=100002e0 data=5d10b0e5
# UVM_INFO C:/Documents/DoAnThietKeViMach/Project/SoC/VERIFICATION/Monitor/axi_monitor.sv(51) @ 9265000: uvm_test_top.env.agent.monitor [MON_WR] Detected WRITE : Addr=100002e0 Data=5d10b0e5 Strb=1111 Prot=000 BResp=00
# UVM_INFO C:/Documents/DoAnThietKeViMach/Project/SoC/VERIFICATION/Driver/axi_driver.sv(63) @ 9275000: uvm_test_top.env.agent.driver [DRV] Write Done: Addr=100002e0 Data=5d10b0e5 Prot=000
# [DRAM WRITE] addr=100002e4 data=69bd6ed3
# UVM_INFO C:/Documents/DoAnThietKeViMach/Project/SoC/VERIFICATION/Monitor/axi_monitor.sv(51) @ 9315000: uvm_test_top.env.agent.monitor [MON_WR] Detected WRITE : Addr=100002e4 Data=69bd6ed3 Strb=1111 Prot=000 BResp=00
# UVM_INFO C:/Documents/DoAnThietKeViMach/Project/SoC/VERIFICATION/Driver/axi_driver.sv(63) @ 9325000: uvm_test_top.env.agent.driver [DRV] Write Done: Addr=100002e4 Data=69bd6ed3 Prot=000
# [DRAM WRITE] addr=100002e8 data=472e998a
# UVM_INFO C:/Documents/DoAnThietKeViMach/Project/SoC/VERIFICATION/Monitor/axi_monitor.sv(51) @ 9365000: uvm_test_top.env.agent.monitor [MON_WR] Detected WRITE : Addr=100002e8 Data=472e998a Strb=1111 Prot=000 BResp=00
# UVM_INFO C:/Documents/DoAnThietKeViMach/Project/SoC/VERIFICATION/Driver/axi_driver.sv(63) @ 9375000: uvm_test_top.env.agent.driver [DRV] Write Done: Addr=100002e8 Data=472e998a Prot=000
# [DRAM WRITE] addr=100002ec data=70f4ad9b
# UVM_INFO C:/Documents/DoAnThietKeViMach/Project/SoC/VERIFICATION/Monitor/axi_monitor.sv(51) @ 9415000: uvm_test_top.env.agent.monitor [MON_WR] Detected WRITE : Addr=100002ec Data=70f4ad9b Strb=1111 Prot=000 BResp=00
# UVM_INFO C:/Documents/DoAnThietKeViMach/Project/SoC/VERIFICATION/Driver/axi_driver.sv(63) @ 9425000: uvm_test_top.env.agent.driver [DRV] Write Done: Addr=100002ec Data=70f4ad9b Prot=000
# [DRAM WRITE] addr=100002f0 data=b56e8ee4
# UVM_INFO C:/Documents/DoAnThietKeViMach/Project/SoC/VERIFICATION/Monitor/axi_monitor.sv(51) @ 9465000: uvm_test_top.env.agent.monitor [MON_WR] Detected WRITE : Addr=100002f0 Data=b56e8ee4 Strb=1111 Prot=000 BResp=00
# UVM_INFO C:/Documents/DoAnThietKeViMach/Project/SoC/VERIFICATION/Driver/axi_driver.sv(63) @ 9475000: uvm_test_top.env.agent.driver [DRV] Write Done: Addr=100002f0 Data=b56e8ee4 Prot=000
# [DRAM WRITE] addr=100002f4 data=5686c669
# UVM_INFO C:/Documents/DoAnThietKeViMach/Project/SoC/VERIFICATION/Monitor/axi_monitor.sv(51) @ 9515000: uvm_test_top.env.agent.monitor [MON_WR] Detected WRITE : Addr=100002f4 Data=5686c669 Strb=1111 Prot=000 BResp=00
# UVM_INFO C:/Documents/DoAnThietKeViMach/Project/SoC/VERIFICATION/Driver/axi_driver.sv(63) @ 9525000: uvm_test_top.env.agent.driver [DRV] Write Done: Addr=100002f4 Data=5686c669 Prot=000
# [DRAM WRITE] addr=100002f8 data=8ff3d21c
# UVM_INFO C:/Documents/DoAnThietKeViMach/Project/SoC/VERIFICATION/Monitor/axi_monitor.sv(51) @ 9565000: uvm_test_top.env.agent.monitor [MON_WR] Detected WRITE : Addr=100002f8 Data=8ff3d21c Strb=1111 Prot=000 BResp=00
# UVM_INFO C:/Documents/DoAnThietKeViMach/Project/SoC/VERIFICATION/Driver/axi_driver.sv(63) @ 9575000: uvm_test_top.env.agent.driver [DRV] Write Done: Addr=100002f8 Data=8ff3d21c Prot=000
# [DRAM WRITE] addr=100002fc data=51c3602d
# UVM_INFO C:/Documents/DoAnThietKeViMach/Project/SoC/VERIFICATION/Monitor/axi_monitor.sv(51) @ 9615000: uvm_test_top.env.agent.monitor [MON_WR] Detected WRITE : Addr=100002fc Data=51c3602d Strb=1111 Prot=000 BResp=00
# UVM_INFO C:/Documents/DoAnThietKeViMach/Project/SoC/VERIFICATION/Driver/axi_driver.sv(63) @ 9625000: uvm_test_top.env.agent.driver [DRV] Write Done: Addr=100002fc Data=51c3602d Prot=000
# [DRAM WRITE] addr=10000300 data=3ae722f6
# UVM_INFO C:/Documents/DoAnThietKeViMach/Project/SoC/VERIFICATION/Monitor/axi_monitor.sv(51) @ 9665000: uvm_test_top.env.agent.monitor [MON_WR] Detected WRITE : Addr=10000300 Data=3ae722f6 Strb=1111 Prot=000 BResp=00
# UVM_INFO C:/Documents/DoAnThietKeViMach/Project/SoC/VERIFICATION/Driver/axi_driver.sv(63) @ 9675000: uvm_test_top.env.agent.driver [DRV] Write Done: Addr=10000300 Data=3ae722f6 Prot=000
# [DRAM WRITE] addr=10000304 data=5d43bd57
# UVM_INFO C:/Documents/DoAnThietKeViMach/Project/SoC/VERIFICATION/Monitor/axi_monitor.sv(51) @ 9715000: uvm_test_top.env.agent.monitor [MON_WR] Detected WRITE : Addr=10000304 Data=5d43bd57 Strb=1111 Prot=000 BResp=00
# UVM_INFO C:/Documents/DoAnThietKeViMach/Project/SoC/VERIFICATION/Driver/axi_driver.sv(63) @ 9725000: uvm_test_top.env.agent.driver [DRV] Write Done: Addr=10000304 Data=5d43bd57 Prot=000
# [DRAM WRITE] addr=10000308 data=77e5c3b5
# UVM_INFO C:/Documents/DoAnThietKeViMach/Project/SoC/VERIFICATION/Monitor/axi_monitor.sv(51) @ 9765000: uvm_test_top.env.agent.monitor [MON_WR] Detected WRITE : Addr=10000308 Data=77e5c3b5 Strb=1111 Prot=000 BResp=00
# UVM_INFO C:/Documents/DoAnThietKeViMach/Project/SoC/VERIFICATION/Driver/axi_driver.sv(63) @ 9775000: uvm_test_top.env.agent.driver [DRV] Write Done: Addr=10000308 Data=77e5c3b5 Prot=000
# [DRAM WRITE] addr=1000030c data=62d01528
# UVM_INFO C:/Documents/DoAnThietKeViMach/Project/SoC/VERIFICATION/Monitor/axi_monitor.sv(51) @ 9815000: uvm_test_top.env.agent.monitor [MON_WR] Detected WRITE : Addr=1000030c Data=62d01528 Strb=1111 Prot=000 BResp=00
# UVM_INFO C:/Documents/DoAnThietKeViMach/Project/SoC/VERIFICATION/Driver/axi_driver.sv(63) @ 9825000: uvm_test_top.env.agent.driver [DRV] Write Done: Addr=1000030c Data=62d01528 Prot=000
# [DRAM WRITE] addr=10000310 data=503e7415
# UVM_INFO C:/Documents/DoAnThietKeViMach/Project/SoC/VERIFICATION/Monitor/axi_monitor.sv(51) @ 9865000: uvm_test_top.env.agent.monitor [MON_WR] Detected WRITE : Addr=10000310 Data=503e7415 Strb=1111 Prot=000 BResp=00
# UVM_INFO C:/Documents/DoAnThietKeViMach/Project/SoC/VERIFICATION/Driver/axi_driver.sv(63) @ 9875000: uvm_test_top.env.agent.driver [DRV] Write Done: Addr=10000310 Data=503e7415 Prot=000
# [DRAM WRITE] addr=10000314 data=f251b379
# UVM_INFO C:/Documents/DoAnThietKeViMach/Project/SoC/VERIFICATION/Monitor/axi_monitor.sv(51) @ 9915000: uvm_test_top.env.agent.monitor [MON_WR] Detected WRITE : Addr=10000314 Data=f251b379 Strb=1111 Prot=000 BResp=00
# UVM_INFO C:/Documents/DoAnThietKeViMach/Project/SoC/VERIFICATION/Driver/axi_driver.sv(63) @ 9925000: uvm_test_top.env.agent.driver [DRV] Write Done: Addr=10000314 Data=f251b379 Prot=000
# [DRAM WRITE] addr=10000318 data=0ae7f364
# UVM_INFO C:/Documents/DoAnThietKeViMach/Project/SoC/VERIFICATION/Monitor/axi_monitor.sv(51) @ 9965000: uvm_test_top.env.agent.monitor [MON_WR] Detected WRITE : Addr=10000318 Data=0ae7f364 Strb=1111 Prot=000 BResp=00
