--- [SIM ONLY] cpu_test ---
MODE = CPU_MASTER
UVM_TESTNAME = cpu_test
Reading C:/app/QuestaSim/tcl/vsim/pref.tcl 

# 10.2c

# vsim +UVM_TESTNAME=cpu_test +CPU_MASTER +MEM_SEED=2668490665 +CPU_INSTR_COUNT=208 -coverage -do {run -all; quit} -c -sv_seed 2668490665 vopt_top 
# //  Questa Sim-64
# //  Version 10.2c Unknown Platform Jul 19 2013
# //
# //  Copyright 1991-2013 Mentor Graphics Corporation
# //  All Rights Reserved.
# //
# //  THIS WORK CONTAINS TRADE SECRET AND PROPRIETARY INFORMATION
# //  WHICH IS THE PROPERTY OF MENTOR GRAPHICS CORPORATION OR ITS
# //  LICENSORS AND IS SUBJECT TO LICENSE TERMS.
# //
# Loading sv_std.std
# Loading mtiUvm.uvm_pkg
# Loading work.soc_pkg(fast)
# Loading work.top_tb(fast)
# Loading work.clk_rst_inf(fast)
# Loading work.soc_inf(fast)
# Loading work.cpu_monitor_inf(fast)
# Loading work.TOP(fast)
# Loading work.AXI_Master(fast)
# Loading work.CPU(fast)
# Loading work.pc_reg(fast)
# Loading work.IF_ID(fast)
# Loading work.ControlUnit(fast)
# Loading work.MainDecoder(fast)
# Loading work.ALUControl(fast)
# Loading work.RegFile(fast)
# Loading work.signExtend(fast)
# Loading work.ID_EX(fast)
# Loading work.ALU(fast)
# Loading work.EX_MEM(fast)
# Loading work.MEM_WB(fast)
# Loading work.HazardUnit(fast)
# Loading work.LSU(fast)
# Loading work.AXI4_Lite_Interconnect(fast)
# Loading work.IRAM(fast)
# Loading work.DRAM(fast)
# Loading work.Timer(fast)
# Loading work.UART(fast)
# Loading work.SPI(fast)
# Loading work.axi4_lite_sva(fast)
# Loading work.cpu_sva(fast)
# Loading mtiUvm.questa_uvm_pkg(fast)
# Loading C:/app/QuestaSim/uvm-1.1d\win64\uvm_dpi.dll
# run -all 
# ----------------------------------------------------------------
# UVM-1.1d
# (C) 2007-2013 Mentor Graphics Corporation
# (C) 2007-2013 Cadence Design Systems, Inc.
# (C) 2006-2013 Synopsys, Inc.
# (C) 2011-2013 Cypress Semiconductor Corp.
# ----------------------------------------------------------------
# 
#   ***********       IMPORTANT RELEASE NOTES         ************
# 
#   You are using a version of the UVM library that has been compiled
#   with `UVM_NO_DEPRECATED undefined.
#   See http://www.eda.org/svdb/view.php?id=3313 for more details.
# 
#   You are using a version of the UVM library that has been compiled
#   with `UVM_OBJECT_MUST_HAVE_CONSTRUCTOR undefined.
#   See http://www.eda.org/svdb/view.php?id=3770 for more details.
# 
#       (Specify +UVM_NO_RELNOTES to turn off this notice)
# 
# UVM_INFO verilog_src/questa_uvm_pkg-1.2/src/questa_uvm_pkg.sv(215) @ 0: reporter [Questa UVM] QUESTA_UVM-1.2.2
# UVM_INFO verilog_src/questa_uvm_pkg-1.2/src/questa_uvm_pkg.sv(217) @ 0: reporter [Questa UVM]  questa_uvm::init(+struct)
# [IRAM] Loading file: instr.mem
# [IRAM] mem[0] = 100000b7
# [IRAM] mem[1] = 20000137
# [IRAM] mem[2] = 300001b7
# [IRAM] mem[3] = 40000237
# [IRAM] mem[4] = 00c89733
# [IRAM] mem[5] = 00412503
# [IRAM] mem[6] = 01b04263
# [IRAM] mem[7] = 7f80ab03
# [IRAM] mem[8] = 0101a623
# [IRAM] mem[9] = 00412303
# [IRAM] mem[10] = 40ca5e33
# [IRAM] mem[11] = 0041a003
# [IRAM] mem[12] = 00c22e03
# [IRAM] mem[13] = 66c0a703
# [IRAM] mem[14] = 7f0a7613
# [IRAM] mem[15] = 0124edb3
# [IRAM] mem[16] = e6886993
# [IRAM] mem[17] = 0091a023
# [IRAM] mem[18] = 01f01263
# [IRAM] mem[19] = 01228ab3
# [IRAM] mem[20] = 00422603
# [IRAM] mem[21] = 004005ef
# [IRAM] mem[22] = 00022003
# [IRAM] mem[23] = 00422a83
# [IRAM] mem[24] = 01f04263
# [IRAM] mem[25] = 00c22c83
# [IRAM] mem[26] = 41865e33
# [IRAM] mem[27] = 6240a583
# [IRAM] mem[28] = 14d50c13
# [IRAM] mem[29] = 0081a003
# [IRAM] mem[30] = 40cbd833
# [IRAM] mem[31] = 00005263
# [IRAM] mem[32] = 00012903
# [IRAM] mem[33] = 4e8a7f13
# [IRAM] mem[34] = 40cd8433
# [IRAM] mem[35] = 73daa993
# [IRAM] mem[36] = 00f12023
# [IRAM] mem[37] = 0131a023
# [IRAM] mem[38] = 01812023
# [IRAM] mem[39] = d66be493
# [IRAM] mem[40] = 3439a293
# [IRAM] mem[41] = 00007263
# [IRAM] mem[42] = 00007263
# [IRAM] mem[43] = 01c12223
# [IRAM] mem[44] = 0081a003
# [IRAM] mem[45] = 00980733
# [IRAM] mem[46] = 01622023
# [IRAM] mem[47] = 00022003
# [IRAM] mem[48] = 0061a023
# [IRAM] mem[49] = 01222223
# [IRAM] mem[50] = 00005263
# [IRAM] mem[51] = 0184a633
# [IRAM] mem[52] = 0081a003
# [IRAM] mem[53] = 01e04263
# [IRAM] mem[54] = 00000263
# [IRAM] mem[55] = 0440a683
# [IRAM] mem[56] = 00c22983
# [IRAM] mem[57] = 00822003
# [IRAM] mem[58] = 00412d83
# [IRAM] mem[59] = 0730ac23
# [IRAM] mem[60] = 0060a223
# [IRAM] mem[61] = bb6fa793
# [IRAM] mem[62] = 00b12223
# [IRAM] mem[63] = 41840eb3
# [IRAM] mem[64] = 3700a903
# [IRAM] mem[65] = 00000263
# [IRAM] mem[66] = 01bdeb33
# [IRAM] mem[67] = 019ed933
# [IRAM] mem[68] = 03e0a823
# [IRAM] mem[69] = 00012f03
# [IRAM] mem[70] = 01904263
# [IRAM] mem[71] = 01722623
# [IRAM] mem[72] = f7182993
# [IRAM] mem[73] = 01f12223
# [IRAM] mem[74] = 00b12023
# [IRAM] mem[75] = 01606263
# [IRAM] mem[76] = 03de8d93
# [IRAM] mem[77] = 01706263
# [IRAM] mem[78] = 00c12023
# [IRAM] mem[79] = 00812003
# [IRAM] mem[80] = 686e0293
# [IRAM] mem[81] = 0081a003
# [IRAM] mem[82] = 405784b3
# [IRAM] mem[83] = fa8df413
# [IRAM] mem[84] = 00412683
# [IRAM] mem[85] = 0081a003
# [IRAM] mem[86] = 01b01263
# [IRAM] mem[87] = 00c1ad03
# [IRAM] mem[88] = 009fad33
# [IRAM] mem[89] = 00912223
# [IRAM] mem[90] = 68240393
# [IRAM] mem[91] = 0041a003
# [IRAM] mem[92] = 00c1ac83
# [IRAM] mem[93] = 4f80a603
# [IRAM] mem[94] = 00d485b3
# [IRAM] mem[95] = 00a6a6b3
# [IRAM] mem[96] = 00a1a023
# [IRAM] mem[97] = 1df74e13
# [IRAM] mem[98] = 00812003
# [IRAM] mem[99] = 00412e03
# [IRAM] mem[100] = 00d01263
# [IRAM] mem[101] = 00a899b3
# [IRAM] mem[102] = 01d22623
# [IRAM] mem[103] = 00b04263
# [IRAM] mem[104] = 00801263
# [IRAM] mem[105] = 4340ac83
# [IRAM] mem[106] = 00606263
# [IRAM] mem[107] = 01d04263
# [IRAM] mem[108] = 8698cd13
# [IRAM] mem[109] = 0121a623
# [IRAM] mem[110] = 01d06263
# [IRAM] mem[111] = 01d1a023
# [IRAM] mem[112] = 00f12223
# [IRAM] mem[113] = 00007263
# [IRAM] mem[114] = 0041a003
# [IRAM] mem[115] = 00005263
# [IRAM] mem[116] = 01df9833
# [IRAM] mem[117] = 00e22023
# [IRAM] mem[118] = 0041a003
# [IRAM] mem[119] = 5c40ab83
# [IRAM] mem[120] = 01601263
# [IRAM] mem[121] = 01322223
# [IRAM] mem[122] = 01828a33
# [IRAM] mem[123] = 00812003
# [IRAM] mem[124] = 00c1a403
# [IRAM] mem[125] = 00000263
# [IRAM] mem[126] = 0081a003
# [IRAM] mem[127] = 00012883
# [IRAM] mem[128] = 00005263
# [IRAM] mem[129] = e1f42813
# [IRAM] mem[130] = 00a1a623
# [IRAM] mem[131] = 00005263
# [IRAM] mem[132] = 83ffa413
# [IRAM] mem[133] = 00400a6f
# [IRAM] mem[134] = 01f1a623
# [IRAM] mem[135] = 58c0aa83
# [IRAM] mem[136] = 00c69cb3
# [IRAM] mem[137] = 00400c6f
# [IRAM] mem[138] = 7080ab03
# [IRAM] mem[139] = 4182d2b3
# [IRAM] mem[140] = 00007263
# [IRAM] mem[141] = 00007263
# [IRAM] mem[142] = 00400f6f
# [IRAM] mem[143] = 00f12023
# [IRAM] mem[144] = 00906263
# [IRAM] mem[145] = 00812003
# [IRAM] mem[146] = 00c1aa03
# [IRAM] mem[147] = 01212223
# [IRAM] mem[148] = 00012a83
# [IRAM] mem[149] = 0155f2b3
# [IRAM] mem[150] = 00422583
# [IRAM] mem[151] = 00000263
# [IRAM] mem[152] = 417a0fb3
# [IRAM] mem[153] = 00005263
# [IRAM] mem[154] = 004003ef
# [IRAM] mem[155] = 00def4b3
# [IRAM] mem[156] = 01206263
# [IRAM] mem[157] = 01d46633
# [IRAM] mem[158] = 01dacb33
# [IRAM] mem[159] = 00c22023
# [IRAM] mem[160] = 00400eef
# [IRAM] mem[161] = 00822003
# [IRAM] mem[162] = 00412a83
# [IRAM] mem[163] = 01112023
# [IRAM] mem[164] = 409ad9b3
# [IRAM] mem[165] = 00822003
# [IRAM] mem[166] = 014897b3
# [IRAM] mem[167] = 00812003
# [IRAM] mem[168] = 01edebb3
# [IRAM] mem[169] = 00a1a623
# [IRAM] mem[170] = 01701263
# [IRAM] mem[171] = 0041a003
# [IRAM] mem[172] = 00c1af03
# [IRAM] mem[173] = 01b1a023
# [IRAM] mem[174] = 4db0aa23
# [IRAM] mem[175] = 00b1a623
# [IRAM] mem[176] = 00400f6f
# [IRAM] mem[177] = 00000263
# [IRAM] mem[178] = 00012e83
# [IRAM] mem[179] = 00012a03
# [IRAM] mem[180] = 01b06263
# [IRAM] mem[181] = 017ec933
# [IRAM] mem[182] = 01a846b3
# [IRAM] mem[183] = 00000263
# [IRAM] mem[184] = 00007263
# [IRAM] mem[185] = 00005263
# [IRAM] mem[186] = 0041a003
# [IRAM] mem[187] = 3150a023
# [IRAM] mem[188] = 7b12fd13
# [IRAM] mem[189] = 24c52413
# [IRAM] mem[190] = 00812003
# [IRAM] mem[191] = 00df85b3
# [IRAM] mem[192] = 019c0d33
# [IRAM] mem[193] = 00ec4833
# [IRAM] mem[194] = 00c1a403
# [IRAM] mem[195] = 00007263
# [IRAM] mem[196] = 00022003
# [IRAM] mem[197] = 004003ef
# [IRAM] mem[198] = 01422623
# [IRAM] mem[199] = 00000263
# [IRAM] mem[200] = 05a00293
# [IRAM] mem[201] = 3050a023
# [IRAM] mem[202] = 3000a303
# [IRAM] mem[203] = 00629463
# [IRAM] mem[204] = 05a00393
# [IRAM] mem[205] = 0080006f
# [IRAM] mem[206] = 0a500393
# [IRAM] mem[207] = 3e70a823
# [IRAM] mem[208] = 00000013
# [IRAM] mem[209] = 00000013
# [IRAM] mem[210] = 00000013
# [IRAM] mem[211] = 00000013
# [IRAM] mem[212] = 00000013
# [IRAM] mem[213] = 00000013
# [IRAM] mem[214] = 00000013
# [IRAM] mem[215] = 00000013
# [IRAM] mem[216] = 00000013
# [IRAM] mem[217] = 00000013
# [IRAM] mem[218] = 00000013
# [IRAM] mem[219] = 00000013
# [IRAM] mem[220] = 00000013
# [IRAM] mem[221] = 00000013
# [IRAM] mem[222] = 00000013
# [IRAM] mem[223] = 00000013
# [IRAM] mem[224] = 00000013
# [IRAM] mem[225] = 00000013
# [IRAM] mem[226] = 00000013
# [IRAM] mem[227] = 00000013
# [IRAM] mem[228] = 00000013
# [IRAM] mem[229] = 00000013
# [IRAM] mem[230] = 00000013
# [IRAM] mem[231] = 00000013
# [IRAM] mem[232] = 00000013
# [IRAM] mem[233] = 00000013
# [IRAM] mem[234] = 00000013
# [IRAM] mem[235] = 00000013
# [IRAM] mem[236] = 00000013
# [IRAM] mem[237] = 00000013
# [IRAM] mem[238] = 00000013
# [IRAM] mem[239] = 00000013
# [IRAM] mem[240] = 00000013
# [IRAM] mem[241] = 00000013
# [IRAM] mem[242] = 00000013
# [IRAM] mem[243] = 00000013
# [IRAM] mem[244] = 00000013
# [IRAM] mem[245] = 00000013
# [IRAM] mem[246] = 00000013
# [IRAM] mem[247] = 00000013
# [IRAM] mem[248] = 00000013
# [IRAM] mem[249] = 00000013
# [IRAM] mem[250] = 00000013
# [IRAM] mem[251] = 00000013
# [IRAM] mem[252] = 00000013
# [IRAM] mem[253] = 00000013
# [IRAM] mem[254] = 00000013
# [IRAM] mem[255] = 00000013
# [IRAM] Loaded 16384 instruction words
# [TB] Mode: CPU MASTER => CPU drives AXI, UVM observes
# UVM_INFO @ 0: reporter [RNTST] Running test cpu_test...
# UVM_INFO C:/Documents/DoAnThietKeViMach/Project/SoC/VERIFICATION/Scoreboard/cpu_scoreboard.sv(206) @ 0: uvm_test_top.env.scoreboard [SCB] Loaded expected registers from: expected.mem
# UVM_INFO C:/Documents/DoAnThietKeViMach/Project/SoC/VERIFICATION/Test/cpu_test.sv(55) @ 0: uvm_test_top [TEST] Program has 208 instructions, end PC = 00000340
# UVM_INFO C:/Documents/DoAnThietKeViMach/Project/SoC/VERIFICATION/Monitor/cpu_monitor.sv(201) @ 35000: uvm_test_top.env.agent.monitor [CPU_MON] === CPU Monitor started == watching pipeline ===
# UVM_INFO C:/Documents/DoAnThietKeViMach/Project/SoC/VERIFICATION/Monitor/cpu_monitor.sv(202) @ 35000: uvm_test_top.env.agent.monitor [CPU_MON] ============================================================
# UVM_INFO C:/Documents/DoAnThietKeViMach/Project/SoC/VERIFICATION/Test/cpu_test.sv(61) @ 55000: uvm_test_top [TEST] Reset released - CPU executing from IRAM
# UVM_INFO C:/Documents/DoAnThietKeViMach/Project/SoC/VERIFICATION/Monitor/cpu_monitor.sv(336) @ 55000: uvm_test_top.env.agent.monitor [AXI_RD] CPU <- IRAM  Addr=00000000 Data=100000b7 RRESP=00
# UVM_INFO C:/Documents/DoAnThietKeViMach/Project/SoC/VERIFICATION/Monitor/cpu_monitor.sv(336) @ 95000: uvm_test_top.env.agent.monitor [AXI_RD] CPU <- IRAM  Addr=00000004 Data=20000137 RRESP=00
# UVM_INFO C:/Documents/DoAnThietKeViMach/Project/SoC/VERIFICATION/Monitor/cpu_monitor.sv(230) @ 95000: uvm_test_top.env.agent.monitor [IF] PC=00000004  INSTR=20000137  [LUI  x2, 0x20000]            
# UVM_INFO C:/Documents/DoAnThietKeViMach/Project/SoC/VERIFICATION/Monitor/cpu_monitor.sv(336) @ 135000: uvm_test_top.env.agent.monitor [AXI_RD] CPU <- IRAM  Addr=00000008 Data=300001b7 RRESP=00
# UVM_INFO C:/Documents/DoAnThietKeViMach/Project/SoC/VERIFICATION/Monitor/cpu_monitor.sv(230) @ 135000: uvm_test_top.env.agent.monitor [IF] PC=00000008  INSTR=300001b7  [LUI  x3, 0x30000]            
# UVM_INFO C:/Documents/DoAnThietKeViMach/Project/SoC/VERIFICATION/Monitor/cpu_monitor.sv(336) @ 175000: uvm_test_top.env.agent.monitor [AXI_RD] CPU <- IRAM  Addr=0000000c Data=40000237 RRESP=00
# UVM_INFO C:/Documents/DoAnThietKeViMach/Project/SoC/VERIFICATION/Monitor/cpu_monitor.sv(230) @ 175000: uvm_test_top.env.agent.monitor [IF] PC=0000000c  INSTR=40000237  [LUI  x4, 0x40000]            
# UVM_INFO C:/Documents/DoAnThietKeViMach/Project/SoC/VERIFICATION/Monitor/cpu_monitor.sv(276) @ 185000: uvm_test_top.env.agent.monitor [WB] x01 <= 10000000  (PC~0000000c)
# UVM_INFO C:/Documents/DoAnThietKeViMach/Project/SoC/VERIFICATION/Monitor/cpu_monitor.sv(276) @ 195000: uvm_test_top.env.agent.monitor [WB] x01 <= 10000000  (PC~0000000c)
# UVM_INFO C:/Documents/DoAnThietKeViMach/Project/SoC/VERIFICATION/Monitor/cpu_monitor.sv(276) @ 205000: uvm_test_top.env.agent.monitor [WB] x01 <= 10000000  (PC~0000000c)
# UVM_INFO C:/Documents/DoAnThietKeViMach/Project/SoC/VERIFICATION/Monitor/cpu_monitor.sv(336) @ 215000: uvm_test_top.env.agent.monitor [AXI_RD] CPU <- IRAM  Addr=00000010 Data=00c89733 RRESP=00
# UVM_INFO C:/Documents/DoAnThietKeViMach/Project/SoC/VERIFICATION/Monitor/cpu_monitor.sv(230) @ 215000: uvm_test_top.env.agent.monitor [IF] PC=00000010  INSTR=00c89733  [SLL  x14, x17, x12]            
# UVM_INFO C:/Documents/DoAnThietKeViMach/Project/SoC/VERIFICATION/Monitor/cpu_monitor.sv(276) @ 215000: uvm_test_top.env.agent.monitor [WB] x01 <= 10000000  (PC~00000010)
# UVM_INFO C:/Documents/DoAnThietKeViMach/Project/SoC/VERIFICATION/Monitor/cpu_monitor.sv(276) @ 225000: uvm_test_top.env.agent.monitor [WB] x02 <= 20000000  (PC~00000010)
# UVM_INFO C:/Documents/DoAnThietKeViMach/Project/SoC/VERIFICATION/Monitor/cpu_monitor.sv(276) @ 235000: uvm_test_top.env.agent.monitor [WB] x02 <= 20000000  (PC~00000010)
# UVM_INFO C:/Documents/DoAnThietKeViMach/Project/SoC/VERIFICATION/Monitor/cpu_monitor.sv(276) @ 245000: uvm_test_top.env.agent.monitor [WB] x02 <= 20000000  (PC~00000010)
# UVM_INFO C:/Documents/DoAnThietKeViMach/Project/SoC/VERIFICATION/Monitor/cpu_monitor.sv(336) @ 255000: uvm_test_top.env.agent.monitor [AXI_RD] CPU <- IRAM  Addr=00000014 Data=00412503 RRESP=00
# UVM_INFO C:/Documents/DoAnThietKeViMach/Project/SoC/VERIFICATION/Monitor/cpu_monitor.sv(230) @ 255000: uvm_test_top.env.agent.monitor [IF] PC=00000014  INSTR=00412503  [LW   x10, 4(x2)]            
# UVM_INFO C:/Documents/DoAnThietKeViMach/Project/SoC/VERIFICATION/Monitor/cpu_monitor.sv(276) @ 255000: uvm_test_top.env.agent.monitor [WB] x02 <= 20000000  (PC~00000014)
# UVM_INFO C:/Documents/DoAnThietKeViMach/Project/SoC/VERIFICATION/Monitor/cpu_monitor.sv(276) @ 265000: uvm_test_top.env.agent.monitor [WB] x03 <= 30000000  (PC~00000014)
# UVM_INFO C:/Documents/DoAnThietKeViMach/Project/SoC/VERIFICATION/Monitor/cpu_monitor.sv(276) @ 275000: uvm_test_top.env.agent.monitor [WB] x03 <= 30000000  (PC~00000014)
# UVM_INFO C:/Documents/DoAnThietKeViMach/Project/SoC/VERIFICATION/Monitor/cpu_monitor.sv(276) @ 285000: uvm_test_top.env.agent.monitor [WB] x03 <= 30000000  (PC~00000014)
# UVM_INFO C:/Documents/DoAnThietKeViMach/Project/SoC/VERIFICATION/Monitor/cpu_monitor.sv(336) @ 295000: uvm_test_top.env.agent.monitor [AXI_RD] CPU <- IRAM  Addr=00000018 Data=01b04263 RRESP=00
# UVM_INFO C:/Documents/DoAnThietKeViMach/Project/SoC/VERIFICATION/Monitor/cpu_monitor.sv(230) @ 295000: uvm_test_top.env.agent.monitor [IF] PC=00000018  INSTR=01b04263  [BLT  x0, x27, ...]            
# UVM_INFO C:/Documents/DoAnThietKeViMach/Project/SoC/VERIFICATION/Monitor/cpu_monitor.sv(276) @ 295000: uvm_test_top.env.agent.monitor [WB] x03 <= 30000000  (PC~00000018)
# UVM_INFO C:/Documents/DoAnThietKeViMach/Project/SoC/VERIFICATION/Monitor/cpu_monitor.sv(276) @ 305000: uvm_test_top.env.agent.monitor [WB] x04 <= 40000000  (PC~00000018)
# UVM_INFO C:/Documents/DoAnThietKeViMach/Project/SoC/VERIFICATION/Monitor/cpu_monitor.sv(276) @ 315000: uvm_test_top.env.agent.monitor [WB] x04 <= 40000000  (PC~00000018)
# UVM_INFO C:/Documents/DoAnThietKeViMach/Project/SoC/VERIFICATION/Monitor/cpu_monitor.sv(276) @ 325000: uvm_test_top.env.agent.monitor [WB] x04 <= 40000000  (PC~00000018)
# UVM_INFO C:/Documents/DoAnThietKeViMach/Project/SoC/VERIFICATION/Monitor/cpu_monitor.sv(336) @ 335000: uvm_test_top.env.agent.monitor [AXI_RD] CPU <- IRAM  Addr=0000001c Data=7f80ab03 RRESP=00
# UVM_INFO C:/Documents/DoAnThietKeViMach/Project/SoC/VERIFICATION/Monitor/cpu_monitor.sv(230) @ 335000: uvm_test_top.env.agent.monitor [IF] PC=0000001c  INSTR=7f80ab03  [LW   x22, 2040(x1)]            
# UVM_INFO C:/Documents/DoAnThietKeViMach/Project/SoC/VERIFICATION/Monitor/cpu_monitor.sv(276) @ 335000: uvm_test_top.env.agent.monitor [WB] x04 <= 40000000  (PC~0000001c)
# UVM_INFO C:/Documents/DoAnThietKeViMach/Project/SoC/VERIFICATION/Monitor/cpu_monitor.sv(336) @ 375000: uvm_test_top.env.agent.monitor [AXI_RD] CPU <- TIMER  Addr=20000004 Data=00000000 RRESP=00
# UVM_INFO C:/Documents/DoAnThietKeViMach/Project/SoC/VERIFICATION/Scoreboard/cpu_scoreboard.sv(157) @ 375000: uvm_test_top.env.scoreboard [SCB_PASS] [TIMER] READ PASS Addr=20000004 Expected=00000000 Got=00000000
# UVM_INFO C:/Documents/DoAnThietKeViMach/Project/SoC/VERIFICATION/Monitor/cpu_monitor.sv(276) @ 375000: uvm_test_top.env.agent.monitor [WB] x14 <= 00000000  (PC~0000001c)
# UVM_INFO C:/Documents/DoAnThietKeViMach/Project/SoC/VERIFICATION/Monitor/cpu_monitor.sv(276) @ 385000: uvm_test_top.env.agent.monitor [WB] x14 <= 00000000  (PC~0000001c)
# UVM_INFO C:/Documents/DoAnThietKeViMach/Project/SoC/VERIFICATION/Monitor/cpu_monitor.sv(276) @ 395000: uvm_test_top.env.agent.monitor [WB] x14 <= 00000000  (PC~0000001c)
# UVM_INFO C:/Documents/DoAnThietKeViMach/Project/SoC/VERIFICATION/Monitor/cpu_monitor.sv(276) @ 405000: uvm_test_top.env.agent.monitor [WB] x14 <= 00000000  (PC~0000001c)
# UVM_INFO C:/Documents/DoAnThietKeViMach/Project/SoC/VERIFICATION/Monitor/cpu_monitor.sv(336) @ 415000: uvm_test_top.env.agent.monitor [AXI_RD] CPU <- IRAM  Addr=00000020 Data=0101a623 RRESP=00
# UVM_INFO C:/Documents/DoAnThietKeViMach/Project/SoC/VERIFICATION/Monitor/cpu_monitor.sv(230) @ 415000: uvm_test_top.env.agent.monitor [IF] PC=00000020  INSTR=0101a623  [SW   x16, 16(x3)]            
# UVM_INFO C:/Documents/DoAnThietKeViMach/Project/SoC/VERIFICATION/Monitor/cpu_monitor.sv(276) @ 415000: uvm_test_top.env.agent.monitor [WB] x14 <= 00000000  (PC~00000020)
# UVM_INFO C:/Documents/DoAnThietKeViMach/Project/SoC/VERIFICATION/Monitor/cpu_monitor.sv(276) @ 425000: uvm_test_top.env.agent.monitor [WB] x10 <= 00000000  (PC~00000020)
# UVM_INFO C:/Documents/DoAnThietKeViMach/Project/SoC/VERIFICATION/Monitor/cpu_monitor.sv(276) @ 435000: uvm_test_top.env.agent.monitor [WB] x10 <= 00000000  (PC~00000020)
# UVM_INFO C:/Documents/DoAnThietKeViMach/Project/SoC/VERIFICATION/Monitor/cpu_monitor.sv(276) @ 445000: uvm_test_top.env.agent.monitor [WB] x10 <= 00000000  (PC~00000020)
# UVM_INFO C:/Documents/DoAnThietKeViMach/Project/SoC/VERIFICATION/Monitor/cpu_monitor.sv(336) @ 455000: uvm_test_top.env.agent.monitor [AXI_RD] CPU <- IRAM  Addr=00000024 Data=00412303 RRESP=00
# UVM_INFO C:/Documents/DoAnThietKeViMach/Project/SoC/VERIFICATION/Monitor/cpu_monitor.sv(230) @ 455000: uvm_test_top.env.agent.monitor [IF] PC=00000024  INSTR=00412303  [LW   x6, 4(x2)]            
# UVM_INFO C:/Documents/DoAnThietKeViMach/Project/SoC/VERIFICATION/Monitor/cpu_monitor.sv(276) @ 455000: uvm_test_top.env.agent.monitor [WB] x10 <= 00000000  (PC~00000024)
# [DRAM READ] addr=100007f8 data=00000000
# UVM_INFO C:/Documents/DoAnThietKeViMach/Project/SoC/VERIFICATION/Monitor/cpu_monitor.sv(336) @ 495000: uvm_test_top.env.agent.monitor [AXI_RD] CPU <- DRAM  Addr=100007f8 Data=00000000 RRESP=00
# UVM_INFO C:/Documents/DoAnThietKeViMach/Project/SoC/VERIFICATION/Scoreboard/cpu_scoreboard.sv(157) @ 495000: uvm_test_top.env.scoreboard [SCB_PASS] [DRAM] READ PASS Addr=100007f8 Expected=00000000 Got=00000000
# UVM_INFO C:/Documents/DoAnThietKeViMach/Project/SoC/VERIFICATION/Monitor/cpu_monitor.sv(336) @ 535000: uvm_test_top.env.agent.monitor [AXI_RD] CPU <- IRAM  Addr=00000028 Data=40ca5e33 RRESP=00
# UVM_INFO C:/Documents/DoAnThietKeViMach/Project/SoC/VERIFICATION/Monitor/cpu_monitor.sv(230) @ 535000: uvm_test_top.env.agent.monitor [IF] PC=00000028  INSTR=40ca5e33  [SRA  x28, x20, x12]            
# UVM_INFO C:/Documents/DoAnThietKeViMach/Project/SoC/VERIFICATION/Monitor/cpu_monitor.sv(251) @ 545000: uvm_test_top.env.agent.monitor [MEM] STORE Addr=3000000c Data=00000000
# UVM_INFO C:/Documents/DoAnThietKeViMach/Project/SoC/VERIFICATION/Monitor/cpu_monitor.sv(251) @ 555000: uvm_test_top.env.agent.monitor [MEM] STORE Addr=3000000c Data=00000000
# UVM_INFO C:/Documents/DoAnThietKeViMach/Project/SoC/VERIFICATION/Monitor/cpu_monitor.sv(251) @ 565000: uvm_test_top.env.agent.monitor [MEM] STORE Addr=3000000c Data=00000000
# UVM_INFO C:/Documents/DoAnThietKeViMach/Project/SoC/VERIFICATION/Monitor/cpu_monitor.sv(310) @ 575000: uvm_test_top.env.agent.monitor [AXI_WR] CPU -> UART  Addr=3000000c Data=00000000 Strb=1111 BRESP=00
# UVM_INFO C:/Documents/DoAnThietKeViMach/Project/SoC/VERIFICATION/Scoreboard/cpu_scoreboard.sv(271) @ 575000: uvm_test_top.env.scoreboard [SCB_PERIPH] [UART] WRITE Addr=3000000c Data=00000000
# UVM_INFO C:/Documents/DoAnThietKeViMach/Project/SoC/VERIFICATION/Monitor/cpu_monitor.sv(251) @ 575000: uvm_test_top.env.agent.monitor [MEM] STORE Addr=3000000c Data=00000000
# UVM_INFO C:/Documents/DoAnThietKeViMach/Project/SoC/VERIFICATION/Monitor/cpu_monitor.sv(276) @ 575000: uvm_test_top.env.agent.monitor [WB] x22 <= 00000000  (PC~00000028)
# UVM_INFO C:/Documents/DoAnThietKeViMach/Project/SoC/VERIFICATION/Monitor/cpu_monitor.sv(251) @ 585000: uvm_test_top.env.agent.monitor [MEM] STORE Addr=3000000c Data=00000000
# UVM_INFO C:/Documents/DoAnThietKeViMach/Project/SoC/VERIFICATION/Monitor/cpu_monitor.sv(276) @ 585000: uvm_test_top.env.agent.monitor [WB] x22 <= 00000000  (PC~00000028)
# UVM_INFO C:/Documents/DoAnThietKeViMach/Project/SoC/VERIFICATION/Monitor/cpu_monitor.sv(251) @ 595000: uvm_test_top.env.agent.monitor [MEM] STORE Addr=3000000c Data=00000000
# UVM_INFO C:/Documents/DoAnThietKeViMach/Project/SoC/VERIFICATION/Monitor/cpu_monitor.sv(276) @ 595000: uvm_test_top.env.agent.monitor [WB] x22 <= 00000000  (PC~00000028)
# UVM_INFO C:/Documents/DoAnThietKeViMach/Project/SoC/VERIFICATION/Monitor/cpu_monitor.sv(251) @ 605000: uvm_test_top.env.agent.monitor [MEM] STORE Addr=3000000c Data=00000000
# UVM_INFO C:/Documents/DoAnThietKeViMach/Project/SoC/VERIFICATION/Monitor/cpu_monitor.sv(276) @ 605000: uvm_test_top.env.agent.monitor [WB] x22 <= 00000000  (PC~00000028)
# UVM_INFO C:/Documents/DoAnThietKeViMach/Project/SoC/VERIFICATION/Monitor/cpu_monitor.sv(336) @ 615000: uvm_test_top.env.agent.monitor [AXI_RD] CPU <- IRAM  Addr=0000002c Data=0041a003 RRESP=00
# UVM_INFO C:/Documents/DoAnThietKeViMach/Project/SoC/VERIFICATION/Monitor/cpu_monitor.sv(230) @ 615000: uvm_test_top.env.agent.monitor [IF] PC=0000002c  INSTR=0041a003  [LW   x0, 4(x3)]            
# UVM_INFO C:/Documents/DoAnThietKeViMach/Project/SoC/VERIFICATION/Monitor/cpu_monitor.sv(251) @ 615000: uvm_test_top.env.agent.monitor [MEM] STORE Addr=3000000c Data=00000000
# UVM_INFO C:/Documents/DoAnThietKeViMach/Project/SoC/VERIFICATION/Monitor/cpu_monitor.sv(276) @ 615000: uvm_test_top.env.agent.monitor [WB] x22 <= 00000000  (PC~0000002c)
# UVM_INFO C:/Documents/DoAnThietKeViMach/Project/SoC/VERIFICATION/Monitor/cpu_monitor.sv(336) @ 655000: uvm_test_top.env.agent.monitor [AXI_RD] CPU <- TIMER  Addr=20000004 Data=00000000 RRESP=00
# UVM_INFO C:/Documents/DoAnThietKeViMach/Project/SoC/VERIFICATION/Scoreboard/cpu_scoreboard.sv(157) @ 655000: uvm_test_top.env.scoreboard [SCB_PASS] [TIMER] READ PASS Addr=20000004 Expected=00000000 Got=00000000
# UVM_INFO C:/Documents/DoAnThietKeViMach/Project/SoC/VERIFICATION/Monitor/cpu_monitor.sv(336) @ 695000: uvm_test_top.env.agent.monitor [AXI_RD] CPU <- IRAM  Addr=00000030 Data=00c22e03 RRESP=00
# UVM_INFO C:/Documents/DoAnThietKeViMach/Project/SoC/VERIFICATION/Monitor/cpu_monitor.sv(230) @ 695000: uvm_test_top.env.agent.monitor [IF] PC=00000030  INSTR=00c22e03  [LW   x28, 12(x4)]            
# UVM_INFO C:/Documents/DoAnThietKeViMach/Project/SoC/VERIFICATION/Monitor/cpu_monitor.sv(276) @ 705000: uvm_test_top.env.agent.monitor [WB] x06 <= 00000000  (PC~00000030)
# UVM_INFO C:/Documents/DoAnThietKeViMach/Project/SoC/VERIFICATION/Monitor/cpu_monitor.sv(276) @ 715000: uvm_test_top.env.agent.monitor [WB] x06 <= 00000000  (PC~00000030)
# UVM_INFO C:/Documents/DoAnThietKeViMach/Project/SoC/VERIFICATION/Monitor/cpu_monitor.sv(276) @ 725000: uvm_test_top.env.agent.monitor [WB] x06 <= 00000000  (PC~00000030)
# UVM_INFO C:/Documents/DoAnThietKeViMach/Project/SoC/VERIFICATION/Monitor/cpu_monitor.sv(336) @ 735000: uvm_test_top.env.agent.monitor [AXI_RD] CPU <- IRAM  Addr=00000034 Data=66c0a703 RRESP=00
# UVM_INFO C:/Documents/DoAnThietKeViMach/Project/SoC/VERIFICATION/Monitor/cpu_monitor.sv(230) @ 735000: uvm_test_top.env.agent.monitor [IF] PC=00000034  INSTR=66c0a703  [LW   x14, 1644(x1)]            
# UVM_INFO C:/Documents/DoAnThietKeViMach/Project/SoC/VERIFICATION/Monitor/cpu_monitor.sv(276) @ 735000: uvm_test_top.env.agent.monitor [WB] x06 <= 00000000  (PC~00000034)
# UVM_INFO C:/Documents/DoAnThietKeViMach/Project/SoC/VERIFICATION/Monitor/cpu_monitor.sv(336) @ 775000: uvm_test_top.env.agent.monitor [AXI_RD] CPU <- UART  Addr=30000004 Data=00000000 RRESP=00
# UVM_INFO C:/Documents/DoAnThietKeViMach/Project/SoC/VERIFICATION/Scoreboard/cpu_scoreboard.sv(275) @ 775000: uvm_test_top.env.scoreboard [SCB_PERIPH] [UART] READ Addr=30000004 Data=00000000 (volatile, compare skipped)
# UVM_INFO C:/Documents/DoAnThietKeViMach/Project/SoC/VERIFICATION/Monitor/cpu_monitor.sv(276) @ 775000: uvm_test_top.env.agent.monitor [WB] x28 <= 00000000  (PC~00000034)
# UVM_INFO C:/Documents/DoAnThietKeViMach/Project/SoC/VERIFICATION/Monitor/cpu_monitor.sv(276) @ 785000: uvm_test_top.env.agent.monitor [WB] x28 <= 00000000  (PC~00000034)
# UVM_INFO C:/Documents/DoAnThietKeViMach/Project/SoC/VERIFICATION/Monitor/cpu_monitor.sv(276) @ 795000: uvm_test_top.env.agent.monitor [WB] x28 <= 00000000  (PC~00000034)
# UVM_INFO C:/Documents/DoAnThietKeViMach/Project/SoC/VERIFICATION/Monitor/cpu_monitor.sv(276) @ 805000: uvm_test_top.env.agent.monitor [WB] x28 <= 00000000  (PC~00000034)
# UVM_INFO C:/Documents/DoAnThietKeViMach/Project/SoC/VERIFICATION/Monitor/cpu_monitor.sv(336) @ 815000: uvm_test_top.env.agent.monitor [AXI_RD] CPU <- IRAM  Addr=00000038 Data=7f0a7613 RRESP=00
# UVM_INFO C:/Documents/DoAnThietKeViMach/Project/SoC/VERIFICATION/Monitor/cpu_monitor.sv(230) @ 815000: uvm_test_top.env.agent.monitor [IF] PC=00000038  INSTR=7f0a7613  [ANDI x12, x20, 2032]            
# UVM_INFO C:/Documents/DoAnThietKeViMach/Project/SoC/VERIFICATION/Monitor/cpu_monitor.sv(276) @ 815000: uvm_test_top.env.agent.monitor [WB] x28 <= 00000000  (PC~00000038)
# UVM_INFO C:/Documents/DoAnThietKeViMach/Project/SoC/VERIFICATION/Monitor/cpu_monitor.sv(336) @ 855000: uvm_test_top.env.agent.monitor [AXI_RD] CPU <- SPI  Addr=4000000c Data=0000000a RRESP=00
# UVM_INFO C:/Documents/DoAnThietKeViMach/Project/SoC/VERIFICATION/Scoreboard/cpu_scoreboard.sv(157) @ 855000: uvm_test_top.env.scoreboard [SCB_PASS] [SPI] READ PASS Addr=4000000c Expected=0000000a Got=0000000a
# UVM_INFO C:/Documents/DoAnThietKeViMach/Project/SoC/VERIFICATION/Monitor/cpu_monitor.sv(336) @ 895000: uvm_test_top.env.agent.monitor [AXI_RD] CPU <- IRAM  Addr=0000003c Data=0124edb3 RRESP=00
# UVM_INFO C:/Documents/DoAnThietKeViMach/Project/SoC/VERIFICATION/Monitor/cpu_monitor.sv(230) @ 895000: uvm_test_top.env.agent.monitor [IF] PC=0000003c  INSTR=0124edb3  [OR   x27, x9, x18]            
# [DRAM READ] addr=1000066c data=00000000
# UVM_INFO C:/Documents/DoAnThietKeViMach/Project/SoC/VERIFICATION/Monitor/cpu_monitor.sv(336) @ 935000: uvm_test_top.env.agent.monitor [AXI_RD] CPU <- DRAM  Addr=1000066c Data=00000000 RRESP=00
# UVM_INFO C:/Documents/DoAnThietKeViMach/Project/SoC/VERIFICATION/Scoreboard/cpu_scoreboard.sv(157) @ 935000: uvm_test_top.env.scoreboard [SCB_PASS] [DRAM] READ PASS Addr=1000066c Expected=00000000 Got=00000000
# UVM_INFO C:/Documents/DoAnThietKeViMach/Project/SoC/VERIFICATION/Monitor/cpu_monitor.sv(276) @ 935000: uvm_test_top.env.agent.monitor [WB] x28 <= 0000000a  (PC~0000003c)
# UVM_INFO C:/Documents/DoAnThietKeViMach/Project/SoC/VERIFICATION/Monitor/cpu_monitor.sv(276) @ 945000: uvm_test_top.env.agent.monitor [WB] x28 <= 0000000a  (PC~0000003c)
# UVM_INFO C:/Documents/DoAnThietKeViMach/Project/SoC/VERIFICATION/Monitor/cpu_monitor.sv(276) @ 955000: uvm_test_top.env.agent.monitor [WB] x28 <= 0000000a  (PC~0000003c)
# UVM_INFO C:/Documents/DoAnThietKeViMach/Project/SoC/VERIFICATION/Monitor/cpu_monitor.sv(276) @ 965000: uvm_test_top.env.agent.monitor [WB] x28 <= 0000000a  (PC~0000003c)
# UVM_INFO C:/Documents/DoAnThietKeViMach/Project/SoC/VERIFICATION/Monitor/cpu_monitor.sv(336) @ 975000: uvm_test_top.env.agent.monitor [AXI_RD] CPU <- IRAM  Addr=00000040 Data=e6886993 RRESP=00
# UVM_INFO C:/Documents/DoAnThietKeViMach/Project/SoC/VERIFICATION/Monitor/cpu_monitor.sv(230) @ 975000: uvm_test_top.env.agent.monitor [IF] PC=00000040  INSTR=e6886993  [ORI  x19, x16, -408]            
# UVM_INFO C:/Documents/DoAnThietKeViMach/Project/SoC/VERIFICATION/Monitor/cpu_monitor.sv(276) @ 975000: uvm_test_top.env.agent.monitor [WB] x28 <= 0000000a  (PC~00000040)
# UVM_INFO C:/Documents/DoAnThietKeViMach/Project/SoC/VERIFICATION/Monitor/cpu_monitor.sv(276) @ 985000: uvm_test_top.env.agent.monitor [WB] x14 <= 00000000  (PC~00000040)
# UVM_INFO C:/Documents/DoAnThietKeViMach/Project/SoC/VERIFICATION/Monitor/cpu_monitor.sv(276) @ 995000: uvm_test_top.env.agent.monitor [WB] x14 <= 00000000  (PC~00000040)
# UVM_INFO C:/Documents/DoAnThietKeViMach/Project/SoC/VERIFICATION/Monitor/cpu_monitor.sv(276) @ 1005000: uvm_test_top.env.agent.monitor [WB] x14 <= 00000000  (PC~00000040)
# UVM_INFO C:/Documents/DoAnThietKeViMach/Project/SoC/VERIFICATION/Monitor/cpu_monitor.sv(336) @ 1015000: uvm_test_top.env.agent.monitor [AXI_RD] CPU <- IRAM  Addr=00000044 Data=0091a023 RRESP=00
# UVM_INFO C:/Documents/DoAnThietKeViMach/Project/SoC/VERIFICATION/Monitor/cpu_monitor.sv(230) @ 1015000: uvm_test_top.env.agent.monitor [IF] PC=00000044  INSTR=0091a023  [SW   x9, 9(x3)]            
# UVM_INFO C:/Documents/DoAnThietKeViMach/Project/SoC/VERIFICATION/Monitor/cpu_monitor.sv(276) @ 1015000: uvm_test_top.env.agent.monitor [WB] x14 <= 00000000  (PC~00000044)
# UVM_INFO C:/Documents/DoAnThietKeViMach/Project/SoC/VERIFICATION/Monitor/cpu_monitor.sv(276) @ 1025000: uvm_test_top.env.agent.monitor [WB] x12 <= 00000000  (PC~00000044)
# UVM_INFO C:/Documents/DoAnThietKeViMach/Project/SoC/VERIFICATION/Monitor/cpu_monitor.sv(276) @ 1035000: uvm_test_top.env.agent.monitor [WB] x12 <= 00000000  (PC~00000044)
# UVM_INFO C:/Documents/DoAnThietKeViMach/Project/SoC/VERIFICATION/Monitor/cpu_monitor.sv(276) @ 1045000: uvm_test_top.env.agent.monitor [WB] x12 <= 00000000  (PC~00000044)
# UVM_INFO C:/Documents/DoAnThietKeViMach/Project/SoC/VERIFICATION/Monitor/cpu_monitor.sv(336) @ 1055000: uvm_test_top.env.agent.monitor [AXI_RD] CPU <- IRAM  Addr=00000048 Data=01f01263 RRESP=00
# UVM_INFO C:/Documents/DoAnThietKeViMach/Project/SoC/VERIFICATION/Monitor/cpu_monitor.sv(230) @ 1055000: uvm_test_top.env.agent.monitor [IF] PC=00000048  INSTR=01f01263  [BNE  x0, x31, ...]            
# UVM_INFO C:/Documents/DoAnThietKeViMach/Project/SoC/VERIFICATION/Monitor/cpu_monitor.sv(276) @ 1055000: uvm_test_top.env.agent.monitor [WB] x12 <= 00000000  (PC~00000048)
# UVM_INFO C:/Documents/DoAnThietKeViMach/Project/SoC/VERIFICATION/Monitor/cpu_monitor.sv(276) @ 1065000: uvm_test_top.env.agent.monitor [WB] x27 <= 00000000  (PC~00000048)
# UVM_INFO C:/Documents/DoAnThietKeViMach/Project/SoC/VERIFICATION/Monitor/cpu_monitor.sv(276) @ 1075000: uvm_test_top.env.agent.monitor [WB] x27 <= 00000000  (PC~00000048)
# UVM_INFO C:/Documents/DoAnThietKeViMach/Project/SoC/VERIFICATION/Monitor/cpu_monitor.sv(276) @ 1085000: uvm_test_top.env.agent.monitor [WB] x27 <= 00000000  (PC~00000048)
# UVM_INFO C:/Documents/DoAnThietKeViMach/Project/SoC/VERIFICATION/Monitor/cpu_monitor.sv(336) @ 1095000: uvm_test_top.env.agent.monitor [AXI_RD] CPU <- IRAM  Addr=0000004c Data=01228ab3 RRESP=00
# UVM_INFO C:/Documents/DoAnThietKeViMach/Project/SoC/VERIFICATION/Monitor/cpu_monitor.sv(230) @ 1095000: uvm_test_top.env.agent.monitor [IF] PC=0000004c  INSTR=01228ab3  [ADD  x21, x5, x18]            
# UVM_INFO C:/Documents/DoAnThietKeViMach/Project/SoC/VERIFICATION/Monitor/cpu_monitor.sv(276) @ 1095000: uvm_test_top.env.agent.monitor [WB] x27 <= 00000000  (PC~0000004c)
# UVM_INFO C:/Documents/DoAnThietKeViMach/Project/SoC/VERIFICATION/Monitor/cpu_monitor.sv(251) @ 1105000: uvm_test_top.env.agent.monitor [MEM] STORE Addr=30000000 Data=00000000
# UVM_INFO C:/Documents/DoAnThietKeViMach/Project/SoC/VERIFICATION/Monitor/cpu_monitor.sv(251) @ 1115000: uvm_test_top.env.agent.monitor [MEM] STORE Addr=30000000 Data=00000000
# UVM_INFO C:/Documents/DoAnThietKeViMach/Project/SoC/VERIFICATION/Monitor/cpu_monitor.sv(251) @ 1125000: uvm_test_top.env.agent.monitor [MEM] STORE Addr=30000000 Data=00000000
# UVM_INFO C:/Documents/DoAnThietKeViMach/Project/SoC/VERIFICATION/Monitor/cpu_monitor.sv(310) @ 1135000: uvm_test_top.env.agent.monitor [AXI_WR] CPU -> UART  Addr=30000000 Data=00000000 Strb=1111 BRESP=00
# UVM_INFO C:/Documents/DoAnThietKeViMach/Project/SoC/VERIFICATION/Scoreboard/cpu_scoreboard.sv(271) @ 1135000: uvm_test_top.env.scoreboard [SCB_PERIPH] [UART] WRITE Addr=30000000 Data=00000000
# UVM_INFO C:/Documents/DoAnThietKeViMach/Project/SoC/VERIFICATION/Monitor/cpu_monitor.sv(251) @ 1135000: uvm_test_top.env.agent.monitor [MEM] STORE Addr=30000000 Data=00000000
# UVM_INFO C:/Documents/DoAnThietKeViMach/Project/SoC/VERIFICATION/Monitor/cpu_monitor.sv(276) @ 1135000: uvm_test_top.env.agent.monitor [WB] x19 <= fffffe68  (PC~0000004c)
# UVM_INFO C:/Documents/DoAnThietKeViMach/Project/SoC/VERIFICATION/Monitor/cpu_monitor.sv(251) @ 1145000: uvm_test_top.env.agent.monitor [MEM] STORE Addr=30000000 Data=00000000
# UVM_INFO C:/Documents/DoAnThietKeViMach/Project/SoC/VERIFICATION/Monitor/cpu_monitor.sv(276) @ 1145000: uvm_test_top.env.agent.monitor [WB] x19 <= fffffe68  (PC~0000004c)
# UVM_INFO C:/Documents/DoAnThietKeViMach/Project/SoC/VERIFICATION/Monitor/cpu_monitor.sv(251) @ 1155000: uvm_test_top.env.agent.monitor [MEM] STORE Addr=30000000 Data=00000000
# UVM_INFO C:/Documents/DoAnThietKeViMach/Project/SoC/VERIFICATION/Monitor/cpu_monitor.sv(276) @ 1155000: uvm_test_top.env.agent.monitor [WB] x19 <= fffffe68  (PC~0000004c)
# UVM_INFO C:/Documents/DoAnThietKeViMach/Project/SoC/VERIFICATION/Monitor/cpu_monitor.sv(251) @ 1165000: uvm_test_top.env.agent.monitor [MEM] STORE Addr=30000000 Data=00000000
# UVM_INFO C:/Documents/DoAnThietKeViMach/Project/SoC/VERIFICATION/Monitor/cpu_monitor.sv(276) @ 1165000: uvm_test_top.env.agent.monitor [WB] x19 <= fffffe68  (PC~0000004c)
# UVM_INFO C:/Documents/DoAnThietKeViMach/Project/SoC/VERIFICATION/Monitor/cpu_monitor.sv(336) @ 1175000: uvm_test_top.env.agent.monitor [AXI_RD] CPU <- IRAM  Addr=00000050 Data=00422603 RRESP=00
# UVM_INFO C:/Documents/DoAnThietKeViMach/Project/SoC/VERIFICATION/Monitor/cpu_monitor.sv(230) @ 1175000: uvm_test_top.env.agent.monitor [IF] PC=00000050  INSTR=00422603  [LW   x12, 4(x4)]            
# UVM_INFO C:/Documents/DoAnThietKeViMach/Project/SoC/VERIFICATION/Monitor/cpu_monitor.sv(251) @ 1175000: uvm_test_top.env.agent.monitor [MEM] STORE Addr=30000000 Data=00000000
# UVM_INFO C:/Documents/DoAnThietKeViMach/Project/SoC/VERIFICATION/Monitor/cpu_monitor.sv(276) @ 1175000: uvm_test_top.env.agent.monitor [WB] x19 <= fffffe68  (PC~00000050)
# UVM_INFO C:/Documents/DoAnThietKeViMach/Project/SoC/VERIFICATION/Monitor/cpu_monitor.sv(336) @ 1215000: uvm_test_top.env.agent.monitor [AXI_RD] CPU <- IRAM  Addr=00000054 Data=004005ef RRESP=00
# UVM_INFO C:/Documents/DoAnThietKeViMach/Project/SoC/VERIFICATION/Monitor/cpu_monitor.sv(230) @ 1215000: uvm_test_top.env.agent.monitor [IF] PC=00000054  INSTR=004005ef  [JAL  x11, ...]            
# UVM_INFO C:/Documents/DoAnThietKeViMach/Project/SoC/VERIFICATION/Monitor/cpu_monitor.sv(336) @ 1255000: uvm_test_top.env.agent.monitor [AXI_RD] CPU <- IRAM  Addr=00000058 Data=00022003 RRESP=00
# UVM_INFO C:/Documents/DoAnThietKeViMach/Project/SoC/VERIFICATION/Monitor/cpu_monitor.sv(230) @ 1255000: uvm_test_top.env.agent.monitor [IF] PC=00000058  INSTR=00022003  [LW   x0, 0(x4)]            
# UVM_INFO C:/Documents/DoAnThietKeViMach/Project/SoC/VERIFICATION/Monitor/cpu_monitor.sv(336) @ 1295000: uvm_test_top.env.agent.monitor [AXI_RD] CPU <- SPI  Addr=40000004 Data=00000008 RRESP=00
# UVM_INFO C:/Documents/DoAnThietKeViMach/Project/SoC/VERIFICATION/Scoreboard/cpu_scoreboard.sv(157) @ 1295000: uvm_test_top.env.scoreboard [SCB_PASS] [SPI] READ PASS Addr=40000004 Expected=00000008 Got=00000008
# UVM_INFO C:/Documents/DoAnThietKeViMach/Project/SoC/VERIFICATION/Monitor/cpu_monitor.sv(276) @ 1295000: uvm_test_top.env.agent.monitor [WB] x21 <= 00000000  (PC~00000058)
# UVM_INFO C:/Documents/DoAnThietKeViMach/Project/SoC/VERIFICATION/Monitor/cpu_monitor.sv(276) @ 1305000: uvm_test_top.env.agent.monitor [WB] x21 <= 00000000  (PC~00000058)
# UVM_INFO C:/Documents/DoAnThietKeViMach/Project/SoC/VERIFICATION/Monitor/cpu_monitor.sv(276) @ 1315000: uvm_test_top.env.agent.monitor [WB] x21 <= 00000000  (PC~00000058)
# UVM_INFO C:/Documents/DoAnThietKeViMach/Project/SoC/VERIFICATION/Monitor/cpu_monitor.sv(276) @ 1325000: uvm_test_top.env.agent.monitor [WB] x21 <= 00000000  (PC~00000058)
# UVM_INFO C:/Documents/DoAnThietKeViMach/Project/SoC/VERIFICATION/Monitor/cpu_monitor.sv(336) @ 1335000: uvm_test_top.env.agent.monitor [AXI_RD] CPU <- IRAM  Addr=0000005c Data=00422a83 RRESP=00
# UVM_INFO C:/Documents/DoAnThietKeViMach/Project/SoC/VERIFICATION/Monitor/cpu_monitor.sv(230) @ 1335000: uvm_test_top.env.agent.monitor [IF] PC=0000005c  INSTR=00422a83  [LW   x21, 4(x4)]            
# UVM_INFO C:/Documents/DoAnThietKeViMach/Project/SoC/VERIFICATION/Monitor/cpu_monitor.sv(276) @ 1335000: uvm_test_top.env.agent.monitor [WB] x21 <= 00000000  (PC~0000005c)
# UVM_INFO C:/Documents/DoAnThietKeViMach/Project/SoC/VERIFICATION/Monitor/cpu_monitor.sv(276) @ 1345000: uvm_test_top.env.agent.monitor [WB] x12 <= 00000008  (PC~0000005c)
# UVM_INFO C:/Documents/DoAnThietKeViMach/Project/SoC/VERIFICATION/Monitor/cpu_monitor.sv(276) @ 1355000: uvm_test_top.env.agent.monitor [WB] x12 <= 00000008  (PC~0000005c)
# UVM_INFO C:/Documents/DoAnThietKeViMach/Project/SoC/VERIFICATION/Monitor/cpu_monitor.sv(276) @ 1365000: uvm_test_top.env.agent.monitor [WB] x12 <= 00000008  (PC~0000005c)
# UVM_INFO C:/Documents/DoAnThietKeViMach/Project/SoC/VERIFICATION/Monitor/cpu_monitor.sv(336) @ 1375000: uvm_test_top.env.agent.monitor [AXI_RD] CPU <- IRAM  Addr=00000058 Data=00022003 RRESP=00
# UVM_INFO C:/Documents/DoAnThietKeViMach/Project/SoC/VERIFICATION/Monitor/cpu_monitor.sv(230) @ 1375000: uvm_test_top.env.agent.monitor [IF] PC=00000058  INSTR=00022003  [LW   x0, 0(x4)]            
# UVM_INFO C:/Documents/DoAnThietKeViMach/Project/SoC/VERIFICATION/Monitor/cpu_monitor.sv(276) @ 1375000: uvm_test_top.env.agent.monitor [WB] x12 <= 00000008  (PC~00000058)
# UVM_INFO C:/Documents/DoAnThietKeViMach/Project/SoC/VERIFICATION/Monitor/cpu_monitor.sv(276) @ 1385000: uvm_test_top.env.agent.monitor [WB] x11 <= 00000058  (PC~00000058)
# UVM_INFO C:/Documents/DoAnThietKeViMach/Project/SoC/VERIFICATION/Monitor/cpu_monitor.sv(276) @ 1395000: uvm_test_top.env.agent.monitor [WB] x11 <= 00000058  (PC~00000058)
# UVM_INFO C:/Documents/DoAnThietKeViMach/Project/SoC/VERIFICATION/Monitor/cpu_monitor.sv(276) @ 1405000: uvm_test_top.env.agent.monitor [WB] x11 <= 00000058  (PC~00000058)
# UVM_INFO C:/Documents/DoAnThietKeViMach/Project/SoC/VERIFICATION/Monitor/cpu_monitor.sv(336) @ 1415000: uvm_test_top.env.agent.monitor [AXI_RD] CPU <- IRAM  Addr=0000005c Data=00422a83 RRESP=00
# UVM_INFO C:/Documents/DoAnThietKeViMach/Project/SoC/VERIFICATION/Monitor/cpu_monitor.sv(230) @ 1415000: uvm_test_top.env.agent.monitor [IF] PC=0000005c  INSTR=00422a83  [LW   x21, 4(x4)]            
# UVM_INFO C:/Documents/DoAnThietKeViMach/Project/SoC/VERIFICATION/Monitor/cpu_monitor.sv(276) @ 1415000: uvm_test_top.env.agent.monitor [WB] x11 <= 00000058  (PC~0000005c)
# UVM_INFO C:/Documents/DoAnThietKeViMach/Project/SoC/VERIFICATION/Monitor/cpu_monitor.sv(336) @ 1455000: uvm_test_top.env.agent.monitor [AXI_RD] CPU <- IRAM  Addr=00000060 Data=01f04263 RRESP=00
# UVM_INFO C:/Documents/DoAnThietKeViMach/Project/SoC/VERIFICATION/Monitor/cpu_monitor.sv(230) @ 1455000: uvm_test_top.env.agent.monitor [IF] PC=00000060  INSTR=01f04263  [BLT  x0, x31, ...]            
# UVM_INFO C:/Documents/DoAnThietKeViMach/Project/SoC/VERIFICATION/Monitor/cpu_monitor.sv(336) @ 1495000: uvm_test_top.env.agent.monitor [AXI_RD] CPU <- SPI  Addr=40000000 Data=00000000 RRESP=00
# UVM_INFO C:/Documents/DoAnThietKeViMach/Project/SoC/VERIFICATION/Scoreboard/cpu_scoreboard.sv(275) @ 1495000: uvm_test_top.env.scoreboard [SCB_PERIPH] [SPI] READ Addr=40000000 Data=00000000 (volatile, compare skipped)
# UVM_INFO C:/Documents/DoAnThietKeViMach/Project/SoC/VERIFICATION/Monitor/cpu_monitor.sv(336) @ 1535000: uvm_test_top.env.agent.monitor [AXI_RD] CPU <- IRAM  Addr=00000064 Data=00c22c83 RRESP=00
# UVM_INFO C:/Documents/DoAnThietKeViMach/Project/SoC/VERIFICATION/Monitor/cpu_monitor.sv(230) @ 1535000: uvm_test_top.env.agent.monitor [IF] PC=00000064  INSTR=00c22c83  [LW   x25, 12(x4)]            
# UVM_INFO C:/Documents/DoAnThietKeViMach/Project/SoC/VERIFICATION/Monitor/cpu_monitor.sv(336) @ 1575000: uvm_test_top.env.agent.monitor [AXI_RD] CPU <- SPI  Addr=40000004 Data=00000008 RRESP=00
# UVM_INFO C:/Documents/DoAnThietKeViMach/Project/SoC/VERIFICATION/Scoreboard/cpu_scoreboard.sv(157) @ 1575000: uvm_test_top.env.scoreboard [SCB_PASS] [SPI] READ PASS Addr=40000004 Expected=00000008 Got=00000008
# UVM_INFO C:/Documents/DoAnThietKeViMach/Project/SoC/VERIFICATION/Monitor/cpu_monitor.sv(336) @ 1615000: uvm_test_top.env.agent.monitor [AXI_RD] CPU <- IRAM  Addr=00000068 Data=41865e33 RRESP=00
# UVM_INFO C:/Documents/DoAnThietKeViMach/Project/SoC/VERIFICATION/Monitor/cpu_monitor.sv(230) @ 1615000: uvm_test_top.env.agent.monitor [IF] PC=00000068  INSTR=41865e33  [SRA  x28, x12, x24]            
# UVM_INFO C:/Documents/DoAnThietKeViMach/Project/SoC/VERIFICATION/Monitor/cpu_monitor.sv(276) @ 1625000: uvm_test_top.env.agent.monitor [WB] x21 <= 00000008  (PC~00000068)
# UVM_INFO C:/Documents/DoAnThietKeViMach/Project/SoC/VERIFICATION/Monitor/cpu_monitor.sv(276) @ 1635000: uvm_test_top.env.agent.monitor [WB] x21 <= 00000008  (PC~00000068)
# UVM_INFO C:/Documents/DoAnThietKeViMach/Project/SoC/VERIFICATION/Monitor/cpu_monitor.sv(276) @ 1645000: uvm_test_top.env.agent.monitor [WB] x21 <= 00000008  (PC~00000068)
# UVM_INFO C:/Documents/DoAnThietKeViMach/Project/SoC/VERIFICATION/Monitor/cpu_monitor.sv(336) @ 1655000: uvm_test_top.env.agent.monitor [AXI_RD] CPU <- IRAM  Addr=0000006c Data=6240a583 RRESP=00
# UVM_INFO C:/Documents/DoAnThietKeViMach/Project/SoC/VERIFICATION/Monitor/cpu_monitor.sv(230) @ 1655000: uvm_test_top.env.agent.monitor [IF] PC=0000006c  INSTR=6240a583  [LW   x11, 1572(x1)]            
# UVM_INFO C:/Documents/DoAnThietKeViMach/Project/SoC/VERIFICATION/Monitor/cpu_monitor.sv(276) @ 1655000: uvm_test_top.env.agent.monitor [WB] x21 <= 00000008  (PC~0000006c)
# UVM_INFO C:/Documents/DoAnThietKeViMach/Project/SoC/VERIFICATION/Monitor/cpu_monitor.sv(336) @ 1695000: uvm_test_top.env.agent.monitor [AXI_RD] CPU <- SPI  Addr=4000000c Data=0000000a RRESP=00
# UVM_INFO C:/Documents/DoAnThietKeViMach/Project/SoC/VERIFICATION/Scoreboard/cpu_scoreboard.sv(157) @ 1695000: uvm_test_top.env.scoreboard [SCB_PASS] [SPI] READ PASS Addr=4000000c Expected=0000000a Got=0000000a
# UVM_INFO C:/Documents/DoAnThietKeViMach/Project/SoC/VERIFICATION/Monitor/cpu_monitor.sv(336) @ 1735000: uvm_test_top.env.agent.monitor [AXI_RD] CPU <- IRAM  Addr=00000070 Data=14d50c13 RRESP=00
# UVM_INFO C:/Documents/DoAnThietKeViMach/Project/SoC/VERIFICATION/Monitor/cpu_monitor.sv(230) @ 1735000: uvm_test_top.env.agent.monitor [IF] PC=00000070  INSTR=14d50c13  [ADDI x24, x10, 333]            
# UVM_INFO C:/Documents/DoAnThietKeViMach/Project/SoC/VERIFICATION/Monitor/cpu_monitor.sv(276) @ 1745000: uvm_test_top.env.agent.monitor [WB] x25 <= 0000000a  (PC~00000070)
# UVM_INFO C:/Documents/DoAnThietKeViMach/Project/SoC/VERIFICATION/Monitor/cpu_monitor.sv(276) @ 1755000: uvm_test_top.env.agent.monitor [WB] x25 <= 0000000a  (PC~00000070)
# UVM_INFO C:/Documents/DoAnThietKeViMach/Project/SoC/VERIFICATION/Monitor/cpu_monitor.sv(276) @ 1765000: uvm_test_top.env.agent.monitor [WB] x25 <= 0000000a  (PC~00000070)
# UVM_INFO C:/Documents/DoAnThietKeViMach/Project/SoC/VERIFICATION/Monitor/cpu_monitor.sv(336) @ 1775000: uvm_test_top.env.agent.monitor [AXI_RD] CPU <- IRAM  Addr=00000074 Data=0081a003 RRESP=00
# UVM_INFO C:/Documents/DoAnThietKeViMach/Project/SoC/VERIFICATION/Monitor/cpu_monitor.sv(230) @ 1775000: uvm_test_top.env.agent.monitor [IF] PC=00000074  INSTR=0081a003  [LW   x0, 8(x3)]            
# UVM_INFO C:/Documents/DoAnThietKeViMach/Project/SoC/VERIFICATION/Monitor/cpu_monitor.sv(276) @ 1775000: uvm_test_top.env.agent.monitor [WB] x25 <= 0000000a  (PC~00000074)
# [DRAM READ] addr=10000624 data=00000000
# UVM_INFO C:/Documents/DoAnThietKeViMach/Project/SoC/VERIFICATION/Monitor/cpu_monitor.sv(336) @ 1815000: uvm_test_top.env.agent.monitor [AXI_RD] CPU <- DRAM  Addr=10000624 Data=00000000 RRESP=00
# UVM_INFO C:/Documents/DoAnThietKeViMach/Project/SoC/VERIFICATION/Scoreboard/cpu_scoreboard.sv(157) @ 1815000: uvm_test_top.env.scoreboard [SCB_PASS] [DRAM] READ PASS Addr=10000624 Expected=00000000 Got=00000000
# UVM_INFO C:/Documents/DoAnThietKeViMach/Project/SoC/VERIFICATION/Monitor/cpu_monitor.sv(276) @ 1815000: uvm_test_top.env.agent.monitor [WB] x28 <= 00000008  (PC~00000074)
# UVM_INFO C:/Documents/DoAnThietKeViMach/Project/SoC/VERIFICATION/Monitor/cpu_monitor.sv(276) @ 1825000: uvm_test_top.env.agent.monitor [WB] x28 <= 00000008  (PC~00000074)
# UVM_INFO C:/Documents/DoAnThietKeViMach/Project/SoC/VERIFICATION/Monitor/cpu_monitor.sv(276) @ 1835000: uvm_test_top.env.agent.monitor [WB] x28 <= 00000008  (PC~00000074)
# UVM_INFO C:/Documents/DoAnThietKeViMach/Project/SoC/VERIFICATION/Monitor/cpu_monitor.sv(276) @ 1845000: uvm_test_top.env.agent.monitor [WB] x28 <= 00000008  (PC~00000074)
# UVM_INFO C:/Documents/DoAnThietKeViMach/Project/SoC/VERIFICATION/Monitor/cpu_monitor.sv(336) @ 1855000: uvm_test_top.env.agent.monitor [AXI_RD] CPU <- IRAM  Addr=00000078 Data=40cbd833 RRESP=00
# UVM_INFO C:/Documents/DoAnThietKeViMach/Project/SoC/VERIFICATION/Monitor/cpu_monitor.sv(230) @ 1855000: uvm_test_top.env.agent.monitor [IF] PC=00000078  INSTR=40cbd833  [SRA  x16, x23, x12]            
# UVM_INFO C:/Documents/DoAnThietKeViMach/Project/SoC/VERIFICATION/Monitor/cpu_monitor.sv(276) @ 1855000: uvm_test_top.env.agent.monitor [WB] x28 <= 00000008  (PC~00000078)
# UVM_INFO C:/Documents/DoAnThietKeViMach/Project/SoC/VERIFICATION/Monitor/cpu_monitor.sv(276) @ 1865000: uvm_test_top.env.agent.monitor [WB] x11 <= 00000000  (PC~00000078)
# UVM_INFO C:/Documents/DoAnThietKeViMach/Project/SoC/VERIFICATION/Monitor/cpu_monitor.sv(276) @ 1875000: uvm_test_top.env.agent.monitor [WB] x11 <= 00000000  (PC~00000078)
# UVM_INFO C:/Documents/DoAnThietKeViMach/Project/SoC/VERIFICATION/Monitor/cpu_monitor.sv(276) @ 1885000: uvm_test_top.env.agent.monitor [WB] x11 <= 00000000  (PC~00000078)
# UVM_INFO C:/Documents/DoAnThietKeViMach/Project/SoC/VERIFICATION/Monitor/cpu_monitor.sv(336) @ 1895000: uvm_test_top.env.agent.monitor [AXI_RD] CPU <- IRAM  Addr=0000007c Data=00005263 RRESP=00
# UVM_INFO C:/Documents/DoAnThietKeViMach/Project/SoC/VERIFICATION/Monitor/cpu_monitor.sv(230) @ 1895000: uvm_test_top.env.agent.monitor [IF] PC=0000007c  INSTR=00005263  [BGE  x0, x0, ...]            
# UVM_INFO C:/Documents/DoAnThietKeViMach/Project/SoC/VERIFICATION/Monitor/cpu_monitor.sv(276) @ 1895000: uvm_test_top.env.agent.monitor [WB] x11 <= 00000000  (PC~0000007c)
# UVM_INFO C:/Documents/DoAnThietKeViMach/Project/SoC/VERIFICATION/Monitor/cpu_monitor.sv(336) @ 1935000: uvm_test_top.env.agent.monitor [AXI_RD] CPU <- UART  Addr=30000008 Data=00000000 RRESP=00
# UVM_INFO C:/Documents/DoAnThietKeViMach/Project/SoC/VERIFICATION/Scoreboard/cpu_scoreboard.sv(275) @ 1935000: uvm_test_top.env.scoreboard [SCB_PERIPH] [UART] READ Addr=30000008 Data=00000000 (volatile, compare skipped)
# UVM_INFO C:/Documents/DoAnThietKeViMach/Project/SoC/VERIFICATION/Monitor/cpu_monitor.sv(276) @ 1935000: uvm_test_top.env.agent.monitor [WB] x24 <= 0000014d  (PC~0000007c)
# UVM_INFO C:/Documents/DoAnThietKeViMach/Project/SoC/VERIFICATION/Monitor/cpu_monitor.sv(276) @ 1945000: uvm_test_top.env.agent.monitor [WB] x24 <= 0000014d  (PC~0000007c)
# UVM_INFO C:/Documents/DoAnThietKeViMach/Project/SoC/VERIFICATION/Monitor/cpu_monitor.sv(276) @ 1955000: uvm_test_top.env.agent.monitor [WB] x24 <= 0000014d  (PC~0000007c)
# UVM_INFO C:/Documents/DoAnThietKeViMach/Project/SoC/VERIFICATION/Monitor/cpu_monitor.sv(276) @ 1965000: uvm_test_top.env.agent.monitor [WB] x24 <= 0000014d  (PC~0000007c)
# UVM_INFO C:/Documents/DoAnThietKeViMach/Project/SoC/VERIFICATION/Monitor/cpu_monitor.sv(336) @ 1975000: uvm_test_top.env.agent.monitor [AXI_RD] CPU <- IRAM  Addr=00000080 Data=00012903 RRESP=00
# UVM_INFO C:/Documents/DoAnThietKeViMach/Project/SoC/VERIFICATION/Monitor/cpu_monitor.sv(230) @ 1975000: uvm_test_top.env.agent.monitor [IF] PC=00000080  INSTR=00012903  [LW   x18, 0(x2)]            
# UVM_INFO C:/Documents/DoAnThietKeViMach/Project/SoC/VERIFICATION/Monitor/cpu_monitor.sv(276) @ 1975000: uvm_test_top.env.agent.monitor [WB] x24 <= 0000014d  (PC~00000080)
# UVM_INFO C:/Documents/DoAnThietKeViMach/Project/SoC/VERIFICATION/Monitor/cpu_monitor.sv(336) @ 2015000: uvm_test_top.env.agent.monitor [AXI_RD] CPU <- IRAM  Addr=00000084 Data=4e8a7f13 RRESP=00
# UVM_INFO C:/Documents/DoAnThietKeViMach/Project/SoC/VERIFICATION/Monitor/cpu_monitor.sv(230) @ 2015000: uvm_test_top.env.agent.monitor [IF] PC=00000084  INSTR=4e8a7f13  [ANDI x30, x20, 1256]            
# UVM_INFO C:/Documents/DoAnThietKeViMach/Project/SoC/VERIFICATION/Monitor/cpu_monitor.sv(276) @ 2025000: uvm_test_top.env.agent.monitor [WB] x16 <= 00000000  (PC~00000084)
# UVM_INFO C:/Documents/DoAnThietKeViMach/Project/SoC/VERIFICATION/Monitor/cpu_monitor.sv(276) @ 2035000: uvm_test_top.env.agent.monitor [WB] x16 <= 00000000  (PC~00000084)
# UVM_INFO C:/Documents/DoAnThietKeViMach/Project/SoC/VERIFICATION/Monitor/cpu_monitor.sv(276) @ 2045000: uvm_test_top.env.agent.monitor [WB] x16 <= 00000000  (PC~00000084)
# UVM_INFO C:/Documents/DoAnThietKeViMach/Project/SoC/VERIFICATION/Monitor/cpu_monitor.sv(336) @ 2055000: uvm_test_top.env.agent.monitor [AXI_RD] CPU <- IRAM  Addr=00000080 Data=00012903 RRESP=00
# UVM_INFO C:/Documents/DoAnThietKeViMach/Project/SoC/VERIFICATION/Monitor/cpu_monitor.sv(230) @ 2055000: uvm_test_top.env.agent.monitor [IF] PC=00000080  INSTR=00012903  [LW   x18, 0(x2)]            
# UVM_INFO C:/Documents/DoAnThietKeViMach/Project/SoC/VERIFICATION/Monitor/cpu_monitor.sv(276) @ 2055000: uvm_test_top.env.agent.monitor [WB] x16 <= 00000000  (PC~00000080)
# UVM_INFO C:/Documents/DoAnThietKeViMach/Project/SoC/VERIFICATION/Monitor/cpu_monitor.sv(336) @ 2095000: uvm_test_top.env.agent.monitor [AXI_RD] CPU <- IRAM  Addr=00000084 Data=4e8a7f13 RRESP=00
# UVM_INFO C:/Documents/DoAnThietKeViMach/Project/SoC/VERIFICATION/Monitor/cpu_monitor.sv(230) @ 2095000: uvm_test_top.env.agent.monitor [IF] PC=00000084  INSTR=4e8a7f13  [ANDI x30, x20, 1256]            
# UVM_INFO C:/Documents/DoAnThietKeViMach/Project/SoC/VERIFICATION/Monitor/cpu_monitor.sv(336) @ 2135000: uvm_test_top.env.agent.monitor [AXI_RD] CPU <- IRAM  Addr=00000088 Data=40cd8433 RRESP=00
# UVM_INFO C:/Documents/DoAnThietKeViMach/Project/SoC/VERIFICATION/Monitor/cpu_monitor.sv(230) @ 2135000: uvm_test_top.env.agent.monitor [IF] PC=00000088  INSTR=40cd8433  [SUB  x8, x27, x12]            
# UVM_INFO C:/Documents/DoAnThietKeViMach/Project/SoC/VERIFICATION/Monitor/cpu_monitor.sv(336) @ 2175000: uvm_test_top.env.agent.monitor [AXI_RD] CPU <- TIMER  Addr=20000000 Data=00000000 RRESP=00
# UVM_INFO C:/Documents/DoAnThietKeViMach/Project/SoC/VERIFICATION/Scoreboard/cpu_scoreboard.sv(157) @ 2175000: uvm_test_top.env.scoreboard [SCB_PASS] [TIMER] READ PASS Addr=20000000 Expected=00000000 Got=00000000
# UVM_INFO C:/Documents/DoAnThietKeViMach/Project/SoC/VERIFICATION/Monitor/cpu_monitor.sv(336) @ 2215000: uvm_test_top.env.agent.monitor [AXI_RD] CPU <- IRAM  Addr=0000008c Data=73daa993 RRESP=00
# UVM_INFO C:/Documents/DoAnThietKeViMach/Project/SoC/VERIFICATION/Monitor/cpu_monitor.sv(230) @ 2215000: uvm_test_top.env.agent.monitor [IF] PC=0000008c  INSTR=73daa993  [I-?? x19, x21, 1853]            
# UVM_INFO C:/Documents/DoAnThietKeViMach/Project/SoC/VERIFICATION/Monitor/cpu_monitor.sv(276) @ 2225000: uvm_test_top.env.agent.monitor [WB] x18 <= 00000000  (PC~0000008c)
# UVM_INFO C:/Documents/DoAnThietKeViMach/Project/SoC/VERIFICATION/Monitor/cpu_monitor.sv(276) @ 2235000: uvm_test_top.env.agent.monitor [WB] x18 <= 00000000  (PC~0000008c)
# UVM_INFO C:/Documents/DoAnThietKeViMach/Project/SoC/VERIFICATION/Monitor/cpu_monitor.sv(276) @ 2245000: uvm_test_top.env.agent.monitor [WB] x18 <= 00000000  (PC~0000008c)
# UVM_INFO C:/Documents/DoAnThietKeViMach/Project/SoC/VERIFICATION/Monitor/cpu_monitor.sv(336) @ 2255000: uvm_test_top.env.agent.monitor [AXI_RD] CPU <- IRAM  Addr=00000090 Data=00f12023 RRESP=00
# UVM_INFO C:/Documents/DoAnThietKeViMach/Project/SoC/VERIFICATION/Monitor/cpu_monitor.sv(230) @ 2255000: uvm_test_top.env.agent.monitor [IF] PC=00000090  INSTR=00f12023  [SW   x15, 15(x2)]            
# UVM_INFO C:/Documents/DoAnThietKeViMach/Project/SoC/VERIFICATION/Monitor/cpu_monitor.sv(276) @ 2255000: uvm_test_top.env.agent.monitor [WB] x18 <= 00000000  (PC~00000090)
# UVM_INFO C:/Documents/DoAnThietKeViMach/Project/SoC/VERIFICATION/Monitor/cpu_monitor.sv(276) @ 2265000: uvm_test_top.env.agent.monitor [WB] x30 <= 00000000  (PC~00000090)
# UVM_INFO C:/Documents/DoAnThietKeViMach/Project/SoC/VERIFICATION/Monitor/cpu_monitor.sv(276) @ 2275000: uvm_test_top.env.agent.monitor [WB] x30 <= 00000000  (PC~00000090)
# UVM_INFO C:/Documents/DoAnThietKeViMach/Project/SoC/VERIFICATION/Monitor/cpu_monitor.sv(276) @ 2285000: uvm_test_top.env.agent.monitor [WB] x30 <= 00000000  (PC~00000090)
# UVM_INFO C:/Documents/DoAnThietKeViMach/Project/SoC/VERIFICATION/Monitor/cpu_monitor.sv(336) @ 2295000: uvm_test_top.env.agent.monitor [AXI_RD] CPU <- IRAM  Addr=00000094 Data=0131a023 RRESP=00
# UVM_INFO C:/Documents/DoAnThietKeViMach/Project/SoC/VERIFICATION/Monitor/cpu_monitor.sv(230) @ 2295000: uvm_test_top.env.agent.monitor [IF] PC=00000094  INSTR=0131a023  [SW   x19, 19(x3)]            
# UVM_INFO C:/Documents/DoAnThietKeViMach/Project/SoC/VERIFICATION/Monitor/cpu_monitor.sv(276) @ 2295000: uvm_test_top.env.agent.monitor [WB] x30 <= 00000000  (PC~00000094)
# UVM_INFO C:/Documents/DoAnThietKeViMach/Project/SoC/VERIFICATION/Monitor/cpu_monitor.sv(276) @ 2305000: uvm_test_top.env.agent.monitor [WB] x08 <= fffffff8  (PC~00000094)
# UVM_INFO C:/Documents/DoAnThietKeViMach/Project/SoC/VERIFICATION/Monitor/cpu_monitor.sv(276) @ 2315000: uvm_test_top.env.agent.monitor [WB] x08 <= fffffff8  (PC~00000094)
# UVM_INFO C:/Documents/DoAnThietKeViMach/Project/SoC/VERIFICATION/Monitor/cpu_monitor.sv(276) @ 2325000: uvm_test_top.env.agent.monitor [WB] x08 <= fffffff8  (PC~00000094)
# UVM_INFO C:/Documents/DoAnThietKeViMach/Project/SoC/VERIFICATION/Monitor/cpu_monitor.sv(336) @ 2335000: uvm_test_top.env.agent.monitor [AXI_RD] CPU <- IRAM  Addr=00000098 Data=01812023 RRESP=00
# UVM_INFO C:/Documents/DoAnThietKeViMach/Project/SoC/VERIFICATION/Monitor/cpu_monitor.sv(230) @ 2335000: uvm_test_top.env.agent.monitor [IF] PC=00000098  INSTR=01812023  [SW   x24, 24(x2)]            
# UVM_INFO C:/Documents/DoAnThietKeViMach/Project/SoC/VERIFICATION/Monitor/cpu_monitor.sv(276) @ 2335000: uvm_test_top.env.agent.monitor [WB] x08 <= fffffff8  (PC~00000098)
# UVM_INFO C:/Documents/DoAnThietKeViMach/Project/SoC/VERIFICATION/Monitor/cpu_monitor.sv(251) @ 2345000: uvm_test_top.env.agent.monitor [MEM] STORE Addr=20000000 Data=00000000
# UVM_INFO C:/Documents/DoAnThietKeViMach/Project/SoC/VERIFICATION/Monitor/cpu_monitor.sv(251) @ 2355000: uvm_test_top.env.agent.monitor [MEM] STORE Addr=20000000 Data=00000000
# UVM_INFO C:/Documents/DoAnThietKeViMach/Project/SoC/VERIFICATION/Monitor/cpu_monitor.sv(251) @ 2365000: uvm_test_top.env.agent.monitor [MEM] STORE Addr=20000000 Data=00000000
# UVM_INFO C:/Documents/DoAnThietKeViMach/Project/SoC/VERIFICATION/Monitor/cpu_monitor.sv(251) @ 2375000: uvm_test_top.env.agent.monitor [MEM] STORE Addr=20000000 Data=00000000
# UVM_INFO C:/Documents/DoAnThietKeViMach/Project/SoC/VERIFICATION/Monitor/cpu_monitor.sv(310) @ 2385000: uvm_test_top.env.agent.monitor [AXI_WR] CPU -> TIMER  Addr=20000000 Data=00000000 Strb=1111 BRESP=00
# UVM_INFO C:/Documents/DoAnThietKeViMach/Project/SoC/VERIFICATION/Scoreboard/cpu_scoreboard.sv(271) @ 2385000: uvm_test_top.env.scoreboard [SCB_PERIPH] [TIMER] WRITE Addr=20000000 Data=00000000
# UVM_INFO C:/Documents/DoAnThietKeViMach/Project/SoC/VERIFICATION/Monitor/cpu_monitor.sv(251) @ 2385000: uvm_test_top.env.agent.monitor [MEM] STORE Addr=20000000 Data=00000000
# UVM_INFO C:/Documents/DoAnThietKeViMach/Project/SoC/VERIFICATION/Monitor/cpu_monitor.sv(276) @ 2385000: uvm_test_top.env.agent.monitor [WB] x19 <= 00000001  (PC~00000098)
# UVM_INFO C:/Documents/DoAnThietKeViMach/Project/SoC/VERIFICATION/Monitor/cpu_monitor.sv(251) @ 2395000: uvm_test_top.env.agent.monitor [MEM] STORE Addr=20000000 Data=00000000
# UVM_INFO C:/Documents/DoAnThietKeViMach/Project/SoC/VERIFICATION/Monitor/cpu_monitor.sv(276) @ 2395000: uvm_test_top.env.agent.monitor [WB] x19 <= 00000001  (PC~00000098)
# UVM_INFO C:/Documents/DoAnThietKeViMach/Project/SoC/VERIFICATION/Monitor/cpu_monitor.sv(251) @ 2405000: uvm_test_top.env.agent.monitor [MEM] STORE Addr=20000000 Data=00000000
# UVM_INFO C:/Documents/DoAnThietKeViMach/Project/SoC/VERIFICATION/Monitor/cpu_monitor.sv(276) @ 2405000: uvm_test_top.env.agent.monitor [WB] x19 <= 00000001  (PC~00000098)
# UVM_INFO C:/Documents/DoAnThietKeViMach/Project/SoC/VERIFICATION/Monitor/cpu_monitor.sv(251) @ 2415000: uvm_test_top.env.agent.monitor [MEM] STORE Addr=20000000 Data=00000000
# UVM_INFO C:/Documents/DoAnThietKeViMach/Project/SoC/VERIFICATION/Monitor/cpu_monitor.sv(276) @ 2415000: uvm_test_top.env.agent.monitor [WB] x19 <= 00000001  (PC~00000098)
# UVM_INFO C:/Documents/DoAnThietKeViMach/Project/SoC/VERIFICATION/Monitor/cpu_monitor.sv(336) @ 2425000: uvm_test_top.env.agent.monitor [AXI_RD] CPU <- IRAM  Addr=0000009c Data=d66be493 RRESP=00
# UVM_INFO C:/Documents/DoAnThietKeViMach/Project/SoC/VERIFICATION/Monitor/cpu_monitor.sv(230) @ 2425000: uvm_test_top.env.agent.monitor [IF] PC=0000009c  INSTR=d66be493  [ORI  x9, x23, -666]            
# UVM_INFO C:/Documents/DoAnThietKeViMach/Project/SoC/VERIFICATION/Monitor/cpu_monitor.sv(251) @ 2425000: uvm_test_top.env.agent.monitor [MEM] STORE Addr=20000000 Data=00000000
# UVM_INFO C:/Documents/DoAnThietKeViMach/Project/SoC/VERIFICATION/Monitor/cpu_monitor.sv(276) @ 2425000: uvm_test_top.env.agent.monitor [WB] x19 <= 00000001  (PC~0000009c)
# UVM_INFO C:/Documents/DoAnThietKeViMach/Project/SoC/VERIFICATION/Monitor/cpu_monitor.sv(251) @ 2435000: uvm_test_top.env.agent.monitor [MEM] STORE Addr=30000000 Data=00000001
# UVM_INFO C:/Documents/DoAnThietKeViMach/Project/SoC/VERIFICATION/Monitor/cpu_monitor.sv(251) @ 2445000: uvm_test_top.env.agent.monitor [MEM] STORE Addr=30000000 Data=00000001
# UVM_INFO C:/Documents/DoAnThietKeViMach/Project/SoC/VERIFICATION/Monitor/cpu_monitor.sv(251) @ 2455000: uvm_test_top.env.agent.monitor [MEM] STORE Addr=30000000 Data=00000001
# UVM_INFO C:/Documents/DoAnThietKeViMach/Project/SoC/VERIFICATION/Monitor/cpu_monitor.sv(310) @ 2465000: uvm_test_top.env.agent.monitor [AXI_WR] CPU -> UART  Addr=30000000 Data=00000001 Strb=1111 BRESP=00
# UVM_INFO C:/Documents/DoAnThietKeViMach/Project/SoC/VERIFICATION/Scoreboard/cpu_scoreboard.sv(271) @ 2465000: uvm_test_top.env.scoreboard [SCB_PERIPH] [UART] WRITE Addr=30000000 Data=00000001
# UVM_INFO C:/Documents/DoAnThietKeViMach/Project/SoC/VERIFICATION/Monitor/cpu_monitor.sv(251) @ 2465000: uvm_test_top.env.agent.monitor [MEM] STORE Addr=30000000 Data=00000001
# UVM_INFO C:/Documents/DoAnThietKeViMach/Project/SoC/VERIFICATION/Monitor/cpu_monitor.sv(251) @ 2475000: uvm_test_top.env.agent.monitor [MEM] STORE Addr=30000000 Data=00000001
# UVM_INFO C:/Documents/DoAnThietKeViMach/Project/SoC/VERIFICATION/Monitor/cpu_monitor.sv(251) @ 2485000: uvm_test_top.env.agent.monitor [MEM] STORE Addr=30000000 Data=00000001
# UVM_INFO C:/Documents/DoAnThietKeViMach/Project/SoC/VERIFICATION/Monitor/cpu_monitor.sv(251) @ 2495000: uvm_test_top.env.agent.monitor [MEM] STORE Addr=30000000 Data=00000001
# UVM_INFO C:/Documents/DoAnThietKeViMach/Project/SoC/VERIFICATION/Monitor/cpu_monitor.sv(336) @ 2505000: uvm_test_top.env.agent.monitor [AXI_RD] CPU <- IRAM  Addr=000000a0 Data=3439a293 RRESP=00
# UVM_INFO C:/Documents/DoAnThietKeViMach/Project/SoC/VERIFICATION/Monitor/cpu_monitor.sv(230) @ 2505000: uvm_test_top.env.agent.monitor [IF] PC=000000a0  INSTR=3439a293  [I-?? x5, x19, 835]            
# UVM_INFO C:/Documents/DoAnThietKeViMach/Project/SoC/VERIFICATION/Monitor/cpu_monitor.sv(251) @ 2505000: uvm_test_top.env.agent.monitor [MEM] STORE Addr=30000000 Data=00000001
# UVM_INFO C:/Documents/DoAnThietKeViMach/Project/SoC/VERIFICATION/Monitor/cpu_monitor.sv(251) @ 2515000: uvm_test_top.env.agent.monitor [MEM] STORE Addr=20000000 Data=0000014d
# UVM_INFO C:/Documents/DoAnThietKeViMach/Project/SoC/VERIFICATION/Monitor/cpu_monitor.sv(251) @ 2525000: uvm_test_top.env.agent.monitor [MEM] STORE Addr=20000000 Data=0000014d
# UVM_INFO C:/Documents/DoAnThietKeViMach/Project/SoC/VERIFICATION/Monitor/cpu_monitor.sv(251) @ 2535000: uvm_test_top.env.agent.monitor [MEM] STORE Addr=20000000 Data=0000014d
# UVM_INFO C:/Documents/DoAnThietKeViMach/Project/SoC/VERIFICATION/Monitor/cpu_monitor.sv(251) @ 2545000: uvm_test_top.env.agent.monitor [MEM] STORE Addr=20000000 Data=0000014d
# UVM_INFO C:/Documents/DoAnThietKeViMach/Project/SoC/VERIFICATION/Monitor/cpu_monitor.sv(310) @ 2555000: uvm_test_top.env.agent.monitor [AXI_WR] CPU -> TIMER  Addr=20000000 Data=0000014d Strb=1111 BRESP=00
# UVM_INFO C:/Documents/DoAnThietKeViMach/Project/SoC/VERIFICATION/Scoreboard/cpu_scoreboard.sv(271) @ 2555000: uvm_test_top.env.scoreboard [SCB_PERIPH] [TIMER] WRITE Addr=20000000 Data=0000014d
# UVM_INFO C:/Documents/DoAnThietKeViMach/Project/SoC/VERIFICATION/Monitor/cpu_monitor.sv(251) @ 2555000: uvm_test_top.env.agent.monitor [MEM] STORE Addr=20000000 Data=0000014d
# UVM_INFO C:/Documents/DoAnThietKeViMach/Project/SoC/VERIFICATION/Monitor/cpu_monitor.sv(251) @ 2565000: uvm_test_top.env.agent.monitor [MEM] STORE Addr=20000000 Data=0000014d
# UVM_INFO C:/Documents/DoAnThietKeViMach/Project/SoC/VERIFICATION/Monitor/cpu_monitor.sv(251) @ 2575000: uvm_test_top.env.agent.monitor [MEM] STORE Addr=20000000 Data=0000014d
# UVM_INFO C:/Documents/DoAnThietKeViMach/Project/SoC/VERIFICATION/Monitor/cpu_monitor.sv(251) @ 2585000: uvm_test_top.env.agent.monitor [MEM] STORE Addr=20000000 Data=0000014d
# UVM_INFO C:/Documents/DoAnThietKeViMach/Project/SoC/VERIFICATION/Monitor/cpu_monitor.sv(336) @ 2595000: uvm_test_top.env.agent.monitor [AXI_RD] CPU <- IRAM  Addr=000000a4 Data=00007263 RRESP=00
# UVM_INFO C:/Documents/DoAnThietKeViMach/Project/SoC/VERIFICATION/Monitor/cpu_monitor.sv(230) @ 2595000: uvm_test_top.env.agent.monitor [IF] PC=000000a4  INSTR=00007263  [BR?? x0, x0, ...]            
# UVM_INFO C:/Documents/DoAnThietKeViMach/Project/SoC/VERIFICATION/Monitor/cpu_monitor.sv(251) @ 2595000: uvm_test_top.env.agent.monitor [MEM] STORE Addr=20000000 Data=0000014d
# UVM_INFO C:/Documents/DoAnThietKeViMach/Project/SoC/VERIFICATION/Monitor/cpu_monitor.sv(336) @ 2635000: uvm_test_top.env.agent.monitor [AXI_RD] CPU <- IRAM  Addr=000000a8 Data=00007263 RRESP=00
# UVM_INFO C:/Documents/DoAnThietKeViMach/Project/SoC/VERIFICATION/Monitor/cpu_monitor.sv(230) @ 2635000: uvm_test_top.env.agent.monitor [IF] PC=000000a8  INSTR=00007263  [BR?? x0, x0, ...]            
# UVM_INFO C:/Documents/DoAnThietKeViMach/Project/SoC/VERIFICATION/Monitor/cpu_monitor.sv(276) @ 2645000: uvm_test_top.env.agent.monitor [WB] x09 <= fffffd66  (PC~000000a8)
# UVM_INFO C:/Documents/DoAnThietKeViMach/Project/SoC/VERIFICATION/Monitor/cpu_monitor.sv(276) @ 2655000: uvm_test_top.env.agent.monitor [WB] x09 <= fffffd66  (PC~000000a8)
# UVM_INFO C:/Documents/DoAnThietKeViMach/Project/SoC/VERIFICATION/Monitor/cpu_monitor.sv(276) @ 2665000: uvm_test_top.env.agent.monitor [WB] x09 <= fffffd66  (PC~000000a8)
# UVM_INFO C:/Documents/DoAnThietKeViMach/Project/SoC/VERIFICATION/Monitor/cpu_monitor.sv(336) @ 2675000: uvm_test_top.env.agent.monitor [AXI_RD] CPU <- IRAM  Addr=000000ac Data=01c12223 RRESP=00
# UVM_INFO C:/Documents/DoAnThietKeViMach/Project/SoC/VERIFICATION/Monitor/cpu_monitor.sv(230) @ 2675000: uvm_test_top.env.agent.monitor [IF] PC=000000ac  INSTR=01c12223  [SW   x28, 28(x2)]            
# UVM_INFO C:/Documents/DoAnThietKeViMach/Project/SoC/VERIFICATION/Monitor/cpu_monitor.sv(276) @ 2675000: uvm_test_top.env.agent.monitor [WB] x09 <= fffffd66  (PC~000000ac)
# UVM_INFO C:/Documents/DoAnThietKeViMach/Project/SoC/VERIFICATION/Monitor/cpu_monitor.sv(276) @ 2685000: uvm_test_top.env.agent.monitor [WB] x05 <= 00000001  (PC~000000ac)
# UVM_INFO C:/Documents/DoAnThietKeViMach/Project/SoC/VERIFICATION/Monitor/cpu_monitor.sv(276) @ 2695000: uvm_test_top.env.agent.monitor [WB] x05 <= 00000001  (PC~000000ac)
# UVM_INFO C:/Documents/DoAnThietKeViMach/Project/SoC/VERIFICATION/Monitor/cpu_monitor.sv(276) @ 2705000: uvm_test_top.env.agent.monitor [WB] x05 <= 00000001  (PC~000000ac)
# UVM_INFO C:/Documents/DoAnThietKeViMach/Project/SoC/VERIFICATION/Monitor/cpu_monitor.sv(336) @ 2715000: uvm_test_top.env.agent.monitor [AXI_RD] CPU <- IRAM  Addr=000000a8 Data=00007263 RRESP=00
# UVM_INFO C:/Documents/DoAnThietKeViMach/Project/SoC/VERIFICATION/Monitor/cpu_monitor.sv(230) @ 2715000: uvm_test_top.env.agent.monitor [IF] PC=000000a8  INSTR=00007263  [BR?? x0, x0, ...]            
# UVM_INFO C:/Documents/DoAnThietKeViMach/Project/SoC/VERIFICATION/Monitor/cpu_monitor.sv(276) @ 2715000: uvm_test_top.env.agent.monitor [WB] x05 <= 00000001  (PC~000000a8)
# UVM_INFO C:/Documents/DoAnThietKeViMach/Project/SoC/VERIFICATION/Monitor/cpu_monitor.sv(336) @ 2755000: uvm_test_top.env.agent.monitor [AXI_RD] CPU <- IRAM  Addr=000000ac Data=01c12223 RRESP=00
# UVM_INFO C:/Documents/DoAnThietKeViMach/Project/SoC/VERIFICATION/Monitor/cpu_monitor.sv(230) @ 2755000: uvm_test_top.env.agent.monitor [IF] PC=000000ac  INSTR=01c12223  [SW   x28, 28(x2)]            
# UVM_INFO C:/Documents/DoAnThietKeViMach/Project/SoC/VERIFICATION/Monitor/cpu_monitor.sv(336) @ 2795000: uvm_test_top.env.agent.monitor [AXI_RD] CPU <- IRAM  Addr=000000b0 Data=0081a003 RRESP=00
# UVM_INFO C:/Documents/DoAnThietKeViMach/Project/SoC/VERIFICATION/Monitor/cpu_monitor.sv(230) @ 2795000: uvm_test_top.env.agent.monitor [IF] PC=000000b0  INSTR=0081a003  [LW   x0, 8(x3)]            
# UVM_INFO C:/Documents/DoAnThietKeViMach/Project/SoC/VERIFICATION/Monitor/cpu_monitor.sv(336) @ 2835000: uvm_test_top.env.agent.monitor [AXI_RD] CPU <- IRAM  Addr=000000ac Data=01c12223 RRESP=00
# UVM_INFO C:/Documents/DoAnThietKeViMach/Project/SoC/VERIFICATION/Monitor/cpu_monitor.sv(230) @ 2835000: uvm_test_top.env.agent.monitor [IF] PC=000000ac  INSTR=01c12223  [SW   x28, 28(x2)]            
# UVM_INFO C:/Documents/DoAnThietKeViMach/Project/SoC/VERIFICATION/Monitor/cpu_monitor.sv(336) @ 2875000: uvm_test_top.env.agent.monitor [AXI_RD] CPU <- IRAM  Addr=000000b0 Data=0081a003 RRESP=00
# UVM_INFO C:/Documents/DoAnThietKeViMach/Project/SoC/VERIFICATION/Monitor/cpu_monitor.sv(230) @ 2875000: uvm_test_top.env.agent.monitor [IF] PC=000000b0  INSTR=0081a003  [LW   x0, 8(x3)]            
# UVM_INFO C:/Documents/DoAnThietKeViMach/Project/SoC/VERIFICATION/Monitor/cpu_monitor.sv(336) @ 2915000: uvm_test_top.env.agent.monitor [AXI_RD] CPU <- IRAM  Addr=000000b4 Data=00980733 RRESP=00
# UVM_INFO C:/Documents/DoAnThietKeViMach/Project/SoC/VERIFICATION/Monitor/cpu_monitor.sv(230) @ 2915000: uvm_test_top.env.agent.monitor [IF] PC=000000b4  INSTR=00980733  [ADD  x14, x16, x9]            
# UVM_INFO C:/Documents/DoAnThietKeViMach/Project/SoC/VERIFICATION/Monitor/cpu_monitor.sv(251) @ 2925000: uvm_test_top.env.agent.monitor [MEM] STORE Addr=20000004 Data=00000008
# UVM_INFO C:/Documents/DoAnThietKeViMach/Project/SoC/VERIFICATION/Monitor/cpu_monitor.sv(251) @ 2935000: uvm_test_top.env.agent.monitor [MEM] STORE Addr=20000004 Data=00000008
# UVM_INFO C:/Documents/DoAnThietKeViMach/Project/SoC/VERIFICATION/Monitor/cpu_monitor.sv(251) @ 2945000: uvm_test_top.env.agent.monitor [MEM] STORE Addr=20000004 Data=00000008
# UVM_INFO C:/Documents/DoAnThietKeViMach/Project/SoC/VERIFICATION/Monitor/cpu_monitor.sv(251) @ 2955000: uvm_test_top.env.agent.monitor [MEM] STORE Addr=20000004 Data=00000008
# UVM_INFO C:/Documents/DoAnThietKeViMach/Project/SoC/VERIFICATION/Monitor/cpu_monitor.sv(310) @ 2965000: uvm_test_top.env.agent.monitor [AXI_WR] CPU -> TIMER  Addr=20000004 Data=00000008 Strb=1111 BRESP=00
# UVM_INFO C:/Documents/DoAnThietKeViMach/Project/SoC/VERIFICATION/Scoreboard/cpu_scoreboard.sv(271) @ 2965000: uvm_test_top.env.scoreboard [SCB_PERIPH] [TIMER] WRITE Addr=20000004 Data=00000008
# UVM_INFO C:/Documents/DoAnThietKeViMach/Project/SoC/VERIFICATION/Monitor/cpu_monitor.sv(251) @ 2965000: uvm_test_top.env.agent.monitor [MEM] STORE Addr=20000004 Data=00000008
# UVM_INFO C:/Documents/DoAnThietKeViMach/Project/SoC/VERIFICATION/Monitor/cpu_monitor.sv(251) @ 2975000: uvm_test_top.env.agent.monitor [MEM] STORE Addr=20000004 Data=00000008
# UVM_INFO C:/Documents/DoAnThietKeViMach/Project/SoC/VERIFICATION/Monitor/cpu_monitor.sv(251) @ 2985000: uvm_test_top.env.agent.monitor [MEM] STORE Addr=20000004 Data=00000008
# UVM_INFO C:/Documents/DoAnThietKeViMach/Project/SoC/VERIFICATION/Monitor/cpu_monitor.sv(251) @ 2995000: uvm_test_top.env.agent.monitor [MEM] STORE Addr=20000004 Data=00000008
# UVM_INFO C:/Documents/DoAnThietKeViMach/Project/SoC/VERIFICATION/Monitor/cpu_monitor.sv(336) @ 3005000: uvm_test_top.env.agent.monitor [AXI_RD] CPU <- IRAM  Addr=000000b8 Data=01622023 RRESP=00
# UVM_INFO C:/Documents/DoAnThietKeViMach/Project/SoC/VERIFICATION/Monitor/cpu_monitor.sv(230) @ 3005000: uvm_test_top.env.agent.monitor [IF] PC=000000b8  INSTR=01622023  [SW   x22, 22(x4)]            
# UVM_INFO C:/Documents/DoAnThietKeViMach/Project/SoC/VERIFICATION/Monitor/cpu_monitor.sv(251) @ 3005000: uvm_test_top.env.agent.monitor [MEM] STORE Addr=20000004 Data=00000008
# UVM_INFO C:/Documents/DoAnThietKeViMach/Project/SoC/VERIFICATION/Monitor/cpu_monitor.sv(336) @ 3045000: uvm_test_top.env.agent.monitor [AXI_RD] CPU <- UART  Addr=30000008 Data=00000000 RRESP=00
# UVM_INFO C:/Documents/DoAnThietKeViMach/Project/SoC/VERIFICATION/Scoreboard/cpu_scoreboard.sv(275) @ 3045000: uvm_test_top.env.scoreboard [SCB_PERIPH] [UART] READ Addr=30000008 Data=00000000 (volatile, compare skipped)
# UVM_INFO C:/Documents/DoAnThietKeViMach/Project/SoC/VERIFICATION/Monitor/cpu_monitor.sv(336) @ 3085000: uvm_test_top.env.agent.monitor [AXI_RD] CPU <- IRAM  Addr=000000bc Data=00022003 RRESP=00
# UVM_INFO C:/Documents/DoAnThietKeViMach/Project/SoC/VERIFICATION/Monitor/cpu_monitor.sv(230) @ 3085000: uvm_test_top.env.agent.monitor [IF] PC=000000bc  INSTR=00022003  [LW   x0, 0(x4)]            
# UVM_INFO C:/Documents/DoAnThietKeViMach/Project/SoC/VERIFICATION/Monitor/cpu_monitor.sv(336) @ 3125000: uvm_test_top.env.agent.monitor [AXI_RD] CPU <- IRAM  Addr=000000c0 Data=0061a023 RRESP=00
# UVM_INFO C:/Documents/DoAnThietKeViMach/Project/SoC/VERIFICATION/Monitor/cpu_monitor.sv(230) @ 3125000: uvm_test_top.env.agent.monitor [IF] PC=000000c0  INSTR=0061a023  [SW   x6, 6(x3)]            
# UVM_INFO C:/Documents/DoAnThietKeViMach/Project/SoC/VERIFICATION/Monitor/cpu_monitor.sv(251) @ 3135000: uvm_test_top.env.agent.monitor [MEM] STORE Addr=40000000 Data=00000000
# UVM_INFO C:/Documents/DoAnThietKeViMach/Project/SoC/VERIFICATION/Monitor/cpu_monitor.sv(251) @ 3145000: uvm_test_top.env.agent.monitor [MEM] STORE Addr=40000000 Data=00000000
# UVM_INFO C:/Documents/DoAnThietKeViMach/Project/SoC/VERIFICATION/Monitor/cpu_monitor.sv(251) @ 3155000: uvm_test_top.env.agent.monitor [MEM] STORE Addr=40000000 Data=00000000
# UVM_INFO C:/Documents/DoAnThietKeViMach/Project/SoC/VERIFICATION/Monitor/cpu_monitor.sv(310) @ 3165000: uvm_test_top.env.agent.monitor [AXI_WR] CPU -> SPI  Addr=40000000 Data=00000000 Strb=1111 BRESP=00
# UVM_INFO C:/Documents/DoAnThietKeViMach/Project/SoC/VERIFICATION/Scoreboard/cpu_scoreboard.sv(271) @ 3165000: uvm_test_top.env.scoreboard [SCB_PERIPH] [SPI] WRITE Addr=40000000 Data=00000000
# UVM_INFO C:/Documents/DoAnThietKeViMach/Project/SoC/VERIFICATION/Monitor/cpu_monitor.sv(251) @ 3165000: uvm_test_top.env.agent.monitor [MEM] STORE Addr=40000000 Data=00000000
# UVM_INFO C:/Documents/DoAnThietKeViMach/Project/SoC/VERIFICATION/Monitor/cpu_monitor.sv(276) @ 3165000: uvm_test_top.env.agent.monitor [WB] x14 <= fffffd66  (PC~000000c0)
# UVM_INFO C:/Documents/DoAnThietKeViMach/Project/SoC/VERIFICATION/Monitor/cpu_monitor.sv(251) @ 3175000: uvm_test_top.env.agent.monitor [MEM] STORE Addr=40000000 Data=00000000
# UVM_INFO C:/Documents/DoAnThietKeViMach/Project/SoC/VERIFICATION/Monitor/cpu_monitor.sv(276) @ 3175000: uvm_test_top.env.agent.monitor [WB] x14 <= fffffd66  (PC~000000c0)
# UVM_INFO C:/Documents/DoAnThietKeViMach/Project/SoC/VERIFICATION/Monitor/cpu_monitor.sv(251) @ 3185000: uvm_test_top.env.agent.monitor [MEM] STORE Addr=40000000 Data=00000000
# UVM_INFO C:/Documents/DoAnThietKeViMach/Project/SoC/VERIFICATION/Monitor/cpu_monitor.sv(276) @ 3185000: uvm_test_top.env.agent.monitor [WB] x14 <= fffffd66  (PC~000000c0)
# UVM_INFO C:/Documents/DoAnThietKeViMach/Project/SoC/VERIFICATION/Monitor/cpu_monitor.sv(251) @ 3195000: uvm_test_top.env.agent.monitor [MEM] STORE Addr=40000000 Data=00000000
# UVM_INFO C:/Documents/DoAnThietKeViMach/Project/SoC/VERIFICATION/Monitor/cpu_monitor.sv(276) @ 3195000: uvm_test_top.env.agent.monitor [WB] x14 <= fffffd66  (PC~000000c0)
# UVM_INFO C:/Documents/DoAnThietKeViMach/Project/SoC/VERIFICATION/Monitor/cpu_monitor.sv(336) @ 3205000: uvm_test_top.env.agent.monitor [AXI_RD] CPU <- IRAM  Addr=000000c4 Data=01222223 RRESP=00
# UVM_INFO C:/Documents/DoAnThietKeViMach/Project/SoC/VERIFICATION/Monitor/cpu_monitor.sv(230) @ 3205000: uvm_test_top.env.agent.monitor [IF] PC=000000c4  INSTR=01222223  [SW   x18, 18(x4)]            
# UVM_INFO C:/Documents/DoAnThietKeViMach/Project/SoC/VERIFICATION/Monitor/cpu_monitor.sv(251) @ 3205000: uvm_test_top.env.agent.monitor [MEM] STORE Addr=40000000 Data=00000000
# UVM_INFO C:/Documents/DoAnThietKeViMach/Project/SoC/VERIFICATION/Monitor/cpu_monitor.sv(276) @ 3205000: uvm_test_top.env.agent.monitor [WB] x14 <= fffffd66  (PC~000000c4)
# UVM_INFO C:/Documents/DoAnThietKeViMach/Project/SoC/VERIFICATION/Monitor/cpu_monitor.sv(336) @ 3245000: uvm_test_top.env.agent.monitor [AXI_RD] CPU <- SPI  Addr=40000000 Data=00000000 RRESP=00
# UVM_INFO C:/Documents/DoAnThietKeViMach/Project/SoC/VERIFICATION/Scoreboard/cpu_scoreboard.sv(275) @ 3245000: uvm_test_top.env.scoreboard [SCB_PERIPH] [SPI] READ Addr=40000000 Data=00000000 (volatile, compare skipped)
# UVM_INFO C:/Documents/DoAnThietKeViMach/Project/SoC/VERIFICATION/Monitor/cpu_monitor.sv(336) @ 3285000: uvm_test_top.env.agent.monitor [AXI_RD] CPU <- IRAM  Addr=000000c8 Data=00005263 RRESP=00
# UVM_INFO C:/Documents/DoAnThietKeViMach/Project/SoC/VERIFICATION/Monitor/cpu_monitor.sv(230) @ 3285000: uvm_test_top.env.agent.monitor [IF] PC=000000c8  INSTR=00005263  [BGE  x0, x0, ...]            
# UVM_INFO C:/Documents/DoAnThietKeViMach/Project/SoC/VERIFICATION/Monitor/cpu_monitor.sv(251) @ 3295000: uvm_test_top.env.agent.monitor [MEM] STORE Addr=30000000 Data=00000000
# UVM_INFO C:/Documents/DoAnThietKeViMach/Project/SoC/VERIFICATION/Monitor/cpu_monitor.sv(251) @ 3305000: uvm_test_top.env.agent.monitor [MEM] STORE Addr=30000000 Data=00000000
# UVM_INFO C:/Documents/DoAnThietKeViMach/Project/SoC/VERIFICATION/Monitor/cpu_monitor.sv(251) @ 3315000: uvm_test_top.env.agent.monitor [MEM] STORE Addr=30000000 Data=00000000
# UVM_INFO C:/Documents/DoAnThietKeViMach/Project/SoC/VERIFICATION/Monitor/cpu_monitor.sv(310) @ 3325000: uvm_test_top.env.agent.monitor [AXI_WR] CPU -> UART  Addr=30000000 Data=00000000 Strb=1111 BRESP=00
# UVM_INFO C:/Documents/DoAnThietKeViMach/Project/SoC/VERIFICATION/Scoreboard/cpu_scoreboard.sv(271) @ 3325000: uvm_test_top.env.scoreboard [SCB_PERIPH] [UART] WRITE Addr=30000000 Data=00000000
# UVM_INFO C:/Documents/DoAnThietKeViMach/Project/SoC/VERIFICATION/Monitor/cpu_monitor.sv(251) @ 3325000: uvm_test_top.env.agent.monitor [MEM] STORE Addr=30000000 Data=00000000
# UVM_INFO C:/Documents/DoAnThietKeViMach/Project/SoC/VERIFICATION/Monitor/cpu_monitor.sv(251) @ 3335000: uvm_test_top.env.agent.monitor [MEM] STORE Addr=30000000 Data=00000000
# UVM_INFO C:/Documents/DoAnThietKeViMach/Project/SoC/VERIFICATION/Monitor/cpu_monitor.sv(251) @ 3345000: uvm_test_top.env.agent.monitor [MEM] STORE Addr=30000000 Data=00000000
# UVM_INFO C:/Documents/DoAnThietKeViMach/Project/SoC/VERIFICATION/Monitor/cpu_monitor.sv(251) @ 3355000: uvm_test_top.env.agent.monitor [MEM] STORE Addr=30000000 Data=00000000
# UVM_INFO C:/Documents/DoAnThietKeViMach/Project/SoC/VERIFICATION/Monitor/cpu_monitor.sv(336) @ 3365000: uvm_test_top.env.agent.monitor [AXI_RD] CPU <- IRAM  Addr=000000cc Data=0184a633 RRESP=00
# UVM_INFO C:/Documents/DoAnThietKeViMach/Project/SoC/VERIFICATION/Monitor/cpu_monitor.sv(230) @ 3365000: uvm_test_top.env.agent.monitor [IF] PC=000000cc  INSTR=0184a633  [SLT  x12, x9, x24]            
# UVM_INFO C:/Documents/DoAnThietKeViMach/Project/SoC/VERIFICATION/Monitor/cpu_monitor.sv(251) @ 3365000: uvm_test_top.env.agent.monitor [MEM] STORE Addr=30000000 Data=00000000
# UVM_INFO C:/Documents/DoAnThietKeViMach/Project/SoC/VERIFICATION/Monitor/cpu_monitor.sv(251) @ 3375000: uvm_test_top.env.agent.monitor [MEM] STORE Addr=40000004 Data=00000000
# UVM_INFO C:/Documents/DoAnThietKeViMach/Project/SoC/VERIFICATION/Monitor/cpu_monitor.sv(251) @ 3385000: uvm_test_top.env.agent.monitor [MEM] STORE Addr=40000004 Data=00000000
# UVM_INFO C:/Documents/DoAnThietKeViMach/Project/SoC/VERIFICATION/Monitor/cpu_monitor.sv(251) @ 3395000: uvm_test_top.env.agent.monitor [MEM] STORE Addr=40000004 Data=00000000
# UVM_INFO C:/Documents/DoAnThietKeViMach/Project/SoC/VERIFICATION/Monitor/cpu_monitor.sv(310) @ 3405000: uvm_test_top.env.agent.monitor [AXI_WR] CPU -> SPI  Addr=40000004 Data=00000000 Strb=1111 BRESP=00
# UVM_INFO C:/Documents/DoAnThietKeViMach/Project/SoC/VERIFICATION/Scoreboard/cpu_scoreboard.sv(271) @ 3405000: uvm_test_top.env.scoreboard [SCB_PERIPH] [SPI] WRITE Addr=40000004 Data=00000000
# UVM_INFO C:/Documents/DoAnThietKeViMach/Project/SoC/VERIFICATION/Monitor/cpu_monitor.sv(251) @ 3405000: uvm_test_top.env.agent.monitor [MEM] STORE Addr=40000004 Data=00000000
# UVM_INFO C:/Documents/DoAnThietKeViMach/Project/SoC/VERIFICATION/Monitor/cpu_monitor.sv(251) @ 3415000: uvm_test_top.env.agent.monitor [MEM] STORE Addr=40000004 Data=00000000
# UVM_INFO C:/Documents/DoAnThietKeViMach/Project/SoC/VERIFICATION/Monitor/cpu_monitor.sv(251) @ 3425000: uvm_test_top.env.agent.monitor [MEM] STORE Addr=40000004 Data=00000000
# UVM_INFO C:/Documents/DoAnThietKeViMach/Project/SoC/VERIFICATION/Monitor/cpu_monitor.sv(251) @ 3435000: uvm_test_top.env.agent.monitor [MEM] STORE Addr=40000004 Data=00000000
# UVM_INFO C:/Documents/DoAnThietKeViMach/Project/SoC/VERIFICATION/Monitor/cpu_monitor.sv(336) @ 3445000: uvm_test_top.env.agent.monitor [AXI_RD] CPU <- IRAM  Addr=000000d0 Data=0081a003 RRESP=00
# UVM_INFO C:/Documents/DoAnThietKeViMach/Project/SoC/VERIFICATION/Monitor/cpu_monitor.sv(230) @ 3445000: uvm_test_top.env.agent.monitor [IF] PC=000000d0  INSTR=0081a003  [LW   x0, 8(x3)]            
# UVM_INFO C:/Documents/DoAnThietKeViMach/Project/SoC/VERIFICATION/Monitor/cpu_monitor.sv(251) @ 3445000: uvm_test_top.env.agent.monitor [MEM] STORE Addr=40000004 Data=00000000
# UVM_INFO C:/Documents/DoAnThietKeViMach/Project/SoC/VERIFICATION/Monitor/cpu_monitor.sv(336) @ 3485000: uvm_test_top.env.agent.monitor [AXI_RD] CPU <- IRAM  Addr=000000cc Data=0184a633 RRESP=00
# UVM_INFO C:/Documents/DoAnThietKeViMach/Project/SoC/VERIFICATION/Monitor/cpu_monitor.sv(230) @ 3485000: uvm_test_top.env.agent.monitor [IF] PC=000000cc  INSTR=0184a633  [SLT  x12, x9, x24]            
# UVM_INFO C:/Documents/DoAnThietKeViMach/Project/SoC/VERIFICATION/Monitor/cpu_monitor.sv(336) @ 3525000: uvm_test_top.env.agent.monitor [AXI_RD] CPU <- IRAM  Addr=000000d0 Data=0081a003 RRESP=00
# UVM_INFO C:/Documents/DoAnThietKeViMach/Project/SoC/VERIFICATION/Monitor/cpu_monitor.sv(230) @ 3525000: uvm_test_top.env.agent.monitor [IF] PC=000000d0  INSTR=0081a003  [LW   x0, 8(x3)]            
# UVM_INFO C:/Documents/DoAnThietKeViMach/Project/SoC/VERIFICATION/Monitor/cpu_monitor.sv(336) @ 3565000: uvm_test_top.env.agent.monitor [AXI_RD] CPU <- IRAM  Addr=000000d4 Data=01e04263 RRESP=00
# UVM_INFO C:/Documents/DoAnThietKeViMach/Project/SoC/VERIFICATION/Monitor/cpu_monitor.sv(230) @ 3565000: uvm_test_top.env.agent.monitor [IF] PC=000000d4  INSTR=01e04263  [BLT  x0, x30, ...]            
# UVM_INFO C:/Documents/DoAnThietKeViMach/Project/SoC/VERIFICATION/Monitor/cpu_monitor.sv(336) @ 3605000: uvm_test_top.env.agent.monitor [AXI_RD] CPU <- IRAM  Addr=000000d8 Data=00000263 RRESP=00
# UVM_INFO C:/Documents/DoAnThietKeViMach/Project/SoC/VERIFICATION/Monitor/cpu_monitor.sv(336) @ 3645000: uvm_test_top.env.agent.monitor [AXI_RD] CPU <- UART  Addr=30000008 Data=00000000 RRESP=00
# UVM_INFO C:/Documents/DoAnThietKeViMach/Project/SoC/VERIFICATION/Scoreboard/cpu_scoreboard.sv(275) @ 3645000: uvm_test_top.env.scoreboard [SCB_PERIPH] [UART] READ Addr=30000008 Data=00000000 (volatile, compare skipped)
# UVM_INFO C:/Documents/DoAnThietKeViMach/Project/SoC/VERIFICATION/Monitor/cpu_monitor.sv(276) @ 3645000: uvm_test_top.env.agent.monitor [WB] x12 <= 00000001  (PC~000000d4)
# UVM_INFO C:/Documents/DoAnThietKeViMach/Project/SoC/VERIFICATION/Monitor/cpu_monitor.sv(276) @ 3655000: uvm_test_top.env.agent.monitor [WB] x12 <= 00000001  (PC~000000d4)
# UVM_INFO C:/Documents/DoAnThietKeViMach/Project/SoC/VERIFICATION/Monitor/cpu_monitor.sv(276) @ 3665000: uvm_test_top.env.agent.monitor [WB] x12 <= 00000001  (PC~000000d4)
# UVM_INFO C:/Documents/DoAnThietKeViMach/Project/SoC/VERIFICATION/Monitor/cpu_monitor.sv(276) @ 3675000: uvm_test_top.env.agent.monitor [WB] x12 <= 00000001  (PC~000000d4)
# UVM_INFO C:/Documents/DoAnThietKeViMach/Project/SoC/VERIFICATION/Monitor/cpu_monitor.sv(336) @ 3685000: uvm_test_top.env.agent.monitor [AXI_RD] CPU <- IRAM  Addr=000000d8 Data=00000263 RRESP=00
# UVM_INFO C:/Documents/DoAnThietKeViMach/Project/SoC/VERIFICATION/Monitor/cpu_monitor.sv(230) @ 3685000: uvm_test_top.env.agent.monitor [IF] PC=000000d8  INSTR=00000263  [BEQ  x0, x0, ...]            
# UVM_INFO C:/Documents/DoAnThietKeViMach/Project/SoC/VERIFICATION/Monitor/cpu_monitor.sv(276) @ 3685000: uvm_test_top.env.agent.monitor [WB] x12 <= 00000001  (PC~000000d8)
# UVM_INFO C:/Documents/DoAnThietKeViMach/Project/SoC/VERIFICATION/Monitor/cpu_monitor.sv(336) @ 3725000: uvm_test_top.env.agent.monitor [AXI_RD] CPU <- IRAM  Addr=000000dc Data=0440a683 RRESP=00
# UVM_INFO C:/Documents/DoAnThietKeViMach/Project/SoC/VERIFICATION/Monitor/cpu_monitor.sv(230) @ 3725000: uvm_test_top.env.agent.monitor [IF] PC=000000dc  INSTR=0440a683  [LW   x13, 68(x1)]            
# UVM_INFO C:/Documents/DoAnThietKeViMach/Project/SoC/VERIFICATION/Monitor/cpu_monitor.sv(336) @ 3765000: uvm_test_top.env.agent.monitor [AXI_RD] CPU <- IRAM  Addr=000000e0 Data=00c22983 RRESP=00
# UVM_INFO C:/Documents/DoAnThietKeViMach/Project/SoC/VERIFICATION/Monitor/cpu_monitor.sv(230) @ 3765000: uvm_test_top.env.agent.monitor [IF] PC=000000e0  INSTR=00c22983  [LW   x19, 12(x4)]            
# UVM_INFO C:/Documents/DoAnThietKeViMach/Project/SoC/VERIFICATION/Monitor/cpu_monitor.sv(336) @ 3805000: uvm_test_top.env.agent.monitor [AXI_RD] CPU <- IRAM  Addr=000000dc Data=0440a683 RRESP=00
# UVM_INFO C:/Documents/DoAnThietKeViMach/Project/SoC/VERIFICATION/Monitor/cpu_monitor.sv(230) @ 3805000: uvm_test_top.env.agent.monitor [IF] PC=000000dc  INSTR=0440a683  [LW   x13, 68(x1)]            
# UVM_INFO C:/Documents/DoAnThietKeViMach/Project/SoC/VERIFICATION/Monitor/cpu_monitor.sv(336) @ 3845000: uvm_test_top.env.agent.monitor [AXI_RD] CPU <- IRAM  Addr=000000e0 Data=00c22983 RRESP=00
# UVM_INFO C:/Documents/DoAnThietKeViMach/Project/SoC/VERIFICATION/Monitor/cpu_monitor.sv(230) @ 3845000: uvm_test_top.env.agent.monitor [IF] PC=000000e0  INSTR=00c22983  [LW   x19, 12(x4)]            
# UVM_INFO C:/Documents/DoAnThietKeViMach/Project/SoC/VERIFICATION/Monitor/cpu_monitor.sv(336) @ 3885000: uvm_test_top.env.agent.monitor [AXI_RD] CPU <- IRAM  Addr=000000e4 Data=00822003 RRESP=00
# UVM_INFO C:/Documents/DoAnThietKeViMach/Project/SoC/VERIFICATION/Monitor/cpu_monitor.sv(230) @ 3885000: uvm_test_top.env.agent.monitor [IF] PC=000000e4  INSTR=00822003  [LW   x0, 8(x4)]            
# [DRAM READ] addr=10000044 data=00000000
# UVM_INFO C:/Documents/DoAnThietKeViMach/Project/SoC/VERIFICATION/Monitor/cpu_monitor.sv(336) @ 3925000: uvm_test_top.env.agent.monitor [AXI_RD] CPU <- DRAM  Addr=10000044 Data=00000000 RRESP=00
# UVM_INFO C:/Documents/DoAnThietKeViMach/Project/SoC/VERIFICATION/Scoreboard/cpu_scoreboard.sv(157) @ 3925000: uvm_test_top.env.scoreboard [SCB_PASS] [DRAM] READ PASS Addr=10000044 Expected=00000000 Got=00000000
# UVM_INFO C:/Documents/DoAnThietKeViMach/Project/SoC/VERIFICATION/Monitor/cpu_monitor.sv(336) @ 3965000: uvm_test_top.env.agent.monitor [AXI_RD] CPU <- IRAM  Addr=000000e8 Data=00412d83 RRESP=00
# UVM_INFO C:/Documents/DoAnThietKeViMach/Project/SoC/VERIFICATION/Monitor/cpu_monitor.sv(230) @ 3965000: uvm_test_top.env.agent.monitor [IF] PC=000000e8  INSTR=00412d83  [LW   x27, 4(x2)]            
# UVM_INFO C:/Documents/DoAnThietKeViMach/Project/SoC/VERIFICATION/Monitor/cpu_monitor.sv(336) @ 4005000: uvm_test_top.env.agent.monitor [AXI_RD] CPU <- SPI  Addr=4000000c Data=0000000a RRESP=00
# UVM_INFO C:/Documents/DoAnThietKeViMach/Project/SoC/VERIFICATION/Scoreboard/cpu_scoreboard.sv(157) @ 4005000: uvm_test_top.env.scoreboard [SCB_PASS] [SPI] READ PASS Addr=4000000c Expected=0000000a Got=0000000a
# UVM_INFO C:/Documents/DoAnThietKeViMach/Project/SoC/VERIFICATION/Monitor/cpu_monitor.sv(276) @ 4005000: uvm_test_top.env.agent.monitor [WB] x13 <= 00000000  (PC~000000e8)
# UVM_INFO C:/Documents/DoAnThietKeViMach/Project/SoC/VERIFICATION/Monitor/cpu_monitor.sv(276) @ 4015000: uvm_test_top.env.agent.monitor [WB] x13 <= 00000000  (PC~000000e8)
# UVM_INFO C:/Documents/DoAnThietKeViMach/Project/SoC/VERIFICATION/Monitor/cpu_monitor.sv(276) @ 4025000: uvm_test_top.env.agent.monitor [WB] x13 <= 00000000  (PC~000000e8)
# UVM_INFO C:/Documents/DoAnThietKeViMach/Project/SoC/VERIFICATION/Monitor/cpu_monitor.sv(276) @ 4035000: uvm_test_top.env.agent.monitor [WB] x13 <= 00000000  (PC~000000e8)
# UVM_INFO C:/Documents/DoAnThietKeViMach/Project/SoC/VERIFICATION/Monitor/cpu_monitor.sv(336) @ 4045000: uvm_test_top.env.agent.monitor [AXI_RD] CPU <- IRAM  Addr=000000ec Data=0730ac23 RRESP=00
# UVM_INFO C:/Documents/DoAnThietKeViMach/Project/SoC/VERIFICATION/Monitor/cpu_monitor.sv(230) @ 4045000: uvm_test_top.env.agent.monitor [IF] PC=000000ec  INSTR=0730ac23  [SW   x19, 115(x1)]            
# UVM_INFO C:/Documents/DoAnThietKeViMach/Project/SoC/VERIFICATION/Monitor/cpu_monitor.sv(276) @ 4045000: uvm_test_top.env.agent.monitor [WB] x13 <= 00000000  (PC~000000ec)
# UVM_INFO C:/Documents/DoAnThietKeViMach/Project/SoC/VERIFICATION/Monitor/cpu_monitor.sv(336) @ 4085000: uvm_test_top.env.agent.monitor [AXI_RD] CPU <- SPI  Addr=40000008 Data=00000000 RRESP=00
# UVM_INFO C:/Documents/DoAnThietKeViMach/Project/SoC/VERIFICATION/Scoreboard/cpu_scoreboard.sv(275) @ 4085000: uvm_test_top.env.scoreboard [SCB_PERIPH] [SPI] READ Addr=40000008 Data=00000000 (volatile, compare skipped)
# UVM_INFO C:/Documents/DoAnThietKeViMach/Project/SoC/VERIFICATION/Monitor/cpu_monitor.sv(276) @ 4085000: uvm_test_top.env.agent.monitor [WB] x19 <= 0000000a  (PC~000000ec)
# UVM_INFO C:/Documents/DoAnThietKeViMach/Project/SoC/VERIFICATION/Monitor/cpu_monitor.sv(276) @ 4095000: uvm_test_top.env.agent.monitor [WB] x19 <= 0000000a  (PC~000000ec)
# UVM_INFO C:/Documents/DoAnThietKeViMach/Project/SoC/VERIFICATION/Monitor/cpu_monitor.sv(276) @ 4105000: uvm_test_top.env.agent.monitor [WB] x19 <= 0000000a  (PC~000000ec)
# UVM_INFO C:/Documents/DoAnThietKeViMach/Project/SoC/VERIFICATION/Monitor/cpu_monitor.sv(276) @ 4115000: uvm_test_top.env.agent.monitor [WB] x19 <= 0000000a  (PC~000000ec)
# UVM_INFO C:/Documents/DoAnThietKeViMach/Project/SoC/VERIFICATION/Monitor/cpu_monitor.sv(336) @ 4125000: uvm_test_top.env.agent.monitor [AXI_RD] CPU <- IRAM  Addr=000000f0 Data=0060a223 RRESP=00
# UVM_INFO C:/Documents/DoAnThietKeViMach/Project/SoC/VERIFICATION/Monitor/cpu_monitor.sv(230) @ 4125000: uvm_test_top.env.agent.monitor [IF] PC=000000f0  INSTR=0060a223  [SW   x6, 6(x1)]            
# UVM_INFO C:/Documents/DoAnThietKeViMach/Project/SoC/VERIFICATION/Monitor/cpu_monitor.sv(276) @ 4125000: uvm_test_top.env.agent.monitor [WB] x19 <= 0000000a  (PC~000000f0)
# UVM_INFO C:/Documents/DoAnThietKeViMach/Project/SoC/VERIFICATION/Monitor/cpu_monitor.sv(336) @ 4165000: uvm_test_top.env.agent.monitor [AXI_RD] CPU <- TIMER  Addr=20000004 Data=00000008 RRESP=00
# UVM_INFO C:/Documents/DoAnThietKeViMach/Project/SoC/VERIFICATION/Scoreboard/cpu_scoreboard.sv(157) @ 4165000: uvm_test_top.env.scoreboard [SCB_PASS] [TIMER] READ PASS Addr=20000004 Expected=00000008 Got=00000008
# UVM_INFO C:/Documents/DoAnThietKeViMach/Project/SoC/VERIFICATION/Monitor/cpu_monitor.sv(336) @ 4205000: uvm_test_top.env.agent.monitor [AXI_RD] CPU <- IRAM  Addr=000000f4 Data=bb6fa793 RRESP=00
# UVM_INFO C:/Documents/DoAnThietKeViMach/Project/SoC/VERIFICATION/Monitor/cpu_monitor.sv(230) @ 4205000: uvm_test_top.env.agent.monitor [IF] PC=000000f4  INSTR=bb6fa793  [I-?? x15, x31, -1098]            
# UVM_INFO C:/Documents/DoAnThietKeViMach/Project/SoC/VERIFICATION/Monitor/cpu_monitor.sv(251) @ 4215000: uvm_test_top.env.agent.monitor [MEM] STORE Addr=10000078 Data=0000000a
# UVM_INFO C:/Documents/DoAnThietKeViMach/Project/SoC/VERIFICATION/Monitor/cpu_monitor.sv(251) @ 4225000: uvm_test_top.env.agent.monitor [MEM] STORE Addr=10000078 Data=0000000a
# [DRAM WRITE] addr=10000078 data=0000000a
# UVM_INFO C:/Documents/DoAnThietKeViMach/Project/SoC/VERIFICATION/Monitor/cpu_monitor.sv(251) @ 4235000: uvm_test_top.env.agent.monitor [MEM] STORE Addr=10000078 Data=0000000a
# UVM_INFO C:/Documents/DoAnThietKeViMach/Project/SoC/VERIFICATION/Monitor/cpu_monitor.sv(310) @ 4245000: uvm_test_top.env.agent.monitor [AXI_WR] CPU -> DRAM  Addr=10000078 Data=0000000a Strb=1111 BRESP=00
# UVM_INFO C:/Documents/DoAnThietKeViMach/Project/SoC/VERIFICATION/Monitor/cpu_monitor.sv(251) @ 4245000: uvm_test_top.env.agent.monitor [MEM] STORE Addr=10000078 Data=0000000a
# UVM_INFO C:/Documents/DoAnThietKeViMach/Project/SoC/VERIFICATION/Monitor/cpu_monitor.sv(276) @ 4245000: uvm_test_top.env.agent.monitor [WB] x27 <= 00000008  (PC~000000f4)
# UVM_INFO C:/Documents/DoAnThietKeViMach/Project/SoC/VERIFICATION/Monitor/cpu_monitor.sv(251) @ 4255000: uvm_test_top.env.agent.monitor [MEM] STORE Addr=10000078 Data=0000000a
# UVM_INFO C:/Documents/DoAnThietKeViMach/Project/SoC/VERIFICATION/Monitor/cpu_monitor.sv(276) @ 4255000: uvm_test_top.env.agent.monitor [WB] x27 <= 00000008  (PC~000000f4)
# UVM_INFO C:/Documents/DoAnThietKeViMach/Project/SoC/VERIFICATION/Monitor/cpu_monitor.sv(251) @ 4265000: uvm_test_top.env.agent.monitor [MEM] STORE Addr=10000078 Data=0000000a
# UVM_INFO C:/Documents/DoAnThietKeViMach/Project/SoC/VERIFICATION/Monitor/cpu_monitor.sv(276) @ 4265000: uvm_test_top.env.agent.monitor [WB] x27 <= 00000008  (PC~000000f4)
# UVM_INFO C:/Documents/DoAnThietKeViMach/Project/SoC/VERIFICATION/Monitor/cpu_monitor.sv(251) @ 4275000: uvm_test_top.env.agent.monitor [MEM] STORE Addr=10000078 Data=0000000a
# UVM_INFO C:/Documents/DoAnThietKeViMach/Project/SoC/VERIFICATION/Monitor/cpu_monitor.sv(276) @ 4275000: uvm_test_top.env.agent.monitor [WB] x27 <= 00000008  (PC~000000f4)
# UVM_INFO C:/Documents/DoAnThietKeViMach/Project/SoC/VERIFICATION/Monitor/cpu_monitor.sv(336) @ 4285000: uvm_test_top.env.agent.monitor [AXI_RD] CPU <- IRAM  Addr=000000f8 Data=00b12223 RRESP=00
# UVM_INFO C:/Documents/DoAnThietKeViMach/Project/SoC/VERIFICATION/Monitor/cpu_monitor.sv(230) @ 4285000: uvm_test_top.env.agent.monitor [IF] PC=000000f8  INSTR=00b12223  [SW   x11, 11(x2)]            
# UVM_INFO C:/Documents/DoAnThietKeViMach/Project/SoC/VERIFICATION/Monitor/cpu_monitor.sv(251) @ 4285000: uvm_test_top.env.agent.monitor [MEM] STORE Addr=10000078 Data=0000000a
# UVM_INFO C:/Documents/DoAnThietKeViMach/Project/SoC/VERIFICATION/Monitor/cpu_monitor.sv(276) @ 4285000: uvm_test_top.env.agent.monitor [WB] x27 <= 00000008  (PC~000000f8)
# UVM_INFO C:/Documents/DoAnThietKeViMach/Project/SoC/VERIFICATION/Monitor/cpu_monitor.sv(251) @ 4295000: uvm_test_top.env.agent.monitor [MEM] STORE Addr=10000004 Data=00000000
# UVM_INFO C:/Documents/DoAnThietKeViMach/Project/SoC/VERIFICATION/Monitor/cpu_monitor.sv(251) @ 4305000: uvm_test_top.env.agent.monitor [MEM] STORE Addr=10000004 Data=00000000
# [DRAM WRITE] addr=10000004 data=00000000
# UVM_INFO C:/Documents/DoAnThietKeViMach/Project/SoC/VERIFICATION/Monitor/cpu_monitor.sv(251) @ 4315000: uvm_test_top.env.agent.monitor [MEM] STORE Addr=10000004 Data=00000000
# UVM_INFO C:/Documents/DoAnThietKeViMach/Project/SoC/VERIFICATION/Monitor/cpu_monitor.sv(310) @ 4325000: uvm_test_top.env.agent.monitor [AXI_WR] CPU -> DRAM  Addr=10000004 Data=00000000 Strb=1111 BRESP=00
# UVM_INFO C:/Documents/DoAnThietKeViMach/Project/SoC/VERIFICATION/Monitor/cpu_monitor.sv(251) @ 4325000: uvm_test_top.env.agent.monitor [MEM] STORE Addr=10000004 Data=00000000
# UVM_INFO C:/Documents/DoAnThietKeViMach/Project/SoC/VERIFICATION/Monitor/cpu_monitor.sv(251) @ 4335000: uvm_test_top.env.agent.monitor [MEM] STORE Addr=10000004 Data=00000000
# UVM_INFO C:/Documents/DoAnThietKeViMach/Project/SoC/VERIFICATION/Monitor/cpu_monitor.sv(251) @ 4345000: uvm_test_top.env.agent.monitor [MEM] STORE Addr=10000004 Data=00000000
# UVM_INFO C:/Documents/DoAnThietKeViMach/Project/SoC/VERIFICATION/Monitor/cpu_monitor.sv(251) @ 4355000: uvm_test_top.env.agent.monitor [MEM] STORE Addr=10000004 Data=00000000
# UVM_INFO C:/Documents/DoAnThietKeViMach/Project/SoC/VERIFICATION/Monitor/cpu_monitor.sv(336) @ 4365000: uvm_test_top.env.agent.monitor [AXI_RD] CPU <- IRAM  Addr=000000fc Data=41840eb3 RRESP=00
# UVM_INFO C:/Documents/DoAnThietKeViMach/Project/SoC/VERIFICATION/Monitor/cpu_monitor.sv(230) @ 4365000: uvm_test_top.env.agent.monitor [IF] PC=000000fc  INSTR=41840eb3  [SUB  x29, x8, x24]            
# UVM_INFO C:/Documents/DoAnThietKeViMach/Project/SoC/VERIFICATION/Monitor/cpu_monitor.sv(251) @ 4365000: uvm_test_top.env.agent.monitor [MEM] STORE Addr=10000004 Data=00000000
# UVM_INFO C:/Documents/DoAnThietKeViMach/Project/SoC/VERIFICATION/Monitor/cpu_monitor.sv(336) @ 4405000: uvm_test_top.env.agent.monitor [AXI_RD] CPU <- IRAM  Addr=00000100 Data=3700a903 RRESP=00
# UVM_INFO C:/Documents/DoAnThietKeViMach/Project/SoC/VERIFICATION/Monitor/cpu_monitor.sv(230) @ 4405000: uvm_test_top.env.agent.monitor [IF] PC=00000100  INSTR=3700a903  [LW   x18, 880(x1)]            
# UVM_INFO C:/Documents/DoAnThietKeViMach/Project/SoC/VERIFICATION/Monitor/cpu_monitor.sv(251) @ 4415000: uvm_test_top.env.agent.monitor [MEM] STORE Addr=20000004 Data=00000000
# UVM_INFO C:/Documents/DoAnThietKeViMach/Project/SoC/VERIFICATION/Monitor/cpu_monitor.sv(251) @ 4425000: uvm_test_top.env.agent.monitor [MEM] STORE Addr=20000004 Data=00000000
# UVM_INFO C:/Documents/DoAnThietKeViMach/Project/SoC/VERIFICATION/Monitor/cpu_monitor.sv(251) @ 4435000: uvm_test_top.env.agent.monitor [MEM] STORE Addr=20000004 Data=00000000
# UVM_INFO C:/Documents/DoAnThietKeViMach/Project/SoC/VERIFICATION/Monitor/cpu_monitor.sv(251) @ 4445000: uvm_test_top.env.agent.monitor [MEM] STORE Addr=20000004 Data=00000000
# UVM_INFO C:/Documents/DoAnThietKeViMach/Project/SoC/VERIFICATION/Monitor/cpu_monitor.sv(310) @ 4455000: uvm_test_top.env.agent.monitor [AXI_WR] CPU -> TIMER  Addr=20000004 Data=00000000 Strb=1111 BRESP=00
# UVM_INFO C:/Documents/DoAnThietKeViMach/Project/SoC/VERIFICATION/Scoreboard/cpu_scoreboard.sv(271) @ 4455000: uvm_test_top.env.scoreboard [SCB_PERIPH] [TIMER] WRITE Addr=20000004 Data=00000000
# UVM_INFO C:/Documents/DoAnThietKeViMach/Project/SoC/VERIFICATION/Monitor/cpu_monitor.sv(251) @ 4455000: uvm_test_top.env.agent.monitor [MEM] STORE Addr=20000004 Data=00000000
# UVM_INFO C:/Documents/DoAnThietKeViMach/Project/SoC/VERIFICATION/Monitor/cpu_monitor.sv(276) @ 4455000: uvm_test_top.env.agent.monitor [WB] x15 <= 00000000  (PC~00000100)
# UVM_INFO C:/Documents/DoAnThietKeViMach/Project/SoC/VERIFICATION/Monitor/cpu_monitor.sv(251) @ 4465000: uvm_test_top.env.agent.monitor [MEM] STORE Addr=20000004 Data=00000000
# UVM_INFO C:/Documents/DoAnThietKeViMach/Project/SoC/VERIFICATION/Monitor/cpu_monitor.sv(276) @ 4465000: uvm_test_top.env.agent.monitor [WB] x15 <= 00000000  (PC~00000100)
# UVM_INFO C:/Documents/DoAnThietKeViMach/Project/SoC/VERIFICATION/Monitor/cpu_monitor.sv(251) @ 4475000: uvm_test_top.env.agent.monitor [MEM] STORE Addr=20000004 Data=00000000
# UVM_INFO C:/Documents/DoAnThietKeViMach/Project/SoC/VERIFICATION/Monitor/cpu_monitor.sv(276) @ 4475000: uvm_test_top.env.agent.monitor [WB] x15 <= 00000000  (PC~00000100)
# UVM_INFO C:/Documents/DoAnThietKeViMach/Project/SoC/VERIFICATION/Monitor/cpu_monitor.sv(251) @ 4485000: uvm_test_top.env.agent.monitor [MEM] STORE Addr=20000004 Data=00000000
# UVM_INFO C:/Documents/DoAnThietKeViMach/Project/SoC/VERIFICATION/Monitor/cpu_monitor.sv(276) @ 4485000: uvm_test_top.env.agent.monitor [WB] x15 <= 00000000  (PC~00000100)
# UVM_INFO C:/Documents/DoAnThietKeViMach/Project/SoC/VERIFICATION/Monitor/cpu_monitor.sv(336) @ 4495000: uvm_test_top.env.agent.monitor [AXI_RD] CPU <- IRAM  Addr=00000104 Data=00000263 RRESP=00
# UVM_INFO C:/Documents/DoAnThietKeViMach/Project/SoC/VERIFICATION/Monitor/cpu_monitor.sv(230) @ 4495000: uvm_test_top.env.agent.monitor [IF] PC=00000104  INSTR=00000263  [BEQ  x0, x0, ...]            
# UVM_INFO C:/Documents/DoAnThietKeViMach/Project/SoC/VERIFICATION/Monitor/cpu_monitor.sv(251) @ 4495000: uvm_test_top.env.agent.monitor [MEM] STORE Addr=20000004 Data=00000000
# UVM_INFO C:/Documents/DoAnThietKeViMach/Project/SoC/VERIFICATION/Monitor/cpu_monitor.sv(276) @ 4495000: uvm_test_top.env.agent.monitor [WB] x15 <= 00000000  (PC~00000104)
# UVM_INFO C:/Documents/DoAnThietKeViMach/Project/SoC/VERIFICATION/Monitor/cpu_monitor.sv(336) @ 4535000: uvm_test_top.env.agent.monitor [AXI_RD] CPU <- IRAM  Addr=00000108 Data=01bdeb33 RRESP=00
# UVM_INFO C:/Documents/DoAnThietKeViMach/Project/SoC/VERIFICATION/Monitor/cpu_monitor.sv(230) @ 4535000: uvm_test_top.env.agent.monitor [IF] PC=00000108  INSTR=01bdeb33  [OR   x22, x27, x27]            
# [DRAM READ] addr=10000370 data=00000000
