--- [SIM ONLY] axi_multi_slaves_test ---
MODE = UVM_MASTER
UVM_TESTNAME = axi_multi_slaves_test
Reading C:/app/QuestaSim/tcl/vsim/pref.tcl 

# 10.2c

# vsim +UVM_TESTNAME=axi_multi_slaves_test +UVM_MASTER +MEM_SEED=155634448 +CPU_INSTR_COUNT=208 -coverage -do {run -all; quit} -c -sv_seed 155634448 vopt_top 
# //  Questa Sim-64
# //  Version 10.2c Unknown Platform Jul 19 2013
# //
# //  Copyright 1991-2013 Mentor Graphics Corporation
# //  All Rights Reserved.
# //
# //  THIS WORK CONTAINS TRADE SECRET AND PROPRIETARY INFORMATION
# //  WHICH IS THE PROPERTY OF MENTOR GRAPHICS CORPORATION OR ITS
# //  LICENSORS AND IS SUBJECT TO LICENSE TERMS.
# //
# Loading sv_std.std
# Loading mtiUvm.uvm_pkg
# Loading work.soc_pkg(fast)
# Loading work.top_tb(fast)
# Loading work.clk_rst_inf(fast)
# Loading work.soc_inf(fast)
# Loading work.cpu_monitor_inf(fast)
# Loading work.TOP(fast)
# Loading work.AXI_Master(fast)
# Loading work.CPU(fast)
# Loading work.pc_reg(fast)
# Loading work.IF_ID(fast)
# Loading work.ControlUnit(fast)
# Loading work.MainDecoder(fast)
# Loading work.ALUControl(fast)
# Loading work.RegFile(fast)
# Loading work.signExtend(fast)
# Loading work.ID_EX(fast)
# Loading work.ALU(fast)
# Loading work.EX_MEM(fast)
# Loading work.MEM_WB(fast)
# Loading work.HazardUnit(fast)
# Loading work.LSU(fast)
# Loading work.AXI4_Lite_Interconnect(fast)
# Loading work.IRAM(fast)
# Loading work.DRAM(fast)
# Loading work.Timer(fast)
# Loading work.UART(fast)
# Loading work.SPI(fast)
# Loading work.axi4_lite_sva(fast)
# Loading work.cpu_sva(fast)
# Loading mtiUvm.questa_uvm_pkg(fast)
# Loading C:/app/QuestaSim/uvm-1.1d\win64\uvm_dpi.dll
# run -all 
# ----------------------------------------------------------------
# UVM-1.1d
# (C) 2007-2013 Mentor Graphics Corporation
# (C) 2007-2013 Cadence Design Systems, Inc.
# (C) 2006-2013 Synopsys, Inc.
# (C) 2011-2013 Cypress Semiconductor Corp.
# ----------------------------------------------------------------
# 
#   ***********       IMPORTANT RELEASE NOTES         ************
# 
#   You are using a version of the UVM library that has been compiled
#   with `UVM_NO_DEPRECATED undefined.
#   See http://www.eda.org/svdb/view.php?id=3313 for more details.
# 
#   You are using a version of the UVM library that has been compiled
#   with `UVM_OBJECT_MUST_HAVE_CONSTRUCTOR undefined.
#   See http://www.eda.org/svdb/view.php?id=3770 for more details.
# 
#       (Specify +UVM_NO_RELNOTES to turn off this notice)
# 
# UVM_INFO verilog_src/questa_uvm_pkg-1.2/src/questa_uvm_pkg.sv(215) @ 0: reporter [Questa UVM] QUESTA_UVM-1.2.2
# UVM_INFO verilog_src/questa_uvm_pkg-1.2/src/questa_uvm_pkg.sv(217) @ 0: reporter [Questa UVM]  questa_uvm::init(+struct)
# [IRAM] Loading file: instr.mem
# [IRAM] mem[0] = 100000b7
# [IRAM] mem[1] = 20000137
# [IRAM] mem[2] = 300001b7
# [IRAM] mem[3] = 40000237
# [IRAM] mem[4] = 05a00293
# [IRAM] mem[5] = 3050a023
# [IRAM] mem[6] = 3000a303
# [IRAM] mem[7] = 00629463
# [IRAM] mem[8] = 05a00393
# [IRAM] mem[9] = 0080006f
# [IRAM] mem[10] = 0a500393
# [IRAM] mem[11] = 3e70a823
# [IRAM] mem[12] = cc6cfc13
# [IRAM] mem[13] = 00422283
# [IRAM] mem[14] = 0041a003
# [IRAM] mem[15] = 1110a023
# [IRAM] mem[16] = 00005263
# [IRAM] mem[17] = eb05fe93
# [IRAM] mem[18] = 00c22503
# [IRAM] mem[19] = 00f06263
# [IRAM] mem[20] = 0159d5b3
# [IRAM] mem[21] = 00005263
# [IRAM] mem[22] = 00005263
# [IRAM] mem[23] = 00012283
# [IRAM] mem[24] = 01a1a023
# [IRAM] mem[25] = 0c2a7e93
# [IRAM] mem[26] = 00f12223
# [IRAM] mem[27] = 00bb9a33
# [IRAM] mem[28] = 00c1a983
# [IRAM] mem[29] = 3be0ac23
# [IRAM] mem[30] = 4570a423
# [IRAM] mem[31] = 00007263
# [IRAM] mem[32] = 00422c03
# [IRAM] mem[33] = 00007263
# [IRAM] mem[34] = 41a65b33
# [IRAM] mem[35] = 00005263
# [IRAM] mem[36] = 00c1ac83
# [IRAM] mem[37] = 00eb7e33
# [IRAM] mem[38] = e2630c93
# [IRAM] mem[39] = 3ac0ad03
# [IRAM] mem[40] = 0173aa33
# [IRAM] mem[41] = 00005263
# [IRAM] mem[42] = 0081a003
# [IRAM] mem[43] = 0081a003
# [IRAM] mem[44] = 006d0333
# [IRAM] mem[45] = dc5ee813
# [IRAM] mem[46] = 00005263
# [IRAM] mem[47] = 00912023
# [IRAM] mem[48] = 2df0a623
# [IRAM] mem[49] = baf76f93
# [IRAM] mem[50] = 004008ef
# [IRAM] mem[51] = 01722023
# [IRAM] mem[52] = 08d67d13
# [IRAM] mem[53] = 01622623
# [IRAM] mem[54] = 01b6fbb3
# [IRAM] mem[55] = 68c0a423
# [IRAM] mem[56] = 0165abb3
# [IRAM] mem[57] = 00706263
# [IRAM] mem[58] = 0041a003
# [IRAM] mem[59] = 58c0aa83
# [IRAM] mem[60] = 00822003
# [IRAM] mem[61] = 00007263
# [IRAM] mem[62] = 00812003
# [IRAM] mem[63] = 7440a383
# [IRAM] mem[64] = 01522623
# [IRAM] mem[65] = 24ed2c13
# [IRAM] mem[66] = 01a12223
# [IRAM] mem[67] = 00c1a303
# [IRAM] mem[68] = 0041a003
# [IRAM] mem[69] = 00a8de33
# [IRAM] mem[70] = 00412783
# [IRAM] mem[71] = 01604263
# [IRAM] mem[72] = 0041a003
# [IRAM] mem[73] = 004004ef
# [IRAM] mem[74] = 0081a003
# [IRAM] mem[75] = 01404263
# [IRAM] mem[76] = 00812003
# [IRAM] mem[77] = 0cc0a303
# [IRAM] mem[78] = 89770513
# [IRAM] mem[79] = 00c1ae83
# [IRAM] mem[80] = 5540a623
# [IRAM] mem[81] = 0171a023
# [IRAM] mem[82] = 0380a383
# [IRAM] mem[83] = 01412223
# [IRAM] mem[84] = 00a1a023
# [IRAM] mem[85] = 01812023
# [IRAM] mem[86] = 00022003
# [IRAM] mem[87] = 00c22e03
# [IRAM] mem[88] = 00005263
# [IRAM] mem[89] = 00c1a783
# [IRAM] mem[90] = 00e1a623
# [IRAM] mem[91] = 00400e6f
# [IRAM] mem[92] = 00000263
# [IRAM] mem[93] = 00e9cc33
# [IRAM] mem[94] = 01712223
# [IRAM] mem[95] = 00e22223
# [IRAM] mem[96] = 0081a003
# [IRAM] mem[97] = 014f46b3
# [IRAM] mem[98] = 00000263
# [IRAM] mem[99] = 00506263
# [IRAM] mem[100] = 01112223
# [IRAM] mem[101] = 01412023
# [IRAM] mem[102] = 01206263
# [IRAM] mem[103] = 00812003
# [IRAM] mem[104] = 016868b3
# [IRAM] mem[105] = 00412683
# [IRAM] mem[106] = d1d86f93
# [IRAM] mem[107] = 00d12023
# [IRAM] mem[108] = 01904263
# [IRAM] mem[109] = 01112223
# [IRAM] mem[110] = 0800ab03
# [IRAM] mem[111] = 01306263
# [IRAM] mem[112] = 00812003
# [IRAM] mem[113] = 0139d4b3
# [IRAM] mem[114] = 414bdab3
# [IRAM] mem[115] = 01901263
# [IRAM] mem[116] = 00007263
# [IRAM] mem[117] = 25c0a883
# [IRAM] mem[118] = 1fb0a623
# [IRAM] mem[119] = 99ce6c93
# [IRAM] mem[120] = 01d1a623
# [IRAM] mem[121] = 0040056f
# [IRAM] mem[122] = 0091a023
# [IRAM] mem[123] = 00012583
# [IRAM] mem[124] = 41388d33
# [IRAM] mem[125] = 0141a023
# [IRAM] mem[126] = 01599cb3
# [IRAM] mem[127] = 0061a623
# [IRAM] mem[128] = 00e06263
# [IRAM] mem[129] = 00007263
# [IRAM] mem[130] = 00400a6f
# [IRAM] mem[131] = 016b09b3
# [IRAM] mem[132] = e5e8ce13
# [IRAM] mem[133] = 00012883
# [IRAM] mem[134] = 00000263
# [IRAM] mem[135] = 00b01263
# [IRAM] mem[136] = e3f2a393
# [IRAM] mem[137] = 01fdef33
# [IRAM] mem[138] = 0041a003
# [IRAM] mem[139] = d5284f13
# [IRAM] mem[140] = 00000263
# [IRAM] mem[141] = 0041a003
# [IRAM] mem[142] = 0071a623
# [IRAM] mem[143] = 00412883
# [IRAM] mem[144] = 01b22223
# [IRAM] mem[145] = 0154e4b3
# [IRAM] mem[146] = 7040aa03
# [IRAM] mem[147] = 3a80ab03
# [IRAM] mem[148] = 1520ae23
# [IRAM] mem[149] = 00d22023
# [IRAM] mem[150] = 01712023
# [IRAM] mem[151] = 01d899b3
# [IRAM] mem[152] = 00812003
# [IRAM] mem[153] = 00012b83
# [IRAM] mem[154] = 2866e893
# [IRAM] mem[155] = 00812023
# [IRAM] mem[156] = 007aefb3
# [IRAM] mem[157] = 00000263
# [IRAM] mem[158] = 5493aa13
# [IRAM] mem[159] = 00901263
# [IRAM] mem[160] = 00022003
# [IRAM] mem[161] = 00c22c83
# [IRAM] mem[162] = 15b0ae23
# [IRAM] mem[163] = 49a0a223
# [IRAM] mem[164] = 00ae6933
# [IRAM] mem[165] = 00412283
# [IRAM] mem[166] = 0199f3b3
# [IRAM] mem[167] = 004008ef
# [IRAM] mem[168] = 00b04263
# [IRAM] mem[169] = 00012603
# [IRAM] mem[170] = 00022003
# [IRAM] mem[171] = 01706263
# [IRAM] mem[172] = 0081a003
# [IRAM] mem[173] = 004002ef
# [IRAM] mem[174] = 006615b3
# [IRAM] mem[175] = 01b1a023
# [IRAM] mem[176] = 00f01263
# [IRAM] mem[177] = 00c1a603
# [IRAM] mem[178] = 01604263
# [IRAM] mem[179] = 00422783
# [IRAM] mem[180] = 0081a003
# [IRAM] mem[181] = 01c01263
# [IRAM] mem[182] = 01f22023
# [IRAM] mem[183] = 40b65cb3
# [IRAM] mem[184] = 00007263
# [IRAM] mem[185] = 7bc0af03
# [IRAM] mem[186] = 00412903
# [IRAM] mem[187] = 00012d83
# [IRAM] mem[188] = 40995e33
# [IRAM] mem[189] = 5f60a223
# [IRAM] mem[190] = 00e22223
# [IRAM] mem[191] = 00000263
# [IRAM] mem[192] = 7390a623
# [IRAM] mem[193] = 019d93b3
# [IRAM] mem[194] = 00b1a623
# [IRAM] mem[195] = 00b04263
# [IRAM] mem[196] = 01e01263
# [IRAM] mem[197] = 0c7c0593
# [IRAM] mem[198] = 00400c6f
# [IRAM] mem[199] = 00812003
# [IRAM] mem[200] = 00007263
# [IRAM] mem[201] = 01204263
# [IRAM] mem[202] = 00822003
# [IRAM] mem[203] = c17d0c93
# [IRAM] mem[204] = 01f1a623
# [IRAM] mem[205] = 3500ae23
# [IRAM] mem[206] = 00e22623
# [IRAM] mem[207] = 00412d03
# [IRAM] mem[208] = 00000013
# [IRAM] mem[209] = 00000013
# [IRAM] mem[210] = 00000013
# [IRAM] mem[211] = 00000013
# [IRAM] mem[212] = 00000013
# [IRAM] mem[213] = 00000013
# [IRAM] mem[214] = 00000013
# [IRAM] mem[215] = 00000013
# [IRAM] mem[216] = 00000013
# [IRAM] mem[217] = 00000013
# [IRAM] mem[218] = 00000013
# [IRAM] mem[219] = 00000013
# [IRAM] mem[220] = 00000013
# [IRAM] mem[221] = 00000013
# [IRAM] mem[222] = 00000013
# [IRAM] mem[223] = 00000013
# [IRAM] mem[224] = 00000013
# [IRAM] mem[225] = 00000013
# [IRAM] mem[226] = 00000013
# [IRAM] mem[227] = 00000013
# [IRAM] mem[228] = 00000013
# [IRAM] mem[229] = 00000013
# [IRAM] mem[230] = 00000013
# [IRAM] mem[231] = 00000013
# [IRAM] mem[232] = 00000013
# [IRAM] mem[233] = 00000013
# [IRAM] mem[234] = 00000013
# [IRAM] mem[235] = 00000013
# [IRAM] mem[236] = 00000013
# [IRAM] mem[237] = 00000013
# [IRAM] mem[238] = 00000013
# [IRAM] mem[239] = 00000013
# [IRAM] mem[240] = 00000013
# [IRAM] mem[241] = 00000013
# [IRAM] mem[242] = 00000013
# [IRAM] mem[243] = 00000013
# [IRAM] mem[244] = 00000013
# [IRAM] mem[245] = 00000013
# [IRAM] mem[246] = 00000013
# [IRAM] mem[247] = 00000013
# [IRAM] mem[248] = 00000013
# [IRAM] mem[249] = 00000013
# [IRAM] mem[250] = 00000013
# [IRAM] mem[251] = 00000013
# [IRAM] mem[252] = 00000013
# [IRAM] mem[253] = 00000013
# [IRAM] mem[254] = 00000013
# [IRAM] mem[255] = 00000013
# [IRAM] Loaded 16384 instruction words
# [TB] Mode: UVM MASTER => driver controls AXI bus
# UVM_INFO @ 0: reporter [RNTST] Running test axi_multi_slaves_test...
# ** Warning: (vsim-PLI-8707) No address specified on line 3 of file "instr.mem" 
# 
# while loading into associative array using readmem command.    : C:/Documents/DoAnThietKeViMach/Project/SoC/VERIFICATION/Scoreboard/axi_scoreboard.sv(31)
#    Time: 0 ps  Iteration: 8  Region: /uvm_pkg::uvm_phase::m_run_phases
# UVM_INFO C:/Documents/DoAnThietKeViMach/Project/SoC/VERIFICATION/Sequence/axi_multi_slaves_sequence.sv(38) @ 0: uvm_test_top.env.agent.sequencer@@seq [SEQ] --- Basic AXI4-Lite Multi Slaves ---
# UVM_INFO C:/Documents/DoAnThietKeViMach/Project/SoC/VERIFICATION/Sequence/axi_multi_slaves_sequence.sv(43) @ 0: uvm_test_top.env.agent.sequencer@@seq [SEQ] === TEST 1: Basic DRAM Access ===
# [DRAM WRITE] addr=10000000 data=a5a5a5a5
# UVM_INFO C:/Documents/DoAnThietKeViMach/Project/SoC/VERIFICATION/Monitor/axi_monitor.sv(51) @ 65000: uvm_test_top.env.agent.monitor [MON_WR] Detected WRITE : Addr=10000000 Data=a5a5a5a5 Strb=1111 Prot=000 BResp=00
# UVM_INFO C:/Documents/DoAnThietKeViMach/Project/SoC/VERIFICATION/Driver/axi_driver.sv(63) @ 75000: uvm_test_top.env.agent.driver [DRV] Write Done: Addr=10000000 Data=a5a5a5a5 Prot=000
# [DRAM WRITE] addr=10000004 data=5a5a5a5a
# UVM_INFO C:/Documents/DoAnThietKeViMach/Project/SoC/VERIFICATION/Monitor/axi_monitor.sv(51) @ 115000: uvm_test_top.env.agent.monitor [MON_WR] Detected WRITE : Addr=10000004 Data=5a5a5a5a Strb=1111 Prot=000 BResp=00
# UVM_INFO C:/Documents/DoAnThietKeViMach/Project/SoC/VERIFICATION/Driver/axi_driver.sv(63) @ 125000: uvm_test_top.env.agent.driver [DRV] Write Done: Addr=10000004 Data=5a5a5a5a Prot=000
# [DRAM READ] addr=10000000 data=a5a5a5a5
# UVM_INFO C:/Documents/DoAnThietKeViMach/Project/SoC/VERIFICATION/Monitor/axi_monitor.sv(75) @ 165000: uvm_test_top.env.agent.monitor [MON_RD] Detected READ  : Addr=10000000 Data=a5a5a5a5 Prot=000 RResp=00
# UVM_INFO C:/Documents/DoAnThietKeViMach/Project/SoC/VERIFICATION/Scoreboard/axi_scoreboard.sv(87) @ 165000: uvm_test_top.env.scoreboard [SCB_PASS] [DRAM] PASS Addr=10000000 Expected=a5a5a5a5 Got=a5a5a5a5
# UVM_INFO C:/Documents/DoAnThietKeViMach/Project/SoC/VERIFICATION/Driver/axi_driver.sv(83) @ 175000: uvm_test_top.env.agent.driver [DRV] Read Done: Addr=10000000 Data=a5a5a5a5 Prot=000
# [DRAM READ] addr=10000004 data=5a5a5a5a
# UVM_INFO C:/Documents/DoAnThietKeViMach/Project/SoC/VERIFICATION/Monitor/axi_monitor.sv(75) @ 215000: uvm_test_top.env.agent.monitor [MON_RD] Detected READ  : Addr=10000004 Data=5a5a5a5a Prot=000 RResp=00
# UVM_INFO C:/Documents/DoAnThietKeViMach/Project/SoC/VERIFICATION/Scoreboard/axi_scoreboard.sv(87) @ 215000: uvm_test_top.env.scoreboard [SCB_PASS] [DRAM] PASS Addr=10000004 Expected=5a5a5a5a Got=5a5a5a5a
# UVM_INFO C:/Documents/DoAnThietKeViMach/Project/SoC/VERIFICATION/Driver/axi_driver.sv(83) @ 225000: uvm_test_top.env.agent.driver [DRV] Read Done: Addr=10000004 Data=5a5a5a5a Prot=000
# UVM_INFO C:/Documents/DoAnThietKeViMach/Project/SoC/VERIFICATION/Sequence/axi_multi_slaves_sequence.sv(52) @ 225000: uvm_test_top.env.agent.sequencer@@seq [SEQ] === TEST 2: Timer Basic Operation ===
# UVM_INFO C:/Documents/DoAnThietKeViMach/Project/SoC/VERIFICATION/Monitor/axi_monitor.sv(51) @ 275000: uvm_test_top.env.agent.monitor [MON_WR] Detected WRITE : Addr=20000004 Data=00000064 Strb=1111 Prot=001 BResp=00
# UVM_INFO C:/Documents/DoAnThietKeViMach/Project/SoC/VERIFICATION/Scoreboard/axi_scoreboard.sv(101) @ 275000: uvm_test_top.env.scoreboard [SCB_WR] [TIMER] WRITE Addr=20000004 Data=00000064
# UVM_INFO C:/Documents/DoAnThietKeViMach/Project/SoC/VERIFICATION/Driver/axi_driver.sv(63) @ 285000: uvm_test_top.env.agent.driver [DRV] Write Done: Addr=20000004 Data=00000064 Prot=001
# UVM_INFO C:/Documents/DoAnThietKeViMach/Project/SoC/VERIFICATION/Monitor/axi_monitor.sv(51) @ 335000: uvm_test_top.env.agent.monitor [MON_WR] Detected WRITE : Addr=20000000 Data=00000001 Strb=1111 Prot=001 BResp=00
# UVM_INFO C:/Documents/DoAnThietKeViMach/Project/SoC/VERIFICATION/Scoreboard/axi_scoreboard.sv(101) @ 335000: uvm_test_top.env.scoreboard [SCB_WR] [TIMER] WRITE Addr=20000000 Data=00000001
# UVM_INFO C:/Documents/DoAnThietKeViMach/Project/SoC/VERIFICATION/Driver/axi_driver.sv(63) @ 345000: uvm_test_top.env.agent.driver [DRV] Write Done: Addr=20000000 Data=00000001 Prot=001
# UVM_INFO C:/Documents/DoAnThietKeViMach/Project/SoC/VERIFICATION/Monitor/axi_monitor.sv(75) @ 385000: uvm_test_top.env.agent.monitor [MON_RD] Detected READ  : Addr=20000004 Data=00000064 Prot=000 RResp=00
# UVM_INFO C:/Documents/DoAnThietKeViMach/Project/SoC/VERIFICATION/Scoreboard/axi_scoreboard.sv(121) @ 385000: uvm_test_top.env.scoreboard [SCB_PASS] [TIMER] PASS Addr=20000004 Expected=00000064 Got=00000064
# UVM_INFO C:/Documents/DoAnThietKeViMach/Project/SoC/VERIFICATION/Driver/axi_driver.sv(83) @ 395000: uvm_test_top.env.agent.driver [DRV] Read Done: Addr=20000004 Data=00000064 Prot=000
# UVM_INFO C:/Documents/DoAnThietKeViMach/Project/SoC/VERIFICATION/Monitor/axi_monitor.sv(75) @ 435000: uvm_test_top.env.agent.monitor [MON_RD] Detected READ  : Addr=20000000 Data=00000001 Prot=000 RResp=00
# UVM_INFO C:/Documents/DoAnThietKeViMach/Project/SoC/VERIFICATION/Scoreboard/axi_scoreboard.sv(121) @ 435000: uvm_test_top.env.scoreboard [SCB_PASS] [TIMER] PASS Addr=20000000 Expected=00000001 Got=00000001
# UVM_INFO C:/Documents/DoAnThietKeViMach/Project/SoC/VERIFICATION/Driver/axi_driver.sv(83) @ 445000: uvm_test_top.env.agent.driver [DRV] Read Done: Addr=20000000 Data=00000001 Prot=000
# UVM_INFO C:/Documents/DoAnThietKeViMach/Project/SoC/VERIFICATION/Monitor/axi_monitor.sv(75) @ 485000: uvm_test_top.env.agent.monitor [MON_RD] Detected READ  : Addr=20000008 Data=0000000e Prot=000 RResp=00
# UVM_INFO C:/Documents/DoAnThietKeViMach/Project/SoC/VERIFICATION/Scoreboard/axi_scoreboard.sv(131) @ 485000: uvm_test_top.env.scoreboard [SCB_RD] [TIMER] READ Addr=20000008 Data=0000000e (status/no prior write)
# UVM_INFO C:/Documents/DoAnThietKeViMach/Project/SoC/VERIFICATION/Driver/axi_driver.sv(83) @ 495000: uvm_test_top.env.agent.driver [DRV] Read Done: Addr=20000008 Data=0000000e Prot=000
# UVM_INFO C:/Documents/DoAnThietKeViMach/Project/SoC/VERIFICATION/Sequence/axi_multi_slaves_sequence.sv(62) @ 495000: uvm_test_top.env.agent.sequencer@@seq [SEQ] === TEST 3: UART Communication ===
# UVM_INFO C:/Documents/DoAnThietKeViMach/Project/SoC/VERIFICATION/Monitor/axi_monitor.sv(51) @ 535000: uvm_test_top.env.agent.monitor [MON_WR] Detected WRITE : Addr=3000000c Data=000001b2 Strb=1111 Prot=000 BResp=00
# UVM_INFO C:/Documents/DoAnThietKeViMach/Project/SoC/VERIFICATION/Scoreboard/axi_scoreboard.sv(101) @ 535000: uvm_test_top.env.scoreboard [SCB_WR] [UART] WRITE Addr=3000000c Data=000001b2
# UVM_INFO C:/Documents/DoAnThietKeViMach/Project/SoC/VERIFICATION/Driver/axi_driver.sv(63) @ 545000: uvm_test_top.env.agent.driver [DRV] Write Done: Addr=3000000c Data=000001b2 Prot=000
# UVM_INFO C:/Documents/DoAnThietKeViMach/Project/SoC/VERIFICATION/Monitor/axi_monitor.sv(51) @ 585000: uvm_test_top.env.agent.monitor [MON_WR] Detected WRITE : Addr=30000000 Data=00000041 Strb=1111 Prot=000 BResp=00
# UVM_INFO C:/Documents/DoAnThietKeViMach/Project/SoC/VERIFICATION/Scoreboard/axi_scoreboard.sv(101) @ 585000: uvm_test_top.env.scoreboard [SCB_WR] [UART] WRITE Addr=30000000 Data=00000041
# UVM_INFO C:/Documents/DoAnThietKeViMach/Project/SoC/VERIFICATION/Driver/axi_driver.sv(63) @ 595000: uvm_test_top.env.agent.driver [DRV] Write Done: Addr=30000000 Data=00000041 Prot=000
# UVM_INFO C:/Documents/DoAnThietKeViMach/Project/SoC/VERIFICATION/Monitor/axi_monitor.sv(75) @ 635000: uvm_test_top.env.agent.monitor [MON_RD] Detected READ  : Addr=3000000c Data=000001b2 Prot=000 RResp=00
# UVM_INFO C:/Documents/DoAnThietKeViMach/Project/SoC/VERIFICATION/Scoreboard/axi_scoreboard.sv(121) @ 635000: uvm_test_top.env.scoreboard [SCB_PASS] [UART] PASS Addr=3000000c Expected=000001b2 Got=000001b2
# UVM_INFO C:/Documents/DoAnThietKeViMach/Project/SoC/VERIFICATION/Driver/axi_driver.sv(83) @ 645000: uvm_test_top.env.agent.driver [DRV] Read Done: Addr=3000000c Data=000001b2 Prot=000
# UVM_INFO C:/Documents/DoAnThietKeViMach/Project/SoC/VERIFICATION/Monitor/axi_monitor.sv(75) @ 685000: uvm_test_top.env.agent.monitor [MON_RD] Detected READ  : Addr=30000000 Data=00000000 Prot=000 RResp=00
# UVM_INFO C:/Documents/DoAnThietKeViMach/Project/SoC/VERIFICATION/Scoreboard/axi_scoreboard.sv(114) @ 685000: uvm_test_top.env.scoreboard [SCB_PASS] [UART] PASS Addr=30000000 is write-only, read returned 00000000 (expected 0x00)
# UVM_INFO C:/Documents/DoAnThietKeViMach/Project/SoC/VERIFICATION/Driver/axi_driver.sv(83) @ 695000: uvm_test_top.env.agent.driver [DRV] Read Done: Addr=30000000 Data=00000000 Prot=000
# UVM_INFO C:/Documents/DoAnThietKeViMach/Project/SoC/VERIFICATION/Sequence/axi_multi_slaves_sequence.sv(71) @ 695000: uvm_test_top.env.agent.sequencer@@seq [SEQ] === TEST 4: SPI Data Transfer ===
# UVM_INFO C:/Documents/DoAnThietKeViMach/Project/SoC/VERIFICATION/Monitor/axi_monitor.sv(51) @ 735000: uvm_test_top.env.agent.monitor [MON_WR] Detected WRITE : Addr=4000000c Data=0000000a Strb=1111 Prot=000 BResp=00
# UVM_INFO C:/Documents/DoAnThietKeViMach/Project/SoC/VERIFICATION/Scoreboard/axi_scoreboard.sv(101) @ 735000: uvm_test_top.env.scoreboard [SCB_WR] [SPI] WRITE Addr=4000000c Data=0000000a
# UVM_INFO C:/Documents/DoAnThietKeViMach/Project/SoC/VERIFICATION/Driver/axi_driver.sv(63) @ 745000: uvm_test_top.env.agent.driver [DRV] Write Done: Addr=4000000c Data=0000000a Prot=000
# UVM_INFO C:/Documents/DoAnThietKeViMach/Project/SoC/VERIFICATION/Monitor/axi_monitor.sv(51) @ 785000: uvm_test_top.env.agent.monitor [MON_WR] Detected WRITE : Addr=40000000 Data=000000ab Strb=1111 Prot=000 BResp=00
# UVM_INFO C:/Documents/DoAnThietKeViMach/Project/SoC/VERIFICATION/Scoreboard/axi_scoreboard.sv(101) @ 785000: uvm_test_top.env.scoreboard [SCB_WR] [SPI] WRITE Addr=40000000 Data=000000ab
# UVM_INFO C:/Documents/DoAnThietKeViMach/Project/SoC/VERIFICATION/Driver/axi_driver.sv(63) @ 795000: uvm_test_top.env.agent.driver [DRV] Write Done: Addr=40000000 Data=000000ab Prot=000
# UVM_INFO C:/Documents/DoAnThietKeViMach/Project/SoC/VERIFICATION/Monitor/axi_monitor.sv(75) @ 835000: uvm_test_top.env.agent.monitor [MON_RD] Detected READ  : Addr=4000000c Data=0000000a Prot=000 RResp=00
# UVM_INFO C:/Documents/DoAnThietKeViMach/Project/SoC/VERIFICATION/Scoreboard/axi_scoreboard.sv(121) @ 835000: uvm_test_top.env.scoreboard [SCB_PASS] [SPI] PASS Addr=4000000c Expected=0000000a Got=0000000a
# UVM_INFO C:/Documents/DoAnThietKeViMach/Project/SoC/VERIFICATION/Driver/axi_driver.sv(83) @ 845000: uvm_test_top.env.agent.driver [DRV] Read Done: Addr=4000000c Data=0000000a Prot=000
# UVM_INFO C:/Documents/DoAnThietKeViMach/Project/SoC/VERIFICATION/Monitor/axi_monitor.sv(75) @ 885000: uvm_test_top.env.agent.monitor [MON_RD] Detected READ  : Addr=40000000 Data=00000000 Prot=000 RResp=00
# UVM_INFO C:/Documents/DoAnThietKeViMach/Project/SoC/VERIFICATION/Scoreboard/axi_scoreboard.sv(114) @ 885000: uvm_test_top.env.scoreboard [SCB_PASS] [SPI] PASS Addr=40000000 is write-only, read returned 00000000 (expected 0x00)
# UVM_INFO C:/Documents/DoAnThietKeViMach/Project/SoC/VERIFICATION/Driver/axi_driver.sv(83) @ 895000: uvm_test_top.env.agent.driver [DRV] Read Done: Addr=40000000 Data=00000000 Prot=000
# UVM_INFO C:/Documents/DoAnThietKeViMach/Project/SoC/VERIFICATION/Sequence/axi_multi_slaves_sequence.sv(80) @ 895000: uvm_test_top.env.agent.sequencer@@seq [SEQ] === TEST 5: DRAM Burst Write/Read ===
# [DRAM WRITE] addr=10000000 data=10000000
# UVM_INFO C:/Documents/DoAnThietKeViMach/Project/SoC/VERIFICATION/Monitor/axi_monitor.sv(51) @ 935000: uvm_test_top.env.agent.monitor [MON_WR] Detected WRITE : Addr=10000000 Data=10000000 Strb=1111 Prot=000 BResp=00
# UVM_INFO C:/Documents/DoAnThietKeViMach/Project/SoC/VERIFICATION/Driver/axi_driver.sv(63) @ 945000: uvm_test_top.env.agent.driver [DRV] Write Done: Addr=10000000 Data=10000000 Prot=000
# [DRAM WRITE] addr=10000004 data=10000001
# UVM_INFO C:/Documents/DoAnThietKeViMach/Project/SoC/VERIFICATION/Monitor/axi_monitor.sv(51) @ 985000: uvm_test_top.env.agent.monitor [MON_WR] Detected WRITE : Addr=10000004 Data=10000001 Strb=1111 Prot=000 BResp=00
# UVM_INFO C:/Documents/DoAnThietKeViMach/Project/SoC/VERIFICATION/Driver/axi_driver.sv(63) @ 995000: uvm_test_top.env.agent.driver [DRV] Write Done: Addr=10000004 Data=10000001 Prot=000
# [DRAM WRITE] addr=10000008 data=10000002
# UVM_INFO C:/Documents/DoAnThietKeViMach/Project/SoC/VERIFICATION/Monitor/axi_monitor.sv(51) @ 1035000: uvm_test_top.env.agent.monitor [MON_WR] Detected WRITE : Addr=10000008 Data=10000002 Strb=1111 Prot=000 BResp=00
# UVM_INFO C:/Documents/DoAnThietKeViMach/Project/SoC/VERIFICATION/Driver/axi_driver.sv(63) @ 1045000: uvm_test_top.env.agent.driver [DRV] Write Done: Addr=10000008 Data=10000002 Prot=000
# [DRAM WRITE] addr=1000000c data=10000003
# UVM_INFO C:/Documents/DoAnThietKeViMach/Project/SoC/VERIFICATION/Monitor/axi_monitor.sv(51) @ 1085000: uvm_test_top.env.agent.monitor [MON_WR] Detected WRITE : Addr=1000000c Data=10000003 Strb=1111 Prot=000 BResp=00
# UVM_INFO C:/Documents/DoAnThietKeViMach/Project/SoC/VERIFICATION/Driver/axi_driver.sv(63) @ 1095000: uvm_test_top.env.agent.driver [DRV] Write Done: Addr=1000000c Data=10000003 Prot=000
# [DRAM WRITE] addr=10000010 data=10000004
# UVM_INFO C:/Documents/DoAnThietKeViMach/Project/SoC/VERIFICATION/Monitor/axi_monitor.sv(51) @ 1135000: uvm_test_top.env.agent.monitor [MON_WR] Detected WRITE : Addr=10000010 Data=10000004 Strb=1111 Prot=000 BResp=00
# UVM_INFO C:/Documents/DoAnThietKeViMach/Project/SoC/VERIFICATION/Driver/axi_driver.sv(63) @ 1145000: uvm_test_top.env.agent.driver [DRV] Write Done: Addr=10000010 Data=10000004 Prot=000
# [DRAM WRITE] addr=10000014 data=10000005
# UVM_INFO C:/Documents/DoAnThietKeViMach/Project/SoC/VERIFICATION/Monitor/axi_monitor.sv(51) @ 1185000: uvm_test_top.env.agent.monitor [MON_WR] Detected WRITE : Addr=10000014 Data=10000005 Strb=1111 Prot=000 BResp=00
# UVM_INFO C:/Documents/DoAnThietKeViMach/Project/SoC/VERIFICATION/Driver/axi_driver.sv(63) @ 1195000: uvm_test_top.env.agent.driver [DRV] Write Done: Addr=10000014 Data=10000005 Prot=000
# [DRAM WRITE] addr=10000018 data=10000006
# UVM_INFO C:/Documents/DoAnThietKeViMach/Project/SoC/VERIFICATION/Monitor/axi_monitor.sv(51) @ 1235000: uvm_test_top.env.agent.monitor [MON_WR] Detected WRITE : Addr=10000018 Data=10000006 Strb=1111 Prot=000 BResp=00
# UVM_INFO C:/Documents/DoAnThietKeViMach/Project/SoC/VERIFICATION/Driver/axi_driver.sv(63) @ 1245000: uvm_test_top.env.agent.driver [DRV] Write Done: Addr=10000018 Data=10000006 Prot=000
# [DRAM WRITE] addr=1000001c data=10000007
# UVM_INFO C:/Documents/DoAnThietKeViMach/Project/SoC/VERIFICATION/Monitor/axi_monitor.sv(51) @ 1285000: uvm_test_top.env.agent.monitor [MON_WR] Detected WRITE : Addr=1000001c Data=10000007 Strb=1111 Prot=000 BResp=00
# UVM_INFO C:/Documents/DoAnThietKeViMach/Project/SoC/VERIFICATION/Driver/axi_driver.sv(63) @ 1295000: uvm_test_top.env.agent.driver [DRV] Write Done: Addr=1000001c Data=10000007 Prot=000
# [DRAM READ] addr=10000000 data=10000000
# UVM_INFO C:/Documents/DoAnThietKeViMach/Project/SoC/VERIFICATION/Monitor/axi_monitor.sv(75) @ 1335000: uvm_test_top.env.agent.monitor [MON_RD] Detected READ  : Addr=10000000 Data=10000000 Prot=000 RResp=00
# UVM_INFO C:/Documents/DoAnThietKeViMach/Project/SoC/VERIFICATION/Scoreboard/axi_scoreboard.sv(87) @ 1335000: uvm_test_top.env.scoreboard [SCB_PASS] [DRAM] PASS Addr=10000000 Expected=10000000 Got=10000000
# UVM_INFO C:/Documents/DoAnThietKeViMach/Project/SoC/VERIFICATION/Driver/axi_driver.sv(83) @ 1345000: uvm_test_top.env.agent.driver [DRV] Read Done: Addr=10000000 Data=10000000 Prot=000
# [DRAM READ] addr=10000004 data=10000001
# UVM_INFO C:/Documents/DoAnThietKeViMach/Project/SoC/VERIFICATION/Monitor/axi_monitor.sv(75) @ 1385000: uvm_test_top.env.agent.monitor [MON_RD] Detected READ  : Addr=10000004 Data=10000001 Prot=000 RResp=00
# UVM_INFO C:/Documents/DoAnThietKeViMach/Project/SoC/VERIFICATION/Scoreboard/axi_scoreboard.sv(87) @ 1385000: uvm_test_top.env.scoreboard [SCB_PASS] [DRAM] PASS Addr=10000004 Expected=10000001 Got=10000001
# UVM_INFO C:/Documents/DoAnThietKeViMach/Project/SoC/VERIFICATION/Driver/axi_driver.sv(83) @ 1395000: uvm_test_top.env.agent.driver [DRV] Read Done: Addr=10000004 Data=10000001 Prot=000
# [DRAM READ] addr=10000008 data=10000002
# UVM_INFO C:/Documents/DoAnThietKeViMach/Project/SoC/VERIFICATION/Monitor/axi_monitor.sv(75) @ 1435000: uvm_test_top.env.agent.monitor [MON_RD] Detected READ  : Addr=10000008 Data=10000002 Prot=000 RResp=00
# UVM_INFO C:/Documents/DoAnThietKeViMach/Project/SoC/VERIFICATION/Scoreboard/axi_scoreboard.sv(87) @ 1435000: uvm_test_top.env.scoreboard [SCB_PASS] [DRAM] PASS Addr=10000008 Expected=10000002 Got=10000002
# UVM_INFO C:/Documents/DoAnThietKeViMach/Project/SoC/VERIFICATION/Driver/axi_driver.sv(83) @ 1445000: uvm_test_top.env.agent.driver [DRV] Read Done: Addr=10000008 Data=10000002 Prot=000
# [DRAM READ] addr=1000000c data=10000003
# UVM_INFO C:/Documents/DoAnThietKeViMach/Project/SoC/VERIFICATION/Monitor/axi_monitor.sv(75) @ 1485000: uvm_test_top.env.agent.monitor [MON_RD] Detected READ  : Addr=1000000c Data=10000003 Prot=000 RResp=00
# UVM_INFO C:/Documents/DoAnThietKeViMach/Project/SoC/VERIFICATION/Scoreboard/axi_scoreboard.sv(87) @ 1485000: uvm_test_top.env.scoreboard [SCB_PASS] [DRAM] PASS Addr=1000000c Expected=10000003 Got=10000003
# UVM_INFO C:/Documents/DoAnThietKeViMach/Project/SoC/VERIFICATION/Driver/axi_driver.sv(83) @ 1495000: uvm_test_top.env.agent.driver [DRV] Read Done: Addr=1000000c Data=10000003 Prot=000
# [DRAM READ] addr=10000010 data=10000004
# UVM_INFO C:/Documents/DoAnThietKeViMach/Project/SoC/VERIFICATION/Monitor/axi_monitor.sv(75) @ 1535000: uvm_test_top.env.agent.monitor [MON_RD] Detected READ  : Addr=10000010 Data=10000004 Prot=000 RResp=00
# UVM_INFO C:/Documents/DoAnThietKeViMach/Project/SoC/VERIFICATION/Scoreboard/axi_scoreboard.sv(87) @ 1535000: uvm_test_top.env.scoreboard [SCB_PASS] [DRAM] PASS Addr=10000010 Expected=10000004 Got=10000004
# UVM_INFO C:/Documents/DoAnThietKeViMach/Project/SoC/VERIFICATION/Driver/axi_driver.sv(83) @ 1545000: uvm_test_top.env.agent.driver [DRV] Read Done: Addr=10000010 Data=10000004 Prot=000
# [DRAM READ] addr=10000014 data=10000005
# UVM_INFO C:/Documents/DoAnThietKeViMach/Project/SoC/VERIFICATION/Monitor/axi_monitor.sv(75) @ 1585000: uvm_test_top.env.agent.monitor [MON_RD] Detected READ  : Addr=10000014 Data=10000005 Prot=000 RResp=00
# UVM_INFO C:/Documents/DoAnThietKeViMach/Project/SoC/VERIFICATION/Scoreboard/axi_scoreboard.sv(87) @ 1585000: uvm_test_top.env.scoreboard [SCB_PASS] [DRAM] PASS Addr=10000014 Expected=10000005 Got=10000005
# UVM_INFO C:/Documents/DoAnThietKeViMach/Project/SoC/VERIFICATION/Driver/axi_driver.sv(83) @ 1595000: uvm_test_top.env.agent.driver [DRV] Read Done: Addr=10000014 Data=10000005 Prot=000
# [DRAM READ] addr=10000018 data=10000006
# UVM_INFO C:/Documents/DoAnThietKeViMach/Project/SoC/VERIFICATION/Monitor/axi_monitor.sv(75) @ 1635000: uvm_test_top.env.agent.monitor [MON_RD] Detected READ  : Addr=10000018 Data=10000006 Prot=000 RResp=00
# UVM_INFO C:/Documents/DoAnThietKeViMach/Project/SoC/VERIFICATION/Scoreboard/axi_scoreboard.sv(87) @ 1635000: uvm_test_top.env.scoreboard [SCB_PASS] [DRAM] PASS Addr=10000018 Expected=10000006 Got=10000006
# UVM_INFO C:/Documents/DoAnThietKeViMach/Project/SoC/VERIFICATION/Driver/axi_driver.sv(83) @ 1645000: uvm_test_top.env.agent.driver [DRV] Read Done: Addr=10000018 Data=10000006 Prot=000
# [DRAM READ] addr=1000001c data=10000007
# UVM_INFO C:/Documents/DoAnThietKeViMach/Project/SoC/VERIFICATION/Monitor/axi_monitor.sv(75) @ 1685000: uvm_test_top.env.agent.monitor [MON_RD] Detected READ  : Addr=1000001c Data=10000007 Prot=000 RResp=00
# UVM_INFO C:/Documents/DoAnThietKeViMach/Project/SoC/VERIFICATION/Scoreboard/axi_scoreboard.sv(87) @ 1685000: uvm_test_top.env.scoreboard [SCB_PASS] [DRAM] PASS Addr=1000001c Expected=10000007 Got=10000007
# UVM_INFO C:/Documents/DoAnThietKeViMach/Project/SoC/VERIFICATION/Driver/axi_driver.sv(83) @ 1695000: uvm_test_top.env.agent.driver [DRV] Read Done: Addr=1000001c Data=10000007 Prot=000
# UVM_INFO C:/Documents/DoAnThietKeViMach/Project/SoC/VERIFICATION/Sequence/axi_multi_slaves_sequence.sv(91) @ 1695000: uvm_test_top.env.agent.sequencer@@seq [SEQ] === TEST 6: Interleaved Access Across Slaves ===
# [DRAM WRITE] addr=10000000 data=deadbeef
# UVM_INFO C:/Documents/DoAnThietKeViMach/Project/SoC/VERIFICATION/Monitor/axi_monitor.sv(51) @ 1735000: uvm_test_top.env.agent.monitor [MON_WR] Detected WRITE : Addr=10000000 Data=deadbeef Strb=1111 Prot=000 BResp=00
# UVM_INFO C:/Documents/DoAnThietKeViMach/Project/SoC/VERIFICATION/Driver/axi_driver.sv(63) @ 1745000: uvm_test_top.env.agent.driver [DRV] Write Done: Addr=10000000 Data=deadbeef Prot=000
# UVM_INFO C:/Documents/DoAnThietKeViMach/Project/SoC/VERIFICATION/Monitor/axi_monitor.sv(51) @ 1795000: uvm_test_top.env.agent.monitor [MON_WR] Detected WRITE : Addr=20000004 Data=00000032 Strb=1111 Prot=001 BResp=00
# UVM_INFO C:/Documents/DoAnThietKeViMach/Project/SoC/VERIFICATION/Scoreboard/axi_scoreboard.sv(101) @ 1795000: uvm_test_top.env.scoreboard [SCB_WR] [TIMER] WRITE Addr=20000004 Data=00000032
# UVM_INFO C:/Documents/DoAnThietKeViMach/Project/SoC/VERIFICATION/Driver/axi_driver.sv(63) @ 1805000: uvm_test_top.env.agent.driver [DRV] Write Done: Addr=20000004 Data=00000032 Prot=001
# UVM_INFO C:/Documents/DoAnThietKeViMach/Project/SoC/VERIFICATION/Monitor/axi_monitor.sv(51) @ 1845000: uvm_test_top.env.agent.monitor [MON_WR] Detected WRITE : Addr=3000000c Data=00000100 Strb=1111 Prot=000 BResp=00
# UVM_INFO C:/Documents/DoAnThietKeViMach/Project/SoC/VERIFICATION/Scoreboard/axi_scoreboard.sv(101) @ 1845000: uvm_test_top.env.scoreboard [SCB_WR] [UART] WRITE Addr=3000000c Data=00000100
# UVM_INFO C:/Documents/DoAnThietKeViMach/Project/SoC/VERIFICATION/Driver/axi_driver.sv(63) @ 1855000: uvm_test_top.env.agent.driver [DRV] Write Done: Addr=3000000c Data=00000100 Prot=000
# UVM_INFO C:/Documents/DoAnThietKeViMach/Project/SoC/VERIFICATION/Monitor/axi_monitor.sv(51) @ 1895000: uvm_test_top.env.agent.monitor [MON_WR] Detected WRITE : Addr=4000000c Data=00000005 Strb=1111 Prot=000 BResp=00
# UVM_INFO C:/Documents/DoAnThietKeViMach/Project/SoC/VERIFICATION/Scoreboard/axi_scoreboard.sv(101) @ 1895000: uvm_test_top.env.scoreboard [SCB_WR] [SPI] WRITE Addr=4000000c Data=00000005
# UVM_INFO C:/Documents/DoAnThietKeViMach/Project/SoC/VERIFICATION/Driver/axi_driver.sv(63) @ 1905000: uvm_test_top.env.agent.driver [DRV] Write Done: Addr=4000000c Data=00000005 Prot=000
# [DRAM READ] addr=10000000 data=deadbeef
# UVM_INFO C:/Documents/DoAnThietKeViMach/Project/SoC/VERIFICATION/Monitor/axi_monitor.sv(75) @ 1945000: uvm_test_top.env.agent.monitor [MON_RD] Detected READ  : Addr=10000000 Data=deadbeef Prot=000 RResp=00
# UVM_INFO C:/Documents/DoAnThietKeViMach/Project/SoC/VERIFICATION/Scoreboard/axi_scoreboard.sv(87) @ 1945000: uvm_test_top.env.scoreboard [SCB_PASS] [DRAM] PASS Addr=10000000 Expected=deadbeef Got=deadbeef
# UVM_INFO C:/Documents/DoAnThietKeViMach/Project/SoC/VERIFICATION/Driver/axi_driver.sv(83) @ 1955000: uvm_test_top.env.agent.driver [DRV] Read Done: Addr=10000000 Data=deadbeef Prot=000
# UVM_INFO C:/Documents/DoAnThietKeViMach/Project/SoC/VERIFICATION/Monitor/axi_monitor.sv(75) @ 1995000: uvm_test_top.env.agent.monitor [MON_RD] Detected READ  : Addr=20000004 Data=00000032 Prot=000 RResp=00
# UVM_INFO C:/Documents/DoAnThietKeViMach/Project/SoC/VERIFICATION/Scoreboard/axi_scoreboard.sv(121) @ 1995000: uvm_test_top.env.scoreboard [SCB_PASS] [TIMER] PASS Addr=20000004 Expected=00000032 Got=00000032
# UVM_INFO C:/Documents/DoAnThietKeViMach/Project/SoC/VERIFICATION/Driver/axi_driver.sv(83) @ 2005000: uvm_test_top.env.agent.driver [DRV] Read Done: Addr=20000004 Data=00000032 Prot=000
# UVM_INFO C:/Documents/DoAnThietKeViMach/Project/SoC/VERIFICATION/Monitor/axi_monitor.sv(75) @ 2045000: uvm_test_top.env.agent.monitor [MON_RD] Detected READ  : Addr=3000000c Data=00000100 Prot=000 RResp=00
# UVM_INFO C:/Documents/DoAnThietKeViMach/Project/SoC/VERIFICATION/Scoreboard/axi_scoreboard.sv(121) @ 2045000: uvm_test_top.env.scoreboard [SCB_PASS] [UART] PASS Addr=3000000c Expected=00000100 Got=00000100
# UVM_INFO C:/Documents/DoAnThietKeViMach/Project/SoC/VERIFICATION/Driver/axi_driver.sv(83) @ 2055000: uvm_test_top.env.agent.driver [DRV] Read Done: Addr=3000000c Data=00000100 Prot=000
# UVM_INFO C:/Documents/DoAnThietKeViMach/Project/SoC/VERIFICATION/Monitor/axi_monitor.sv(75) @ 2095000: uvm_test_top.env.agent.monitor [MON_RD] Detected READ  : Addr=4000000c Data=00000005 Prot=000 RResp=00
# UVM_INFO C:/Documents/DoAnThietKeViMach/Project/SoC/VERIFICATION/Scoreboard/axi_scoreboard.sv(121) @ 2095000: uvm_test_top.env.scoreboard [SCB_PASS] [SPI] PASS Addr=4000000c Expected=00000005 Got=00000005
# UVM_INFO C:/Documents/DoAnThietKeViMach/Project/SoC/VERIFICATION/Driver/axi_driver.sv(83) @ 2105000: uvm_test_top.env.agent.driver [DRV] Read Done: Addr=4000000c Data=00000005 Prot=000
# UVM_INFO C:/Documents/DoAnThietKeViMach/Project/SoC/VERIFICATION/Sequence/axi_multi_slaves_sequence.sv(105) @ 2105000: uvm_test_top.env.agent.sequencer@@seq [SEQ] === TEST 7: Timer Disable/Re-enable ===
# UVM_INFO C:/Documents/DoAnThietKeViMach/Project/SoC/VERIFICATION/Monitor/axi_monitor.sv(51) @ 2155000: uvm_test_top.env.agent.monitor [MON_WR] Detected WRITE : Addr=20000004 Data=00000050 Strb=1111 Prot=001 BResp=00
# UVM_INFO C:/Documents/DoAnThietKeViMach/Project/SoC/VERIFICATION/Scoreboard/axi_scoreboard.sv(101) @ 2155000: uvm_test_top.env.scoreboard [SCB_WR] [TIMER] WRITE Addr=20000004 Data=00000050
# UVM_INFO C:/Documents/DoAnThietKeViMach/Project/SoC/VERIFICATION/Driver/axi_driver.sv(63) @ 2165000: uvm_test_top.env.agent.driver [DRV] Write Done: Addr=20000004 Data=00000050 Prot=001
# UVM_INFO C:/Documents/DoAnThietKeViMach/Project/SoC/VERIFICATION/Monitor/axi_monitor.sv(51) @ 2215000: uvm_test_top.env.agent.monitor [MON_WR] Detected WRITE : Addr=20000000 Data=00000001 Strb=1111 Prot=001 BResp=00
# UVM_INFO C:/Documents/DoAnThietKeViMach/Project/SoC/VERIFICATION/Scoreboard/axi_scoreboard.sv(101) @ 2215000: uvm_test_top.env.scoreboard [SCB_WR] [TIMER] WRITE Addr=20000000 Data=00000001
# UVM_INFO C:/Documents/DoAnThietKeViMach/Project/SoC/VERIFICATION/Driver/axi_driver.sv(63) @ 2225000: uvm_test_top.env.agent.driver [DRV] Write Done: Addr=20000000 Data=00000001 Prot=001
# UVM_INFO C:/Documents/DoAnThietKeViMach/Project/SoC/VERIFICATION/Monitor/axi_monitor.sv(75) @ 2265000: uvm_test_top.env.agent.monitor [MON_RD] Detected READ  : Addr=20000008 Data=00000028 Prot=000 RResp=00
# UVM_INFO C:/Documents/DoAnThietKeViMach/Project/SoC/VERIFICATION/Scoreboard/axi_scoreboard.sv(131) @ 2265000: uvm_test_top.env.scoreboard [SCB_RD] [TIMER] READ Addr=20000008 Data=00000028 (status/no prior write)
# UVM_INFO C:/Documents/DoAnThietKeViMach/Project/SoC/VERIFICATION/Driver/axi_driver.sv(83) @ 2275000: uvm_test_top.env.agent.driver [DRV] Read Done: Addr=20000008 Data=00000028 Prot=000
# UVM_INFO C:/Documents/DoAnThietKeViMach/Project/SoC/VERIFICATION/Monitor/axi_monitor.sv(51) @ 2325000: uvm_test_top.env.agent.monitor [MON_WR] Detected WRITE : Addr=20000000 Data=00000000 Strb=1111 Prot=001 BResp=00
# UVM_INFO C:/Documents/DoAnThietKeViMach/Project/SoC/VERIFICATION/Scoreboard/axi_scoreboard.sv(101) @ 2325000: uvm_test_top.env.scoreboard [SCB_WR] [TIMER] WRITE Addr=20000000 Data=00000000
# UVM_INFO C:/Documents/DoAnThietKeViMach/Project/SoC/VERIFICATION/Driver/axi_driver.sv(63) @ 2335000: uvm_test_top.env.agent.driver [DRV] Write Done: Addr=20000000 Data=00000000 Prot=001
# UVM_INFO C:/Documents/DoAnThietKeViMach/Project/SoC/VERIFICATION/Monitor/axi_monitor.sv(75) @ 2375000: uvm_test_top.env.agent.monitor [MON_RD] Detected READ  : Addr=20000008 Data=00000000 Prot=000 RResp=00
# UVM_INFO C:/Documents/DoAnThietKeViMach/Project/SoC/VERIFICATION/Scoreboard/axi_scoreboard.sv(131) @ 2375000: uvm_test_top.env.scoreboard [SCB_RD] [TIMER] READ Addr=20000008 Data=00000000 (status/no prior write)
# UVM_INFO C:/Documents/DoAnThietKeViMach/Project/SoC/VERIFICATION/Driver/axi_driver.sv(83) @ 2385000: uvm_test_top.env.agent.driver [DRV] Read Done: Addr=20000008 Data=00000000 Prot=000
# UVM_INFO C:/Documents/DoAnThietKeViMach/Project/SoC/VERIFICATION/Monitor/axi_monitor.sv(75) @ 2425000: uvm_test_top.env.agent.monitor [MON_RD] Detected READ  : Addr=20000000 Data=00000000 Prot=000 RResp=00
# UVM_INFO C:/Documents/DoAnThietKeViMach/Project/SoC/VERIFICATION/Scoreboard/axi_scoreboard.sv(121) @ 2425000: uvm_test_top.env.scoreboard [SCB_PASS] [TIMER] PASS Addr=20000000 Expected=00000000 Got=00000000
# UVM_INFO C:/Documents/DoAnThietKeViMach/Project/SoC/VERIFICATION/Driver/axi_driver.sv(83) @ 2435000: uvm_test_top.env.agent.driver [DRV] Read Done: Addr=20000000 Data=00000000 Prot=000
# UVM_INFO C:/Documents/DoAnThietKeViMach/Project/SoC/VERIFICATION/Sequence/axi_multi_slaves_sequence.sv(116) @ 2435000: uvm_test_top.env.agent.sequencer@@seq [SEQ] === TEST 8: UART Multiple TX ===
# UVM_INFO C:/Documents/DoAnThietKeViMach/Project/SoC/VERIFICATION/Monitor/axi_monitor.sv(51) @ 2475000: uvm_test_top.env.agent.monitor [MON_WR] Detected WRITE : Addr=3000000c Data=000001b2 Strb=1111 Prot=000 BResp=00
# UVM_INFO C:/Documents/DoAnThietKeViMach/Project/SoC/VERIFICATION/Scoreboard/axi_scoreboard.sv(101) @ 2475000: uvm_test_top.env.scoreboard [SCB_WR] [UART] WRITE Addr=3000000c Data=000001b2
# UVM_INFO C:/Documents/DoAnThietKeViMach/Project/SoC/VERIFICATION/Driver/axi_driver.sv(63) @ 2485000: uvm_test_top.env.agent.driver [DRV] Write Done: Addr=3000000c Data=000001b2 Prot=000
# UVM_INFO C:/Documents/DoAnThietKeViMach/Project/SoC/VERIFICATION/Monitor/axi_monitor.sv(51) @ 2525000: uvm_test_top.env.agent.monitor [MON_WR] Detected WRITE : Addr=30000000 Data=00000048 Strb=1111 Prot=000 BResp=00
# UVM_INFO C:/Documents/DoAnThietKeViMach/Project/SoC/VERIFICATION/Scoreboard/axi_scoreboard.sv(101) @ 2525000: uvm_test_top.env.scoreboard [SCB_WR] [UART] WRITE Addr=30000000 Data=00000048
# UVM_INFO C:/Documents/DoAnThietKeViMach/Project/SoC/VERIFICATION/Driver/axi_driver.sv(63) @ 2535000: uvm_test_top.env.agent.driver [DRV] Write Done: Addr=30000000 Data=00000048 Prot=000
# UVM_INFO C:/Documents/DoAnThietKeViMach/Project/SoC/VERIFICATION/Monitor/axi_monitor.sv(51) @ 2575000: uvm_test_top.env.agent.monitor [MON_WR] Detected WRITE : Addr=30000000 Data=00000045 Strb=1111 Prot=000 BResp=00
# UVM_INFO C:/Documents/DoAnThietKeViMach/Project/SoC/VERIFICATION/Scoreboard/axi_scoreboard.sv(101) @ 2575000: uvm_test_top.env.scoreboard [SCB_WR] [UART] WRITE Addr=30000000 Data=00000045
# UVM_INFO C:/Documents/DoAnThietKeViMach/Project/SoC/VERIFICATION/Driver/axi_driver.sv(63) @ 2585000: uvm_test_top.env.agent.driver [DRV] Write Done: Addr=30000000 Data=00000045 Prot=000
# UVM_INFO C:/Documents/DoAnThietKeViMach/Project/SoC/VERIFICATION/Monitor/axi_monitor.sv(51) @ 2625000: uvm_test_top.env.agent.monitor [MON_WR] Detected WRITE : Addr=30000000 Data=0000004c Strb=1111 Prot=000 BResp=00
# UVM_INFO C:/Documents/DoAnThietKeViMach/Project/SoC/VERIFICATION/Scoreboard/axi_scoreboard.sv(101) @ 2625000: uvm_test_top.env.scoreboard [SCB_WR] [UART] WRITE Addr=30000000 Data=0000004c
# UVM_INFO C:/Documents/DoAnThietKeViMach/Project/SoC/VERIFICATION/Driver/axi_driver.sv(63) @ 2635000: uvm_test_top.env.agent.driver [DRV] Write Done: Addr=30000000 Data=0000004c Prot=000
# UVM_INFO C:/Documents/DoAnThietKeViMach/Project/SoC/VERIFICATION/Monitor/axi_monitor.sv(51) @ 2675000: uvm_test_top.env.agent.monitor [MON_WR] Detected WRITE : Addr=30000000 Data=0000004c Strb=1111 Prot=000 BResp=00
# UVM_INFO C:/Documents/DoAnThietKeViMach/Project/SoC/VERIFICATION/Scoreboard/axi_scoreboard.sv(101) @ 2675000: uvm_test_top.env.scoreboard [SCB_WR] [UART] WRITE Addr=30000000 Data=0000004c
# UVM_INFO C:/Documents/DoAnThietKeViMach/Project/SoC/VERIFICATION/Driver/axi_driver.sv(63) @ 2685000: uvm_test_top.env.agent.driver [DRV] Write Done: Addr=30000000 Data=0000004c Prot=000
# UVM_INFO C:/Documents/DoAnThietKeViMach/Project/SoC/VERIFICATION/Monitor/axi_monitor.sv(51) @ 2725000: uvm_test_top.env.agent.monitor [MON_WR] Detected WRITE : Addr=30000000 Data=0000004f Strb=1111 Prot=000 BResp=00
# UVM_INFO C:/Documents/DoAnThietKeViMach/Project/SoC/VERIFICATION/Scoreboard/axi_scoreboard.sv(101) @ 2725000: uvm_test_top.env.scoreboard [SCB_WR] [UART] WRITE Addr=30000000 Data=0000004f
# UVM_INFO C:/Documents/DoAnThietKeViMach/Project/SoC/VERIFICATION/Driver/axi_driver.sv(63) @ 2735000: uvm_test_top.env.agent.driver [DRV] Write Done: Addr=30000000 Data=0000004f Prot=000
# UVM_INFO C:/Documents/DoAnThietKeViMach/Project/SoC/VERIFICATION/Sequence/axi_multi_slaves_sequence.sv(127) @ 2735000: uvm_test_top.env.agent.sequencer@@seq [SEQ] === TEST 9: SPI Multiple Transfers ===
# UVM_INFO C:/Documents/DoAnThietKeViMach/Project/SoC/VERIFICATION/Monitor/axi_monitor.sv(51) @ 2775000: uvm_test_top.env.agent.monitor [MON_WR] Detected WRITE : Addr=4000000c Data=00000008 Strb=1111 Prot=000 BResp=00
# UVM_INFO C:/Documents/DoAnThietKeViMach/Project/SoC/VERIFICATION/Scoreboard/axi_scoreboard.sv(101) @ 2775000: uvm_test_top.env.scoreboard [SCB_WR] [SPI] WRITE Addr=4000000c Data=00000008
# UVM_INFO C:/Documents/DoAnThietKeViMach/Project/SoC/VERIFICATION/Driver/axi_driver.sv(63) @ 2785000: uvm_test_top.env.agent.driver [DRV] Write Done: Addr=4000000c Data=00000008 Prot=000
# UVM_INFO C:/Documents/DoAnThietKeViMach/Project/SoC/VERIFICATION/Monitor/axi_monitor.sv(51) @ 2825000: uvm_test_top.env.agent.monitor [MON_WR] Detected WRITE : Addr=40000000 Data=000000ff Strb=1111 Prot=000 BResp=00
# UVM_INFO C:/Documents/DoAnThietKeViMach/Project/SoC/VERIFICATION/Scoreboard/axi_scoreboard.sv(101) @ 2825000: uvm_test_top.env.scoreboard [SCB_WR] [SPI] WRITE Addr=40000000 Data=000000ff
# UVM_INFO C:/Documents/DoAnThietKeViMach/Project/SoC/VERIFICATION/Driver/axi_driver.sv(63) @ 2835000: uvm_test_top.env.agent.driver [DRV] Write Done: Addr=40000000 Data=000000ff Prot=000
# UVM_INFO C:/Documents/DoAnThietKeViMach/Project/SoC/VERIFICATION/Monitor/axi_monitor.sv(51) @ 2875000: uvm_test_top.env.agent.monitor [MON_WR] Detected WRITE : Addr=40000000 Data=00000055 Strb=1111 Prot=000 BResp=00
# UVM_INFO C:/Documents/DoAnThietKeViMach/Project/SoC/VERIFICATION/Scoreboard/axi_scoreboard.sv(101) @ 2875000: uvm_test_top.env.scoreboard [SCB_WR] [SPI] WRITE Addr=40000000 Data=00000055
# UVM_INFO C:/Documents/DoAnThietKeViMach/Project/SoC/VERIFICATION/Driver/axi_driver.sv(63) @ 2885000: uvm_test_top.env.agent.driver [DRV] Write Done: Addr=40000000 Data=00000055 Prot=000
# UVM_INFO C:/Documents/DoAnThietKeViMach/Project/SoC/VERIFICATION/Monitor/axi_monitor.sv(51) @ 2925000: uvm_test_top.env.agent.monitor [MON_WR] Detected WRITE : Addr=40000000 Data=000000aa Strb=1111 Prot=000 BResp=00
# UVM_INFO C:/Documents/DoAnThietKeViMach/Project/SoC/VERIFICATION/Scoreboard/axi_scoreboard.sv(101) @ 2925000: uvm_test_top.env.scoreboard [SCB_WR] [SPI] WRITE Addr=40000000 Data=000000aa
# UVM_INFO C:/Documents/DoAnThietKeViMach/Project/SoC/VERIFICATION/Driver/axi_driver.sv(63) @ 2935000: uvm_test_top.env.agent.driver [DRV] Write Done: Addr=40000000 Data=000000aa Prot=000
# UVM_INFO C:/Documents/DoAnThietKeViMach/Project/SoC/VERIFICATION/Monitor/axi_monitor.sv(75) @ 2975000: uvm_test_top.env.agent.monitor [MON_RD] Detected READ  : Addr=40000000 Data=00000000 Prot=000 RResp=00
# UVM_INFO C:/Documents/DoAnThietKeViMach/Project/SoC/VERIFICATION/Scoreboard/axi_scoreboard.sv(114) @ 2975000: uvm_test_top.env.scoreboard [SCB_PASS] [SPI] PASS Addr=40000000 is write-only, read returned 00000000 (expected 0x00)
# UVM_INFO C:/Documents/DoAnThietKeViMach/Project/SoC/VERIFICATION/Driver/axi_driver.sv(83) @ 2985000: uvm_test_top.env.agent.driver [DRV] Read Done: Addr=40000000 Data=00000000 Prot=000
# UVM_INFO C:/Documents/DoAnThietKeViMach/Project/SoC/VERIFICATION/Sequence/axi_multi_slaves_sequence.sv(137) @ 2985000: uvm_test_top.env.agent.sequencer@@seq [SEQ] === TEST 10: DRAM Address Boundaries ===
# [DRAM WRITE] addr=10000000 data=00000001
# UVM_INFO C:/Documents/DoAnThietKeViMach/Project/SoC/VERIFICATION/Monitor/axi_monitor.sv(51) @ 3025000: uvm_test_top.env.agent.monitor [MON_WR] Detected WRITE : Addr=10000000 Data=00000001 Strb=1111 Prot=000 BResp=00
# UVM_INFO C:/Documents/DoAnThietKeViMach/Project/SoC/VERIFICATION/Driver/axi_driver.sv(63) @ 3035000: uvm_test_top.env.agent.driver [DRV] Write Done: Addr=10000000 Data=00000001 Prot=000
# [DRAM WRITE] addr=10000ffc data=ffffffff
# UVM_INFO C:/Documents/DoAnThietKeViMach/Project/SoC/VERIFICATION/Monitor/axi_monitor.sv(51) @ 3075000: uvm_test_top.env.agent.monitor [MON_WR] Detected WRITE : Addr=10000ffc Data=ffffffff Strb=1111 Prot=000 BResp=00
# UVM_INFO C:/Documents/DoAnThietKeViMach/Project/SoC/VERIFICATION/Driver/axi_driver.sv(63) @ 3085000: uvm_test_top.env.agent.driver [DRV] Write Done: Addr=10000ffc Data=ffffffff Prot=000
# [DRAM READ] addr=10000000 data=00000001
# UVM_INFO C:/Documents/DoAnThietKeViMach/Project/SoC/VERIFICATION/Monitor/axi_monitor.sv(75) @ 3125000: uvm_test_top.env.agent.monitor [MON_RD] Detected READ  : Addr=10000000 Data=00000001 Prot=000 RResp=00
# UVM_INFO C:/Documents/DoAnThietKeViMach/Project/SoC/VERIFICATION/Scoreboard/axi_scoreboard.sv(87) @ 3125000: uvm_test_top.env.scoreboard [SCB_PASS] [DRAM] PASS Addr=10000000 Expected=00000001 Got=00000001
# UVM_INFO C:/Documents/DoAnThietKeViMach/Project/SoC/VERIFICATION/Driver/axi_driver.sv(83) @ 3135000: uvm_test_top.env.agent.driver [DRV] Read Done: Addr=10000000 Data=00000001 Prot=000
# [DRAM READ] addr=10000ffc data=ffffffff
# UVM_INFO C:/Documents/DoAnThietKeViMach/Project/SoC/VERIFICATION/Monitor/axi_monitor.sv(75) @ 3175000: uvm_test_top.env.agent.monitor [MON_RD] Detected READ  : Addr=10000ffc Data=ffffffff Prot=000 RResp=00
# UVM_INFO C:/Documents/DoAnThietKeViMach/Project/SoC/VERIFICATION/Scoreboard/axi_scoreboard.sv(87) @ 3175000: uvm_test_top.env.scoreboard [SCB_PASS] [DRAM] PASS Addr=10000ffc Expected=ffffffff Got=ffffffff
# UVM_INFO C:/Documents/DoAnThietKeViMach/Project/SoC/VERIFICATION/Driver/axi_driver.sv(83) @ 3185000: uvm_test_top.env.agent.driver [DRV] Read Done: Addr=10000ffc Data=ffffffff Prot=000
# UVM_INFO C:/Documents/DoAnThietKeViMach/Project/SoC/VERIFICATION/Sequence/axi_multi_slaves_sequence.sv(146) @ 3185000: uvm_test_top.env.agent.sequencer@@seq [SEQ] === TEST 11: Read All Status Registers ===
# UVM_INFO C:/Documents/DoAnThietKeViMach/Project/SoC/VERIFICATION/Monitor/axi_monitor.sv(75) @ 3225000: uvm_test_top.env.agent.monitor [MON_RD] Detected READ  : Addr=20000000 Data=00000000 Prot=000 RResp=00
# UVM_INFO C:/Documents/DoAnThietKeViMach/Project/SoC/VERIFICATION/Scoreboard/axi_scoreboard.sv(121) @ 3225000: uvm_test_top.env.scoreboard [SCB_PASS] [TIMER] PASS Addr=20000000 Expected=00000000 Got=00000000
# UVM_INFO C:/Documents/DoAnThietKeViMach/Project/SoC/VERIFICATION/Driver/axi_driver.sv(83) @ 3235000: uvm_test_top.env.agent.driver [DRV] Read Done: Addr=20000000 Data=00000000 Prot=000
# UVM_INFO C:/Documents/DoAnThietKeViMach/Project/SoC/VERIFICATION/Monitor/axi_monitor.sv(75) @ 3275000: uvm_test_top.env.agent.monitor [MON_RD] Detected READ  : Addr=20000004 Data=00000050 Prot=000 RResp=00
# UVM_INFO C:/Documents/DoAnThietKeViMach/Project/SoC/VERIFICATION/Scoreboard/axi_scoreboard.sv(121) @ 3275000: uvm_test_top.env.scoreboard [SCB_PASS] [TIMER] PASS Addr=20000004 Expected=00000050 Got=00000050
# UVM_INFO C:/Documents/DoAnThietKeViMach/Project/SoC/VERIFICATION/Driver/axi_driver.sv(83) @ 3285000: uvm_test_top.env.agent.driver [DRV] Read Done: Addr=20000004 Data=00000050 Prot=000
# UVM_INFO C:/Documents/DoAnThietKeViMach/Project/SoC/VERIFICATION/Monitor/axi_monitor.sv(75) @ 3325000: uvm_test_top.env.agent.monitor [MON_RD] Detected READ  : Addr=20000008 Data=00000000 Prot=000 RResp=00
# UVM_INFO C:/Documents/DoAnThietKeViMach/Project/SoC/VERIFICATION/Scoreboard/axi_scoreboard.sv(131) @ 3325000: uvm_test_top.env.scoreboard [SCB_RD] [TIMER] READ Addr=20000008 Data=00000000 (status/no prior write)
# UVM_INFO C:/Documents/DoAnThietKeViMach/Project/SoC/VERIFICATION/Driver/axi_driver.sv(83) @ 3335000: uvm_test_top.env.agent.driver [DRV] Read Done: Addr=20000008 Data=00000000 Prot=000
# UVM_INFO C:/Documents/DoAnThietKeViMach/Project/SoC/VERIFICATION/Monitor/axi_monitor.sv(75) @ 3375000: uvm_test_top.env.agent.monitor [MON_RD] Detected READ  : Addr=3000000c Data=000001b2 Prot=000 RResp=00
# UVM_INFO C:/Documents/DoAnThietKeViMach/Project/SoC/VERIFICATION/Scoreboard/axi_scoreboard.sv(121) @ 3375000: uvm_test_top.env.scoreboard [SCB_PASS] [UART] PASS Addr=3000000c Expected=000001b2 Got=000001b2
# UVM_INFO C:/Documents/DoAnThietKeViMach/Project/SoC/VERIFICATION/Driver/axi_driver.sv(83) @ 3385000: uvm_test_top.env.agent.driver [DRV] Read Done: Addr=3000000c Data=000001b2 Prot=000
# UVM_INFO C:/Documents/DoAnThietKeViMach/Project/SoC/VERIFICATION/Monitor/axi_monitor.sv(75) @ 3425000: uvm_test_top.env.agent.monitor [MON_RD] Detected READ  : Addr=4000000c Data=00000008 Prot=000 RResp=00
# UVM_INFO C:/Documents/DoAnThietKeViMach/Project/SoC/VERIFICATION/Scoreboard/axi_scoreboard.sv(121) @ 3425000: uvm_test_top.env.scoreboard [SCB_PASS] [SPI] PASS Addr=4000000c Expected=00000008 Got=00000008
# UVM_INFO C:/Documents/DoAnThietKeViMach/Project/SoC/VERIFICATION/Driver/axi_driver.sv(83) @ 3435000: uvm_test_top.env.agent.driver [DRV] Read Done: Addr=4000000c Data=00000008 Prot=000
# UVM_INFO C:/Documents/DoAnThietKeViMach/Project/SoC/VERIFICATION/Sequence/axi_multi_slaves_sequence.sv(156) @ 3435000: uvm_test_top.env.agent.sequencer@@seq [SEQ] === TEST 12: Rapid DRAM Writes ===
# [DRAM WRITE] addr=10000100 data=11111111
# UVM_INFO C:/Documents/DoAnThietKeViMach/Project/SoC/VERIFICATION/Monitor/axi_monitor.sv(51) @ 3475000: uvm_test_top.env.agent.monitor [MON_WR] Detected WRITE : Addr=10000100 Data=11111111 Strb=1111 Prot=000 BResp=00
# UVM_INFO C:/Documents/DoAnThietKeViMach/Project/SoC/VERIFICATION/Driver/axi_driver.sv(63) @ 3485000: uvm_test_top.env.agent.driver [DRV] Write Done: Addr=10000100 Data=11111111 Prot=000
# [DRAM WRITE] addr=10000104 data=22222222
# UVM_INFO C:/Documents/DoAnThietKeViMach/Project/SoC/VERIFICATION/Monitor/axi_monitor.sv(51) @ 3525000: uvm_test_top.env.agent.monitor [MON_WR] Detected WRITE : Addr=10000104 Data=22222222 Strb=1111 Prot=000 BResp=00
# UVM_INFO C:/Documents/DoAnThietKeViMach/Project/SoC/VERIFICATION/Driver/axi_driver.sv(63) @ 3535000: uvm_test_top.env.agent.driver [DRV] Write Done: Addr=10000104 Data=22222222 Prot=000
# [DRAM WRITE] addr=10000108 data=33333333
# UVM_INFO C:/Documents/DoAnThietKeViMach/Project/SoC/VERIFICATION/Monitor/axi_monitor.sv(51) @ 3575000: uvm_test_top.env.agent.monitor [MON_WR] Detected WRITE : Addr=10000108 Data=33333333 Strb=1111 Prot=000 BResp=00
# UVM_INFO C:/Documents/DoAnThietKeViMach/Project/SoC/VERIFICATION/Driver/axi_driver.sv(63) @ 3585000: uvm_test_top.env.agent.driver [DRV] Write Done: Addr=10000108 Data=33333333 Prot=000
# [DRAM WRITE] addr=1000010c data=44444444
# UVM_INFO C:/Documents/DoAnThietKeViMach/Project/SoC/VERIFICATION/Monitor/axi_monitor.sv(51) @ 3625000: uvm_test_top.env.agent.monitor [MON_WR] Detected WRITE : Addr=1000010c Data=44444444 Strb=1111 Prot=000 BResp=00
# UVM_INFO C:/Documents/DoAnThietKeViMach/Project/SoC/VERIFICATION/Driver/axi_driver.sv(63) @ 3635000: uvm_test_top.env.agent.driver [DRV] Write Done: Addr=1000010c Data=44444444 Prot=000
# [DRAM READ] addr=10000100 data=11111111
# UVM_INFO C:/Documents/DoAnThietKeViMach/Project/SoC/VERIFICATION/Monitor/axi_monitor.sv(75) @ 3675000: uvm_test_top.env.agent.monitor [MON_RD] Detected READ  : Addr=10000100 Data=11111111 Prot=000 RResp=00
# UVM_INFO C:/Documents/DoAnThietKeViMach/Project/SoC/VERIFICATION/Scoreboard/axi_scoreboard.sv(87) @ 3675000: uvm_test_top.env.scoreboard [SCB_PASS] [DRAM] PASS Addr=10000100 Expected=11111111 Got=11111111
# UVM_INFO C:/Documents/DoAnThietKeViMach/Project/SoC/VERIFICATION/Driver/axi_driver.sv(83) @ 3685000: uvm_test_top.env.agent.driver [DRV] Read Done: Addr=10000100 Data=11111111 Prot=000
# [DRAM READ] addr=10000104 data=22222222
# UVM_INFO C:/Documents/DoAnThietKeViMach/Project/SoC/VERIFICATION/Monitor/axi_monitor.sv(75) @ 3725000: uvm_test_top.env.agent.monitor [MON_RD] Detected READ  : Addr=10000104 Data=22222222 Prot=000 RResp=00
# UVM_INFO C:/Documents/DoAnThietKeViMach/Project/SoC/VERIFICATION/Scoreboard/axi_scoreboard.sv(87) @ 3725000: uvm_test_top.env.scoreboard [SCB_PASS] [DRAM] PASS Addr=10000104 Expected=22222222 Got=22222222
# UVM_INFO C:/Documents/DoAnThietKeViMach/Project/SoC/VERIFICATION/Driver/axi_driver.sv(83) @ 3735000: uvm_test_top.env.agent.driver [DRV] Read Done: Addr=10000104 Data=22222222 Prot=000
# [DRAM READ] addr=10000108 data=33333333
# UVM_INFO C:/Documents/DoAnThietKeViMach/Project/SoC/VERIFICATION/Monitor/axi_monitor.sv(75) @ 3775000: uvm_test_top.env.agent.monitor [MON_RD] Detected READ  : Addr=10000108 Data=33333333 Prot=000 RResp=00
# UVM_INFO C:/Documents/DoAnThietKeViMach/Project/SoC/VERIFICATION/Scoreboard/axi_scoreboard.sv(87) @ 3775000: uvm_test_top.env.scoreboard [SCB_PASS] [DRAM] PASS Addr=10000108 Expected=33333333 Got=33333333
# UVM_INFO C:/Documents/DoAnThietKeViMach/Project/SoC/VERIFICATION/Driver/axi_driver.sv(83) @ 3785000: uvm_test_top.env.agent.driver [DRV] Read Done: Addr=10000108 Data=33333333 Prot=000
# [DRAM READ] addr=1000010c data=44444444
# UVM_INFO C:/Documents/DoAnThietKeViMach/Project/SoC/VERIFICATION/Monitor/axi_monitor.sv(75) @ 3825000: uvm_test_top.env.agent.monitor [MON_RD] Detected READ  : Addr=1000010c Data=44444444 Prot=000 RResp=00
# UVM_INFO C:/Documents/DoAnThietKeViMach/Project/SoC/VERIFICATION/Scoreboard/axi_scoreboard.sv(87) @ 3825000: uvm_test_top.env.scoreboard [SCB_PASS] [DRAM] PASS Addr=1000010c Expected=44444444 Got=44444444
# UVM_INFO C:/Documents/DoAnThietKeViMach/Project/SoC/VERIFICATION/Driver/axi_driver.sv(83) @ 3835000: uvm_test_top.env.agent.driver [DRV] Read Done: Addr=1000010c Data=44444444 Prot=000
# UVM_INFO C:/Documents/DoAnThietKeViMach/Project/SoC/VERIFICATION/Sequence/axi_multi_slaves_sequence.sv(169) @ 3835000: uvm_test_top.env.agent.sequencer@@seq [SEQ] === TEST 13: Timer Period Update ===
# UVM_INFO C:/Documents/DoAnThietKeViMach/Project/SoC/VERIFICATION/Monitor/axi_monitor.sv(51) @ 3885000: uvm_test_top.env.agent.monitor [MON_WR] Detected WRITE : Addr=20000004 Data=00000010 Strb=1111 Prot=001 BResp=00
# UVM_INFO C:/Documents/DoAnThietKeViMach/Project/SoC/VERIFICATION/Scoreboard/axi_scoreboard.sv(101) @ 3885000: uvm_test_top.env.scoreboard [SCB_WR] [TIMER] WRITE Addr=20000004 Data=00000010
# UVM_INFO C:/Documents/DoAnThietKeViMach/Project/SoC/VERIFICATION/Driver/axi_driver.sv(63) @ 3895000: uvm_test_top.env.agent.driver [DRV] Write Done: Addr=20000004 Data=00000010 Prot=001
# UVM_INFO C:/Documents/DoAnThietKeViMach/Project/SoC/VERIFICATION/Monitor/axi_monitor.sv(51) @ 3945000: uvm_test_top.env.agent.monitor [MON_WR] Detected WRITE : Addr=20000000 Data=00000001 Strb=1111 Prot=001 BResp=00
# UVM_INFO C:/Documents/DoAnThietKeViMach/Project/SoC/VERIFICATION/Scoreboard/axi_scoreboard.sv(101) @ 3945000: uvm_test_top.env.scoreboard [SCB_WR] [TIMER] WRITE Addr=20000000 Data=00000001
# UVM_INFO C:/Documents/DoAnThietKeViMach/Project/SoC/VERIFICATION/Driver/axi_driver.sv(63) @ 3955000: uvm_test_top.env.agent.driver [DRV] Write Done: Addr=20000000 Data=00000001 Prot=001
# UVM_INFO C:/Documents/DoAnThietKeViMach/Project/SoC/VERIFICATION/Monitor/axi_monitor.sv(75) @ 3995000: uvm_test_top.env.agent.monitor [MON_RD] Detected READ  : Addr=20000004 Data=00000010 Prot=000 RResp=00
# UVM_INFO C:/Documents/DoAnThietKeViMach/Project/SoC/VERIFICATION/Scoreboard/axi_scoreboard.sv(121) @ 3995000: uvm_test_top.env.scoreboard [SCB_PASS] [TIMER] PASS Addr=20000004 Expected=00000010 Got=00000010
# UVM_INFO C:/Documents/DoAnThietKeViMach/Project/SoC/VERIFICATION/Driver/axi_driver.sv(83) @ 4005000: uvm_test_top.env.agent.driver [DRV] Read Done: Addr=20000004 Data=00000010 Prot=000
# UVM_INFO C:/Documents/DoAnThietKeViMach/Project/SoC/VERIFICATION/Monitor/axi_monitor.sv(51) @ 4055000: uvm_test_top.env.agent.monitor [MON_WR] Detected WRITE : Addr=20000004 Data=00000020 Strb=1111 Prot=001 BResp=00
# UVM_INFO C:/Documents/DoAnThietKeViMach/Project/SoC/VERIFICATION/Scoreboard/axi_scoreboard.sv(101) @ 4055000: uvm_test_top.env.scoreboard [SCB_WR] [TIMER] WRITE Addr=20000004 Data=00000020
# UVM_INFO C:/Documents/DoAnThietKeViMach/Project/SoC/VERIFICATION/Driver/axi_driver.sv(63) @ 4065000: uvm_test_top.env.agent.driver [DRV] Write Done: Addr=20000004 Data=00000020 Prot=001
# UVM_INFO C:/Documents/DoAnThietKeViMach/Project/SoC/VERIFICATION/Monitor/axi_monitor.sv(75) @ 4105000: uvm_test_top.env.agent.monitor [MON_RD] Detected READ  : Addr=20000004 Data=00000020 Prot=000 RResp=00
# UVM_INFO C:/Documents/DoAnThietKeViMach/Project/SoC/VERIFICATION/Scoreboard/axi_scoreboard.sv(121) @ 4105000: uvm_test_top.env.scoreboard [SCB_PASS] [TIMER] PASS Addr=20000004 Expected=00000020 Got=00000020
# UVM_INFO C:/Documents/DoAnThietKeViMach/Project/SoC/VERIFICATION/Driver/axi_driver.sv(83) @ 4115000: uvm_test_top.env.agent.driver [DRV] Read Done: Addr=20000004 Data=00000020 Prot=000
# UVM_INFO C:/Documents/DoAnThietKeViMach/Project/SoC/VERIFICATION/Sequence/axi_multi_slaves_sequence.sv(179) @ 4115000: uvm_test_top.env.agent.sequencer@@seq [SEQ] === TEST 14: UART/SPI Baud Variations ===
# UVM_INFO C:/Documents/DoAnThietKeViMach/Project/SoC/VERIFICATION/Monitor/axi_monitor.sv(51) @ 4155000: uvm_test_top.env.agent.monitor [MON_WR] Detected WRITE : Addr=3000000c Data=00000064 Strb=1111 Prot=000 BResp=00
# UVM_INFO C:/Documents/DoAnThietKeViMach/Project/SoC/VERIFICATION/Scoreboard/axi_scoreboard.sv(101) @ 4155000: uvm_test_top.env.scoreboard [SCB_WR] [UART] WRITE Addr=3000000c Data=00000064
# UVM_INFO C:/Documents/DoAnThietKeViMach/Project/SoC/VERIFICATION/Driver/axi_driver.sv(63) @ 4165000: uvm_test_top.env.agent.driver [DRV] Write Done: Addr=3000000c Data=00000064 Prot=000
# UVM_INFO C:/Documents/DoAnThietKeViMach/Project/SoC/VERIFICATION/Monitor/axi_monitor.sv(75) @ 4205000: uvm_test_top.env.agent.monitor [MON_RD] Detected READ  : Addr=3000000c Data=00000064 Prot=000 RResp=00
# UVM_INFO C:/Documents/DoAnThietKeViMach/Project/SoC/VERIFICATION/Scoreboard/axi_scoreboard.sv(121) @ 4205000: uvm_test_top.env.scoreboard [SCB_PASS] [UART] PASS Addr=3000000c Expected=00000064 Got=00000064
# UVM_INFO C:/Documents/DoAnThietKeViMach/Project/SoC/VERIFICATION/Driver/axi_driver.sv(83) @ 4215000: uvm_test_top.env.agent.driver [DRV] Read Done: Addr=3000000c Data=00000064 Prot=000
# UVM_INFO C:/Documents/DoAnThietKeViMach/Project/SoC/VERIFICATION/Monitor/axi_monitor.sv(51) @ 4255000: uvm_test_top.env.agent.monitor [MON_WR] Detected WRITE : Addr=3000000c Data=00000032 Strb=1111 Prot=000 BResp=00
# UVM_INFO C:/Documents/DoAnThietKeViMach/Project/SoC/VERIFICATION/Scoreboard/axi_scoreboard.sv(101) @ 4255000: uvm_test_top.env.scoreboard [SCB_WR] [UART] WRITE Addr=3000000c Data=00000032
# UVM_INFO C:/Documents/DoAnThietKeViMach/Project/SoC/VERIFICATION/Driver/axi_driver.sv(63) @ 4265000: uvm_test_top.env.agent.driver [DRV] Write Done: Addr=3000000c Data=00000032 Prot=000
# UVM_INFO C:/Documents/DoAnThietKeViMach/Project/SoC/VERIFICATION/Monitor/axi_monitor.sv(75) @ 4305000: uvm_test_top.env.agent.monitor [MON_RD] Detected READ  : Addr=3000000c Data=00000032 Prot=000 RResp=00
# UVM_INFO C:/Documents/DoAnThietKeViMach/Project/SoC/VERIFICATION/Scoreboard/axi_scoreboard.sv(121) @ 4305000: uvm_test_top.env.scoreboard [SCB_PASS] [UART] PASS Addr=3000000c Expected=00000032 Got=00000032
# UVM_INFO C:/Documents/DoAnThietKeViMach/Project/SoC/VERIFICATION/Driver/axi_driver.sv(83) @ 4315000: uvm_test_top.env.agent.driver [DRV] Read Done: Addr=3000000c Data=00000032 Prot=000
# UVM_INFO C:/Documents/DoAnThietKeViMach/Project/SoC/VERIFICATION/Monitor/axi_monitor.sv(51) @ 4355000: uvm_test_top.env.agent.monitor [MON_WR] Detected WRITE : Addr=4000000c Data=00000002 Strb=1111 Prot=000 BResp=00
# UVM_INFO C:/Documents/DoAnThietKeViMach/Project/SoC/VERIFICATION/Scoreboard/axi_scoreboard.sv(101) @ 4355000: uvm_test_top.env.scoreboard [SCB_WR] [SPI] WRITE Addr=4000000c Data=00000002
# UVM_INFO C:/Documents/DoAnThietKeViMach/Project/SoC/VERIFICATION/Driver/axi_driver.sv(63) @ 4365000: uvm_test_top.env.agent.driver [DRV] Write Done: Addr=4000000c Data=00000002 Prot=000
# UVM_INFO C:/Documents/DoAnThietKeViMach/Project/SoC/VERIFICATION/Monitor/axi_monitor.sv(75) @ 4405000: uvm_test_top.env.agent.monitor [MON_RD] Detected READ  : Addr=4000000c Data=00000002 Prot=000 RResp=00
# UVM_INFO C:/Documents/DoAnThietKeViMach/Project/SoC/VERIFICATION/Scoreboard/axi_scoreboard.sv(121) @ 4405000: uvm_test_top.env.scoreboard [SCB_PASS] [SPI] PASS Addr=4000000c Expected=00000002 Got=00000002
# UVM_INFO C:/Documents/DoAnThietKeViMach/Project/SoC/VERIFICATION/Driver/axi_driver.sv(83) @ 4415000: uvm_test_top.env.agent.driver [DRV] Read Done: Addr=4000000c Data=00000002 Prot=000
# UVM_INFO C:/Documents/DoAnThietKeViMach/Project/SoC/VERIFICATION/Monitor/axi_monitor.sv(51) @ 4455000: uvm_test_top.env.agent.monitor [MON_WR] Detected WRITE : Addr=4000000c Data=0000001e Strb=1111 Prot=000 BResp=00
# UVM_INFO C:/Documents/DoAnThietKeViMach/Project/SoC/VERIFICATION/Scoreboard/axi_scoreboard.sv(101) @ 4455000: uvm_test_top.env.scoreboard [SCB_WR] [SPI] WRITE Addr=4000000c Data=0000001e
# UVM_INFO C:/Documents/DoAnThietKeViMach/Project/SoC/VERIFICATION/Driver/axi_driver.sv(63) @ 4465000: uvm_test_top.env.agent.driver [DRV] Write Done: Addr=4000000c Data=0000001e Prot=000
# UVM_INFO C:/Documents/DoAnThietKeViMach/Project/SoC/VERIFICATION/Monitor/axi_monitor.sv(75) @ 4505000: uvm_test_top.env.agent.monitor [MON_RD] Detected READ  : Addr=4000000c Data=0000001e Prot=000 RResp=00
# UVM_INFO C:/Documents/DoAnThietKeViMach/Project/SoC/VERIFICATION/Scoreboard/axi_scoreboard.sv(121) @ 4505000: uvm_test_top.env.scoreboard [SCB_PASS] [SPI] PASS Addr=4000000c Expected=0000001e Got=0000001e
# UVM_INFO C:/Documents/DoAnThietKeViMach/Project/SoC/VERIFICATION/Driver/axi_driver.sv(83) @ 4515000: uvm_test_top.env.agent.driver [DRV] Read Done: Addr=4000000c Data=0000001e Prot=000
# UVM_INFO C:/Documents/DoAnThietKeViMach/Project/SoC/VERIFICATION/Sequence/axi_multi_slaves_sequence.sv(193) @ 4515000: uvm_test_top.env.agent.sequencer@@seq [SEQ] === TEST 15: Final Multi-Slave Integrity ===
# [DRAM WRITE] addr=10000000 data=cafebabe
# UVM_INFO C:/Documents/DoAnThietKeViMach/Project/SoC/VERIFICATION/Monitor/axi_monitor.sv(51) @ 4555000: uvm_test_top.env.agent.monitor [MON_WR] Detected WRITE : Addr=10000000 Data=cafebabe Strb=1111 Prot=000 BResp=00
# UVM_INFO C:/Documents/DoAnThietKeViMach/Project/SoC/VERIFICATION/Driver/axi_driver.sv(63) @ 4565000: uvm_test_top.env.agent.driver [DRV] Write Done: Addr=10000000 Data=cafebabe Prot=000
# UVM_INFO C:/Documents/DoAnThietKeViMach/Project/SoC/VERIFICATION/Monitor/axi_monitor.sv(51) @ 4615000: uvm_test_top.env.agent.monitor [MON_WR] Detected WRITE : Addr=20000004 Data=0000007f Strb=1111 Prot=001 BResp=00
# UVM_INFO C:/Documents/DoAnThietKeViMach/Project/SoC/VERIFICATION/Scoreboard/axi_scoreboard.sv(101) @ 4615000: uvm_test_top.env.scoreboard [SCB_WR] [TIMER] WRITE Addr=20000004 Data=0000007f
# UVM_INFO C:/Documents/DoAnThietKeViMach/Project/SoC/VERIFICATION/Driver/axi_driver.sv(63) @ 4625000: uvm_test_top.env.agent.driver [DRV] Write Done: Addr=20000004 Data=0000007f Prot=001
# UVM_INFO C:/Documents/DoAnThietKeViMach/Project/SoC/VERIFICATION/Monitor/axi_monitor.sv(51) @ 4665000: uvm_test_top.env.agent.monitor [MON_WR] Detected WRITE : Addr=3000000c Data=00000200 Strb=1111 Prot=000 BResp=00
# UVM_INFO C:/Documents/DoAnThietKeViMach/Project/SoC/VERIFICATION/Scoreboard/axi_scoreboard.sv(101) @ 4665000: uvm_test_top.env.scoreboard [SCB_WR] [UART] WRITE Addr=3000000c Data=00000200
# UVM_INFO C:/Documents/DoAnThietKeViMach/Project/SoC/VERIFICATION/Driver/axi_driver.sv(63) @ 4675000: uvm_test_top.env.agent.driver [DRV] Write Done: Addr=3000000c Data=00000200 Prot=000
# UVM_INFO C:/Documents/DoAnThietKeViMach/Project/SoC/VERIFICATION/Monitor/axi_monitor.sv(51) @ 4715000: uvm_test_top.env.agent.monitor [MON_WR] Detected WRITE : Addr=4000000c Data=0000000f Strb=1111 Prot=000 BResp=00
# UVM_INFO C:/Documents/DoAnThietKeViMach/Project/SoC/VERIFICATION/Scoreboard/axi_scoreboard.sv(101) @ 4715000: uvm_test_top.env.scoreboard [SCB_WR] [SPI] WRITE Addr=4000000c Data=0000000f
# UVM_INFO C:/Documents/DoAnThietKeViMach/Project/SoC/VERIFICATION/Driver/axi_driver.sv(63) @ 4725000: uvm_test_top.env.agent.driver [DRV] Write Done: Addr=4000000c Data=0000000f Prot=000
# [DRAM READ] addr=10000000 data=cafebabe
# UVM_INFO C:/Documents/DoAnThietKeViMach/Project/SoC/VERIFICATION/Monitor/axi_monitor.sv(75) @ 4765000: uvm_test_top.env.agent.monitor [MON_RD] Detected READ  : Addr=10000000 Data=cafebabe Prot=000 RResp=00
# UVM_INFO C:/Documents/DoAnThietKeViMach/Project/SoC/VERIFICATION/Scoreboard/axi_scoreboard.sv(87) @ 4765000: uvm_test_top.env.scoreboard [SCB_PASS] [DRAM] PASS Addr=10000000 Expected=cafebabe Got=cafebabe
# UVM_INFO C:/Documents/DoAnThietKeViMach/Project/SoC/VERIFICATION/Driver/axi_driver.sv(83) @ 4775000: uvm_test_top.env.agent.driver [DRV] Read Done: Addr=10000000 Data=cafebabe Prot=000
# UVM_INFO C:/Documents/DoAnThietKeViMach/Project/SoC/VERIFICATION/Monitor/axi_monitor.sv(75) @ 4815000: uvm_test_top.env.agent.monitor [MON_RD] Detected READ  : Addr=20000004 Data=0000007f Prot=000 RResp=00
# UVM_INFO C:/Documents/DoAnThietKeViMach/Project/SoC/VERIFICATION/Scoreboard/axi_scoreboard.sv(121) @ 4815000: uvm_test_top.env.scoreboard [SCB_PASS] [TIMER] PASS Addr=20000004 Expected=0000007f Got=0000007f
# UVM_INFO C:/Documents/DoAnThietKeViMach/Project/SoC/VERIFICATION/Driver/axi_driver.sv(83) @ 4825000: uvm_test_top.env.agent.driver [DRV] Read Done: Addr=20000004 Data=0000007f Prot=000
# UVM_INFO C:/Documents/DoAnThietKeViMach/Project/SoC/VERIFICATION/Monitor/axi_monitor.sv(75) @ 4865000: uvm_test_top.env.agent.monitor [MON_RD] Detected READ  : Addr=3000000c Data=00000200 Prot=000 RResp=00
# UVM_INFO C:/Documents/DoAnThietKeViMach/Project/SoC/VERIFICATION/Scoreboard/axi_scoreboard.sv(121) @ 4865000: uvm_test_top.env.scoreboard [SCB_PASS] [UART] PASS Addr=3000000c Expected=00000200 Got=00000200
# UVM_INFO C:/Documents/DoAnThietKeViMach/Project/SoC/VERIFICATION/Driver/axi_driver.sv(83) @ 4875000: uvm_test_top.env.agent.driver [DRV] Read Done: Addr=3000000c Data=00000200 Prot=000
# UVM_INFO C:/Documents/DoAnThietKeViMach/Project/SoC/VERIFICATION/Monitor/axi_monitor.sv(75) @ 4915000: uvm_test_top.env.agent.monitor [MON_RD] Detected READ  : Addr=4000000c Data=0000000f Prot=000 RResp=00
# UVM_INFO C:/Documents/DoAnThietKeViMach/Project/SoC/VERIFICATION/Scoreboard/axi_scoreboard.sv(121) @ 4915000: uvm_test_top.env.scoreboard [SCB_PASS] [SPI] PASS Addr=4000000c Expected=0000000f Got=0000000f
# UVM_INFO C:/Documents/DoAnThietKeViMach/Project/SoC/VERIFICATION/Driver/axi_driver.sv(83) @ 4925000: uvm_test_top.env.agent.driver [DRV] Read Done: Addr=4000000c Data=0000000f Prot=000
# UVM_INFO C:/Documents/DoAnThietKeViMach/Project/SoC/VERIFICATION/Sequence/axi_multi_slaves_sequence.sv(207) @ 4925000: uvm_test_top.env.agent.sequencer@@seq [SEQ] === TEST 16: AXI Protocol/DRAM Coverage Closure ===
# [DRAM WRITE] addr=10000400 data=00000000
# UVM_INFO C:/Documents/DoAnThietKeViMach/Project/SoC/VERIFICATION/Monitor/axi_monitor.sv(51) @ 4965000: uvm_test_top.env.agent.monitor [MON_WR] Detected WRITE : Addr=10000400 Data=00000000 Strb=1111 Prot=000 BResp=00
# UVM_INFO C:/Documents/DoAnThietKeViMach/Project/SoC/VERIFICATION/Driver/axi_driver.sv(63) @ 4975000: uvm_test_top.env.agent.driver [DRV] Write Done: Addr=10000400 Data=00000000 Prot=000
# [DRAM READ] addr=10000400 data=00000000
# UVM_INFO C:/Documents/DoAnThietKeViMach/Project/SoC/VERIFICATION/Monitor/axi_monitor.sv(75) @ 5015000: uvm_test_top.env.agent.monitor [MON_RD] Detected READ  : Addr=10000400 Data=00000000 Prot=000 RResp=00
# UVM_INFO C:/Documents/DoAnThietKeViMach/Project/SoC/VERIFICATION/Scoreboard/axi_scoreboard.sv(87) @ 5015000: uvm_test_top.env.scoreboard [SCB_PASS] [DRAM] PASS Addr=10000400 Expected=00000000 Got=00000000
# UVM_INFO C:/Documents/DoAnThietKeViMach/Project/SoC/VERIFICATION/Driver/axi_driver.sv(83) @ 5025000: uvm_test_top.env.agent.driver [DRV] Read Done: Addr=10000400 Data=00000000 Prot=000
# [DRAM WRITE] addr=10002000 data=aaaa5555
# UVM_INFO C:/Documents/DoAnThietKeViMach/Project/SoC/VERIFICATION/Monitor/axi_monitor.sv(51) @ 5065000: uvm_test_top.env.agent.monitor [MON_WR] Detected WRITE : Addr=10002000 Data=aaaa5555 Strb=1111 Prot=001 BResp=00
# UVM_INFO C:/Documents/DoAnThietKeViMach/Project/SoC/VERIFICATION/Driver/axi_driver.sv(63) @ 5075000: uvm_test_top.env.agent.driver [DRV] Write Done: Addr=10002000 Data=aaaa5555 Prot=001
# [DRAM READ] addr=10002000 data=aaaa5555
# UVM_INFO C:/Documents/DoAnThietKeViMach/Project/SoC/VERIFICATION/Monitor/axi_monitor.sv(75) @ 5115000: uvm_test_top.env.agent.monitor [MON_RD] Detected READ  : Addr=10002000 Data=aaaa5555 Prot=001 RResp=00
# UVM_INFO C:/Documents/DoAnThietKeViMach/Project/SoC/VERIFICATION/Scoreboard/axi_scoreboard.sv(87) @ 5115000: uvm_test_top.env.scoreboard [SCB_PASS] [DRAM] PASS Addr=10002000 Expected=aaaa5555 Got=aaaa5555
# UVM_INFO C:/Documents/DoAnThietKeViMach/Project/SoC/VERIFICATION/Driver/axi_driver.sv(83) @ 5125000: uvm_test_top.env.agent.driver [DRV] Read Done: Addr=10002000 Data=aaaa5555 Prot=001
# [DRAM WRITE] addr=10003ffc data=5555aaaa
# UVM_INFO C:/Documents/DoAnThietKeViMach/Project/SoC/VERIFICATION/Monitor/axi_monitor.sv(51) @ 5165000: uvm_test_top.env.agent.monitor [MON_WR] Detected WRITE : Addr=10003ffc Data=5555aaaa Strb=1111 Prot=010 BResp=00
# UVM_INFO C:/Documents/DoAnThietKeViMach/Project/SoC/VERIFICATION/Driver/axi_driver.sv(63) @ 5175000: uvm_test_top.env.agent.driver [DRV] Write Done: Addr=10003ffc Data=5555aaaa Prot=010
# [DRAM READ] addr=10003ffc data=5555aaaa
# UVM_INFO C:/Documents/DoAnThietKeViMach/Project/SoC/VERIFICATION/Monitor/axi_monitor.sv(75) @ 5215000: uvm_test_top.env.agent.monitor [MON_RD] Detected READ  : Addr=10003ffc Data=5555aaaa Prot=010 RResp=00
# UVM_INFO C:/Documents/DoAnThietKeViMach/Project/SoC/VERIFICATION/Scoreboard/axi_scoreboard.sv(87) @ 5215000: uvm_test_top.env.scoreboard [SCB_PASS] [DRAM] PASS Addr=10003ffc Expected=5555aaaa Got=5555aaaa
# UVM_INFO C:/Documents/DoAnThietKeViMach/Project/SoC/VERIFICATION/Driver/axi_driver.sv(83) @ 5225000: uvm_test_top.env.agent.driver [DRV] Read Done: Addr=10003ffc Data=5555aaaa Prot=010
# [DRAM WRITE] addr=10002100 data=00000001
# UVM_INFO C:/Documents/DoAnThietKeViMach/Project/SoC/VERIFICATION/Monitor/axi_monitor.sv(51) @ 5265000: uvm_test_top.env.agent.monitor [MON_WR] Detected WRITE : Addr=10002100 Data=00000001 Strb=1111 Prot=111 BResp=00
# UVM_INFO C:/Documents/DoAnThietKeViMach/Project/SoC/VERIFICATION/Driver/axi_driver.sv(63) @ 5275000: uvm_test_top.env.agent.driver [DRV] Write Done: Addr=10002100 Data=00000001 Prot=111
# [DRAM READ] addr=10002100 data=00000001
# UVM_INFO C:/Documents/DoAnThietKeViMach/Project/SoC/VERIFICATION/Monitor/axi_monitor.sv(75) @ 5315000: uvm_test_top.env.agent.monitor [MON_RD] Detected READ  : Addr=10002100 Data=00000001 Prot=111 RResp=00
# UVM_INFO C:/Documents/DoAnThietKeViMach/Project/SoC/VERIFICATION/Scoreboard/axi_scoreboard.sv(87) @ 5315000: uvm_test_top.env.scoreboard [SCB_PASS] [DRAM] PASS Addr=10002100 Expected=00000001 Got=00000001
# UVM_INFO C:/Documents/DoAnThietKeViMach/Project/SoC/VERIFICATION/Driver/axi_driver.sv(83) @ 5325000: uvm_test_top.env.agent.driver [DRV] Read Done: Addr=10002100 Data=00000001 Prot=111
# [DRAM WRITE] addr=10002200 data=00000000
# UVM_INFO C:/Documents/DoAnThietKeViMach/Project/SoC/VERIFICATION/Monitor/axi_monitor.sv(51) @ 5365000: uvm_test_top.env.agent.monitor [MON_WR] Detected WRITE : Addr=10002200 Data=00000000 Strb=1111 Prot=000 BResp=00
# UVM_INFO C:/Documents/DoAnThietKeViMach/Project/SoC/VERIFICATION/Driver/axi_driver.sv(63) @ 5375000: uvm_test_top.env.agent.driver [DRV] Write Done: Addr=10002200 Data=00000000 Prot=000
# [DRAM WRITE] addr=10002200 data=11111111
# UVM_INFO C:/Documents/DoAnThietKeViMach/Project/SoC/VERIFICATION/Monitor/axi_monitor.sv(51) @ 5415000: uvm_test_top.env.agent.monitor [MON_WR] Detected WRITE : Addr=10002200 Data=11111111 Strb=0001 Prot=000 BResp=00
# UVM_INFO C:/Documents/DoAnThietKeViMach/Project/SoC/VERIFICATION/Driver/axi_driver.sv(63) @ 5425000: uvm_test_top.env.agent.driver [DRV] Write Done: Addr=10002200 Data=11111111 Prot=000
# [DRAM READ] addr=10002200 data=00000011
# UVM_INFO C:/Documents/DoAnThietKeViMach/Project/SoC/VERIFICATION/Monitor/axi_monitor.sv(75) @ 5465000: uvm_test_top.env.agent.monitor [MON_RD] Detected READ  : Addr=10002200 Data=00000011 Prot=000 RResp=00
# UVM_INFO C:/Documents/DoAnThietKeViMach/Project/SoC/VERIFICATION/Scoreboard/axi_scoreboard.sv(87) @ 5465000: uvm_test_top.env.scoreboard [SCB_PASS] [DRAM] PASS Addr=10002200 Expected=00000011 Got=00000011
# UVM_INFO C:/Documents/DoAnThietKeViMach/Project/SoC/VERIFICATION/Driver/axi_driver.sv(83) @ 5475000: uvm_test_top.env.agent.driver [DRV] Read Done: Addr=10002200 Data=00000011 Prot=000
# [DRAM WRITE] addr=10002204 data=00000000
# UVM_INFO C:/Documents/DoAnThietKeViMach/Project/SoC/VERIFICATION/Monitor/axi_monitor.sv(51) @ 5515000: uvm_test_top.env.agent.monitor [MON_WR] Detected WRITE : Addr=10002204 Data=00000000 Strb=1111 Prot=000 BResp=00
# UVM_INFO C:/Documents/DoAnThietKeViMach/Project/SoC/VERIFICATION/Driver/axi_driver.sv(63) @ 5525000: uvm_test_top.env.agent.driver [DRV] Write Done: Addr=10002204 Data=00000000 Prot=000
# [DRAM WRITE] addr=10002204 data=22222222
# UVM_INFO C:/Documents/DoAnThietKeViMach/Project/SoC/VERIFICATION/Monitor/axi_monitor.sv(51) @ 5565000: uvm_test_top.env.agent.monitor [MON_WR] Detected WRITE : Addr=10002204 Data=22222222 Strb=0010 Prot=000 BResp=00
# UVM_INFO C:/Documents/DoAnThietKeViMach/Project/SoC/VERIFICATION/Driver/axi_driver.sv(63) @ 5575000: uvm_test_top.env.agent.driver [DRV] Write Done: Addr=10002204 Data=22222222 Prot=000
# [DRAM READ] addr=10002204 data=00002200
# UVM_INFO C:/Documents/DoAnThietKeViMach/Project/SoC/VERIFICATION/Monitor/axi_monitor.sv(75) @ 5615000: uvm_test_top.env.agent.monitor [MON_RD] Detected READ  : Addr=10002204 Data=00002200 Prot=000 RResp=00
# UVM_INFO C:/Documents/DoAnThietKeViMach/Project/SoC/VERIFICATION/Scoreboard/axi_scoreboard.sv(87) @ 5615000: uvm_test_top.env.scoreboard [SCB_PASS] [DRAM] PASS Addr=10002204 Expected=00002200 Got=00002200
# UVM_INFO C:/Documents/DoAnThietKeViMach/Project/SoC/VERIFICATION/Driver/axi_driver.sv(83) @ 5625000: uvm_test_top.env.agent.driver [DRV] Read Done: Addr=10002204 Data=00002200 Prot=000
# [DRAM WRITE] addr=10002208 data=00000000
# UVM_INFO C:/Documents/DoAnThietKeViMach/Project/SoC/VERIFICATION/Monitor/axi_monitor.sv(51) @ 5665000: uvm_test_top.env.agent.monitor [MON_WR] Detected WRITE : Addr=10002208 Data=00000000 Strb=1111 Prot=000 BResp=00
# UVM_INFO C:/Documents/DoAnThietKeViMach/Project/SoC/VERIFICATION/Driver/axi_driver.sv(63) @ 5675000: uvm_test_top.env.agent.driver [DRV] Write Done: Addr=10002208 Data=00000000 Prot=000
# [DRAM WRITE] addr=10002208 data=44444444
# UVM_INFO C:/Documents/DoAnThietKeViMach/Project/SoC/VERIFICATION/Monitor/axi_monitor.sv(51) @ 5715000: uvm_test_top.env.agent.monitor [MON_WR] Detected WRITE : Addr=10002208 Data=44444444 Strb=0100 Prot=000 BResp=00
# UVM_INFO C:/Documents/DoAnThietKeViMach/Project/SoC/VERIFICATION/Driver/axi_driver.sv(63) @ 5725000: uvm_test_top.env.agent.driver [DRV] Write Done: Addr=10002208 Data=44444444 Prot=000
# [DRAM READ] addr=10002208 data=00440000
# UVM_INFO C:/Documents/DoAnThietKeViMach/Project/SoC/VERIFICATION/Monitor/axi_monitor.sv(75) @ 5765000: uvm_test_top.env.agent.monitor [MON_RD] Detected READ  : Addr=10002208 Data=00440000 Prot=000 RResp=00
# UVM_INFO C:/Documents/DoAnThietKeViMach/Project/SoC/VERIFICATION/Scoreboard/axi_scoreboard.sv(87) @ 5765000: uvm_test_top.env.scoreboard [SCB_PASS] [DRAM] PASS Addr=10002208 Expected=00440000 Got=00440000
# UVM_INFO C:/Documents/DoAnThietKeViMach/Project/SoC/VERIFICATION/Driver/axi_driver.sv(83) @ 5775000: uvm_test_top.env.agent.driver [DRV] Read Done: Addr=10002208 Data=00440000 Prot=000
# [DRAM WRITE] addr=1000220c data=00000000
# UVM_INFO C:/Documents/DoAnThietKeViMach/Project/SoC/VERIFICATION/Monitor/axi_monitor.sv(51) @ 5815000: uvm_test_top.env.agent.monitor [MON_WR] Detected WRITE : Addr=1000220c Data=00000000 Strb=1111 Prot=000 BResp=00
# UVM_INFO C:/Documents/DoAnThietKeViMach/Project/SoC/VERIFICATION/Driver/axi_driver.sv(63) @ 5825000: uvm_test_top.env.agent.driver [DRV] Write Done: Addr=1000220c Data=00000000 Prot=000
# [DRAM WRITE] addr=1000220c data=88888888
# UVM_INFO C:/Documents/DoAnThietKeViMach/Project/SoC/VERIFICATION/Monitor/axi_monitor.sv(51) @ 5865000: uvm_test_top.env.agent.monitor [MON_WR] Detected WRITE : Addr=1000220c Data=88888888 Strb=1000 Prot=000 BResp=00
# UVM_INFO C:/Documents/DoAnThietKeViMach/Project/SoC/VERIFICATION/Driver/axi_driver.sv(63) @ 5875000: uvm_test_top.env.agent.driver [DRV] Write Done: Addr=1000220c Data=88888888 Prot=000
# [DRAM READ] addr=1000220c data=88000000
# UVM_INFO C:/Documents/DoAnThietKeViMach/Project/SoC/VERIFICATION/Monitor/axi_monitor.sv(75) @ 5915000: uvm_test_top.env.agent.monitor [MON_RD] Detected READ  : Addr=1000220c Data=88000000 Prot=000 RResp=00
# UVM_INFO C:/Documents/DoAnThietKeViMach/Project/SoC/VERIFICATION/Scoreboard/axi_scoreboard.sv(87) @ 5915000: uvm_test_top.env.scoreboard [SCB_PASS] [DRAM] PASS Addr=1000220c Expected=88000000 Got=88000000
# UVM_INFO C:/Documents/DoAnThietKeViMach/Project/SoC/VERIFICATION/Driver/axi_driver.sv(83) @ 5925000: uvm_test_top.env.agent.driver [DRV] Read Done: Addr=1000220c Data=88000000 Prot=000
# [DRAM WRITE] addr=10002210 data=00000000
# UVM_INFO C:/Documents/DoAnThietKeViMach/Project/SoC/VERIFICATION/Monitor/axi_monitor.sv(51) @ 5965000: uvm_test_top.env.agent.monitor [MON_WR] Detected WRITE : Addr=10002210 Data=00000000 Strb=1111 Prot=000 BResp=00
# UVM_INFO C:/Documents/DoAnThietKeViMach/Project/SoC/VERIFICATION/Driver/axi_driver.sv(63) @ 5975000: uvm_test_top.env.agent.driver [DRV] Write Done: Addr=10002210 Data=00000000 Prot=000
# [DRAM WRITE] addr=10002210 data=33333333
# UVM_INFO C:/Documents/DoAnThietKeViMach/Project/SoC/VERIFICATION/Monitor/axi_monitor.sv(51) @ 6015000: uvm_test_top.env.agent.monitor [MON_WR] Detected WRITE : Addr=10002210 Data=33333333 Strb=0011 Prot=000 BResp=00
# UVM_INFO C:/Documents/DoAnThietKeViMach/Project/SoC/VERIFICATION/Driver/axi_driver.sv(63) @ 6025000: uvm_test_top.env.agent.driver [DRV] Write Done: Addr=10002210 Data=33333333 Prot=000
# [DRAM READ] addr=10002210 data=00003333
# UVM_INFO C:/Documents/DoAnThietKeViMach/Project/SoC/VERIFICATION/Monitor/axi_monitor.sv(75) @ 6065000: uvm_test_top.env.agent.monitor [MON_RD] Detected READ  : Addr=10002210 Data=00003333 Prot=000 RResp=00
# UVM_INFO C:/Documents/DoAnThietKeViMach/Project/SoC/VERIFICATION/Scoreboard/axi_scoreboard.sv(87) @ 6065000: uvm_test_top.env.scoreboard [SCB_PASS] [DRAM] PASS Addr=10002210 Expected=00003333 Got=00003333
# UVM_INFO C:/Documents/DoAnThietKeViMach/Project/SoC/VERIFICATION/Driver/axi_driver.sv(83) @ 6075000: uvm_test_top.env.agent.driver [DRV] Read Done: Addr=10002210 Data=00003333 Prot=000
# [DRAM WRITE] addr=10002214 data=00000000
# UVM_INFO C:/Documents/DoAnThietKeViMach/Project/SoC/VERIFICATION/Monitor/axi_monitor.sv(51) @ 6115000: uvm_test_top.env.agent.monitor [MON_WR] Detected WRITE : Addr=10002214 Data=00000000 Strb=1111 Prot=000 BResp=00
# UVM_INFO C:/Documents/DoAnThietKeViMach/Project/SoC/VERIFICATION/Driver/axi_driver.sv(63) @ 6125000: uvm_test_top.env.agent.driver [DRV] Write Done: Addr=10002214 Data=00000000 Prot=000
# [DRAM WRITE] addr=10002214 data=cccccccc
# UVM_INFO C:/Documents/DoAnThietKeViMach/Project/SoC/VERIFICATION/Monitor/axi_monitor.sv(51) @ 6165000: uvm_test_top.env.agent.monitor [MON_WR] Detected WRITE : Addr=10002214 Data=cccccccc Strb=1100 Prot=000 BResp=00
# UVM_INFO C:/Documents/DoAnThietKeViMach/Project/SoC/VERIFICATION/Driver/axi_driver.sv(63) @ 6175000: uvm_test_top.env.agent.driver [DRV] Write Done: Addr=10002214 Data=cccccccc Prot=000
# [DRAM READ] addr=10002214 data=cccc0000
# UVM_INFO C:/Documents/DoAnThietKeViMach/Project/SoC/VERIFICATION/Monitor/axi_monitor.sv(75) @ 6215000: uvm_test_top.env.agent.monitor [MON_RD] Detected READ  : Addr=10002214 Data=cccc0000 Prot=000 RResp=00
# UVM_INFO C:/Documents/DoAnThietKeViMach/Project/SoC/VERIFICATION/Scoreboard/axi_scoreboard.sv(87) @ 6215000: uvm_test_top.env.scoreboard [SCB_PASS] [DRAM] PASS Addr=10002214 Expected=cccc0000 Got=cccc0000
# UVM_INFO C:/Documents/DoAnThietKeViMach/Project/SoC/VERIFICATION/Driver/axi_driver.sv(83) @ 6225000: uvm_test_top.env.agent.driver [DRV] Read Done: Addr=10002214 Data=cccc0000 Prot=000
# UVM_INFO C:/Documents/DoAnThietKeViMach/Project/SoC/VERIFICATION/Sequence/axi_multi_slaves_sequence.sv(239) @ 6225000: uvm_test_top.env.agent.sequencer@@seq [SEQ] === TEST 17: Peripheral Register Coverage Closure ===
# UVM_INFO C:/Documents/DoAnThietKeViMach/Project/SoC/VERIFICATION/Monitor/axi_monitor.sv(51) @ 6275000: uvm_test_top.env.agent.monitor [MON_WR] Detected WRITE : Addr=20000004 Data=00000025 Strb=1111 Prot=001 BResp=00
# UVM_INFO C:/Documents/DoAnThietKeViMach/Project/SoC/VERIFICATION/Scoreboard/axi_scoreboard.sv(101) @ 6275000: uvm_test_top.env.scoreboard [SCB_WR] [TIMER] WRITE Addr=20000004 Data=00000025
# UVM_INFO C:/Documents/DoAnThietKeViMach/Project/SoC/VERIFICATION/Driver/axi_driver.sv(63) @ 6285000: uvm_test_top.env.agent.driver [DRV] Write Done: Addr=20000004 Data=00000025 Prot=001
# UVM_INFO C:/Documents/DoAnThietKeViMach/Project/SoC/VERIFICATION/Monitor/axi_monitor.sv(51) @ 6335000: uvm_test_top.env.agent.monitor [MON_WR] Detected WRITE : Addr=20000000 Data=00000001 Strb=1111 Prot=001 BResp=00
# UVM_INFO C:/Documents/DoAnThietKeViMach/Project/SoC/VERIFICATION/Scoreboard/axi_scoreboard.sv(101) @ 6335000: uvm_test_top.env.scoreboard [SCB_WR] [TIMER] WRITE Addr=20000000 Data=00000001
# UVM_INFO C:/Documents/DoAnThietKeViMach/Project/SoC/VERIFICATION/Driver/axi_driver.sv(63) @ 6345000: uvm_test_top.env.agent.driver [DRV] Write Done: Addr=20000000 Data=00000001 Prot=001
# UVM_INFO C:/Documents/DoAnThietKeViMach/Project/SoC/VERIFICATION/Monitor/axi_monitor.sv(75) @ 6385000: uvm_test_top.env.agent.monitor [MON_RD] Detected READ  : Addr=20000000 Data=00000001 Prot=001 RResp=00
# UVM_INFO C:/Documents/DoAnThietKeViMach/Project/SoC/VERIFICATION/Scoreboard/axi_scoreboard.sv(121) @ 6385000: uvm_test_top.env.scoreboard [SCB_PASS] [TIMER] PASS Addr=20000000 Expected=00000001 Got=00000001
# UVM_INFO C:/Documents/DoAnThietKeViMach/Project/SoC/VERIFICATION/Driver/axi_driver.sv(83) @ 6395000: uvm_test_top.env.agent.driver [DRV] Read Done: Addr=20000000 Data=00000001 Prot=001
# UVM_INFO C:/Documents/DoAnThietKeViMach/Project/SoC/VERIFICATION/Monitor/axi_monitor.sv(75) @ 6435000: uvm_test_top.env.agent.monitor [MON_RD] Detected READ  : Addr=20000004 Data=00000025 Prot=001 RResp=00
# UVM_INFO C:/Documents/DoAnThietKeViMach/Project/SoC/VERIFICATION/Scoreboard/axi_scoreboard.sv(121) @ 6435000: uvm_test_top.env.scoreboard [SCB_PASS] [TIMER] PASS Addr=20000004 Expected=00000025 Got=00000025
# UVM_INFO C:/Documents/DoAnThietKeViMach/Project/SoC/VERIFICATION/Driver/axi_driver.sv(83) @ 6445000: uvm_test_top.env.agent.driver [DRV] Read Done: Addr=20000004 Data=00000025 Prot=001
# UVM_INFO C:/Documents/DoAnThietKeViMach/Project/SoC/VERIFICATION/Monitor/axi_monitor.sv(75) @ 6485000: uvm_test_top.env.agent.monitor [MON_RD] Detected READ  : Addr=20000008 Data=00000013 Prot=001 RResp=00
# UVM_INFO C:/Documents/DoAnThietKeViMach/Project/SoC/VERIFICATION/Scoreboard/axi_scoreboard.sv(131) @ 6485000: uvm_test_top.env.scoreboard [SCB_RD] [TIMER] READ Addr=20000008 Data=00000013 (status/no prior write)
# UVM_INFO C:/Documents/DoAnThietKeViMach/Project/SoC/VERIFICATION/Driver/axi_driver.sv(83) @ 6495000: uvm_test_top.env.agent.driver [DRV] Read Done: Addr=20000008 Data=00000013 Prot=001
# UVM_INFO C:/Documents/DoAnThietKeViMach/Project/SoC/VERIFICATION/Monitor/axi_monitor.sv(51) @ 6535000: uvm_test_top.env.agent.monitor [MON_WR] Detected WRITE : Addr=3000000c Data=0001c200 Strb=1111 Prot=010 BResp=00
# UVM_INFO C:/Documents/DoAnThietKeViMach/Project/SoC/VERIFICATION/Scoreboard/axi_scoreboard.sv(101) @ 6535000: uvm_test_top.env.scoreboard [SCB_WR] [UART] WRITE Addr=3000000c Data=0001c200
# UVM_INFO C:/Documents/DoAnThietKeViMach/Project/SoC/VERIFICATION/Driver/axi_driver.sv(63) @ 6545000: uvm_test_top.env.agent.driver [DRV] Write Done: Addr=3000000c Data=0001c200 Prot=010
# UVM_INFO C:/Documents/DoAnThietKeViMach/Project/SoC/VERIFICATION/Monitor/axi_monitor.sv(51) @ 6585000: uvm_test_top.env.agent.monitor [MON_WR] Detected WRITE : Addr=30000000 Data=00000055 Strb=1111 Prot=010 BResp=00
# UVM_INFO C:/Documents/DoAnThietKeViMach/Project/SoC/VERIFICATION/Scoreboard/axi_scoreboard.sv(101) @ 6585000: uvm_test_top.env.scoreboard [SCB_WR] [UART] WRITE Addr=30000000 Data=00000055
# UVM_INFO C:/Documents/DoAnThietKeViMach/Project/SoC/VERIFICATION/Driver/axi_driver.sv(63) @ 6595000: uvm_test_top.env.agent.driver [DRV] Write Done: Addr=30000000 Data=00000055 Prot=010
# UVM_INFO C:/Documents/DoAnThietKeViMach/Project/SoC/VERIFICATION/Monitor/axi_monitor.sv(75) @ 6635000: uvm_test_top.env.agent.monitor [MON_RD] Detected READ  : Addr=30000004 Data=00000000 Prot=010 RResp=00
# UVM_INFO C:/Documents/DoAnThietKeViMach/Project/SoC/VERIFICATION/Scoreboard/axi_scoreboard.sv(131) @ 6635000: uvm_test_top.env.scoreboard [SCB_RD] [UART] READ Addr=30000004 Data=00000000 (status/no prior write)
# UVM_INFO C:/Documents/DoAnThietKeViMach/Project/SoC/VERIFICATION/Driver/axi_driver.sv(83) @ 6645000: uvm_test_top.env.agent.driver [DRV] Read Done: Addr=30000004 Data=00000000 Prot=010
# UVM_INFO C:/Documents/DoAnThietKeViMach/Project/SoC/VERIFICATION/Monitor/axi_monitor.sv(75) @ 6685000: uvm_test_top.env.agent.monitor [MON_RD] Detected READ  : Addr=30000008 Data=00000001 Prot=010 RResp=00
# UVM_INFO C:/Documents/DoAnThietKeViMach/Project/SoC/VERIFICATION/Scoreboard/axi_scoreboard.sv(131) @ 6685000: uvm_test_top.env.scoreboard [SCB_RD] [UART] READ Addr=30000008 Data=00000001 (status/no prior write)
# UVM_INFO C:/Documents/DoAnThietKeViMach/Project/SoC/VERIFICATION/Driver/axi_driver.sv(83) @ 6695000: uvm_test_top.env.agent.driver [DRV] Read Done: Addr=30000008 Data=00000001 Prot=010
# UVM_INFO C:/Documents/DoAnThietKeViMach/Project/SoC/VERIFICATION/Monitor/axi_monitor.sv(75) @ 6735000: uvm_test_top.env.agent.monitor [MON_RD] Detected READ  : Addr=3000000c Data=0001c200 Prot=010 RResp=00
# UVM_INFO C:/Documents/DoAnThietKeViMach/Project/SoC/VERIFICATION/Scoreboard/axi_scoreboard.sv(121) @ 6735000: uvm_test_top.env.scoreboard [SCB_PASS] [UART] PASS Addr=3000000c Expected=0001c200 Got=0001c200
# UVM_INFO C:/Documents/DoAnThietKeViMach/Project/SoC/VERIFICATION/Driver/axi_driver.sv(83) @ 6745000: uvm_test_top.env.agent.driver [DRV] Read Done: Addr=3000000c Data=0001c200 Prot=010
# UVM_INFO C:/Documents/DoAnThietKeViMach/Project/SoC/VERIFICATION/Monitor/axi_monitor.sv(51) @ 6785000: uvm_test_top.env.agent.monitor [MON_WR] Detected WRITE : Addr=40000004 Data=00000001 Strb=1111 Prot=000 BResp=00
# UVM_INFO C:/Documents/DoAnThietKeViMach/Project/SoC/VERIFICATION/Scoreboard/axi_scoreboard.sv(101) @ 6785000: uvm_test_top.env.scoreboard [SCB_WR] [SPI] WRITE Addr=40000004 Data=00000001
# UVM_INFO C:/Documents/DoAnThietKeViMach/Project/SoC/VERIFICATION/Driver/axi_driver.sv(63) @ 6795000: uvm_test_top.env.agent.driver [DRV] Write Done: Addr=40000004 Data=00000001 Prot=000
# UVM_INFO C:/Documents/DoAnThietKeViMach/Project/SoC/VERIFICATION/Monitor/axi_monitor.sv(51) @ 6835000: uvm_test_top.env.agent.monitor [MON_WR] Detected WRITE : Addr=4000000c Data=00000004 Strb=1111 Prot=000 BResp=00
# UVM_INFO C:/Documents/DoAnThietKeViMach/Project/SoC/VERIFICATION/Scoreboard/axi_scoreboard.sv(101) @ 6835000: uvm_test_top.env.scoreboard [SCB_WR] [SPI] WRITE Addr=4000000c Data=00000004
# UVM_INFO C:/Documents/DoAnThietKeViMach/Project/SoC/VERIFICATION/Driver/axi_driver.sv(63) @ 6845000: uvm_test_top.env.agent.driver [DRV] Write Done: Addr=4000000c Data=00000004 Prot=000
# UVM_INFO C:/Documents/DoAnThietKeViMach/Project/SoC/VERIFICATION/Monitor/axi_monitor.sv(51) @ 6885000: uvm_test_top.env.agent.monitor [MON_WR] Detected WRITE : Addr=40000000 Data=000000a5 Strb=1111 Prot=000 BResp=00
# UVM_INFO C:/Documents/DoAnThietKeViMach/Project/SoC/VERIFICATION/Scoreboard/axi_scoreboard.sv(101) @ 6885000: uvm_test_top.env.scoreboard [SCB_WR] [SPI] WRITE Addr=40000000 Data=000000a5
# UVM_INFO C:/Documents/DoAnThietKeViMach/Project/SoC/VERIFICATION/Driver/axi_driver.sv(63) @ 6895000: uvm_test_top.env.agent.driver [DRV] Write Done: Addr=40000000 Data=000000a5 Prot=000
# UVM_INFO C:/Documents/DoAnThietKeViMach/Project/SoC/VERIFICATION/Monitor/axi_monitor.sv(75) @ 6935000: uvm_test_top.env.agent.monitor [MON_RD] Detected READ  : Addr=40000004 Data=00000001 Prot=000 RResp=00
# UVM_INFO C:/Documents/DoAnThietKeViMach/Project/SoC/VERIFICATION/Scoreboard/axi_scoreboard.sv(121) @ 6935000: uvm_test_top.env.scoreboard [SCB_PASS] [SPI] PASS Addr=40000004 Expected=00000001 Got=00000001
# UVM_INFO C:/Documents/DoAnThietKeViMach/Project/SoC/VERIFICATION/Driver/axi_driver.sv(83) @ 6945000: uvm_test_top.env.agent.driver [DRV] Read Done: Addr=40000004 Data=00000001 Prot=000
# UVM_INFO C:/Documents/DoAnThietKeViMach/Project/SoC/VERIFICATION/Monitor/axi_monitor.sv(75) @ 6985000: uvm_test_top.env.agent.monitor [MON_RD] Detected READ  : Addr=40000008 Data=00000001 Prot=000 RResp=00
# UVM_INFO C:/Documents/DoAnThietKeViMach/Project/SoC/VERIFICATION/Scoreboard/axi_scoreboard.sv(131) @ 6985000: uvm_test_top.env.scoreboard [SCB_RD] [SPI] READ Addr=40000008 Data=00000001 (status/no prior write)
# UVM_INFO C:/Documents/DoAnThietKeViMach/Project/SoC/VERIFICATION/Driver/axi_driver.sv(83) @ 6995000: uvm_test_top.env.agent.driver [DRV] Read Done: Addr=40000008 Data=00000001 Prot=000
# UVM_INFO C:/Documents/DoAnThietKeViMach/Project/SoC/VERIFICATION/Monitor/axi_monitor.sv(75) @ 7035000: uvm_test_top.env.agent.monitor [MON_RD] Detected READ  : Addr=4000000c Data=00000004 Prot=000 RResp=00
# UVM_INFO C:/Documents/DoAnThietKeViMach/Project/SoC/VERIFICATION/Scoreboard/axi_scoreboard.sv(121) @ 7035000: uvm_test_top.env.scoreboard [SCB_PASS] [SPI] PASS Addr=4000000c Expected=00000004 Got=00000004
# UVM_INFO C:/Documents/DoAnThietKeViMach/Project/SoC/VERIFICATION/Driver/axi_driver.sv(83) @ 7045000: uvm_test_top.env.agent.driver [DRV] Read Done: Addr=4000000c Data=00000004 Prot=000
# UVM_INFO C:/Documents/DoAnThietKeViMach/Project/SoC/VERIFICATION/Sequence/axi_multi_slaves_sequence.sv(262) @ 7045000: uvm_test_top.env.agent.sequencer@@seq [SEQ] === TEST 18: Decode Error Coverage ===
# UVM_INFO C:/Documents/DoAnThietKeViMach/Project/SoC/VERIFICATION/Monitor/axi_monitor.sv(51) @ 7075000: uvm_test_top.env.agent.monitor [MON_WR] Detected WRITE : Addr=50000000 Data=12345678 Strb=1111 Prot=010 BResp=11
# UVM_INFO C:/Documents/DoAnThietKeViMach/Project/SoC/VERIFICATION/Scoreboard/axi_scoreboard.sv(49) @ 7075000: uvm_test_top.env.scoreboard [SCB_PASS] [DECERR] PASS WRITE Addr=50000000 BResp=11
# UVM_INFO C:/Documents/DoAnThietKeViMach/Project/SoC/VERIFICATION/Driver/axi_driver.sv(63) @ 7085000: uvm_test_top.env.agent.driver [DRV] Write Done: Addr=50000000 Data=12345678 Prot=010
# UVM_INFO C:/Documents/DoAnThietKeViMach/Project/SoC/VERIFICATION/Monitor/axi_monitor.sv(75) @ 7115000: uvm_test_top.env.agent.monitor [MON_RD] Detected READ  : Addr=50000000 Data=deadbeef Prot=010 RResp=11
# UVM_INFO C:/Documents/DoAnThietKeViMach/Project/SoC/VERIFICATION/Scoreboard/axi_scoreboard.sv(57) @ 7115000: uvm_test_top.env.scoreboard [SCB_PASS] [DECERR] PASS READ Addr=50000000 Data=deadbeef RResp=11
# UVM_INFO C:/Documents/DoAnThietKeViMach/Project/SoC/VERIFICATION/Driver/axi_driver.sv(83) @ 7125000: uvm_test_top.env.agent.driver [DRV] Read Done: Addr=50000000 Data=deadbeef Prot=010
# UVM_INFO C:/Documents/DoAnThietKeViMach/Project/SoC/VERIFICATION/Sequence/axi_multi_slaves_sequence.sv(266) @ 7125000: uvm_test_top.env.agent.sequencer@@seq [SEQ] --- All Multi-Slave Tests Complete ---
# UVM_INFO verilog_src/uvm-1.1d/src/base/uvm_objection.svh(1268) @ 7225000: reporter [TEST_DONE] 'run' phase is ready to proceed to the 'extract' phase
# UVM_INFO C:/Documents/DoAnThietKeViMach/Project/SoC/VERIFICATION/Coverage/axi_coverage.sv(296) @ 7225000: uvm_test_top.env.coverage [COV] 
# UVM_INFO C:/Documents/DoAnThietKeViMach/Project/SoC/VERIFICATION/Coverage/axi_coverage.sv(297) @ 7225000: uvm_test_top.env.coverage [COV] ======================================================
# UVM_INFO C:/Documents/DoAnThietKeViMach/Project/SoC/VERIFICATION/Coverage/axi_coverage.sv(298) @ 7225000: uvm_test_top.env.coverage [COV]                FUNCTIONAL COVERAGE REPORT             
# UVM_INFO C:/Documents/DoAnThietKeViMach/Project/SoC/VERIFICATION/Coverage/axi_coverage.sv(299) @ 7225000: uvm_test_top.env.coverage [COV] ======================================================
# UVM_INFO C:/Documents/DoAnThietKeViMach/Project/SoC/VERIFICATION/Coverage/axi_coverage.sv(301) @ 7225000: uvm_test_top.env.coverage [COV]  AXI Protocol Coverage   :  95.96%  (target >90%)
# UVM_INFO C:/Documents/DoAnThietKeViMach/Project/SoC/VERIFICATION/Coverage/axi_coverage.sv(302) @ 7225000: uvm_test_top.env.coverage [COV]  Data Pattern Coverage   : 100.00%  (target >90%)
# UVM_INFO C:/Documents/DoAnThietKeViMach/Project/SoC/VERIFICATION/Coverage/axi_coverage.sv(303) @ 7225000: uvm_test_top.env.coverage [COV]  DRAM Address Coverage   : 100.00%  (target >90%)
# UVM_INFO C:/Documents/DoAnThietKeViMach/Project/SoC/VERIFICATION/Coverage/axi_coverage.sv(304) @ 7225000: uvm_test_top.env.coverage [COV]  Peripheral Reg Coverage : 100.00%  (target >80%)
# UVM_INFO C:/Documents/DoAnThietKeViMach/Project/SoC/VERIFICATION/Coverage/axi_coverage.sv(305) @ 7225000: uvm_test_top.env.coverage [COV]  CPU Pipeline Coverage   : 100.00%  (target >80%)
# UVM_INFO C:/Documents/DoAnThietKeViMach/Project/SoC/VERIFICATION/Coverage/axi_coverage.sv(307) @ 7225000: uvm_test_top.env.coverage [COV] ------------------------------------------------------
# UVM_INFO C:/Documents/DoAnThietKeViMach/Project/SoC/VERIFICATION/Coverage/axi_coverage.sv(309) @ 7225000: uvm_test_top.env.coverage [COV]  TOTAL (avg)             :  99.19%  (target >90%)
# UVM_INFO C:/Documents/DoAnThietKeViMach/Project/SoC/VERIFICATION/Coverage/axi_coverage.sv(311) @ 7225000: uvm_test_top.env.coverage [COV] ======================================================
# UVM_INFO C:/Documents/DoAnThietKeViMach/Project/SoC/VERIFICATION/Coverage/axi_coverage.sv(312) @ 7225000: uvm_test_top.env.coverage [COV] 
# 
# --- UVM Report Summary ---
# 
# ** Report counts by severity
# UVM_INFO :  423
# UVM_WARNING :    0
# UVM_ERROR :    0
# UVM_FATAL :    0
# ** Report counts by id
# [COV]    13
# [DRV]   140
# [MON_RD]    66
# [MON_WR]    74
# [Questa UVM]     2
# [RNTST]     1
# [SCB_PASS]    59
# [SCB_RD]     8
# [SCB_WR]    39
# [SEQ]    20
# [TEST_DONE]     1
# ** Note: $finish    : C:/app/QuestaSim/win64/../verilog_src/uvm-1.1d/src/base/uvm_root.svh(430)
#    Time: 7225 ns  Iteration: 54  Instance: /top_tb
