--- [0/4] Dang xoa file .mem cu va chay script Python tao 100 testcase moi ---
python3 gen_mem.py
Generated /home/khang/Documents/SystemVerilog/Soc_RV32I/SoC/SIM/cpu_instr.mem  (seed=42)
Generated /home/khang/Documents/SystemVerilog/Soc_RV32I/SoC/SIM/instr.mem  (seed=99)
--- Dang dung ROOT: /home/khang/Documents/SystemVerilog/Soc_RV32I/SoC ---
rm -rf work
vlib work
--- [1/4] Bien dich Interfaces ---
vlog -sv +acc -L uvm -cover bcst /home/khang/Documents/SystemVerilog/Soc_RV32I/SoC/INF/*.sv
QuestaSim-64 vlog 2024.1 Compiler 2024.02 Feb  1 2024
Start time: 16:08:35 on May 04,2026
vlog -sv "+acc" -L uvm -cover bcst /home/khang/Documents/SystemVerilog/Soc_RV32I/SoC/INF/clk_rst_inf.sv /home/khang/Documents/SystemVerilog/Soc_RV32I/SoC/INF/soc_inf.sv 
-- Compiling interface clk_rst_inf
-- Compiling interface soc_inf

Top level modules:
	--none--
End time: 16:08:35 on May 04,2026, Elapsed time: 0:00:00
Errors: 0, Warnings: 0
--- [2/4] Bien dich DUT (SoC Logic) ---
vlog -sv +acc -L uvm -cover bcst +incdir+/home/khang/Documents/SystemVerilog/Soc_RV32I/SoC/DUT/CPU /home/khang/Documents/SystemVerilog/Soc_RV32I/SoC/DUT/Slaves/*.sv /home/khang/Documents/SystemVerilog/Soc_RV32I/SoC/DUT/CPU/*.sv /home/khang/Documents/SystemVerilog/Soc_RV32I/SoC/DUT/Master/*.sv /home/khang/Documents/SystemVerilog/Soc_RV32I/SoC/DUT/AXI_Master.sv /home/khang/Documents/SystemVerilog/Soc_RV32I/SoC/DUT/AXI4_Lite_Interconnect.sv /home/khang/Documents/SystemVerilog/Soc_RV32I/SoC/DUT/TOP.sv
QuestaSim-64 vlog 2024.1 Compiler 2024.02 Feb  1 2024
Start time: 16:08:35 on May 04,2026
vlog -sv "+acc" -L uvm -cover bcst "+incdir+/home/khang/Documents/SystemVerilog/Soc_RV32I/SoC/DUT/CPU" /home/khang/Documents/SystemVerilog/Soc_RV32I/SoC/DUT/Slaves/RAM.sv /home/khang/Documents/SystemVerilog/Soc_RV32I/SoC/DUT/Slaves/SPI.sv /home/khang/Documents/SystemVerilog/Soc_RV32I/SoC/DUT/Slaves/Timer.sv /home/khang/Documents/SystemVerilog/Soc_RV32I/SoC/DUT/Slaves/UART.sv /home/khang/Documents/SystemVerilog/Soc_RV32I/SoC/DUT/CPU/ALU.sv /home/khang/Documents/SystemVerilog/Soc_RV32I/SoC/DUT/CPU/ALUControl.sv /home/khang/Documents/SystemVerilog/Soc_RV32I/SoC/DUT/CPU/ControlUnit.sv /home/khang/Documents/SystemVerilog/Soc_RV32I/SoC/DUT/CPU/EX_MEM.sv /home/khang/Documents/SystemVerilog/Soc_RV32I/SoC/DUT/CPU/HazardUnit.sv /home/khang/Documents/SystemVerilog/Soc_RV32I/SoC/DUT/CPU/ID_EX.sv /home/khang/Documents/SystemVerilog/Soc_RV32I/SoC/DUT/CPU/IF_ID.sv /home/khang/Documents/SystemVerilog/Soc_RV32I/SoC/DUT/CPU/MEM_WB.sv /home/khang/Documents/SystemVerilog/Soc_RV32I/SoC/DUT/CPU/MainDecoder.sv /home/khang/Documents/SystemVerilog/Soc_RV32I/SoC/DUT/CPU/RegFile.sv /home/khang/Documents/SystemVerilog/Soc_RV32I/SoC/DUT/CPU/data_mem.sv /home/khang/Documents/SystemVerilog/Soc_RV32I/SoC/DUT/CPU/instr_mem.sv /home/khang/Documents/SystemVerilog/Soc_RV32I/SoC/DUT/CPU/pc.sv /home/khang/Documents/SystemVerilog/Soc_RV32I/SoC/DUT/CPU/signExtend.sv /home/khang/Documents/SystemVerilog/Soc_RV32I/SoC/DUT/Master/CPU.sv /home/khang/Documents/SystemVerilog/Soc_RV32I/SoC/DUT/Master/LSU.sv /home/khang/Documents/SystemVerilog/Soc_RV32I/SoC/DUT/AXI_Master.sv /home/khang/Documents/SystemVerilog/Soc_RV32I/SoC/DUT/AXI4_Lite_Interconnect.sv /home/khang/Documents/SystemVerilog/Soc_RV32I/SoC/DUT/TOP.sv 
-- Compiling module RAM
-- Compiling module SPI
-- Compiling module Timer
-- Compiling module UART
-- Compiling module ALU
-- Compiling module ALUControl
-- Compiling module ControlUnit
-- Compiling module EX_MEM
-- Compiling module HazardUnit
-- Compiling module ID_EX
-- Compiling module IF_ID
-- Compiling module MEM_WB
-- Compiling module MainDecoder
-- Compiling module RegFile
-- Compiling module data_mem
-- Compiling module instr_mem
-- Compiling module pc_reg
-- Compiling module signExtend
-- Compiling module CPU
-- Compiling module LSU
-- Compiling module AXI_Master
-- Compiling module AXI4_Lite_Interconnect
** Warning: /home/khang/Documents/SystemVerilog/Soc_RV32I/SoC/DUT/AXI4_Lite_Interconnect.sv(43): (vlog-13314) Defaulting port 's_axi_bresp' kind to 'var' rather than 'wire' due to default compile option setting of -svinputport=relaxed.
** Warning: /home/khang/Documents/SystemVerilog/Soc_RV32I/SoC/DUT/AXI4_Lite_Interconnect.sv(52): (vlog-13314) Defaulting port 's_axi_rdata' kind to 'var' rather than 'wire' due to default compile option setting of -svinputport=relaxed.
** Warning: /home/khang/Documents/SystemVerilog/Soc_RV32I/SoC/DUT/AXI4_Lite_Interconnect.sv(53): (vlog-13314) Defaulting port 's_axi_rresp' kind to 'var' rather than 'wire' due to default compile option setting of -svinputport=relaxed.
-- Compiling module TOP

Top level modules:
	TOP
End time: 16:08:35 on May 04,2026, Elapsed time: 0:00:00
Errors: 0, Warnings: 3
--- [3/4] Bien dich UVM Package ---
vlog -sv +acc -L uvm -cover bcst +incdir+/home/khang/Documents/SystemVerilog/Soc_RV32I/SoC/VERIFICATION/Transaction \
            +incdir+/home/khang/Documents/SystemVerilog/Soc_RV32I/SoC/VERIFICATION/Sequencer \
            +incdir+/home/khang/Documents/SystemVerilog/Soc_RV32I/SoC/VERIFICATION/Monitor \
            +incdir+/home/khang/Documents/SystemVerilog/Soc_RV32I/SoC/VERIFICATION/Driver \
            +incdir+/home/khang/Documents/SystemVerilog/Soc_RV32I/SoC/VERIFICATION/Agent \
            +incdir+/home/khang/Documents/SystemVerilog/Soc_RV32I/SoC/VERIFICATION/Coverage \
            +incdir+/home/khang/Documents/SystemVerilog/Soc_RV32I/SoC/VERIFICATION/Env \
            +incdir+/home/khang/Documents/SystemVerilog/Soc_RV32I/SoC/VERIFICATION/Scoreboard \
            +incdir+/home/khang/Documents/SystemVerilog/Soc_RV32I/SoC/VERIFICATION/Sequence \
            +incdir+/home/khang/Documents/SystemVerilog/Soc_RV32I/SoC/VERIFICATION/Test \
            /home/khang/Documents/SystemVerilog/Soc_RV32I/SoC/VERIFICATION/Package/soc_pkg.svh
QuestaSim-64 vlog 2024.1 Compiler 2024.02 Feb  1 2024
Start time: 16:08:35 on May 04,2026
vlog -sv "+acc" -L uvm -cover bcst "+incdir+/home/khang/Documents/SystemVerilog/Soc_RV32I/SoC/VERIFICATION/Transaction" "+incdir+/home/khang/Documents/SystemVerilog/Soc_RV32I/SoC/VERIFICATION/Sequencer" "+incdir+/home/khang/Documents/SystemVerilog/Soc_RV32I/SoC/VERIFICATION/Monitor" "+incdir+/home/khang/Documents/SystemVerilog/Soc_RV32I/SoC/VERIFICATION/Driver" "+incdir+/home/khang/Documents/SystemVerilog/Soc_RV32I/SoC/VERIFICATION/Agent" "+incdir+/home/khang/Documents/SystemVerilog/Soc_RV32I/SoC/VERIFICATION/Coverage" "+incdir+/home/khang/Documents/SystemVerilog/Soc_RV32I/SoC/VERIFICATION/Env" "+incdir+/home/khang/Documents/SystemVerilog/Soc_RV32I/SoC/VERIFICATION/Scoreboard" "+incdir+/home/khang/Documents/SystemVerilog/Soc_RV32I/SoC/VERIFICATION/Sequence" "+incdir+/home/khang/Documents/SystemVerilog/Soc_RV32I/SoC/VERIFICATION/Test" /home/khang/Documents/SystemVerilog/Soc_RV32I/SoC/VERIFICATION/Package/soc_pkg.svh 
-- Compiling package soc_pkg
-- Importing package mtiUvm.uvm_pkg (uvm-1.1d Built-in)
** Note: (vlog-2286) /home/khang/Documents/SystemVerilog/Soc_RV32I/SoC/VERIFICATION/Package/soc_pkg.svh(3): Using implicit +incdir+/tools/mq/2024.1/questasim/uvm-1.1d/../verilog_src/uvm-1.1d/src from import uvm_pkg

Top level modules:
	--none--
End time: 16:08:35 on May 04,2026, Elapsed time: 0:00:00
Errors: 0, Warnings: 0
--- [4/4] Bien dich Top Testbench ---
vlog -sv +acc -L uvm -cover bcst /home/khang/Documents/SystemVerilog/Soc_RV32I/SoC/VERIFICATION/top_tb.sv
QuestaSim-64 vlog 2024.1 Compiler 2024.02 Feb  1 2024
Start time: 16:08:35 on May 04,2026
vlog -sv "+acc" -L uvm -cover bcst /home/khang/Documents/SystemVerilog/Soc_RV32I/SoC/VERIFICATION/top_tb.sv 
-- Compiling module top_tb
-- Importing package mtiUvm.uvm_pkg (uvm-1.1d Built-in)
-- Importing package soc_pkg
** Note: (vlog-2286) /home/khang/Documents/SystemVerilog/Soc_RV32I/SoC/VERIFICATION/top_tb.sv(6): Using implicit +incdir+/tools/mq/2024.1/questasim/uvm-1.1d/../verilog_src/uvm-1.1d/src from import uvm_pkg

Top level modules:
	top_tb
End time: 16:08:36 on May 04,2026, Elapsed time: 0:00:01
Errors: 0, Warnings: 0
--- [Optimize] Chay vopt ---
vopt +acc +cover top_tb -o vopt_top
QuestaSim-64 vopt 2024.1 Compiler 2024.02 Feb  1 2024
** Warning: (vopt-10587) Some optimizations are turned off because the +acc switch is in effect. This will cause your simulation to run slowly. Please use -access/-debug to maintain needed visibility.
Start time: 16:08:36 on May 04,2026
vopt "+acc" "+cover" top_tb -o vopt_top 

Top level modules:
	top_tb

Analyzing design...
** Warning: (vopt-10016) Option '-L uvm' was detected by vlog for design-unit 'top_tb', but was not detected by vopt. The vlog option will be ignored.
-- Loading module top_tb
-- Importing package mtiUvm.uvm_pkg (uvm-1.1d Built-in)
** Warning: (vopt-10016) Option '-L uvm' was detected by vlog for design-unit 'soc_pkg', but was not detected by vopt. The vlog option will be ignored.
-- Importing package soc_pkg
-- Loading package mtiUvm.questa_uvm_pkg
** Warning: (vopt-10016) Option '-L uvm' was detected by vlog for design-unit 'clk_rst_inf', but was not detected by vopt. The vlog option will be ignored.
-- Loading interface clk_rst_inf
** Warning: (vopt-10016) Option '-L uvm' was detected by vlog for design-unit 'soc_inf', but was not detected by vopt. The vlog option will be ignored.
-- Loading interface soc_inf
** Warning: (vopt-10016) Option '-L uvm' was detected by vlog for design-unit 'TOP', but was not detected by vopt. The vlog option will be ignored.
-- Loading module TOP
** Warning: (vopt-10016) Option '-L uvm' was detected by vlog for design-unit 'AXI_Master', but was not detected by vopt. The vlog option will be ignored.
-- Loading module AXI_Master
** Warning: (vopt-10016) Option '-L uvm' was detected by vlog for design-unit 'CPU', but was not detected by vopt. The vlog option will be ignored.
-- Loading module CPU
** Warning: (vopt-10016) Option '-L uvm' was detected by vlog for design-unit 'pc_reg', but was not detected by vopt. The vlog option will be ignored.
-- Loading module pc_reg
** Warning: (vopt-10016) Option '-L uvm' was detected by vlog for design-unit 'instr_mem', but was not detected by vopt. The vlog option will be ignored.
-- Loading module instr_mem
** Warning: (vopt-10016) Option '-L uvm' was detected by vlog for design-unit 'IF_ID', but was not detected by vopt. The vlog option will be ignored.
-- Loading module IF_ID
** Warning: (vopt-10016) Option '-L uvm' was detected by vlog for design-unit 'ControlUnit', but was not detected by vopt. The vlog option will be ignored.
-- Loading module ControlUnit
** Warning: (vopt-10016) Option '-L uvm' was detected by vlog for design-unit 'MainDecoder', but was not detected by vopt. The vlog option will be ignored.
-- Loading module MainDecoder
** Warning: (vopt-10016) Option '-L uvm' was detected by vlog for design-unit 'ALUControl', but was not detected by vopt. The vlog option will be ignored.
-- Loading module ALUControl
** Warning: (vopt-10016) Option '-L uvm' was detected by vlog for design-unit 'RegFile', but was not detected by vopt. The vlog option will be ignored.
-- Loading module RegFile
** Warning: (vopt-10016) Option '-L uvm' was detected by vlog for design-unit 'signExtend', but was not detected by vopt. The vlog option will be ignored.
-- Loading module signExtend
** Warning: (vopt-10016) Option '-L uvm' was detected by vlog for design-unit 'ID_EX', but was not detected by vopt. The vlog option will be ignored.
-- Loading module ID_EX
** Warning: (vopt-10016) Option '-L uvm' was detected by vlog for design-unit 'ALU', but was not detected by vopt. The vlog option will be ignored.
-- Loading module ALU
** Warning: (vopt-10016) Option '-L uvm' was detected by vlog for design-unit 'EX_MEM', but was not detected by vopt. The vlog option will be ignored.
-- Loading module EX_MEM
** Warning: (vopt-10016) Option '-L uvm' was detected by vlog for design-unit 'data_mem', but was not detected by vopt. The vlog option will be ignored.
-- Loading module data_mem
** Warning: (vopt-10016) Option '-L uvm' was detected by vlog for design-unit 'MEM_WB', but was not detected by vopt. The vlog option will be ignored.
-- Loading module MEM_WB
** Warning: (vopt-10016) Option '-L uvm' was detected by vlog for design-unit 'HazardUnit', but was not detected by vopt. The vlog option will be ignored.
-- Loading module HazardUnit
** Warning: (vopt-10016) Option '-L uvm' was detected by vlog for design-unit 'LSU', but was not detected by vopt. The vlog option will be ignored.
-- Loading module LSU
** Warning: (vopt-10016) Option '-L uvm' was detected by vlog for design-unit 'AXI4_Lite_Interconnect', but was not detected by vopt. The vlog option will be ignored.
-- Loading module AXI4_Lite_Interconnect
** Warning: (vopt-10016) Option '-L uvm' was detected by vlog for design-unit 'RAM', but was not detected by vopt. The vlog option will be ignored.
-- Loading module RAM
** Warning: (vopt-10016) Option '-L uvm' was detected by vlog for design-unit 'Timer', but was not detected by vopt. The vlog option will be ignored.
-- Loading module Timer
** Warning: (vopt-10016) Option '-L uvm' was detected by vlog for design-unit 'UART', but was not detected by vopt. The vlog option will be ignored.
-- Loading module UART
** Warning: (vopt-10016) Option '-L uvm' was detected by vlog for design-unit 'SPI', but was not detected by vopt. The vlog option will be ignored.
-- Loading module SPI
** Warning: (vopt-13408) Code coverage will be disabled for some DUs/packages/classes and source files.
Optimizing 32 design-units (inlining 0/27 module instances):
-- Optimizing package mtiUvm.questa_uvm_pkg(fast)
-- Optimizing package soc_pkg(fast)
-- Optimizing interface soc_inf(fast__2)
-- Optimizing module AXI4_Lite_Interconnect(fast)
** Warning: /home/khang/Documents/SystemVerilog/Soc_RV32I/SoC/DUT/AXI4_Lite_Interconnect.sv(43): (vopt-13314) Defaulting port 's_axi_bresp' kind to 'var' rather than 'wire' due to default compile option setting of -svinputport=relaxed.
** Warning: /home/khang/Documents/SystemVerilog/Soc_RV32I/SoC/DUT/AXI4_Lite_Interconnect.sv(52): (vopt-13314) Defaulting port 's_axi_rdata' kind to 'var' rather than 'wire' due to default compile option setting of -svinputport=relaxed.
** Warning: /home/khang/Documents/SystemVerilog/Soc_RV32I/SoC/DUT/AXI4_Lite_Interconnect.sv(53): (vopt-13314) Defaulting port 's_axi_rresp' kind to 'var' rather than 'wire' due to default compile option setting of -svinputport=relaxed.
-- Optimizing module LSU(fast)
** Note: (vopt-143) Recognized 1 FSM in module "LSU(fast)".
-- Optimizing module UART(fast)
** Note: (vopt-143) Recognized 2 FSMs in module "UART(fast)".
-- Optimizing module CPU(fast)
-- Optimizing module SPI(fast)
** Note: (vopt-143) Recognized 1 FSM in module "SPI(fast)".
-- Optimizing module top_tb(fast)
-- Optimizing module Timer(fast)
-- Optimizing module TOP(fast)
-- Optimizing module RAM(fast)
-- Optimizing module RAM(fast__1)
-- Optimizing module ID_EX(fast)
-- Optimizing module HazardUnit(fast)
-- Optimizing module MainDecoder(fast)
-- Optimizing module EX_MEM(fast)
-- Optimizing module AXI_Master(fast)
-- Optimizing module ALU(fast)
-- Optimizing module MEM_WB(fast)
-- Optimizing module RegFile(fast)
-- Optimizing module signExtend(fast)
-- Optimizing module IF_ID(fast)
-- Optimizing module ALUControl(fast)
-- Optimizing module data_mem(fast)
-- Optimizing module ControlUnit(fast)
-- Optimizing interface clk_rst_inf(fast__2)
-- Optimizing module pc_reg(fast)
-- Optimizing module instr_mem(fast)
-- Optimizing interface soc_inf(fast)
-- Optimizing interface clk_rst_inf(fast)
-- Optimizing package mtiUvm.uvm_pkg (uvm-1.1d Built-in)(fast)
Optimized design name is vopt_top
End time: 16:08:37 on May 04,2026, Elapsed time: 0:00:01
Errors: 0, Warnings: 32
--- [SINGLE TEST MODE] Dang chay test: axi_random_wr_rd_test ---
Reading pref.tcl

# 2024.1

# vsim -c -L uvm -coverage -sv_seed random vopt_top "+UVM_TESTNAME=axi_random_wr_rd_test" -do "coverage save -onexit coverage_result.ucdb; run -all; quit" 
# Start time: 16:08:38 on May 04,2026
# //  Questa Sim-64
# //  Version 2024.1 linux_x86_64 Feb  1 2024
# //
# // Unpublished work. Copyright 2024 Siemens
# //
# // This material contains trade secrets or otherwise confidential information
# // owned by Siemens Industry Software Inc. or its affiliates (collectively,
# // "SISW"), or its licensors. Access to and use of this information is strictly
# // limited as set forth in the Customer's applicable agreements with SISW.
# //
# // This material may not be copied, distributed, or otherwise disclosed outside
# // of the Customer's facilities without the express written permission of SISW,
# // and may not be used in any way not expressly authorized by SISW.
# //
# Loading sv_std.std
# Loading work.clk_rst_inf(fast)
# Loading work.soc_inf(fast)
# Loading mtiUvm.uvm_pkg(fast)
# Loading work.soc_pkg(fast)
# Loading mtiUvm.questa_uvm_pkg(fast)
# Loading work.top_tb(fast)
# Loading work.clk_rst_inf(fast__2)
# Loading work.soc_inf(fast__2)
# Loading work.TOP(fast)
# Loading work.AXI_Master(fast)
# Loading work.CPU(fast)
# Loading work.pc_reg(fast)
# Loading work.instr_mem(fast)
# Loading work.IF_ID(fast)
# Loading work.ControlUnit(fast)
# Loading work.MainDecoder(fast)
# Loading work.ALUControl(fast)
# Loading work.RegFile(fast)
# Loading work.signExtend(fast)
# Loading work.ID_EX(fast)
# Loading work.ALU(fast)
# Loading work.EX_MEM(fast)
# Loading work.data_mem(fast)
# Loading work.MEM_WB(fast)
# Loading work.HazardUnit(fast)
# Loading work.LSU(fast)
# Loading work.AXI4_Lite_Interconnect(fast)
# Loading work.RAM(fast)
# Loading work.RAM(fast__1)
# Loading work.Timer(fast)
# Loading work.UART(fast)
# Loading work.SPI(fast)
# Loading /tools/mq/2024.1/questasim/uvm-1.1d/linux_x86_64/uvm_dpi.so
# Sv_Seed = 1110281433
# coverage save -onexit coverage_result.ucdb
#  run -all
# ----------------------------------------------------------------
# UVM-1.1d
# (C) 2007-2013 Mentor Graphics Corporation
# (C) 2007-2013 Cadence Design Systems, Inc.
# (C) 2006-2013 Synopsys, Inc.
# (C) 2011-2013 Cypress Semiconductor Corp.
# ----------------------------------------------------------------
# 
#   ***********       IMPORTANT RELEASE NOTES         ************
# 
#   You are using a version of the UVM library that has been compiled
#   with `UVM_NO_DEPRECATED undefined.
#   See http://www.eda.org/svdb/view.php?id=3313 for more details.
# 
#   You are using a version of the UVM library that has been compiled
#   with `UVM_OBJECT_MUST_HAVE_CONSTRUCTOR undefined.
#   See http://www.eda.org/svdb/view.php?id=3770 for more details.
# 
#       (Specify +UVM_NO_RELNOTES to turn off this notice)
# 
# UVM_INFO verilog_src/questa_uvm_pkg-1.2/src/questa_uvm_pkg.sv(277) @ 0: reporter [Questa UVM] QUESTA_UVM-1.2.3
# UVM_INFO verilog_src/questa_uvm_pkg-1.2/src/questa_uvm_pkg.sv(278) @ 0: reporter [Questa UVM]  questa_uvm::init(+struct)
# --- SUCCESS: Loaded instructions from .mem ---
# UVM_INFO @ 0: reporter [RNTST] Running test axi_random_wr_rd_test...
# Da nap instr.mem vao top tb
# UVM_INFO /home/khang/Documents/SystemVerilog/Soc_RV32I/SoC/VERIFICATION/Sequence/axi_random_wr_rd.sv(22) @ 0: uvm_test_top.env.agent.sequencer@@seq [SEQ] --- STARTING SMART RANDOM TEST (ID 11, 12) ---
# UVM_INFO /home/khang/Documents/SystemVerilog/Soc_RV32I/SoC/VERIFICATION/Monitor/axi_monitor.sv(47) @ 65000: uvm_test_top.env.agent.monitor [MON_WR] Detected WRITE : Addr = 10000000, Data = 244d92a7
# UVM_INFO /home/khang/Documents/SystemVerilog/Soc_RV32I/SoC/VERIFICATION/Monitor/axi_monitor.sv(47) @ 115000: uvm_test_top.env.agent.monitor [MON_WR] Detected WRITE : Addr = 10000004, Data = 175e8081
# UVM_INFO /home/khang/Documents/SystemVerilog/Soc_RV32I/SoC/VERIFICATION/Monitor/axi_monitor.sv(47) @ 165000: uvm_test_top.env.agent.monitor [MON_WR] Detected WRITE : Addr = 10000008, Data = acf35035
# UVM_INFO /home/khang/Documents/SystemVerilog/Soc_RV32I/SoC/VERIFICATION/Monitor/axi_monitor.sv(47) @ 215000: uvm_test_top.env.agent.monitor [MON_WR] Detected WRITE : Addr = 1000000c, Data = 810200bb
# UVM_INFO /home/khang/Documents/SystemVerilog/Soc_RV32I/SoC/VERIFICATION/Monitor/axi_monitor.sv(47) @ 265000: uvm_test_top.env.agent.monitor [MON_WR] Detected WRITE : Addr = 10000010, Data = dea2898c
# UVM_INFO /home/khang/Documents/SystemVerilog/Soc_RV32I/SoC/VERIFICATION/Monitor/axi_monitor.sv(47) @ 315000: uvm_test_top.env.agent.monitor [MON_WR] Detected WRITE : Addr = 10000014, Data = e5ecee67
# UVM_INFO /home/khang/Documents/SystemVerilog/Soc_RV32I/SoC/VERIFICATION/Monitor/axi_monitor.sv(47) @ 365000: uvm_test_top.env.agent.monitor [MON_WR] Detected WRITE : Addr = 10000018, Data = 960cf76d
# UVM_INFO /home/khang/Documents/SystemVerilog/Soc_RV32I/SoC/VERIFICATION/Monitor/axi_monitor.sv(47) @ 415000: uvm_test_top.env.agent.monitor [MON_WR] Detected WRITE : Addr = 1000001c, Data = 78fcd9a8
# UVM_INFO /home/khang/Documents/SystemVerilog/Soc_RV32I/SoC/VERIFICATION/Monitor/axi_monitor.sv(47) @ 465000: uvm_test_top.env.agent.monitor [MON_WR] Detected WRITE : Addr = 10000020, Data = b82afa7f
# UVM_INFO /home/khang/Documents/SystemVerilog/Soc_RV32I/SoC/VERIFICATION/Monitor/axi_monitor.sv(47) @ 515000: uvm_test_top.env.agent.monitor [MON_WR] Detected WRITE : Addr = 10000024, Data = 043bc4c3
# UVM_INFO /home/khang/Documents/SystemVerilog/Soc_RV32I/SoC/VERIFICATION/Monitor/axi_monitor.sv(47) @ 565000: uvm_test_top.env.agent.monitor [MON_WR] Detected WRITE : Addr = 10000028, Data = 5495726e
# UVM_INFO /home/khang/Documents/SystemVerilog/Soc_RV32I/SoC/VERIFICATION/Monitor/axi_monitor.sv(47) @ 615000: uvm_test_top.env.agent.monitor [MON_WR] Detected WRITE : Addr = 1000002c, Data = 6aee576f
# UVM_INFO /home/khang/Documents/SystemVerilog/Soc_RV32I/SoC/VERIFICATION/Monitor/axi_monitor.sv(47) @ 665000: uvm_test_top.env.agent.monitor [MON_WR] Detected WRITE : Addr = 10000030, Data = 3b13dd8e
# UVM_INFO /home/khang/Documents/SystemVerilog/Soc_RV32I/SoC/VERIFICATION/Monitor/axi_monitor.sv(47) @ 715000: uvm_test_top.env.agent.monitor [MON_WR] Detected WRITE : Addr = 10000034, Data = 612f20ca
# UVM_INFO /home/khang/Documents/SystemVerilog/Soc_RV32I/SoC/VERIFICATION/Monitor/axi_monitor.sv(47) @ 765000: uvm_test_top.env.agent.monitor [MON_WR] Detected WRITE : Addr = 10000038, Data = 3b4a1434
# UVM_INFO /home/khang/Documents/SystemVerilog/Soc_RV32I/SoC/VERIFICATION/Monitor/axi_monitor.sv(47) @ 815000: uvm_test_top.env.agent.monitor [MON_WR] Detected WRITE : Addr = 1000003c, Data = a9faf686
# UVM_INFO /home/khang/Documents/SystemVerilog/Soc_RV32I/SoC/VERIFICATION/Monitor/axi_monitor.sv(47) @ 865000: uvm_test_top.env.agent.monitor [MON_WR] Detected WRITE : Addr = 10000040, Data = 25bd0bdb
# UVM_INFO /home/khang/Documents/SystemVerilog/Soc_RV32I/SoC/VERIFICATION/Monitor/axi_monitor.sv(47) @ 915000: uvm_test_top.env.agent.monitor [MON_WR] Detected WRITE : Addr = 10000044, Data = 31351b4b
# UVM_INFO /home/khang/Documents/SystemVerilog/Soc_RV32I/SoC/VERIFICATION/Monitor/axi_monitor.sv(47) @ 965000: uvm_test_top.env.agent.monitor [MON_WR] Detected WRITE : Addr = 10000048, Data = 8dc45c6d
# UVM_INFO /home/khang/Documents/SystemVerilog/Soc_RV32I/SoC/VERIFICATION/Monitor/axi_monitor.sv(47) @ 1015000: uvm_test_top.env.agent.monitor [MON_WR] Detected WRITE : Addr = 1000004c, Data = 9e804c41
# UVM_INFO /home/khang/Documents/SystemVerilog/Soc_RV32I/SoC/VERIFICATION/Monitor/axi_monitor.sv(47) @ 1065000: uvm_test_top.env.agent.monitor [MON_WR] Detected WRITE : Addr = 10000050, Data = c460eff3
# UVM_INFO /home/khang/Documents/SystemVerilog/Soc_RV32I/SoC/VERIFICATION/Monitor/axi_monitor.sv(47) @ 1115000: uvm_test_top.env.agent.monitor [MON_WR] Detected WRITE : Addr = 10000054, Data = 4b445176
# UVM_INFO /home/khang/Documents/SystemVerilog/Soc_RV32I/SoC/VERIFICATION/Monitor/axi_monitor.sv(47) @ 1165000: uvm_test_top.env.agent.monitor [MON_WR] Detected WRITE : Addr = 10000058, Data = cc7a1153
# UVM_INFO /home/khang/Documents/SystemVerilog/Soc_RV32I/SoC/VERIFICATION/Monitor/axi_monitor.sv(47) @ 1215000: uvm_test_top.env.agent.monitor [MON_WR] Detected WRITE : Addr = 1000005c, Data = 5be18ee1
# UVM_INFO /home/khang/Documents/SystemVerilog/Soc_RV32I/SoC/VERIFICATION/Monitor/axi_monitor.sv(47) @ 1265000: uvm_test_top.env.agent.monitor [MON_WR] Detected WRITE : Addr = 10000060, Data = e2210c89
# UVM_INFO /home/khang/Documents/SystemVerilog/Soc_RV32I/SoC/VERIFICATION/Monitor/axi_monitor.sv(47) @ 1315000: uvm_test_top.env.agent.monitor [MON_WR] Detected WRITE : Addr = 10000064, Data = 65fcadc8
# UVM_INFO /home/khang/Documents/SystemVerilog/Soc_RV32I/SoC/VERIFICATION/Monitor/axi_monitor.sv(47) @ 1365000: uvm_test_top.env.agent.monitor [MON_WR] Detected WRITE : Addr = 10000068, Data = 1706444e
# UVM_INFO /home/khang/Documents/SystemVerilog/Soc_RV32I/SoC/VERIFICATION/Monitor/axi_monitor.sv(47) @ 1415000: uvm_test_top.env.agent.monitor [MON_WR] Detected WRITE : Addr = 1000006c, Data = f49f2295
# UVM_INFO /home/khang/Documents/SystemVerilog/Soc_RV32I/SoC/VERIFICATION/Monitor/axi_monitor.sv(47) @ 1465000: uvm_test_top.env.agent.monitor [MON_WR] Detected WRITE : Addr = 10000070, Data = 40aff1af
# UVM_INFO /home/khang/Documents/SystemVerilog/Soc_RV32I/SoC/VERIFICATION/Monitor/axi_monitor.sv(47) @ 1515000: uvm_test_top.env.agent.monitor [MON_WR] Detected WRITE : Addr = 10000074, Data = 6909e7f5
# UVM_INFO /home/khang/Documents/SystemVerilog/Soc_RV32I/SoC/VERIFICATION/Monitor/axi_monitor.sv(47) @ 1565000: uvm_test_top.env.agent.monitor [MON_WR] Detected WRITE : Addr = 10000078, Data = fc6328a1
# UVM_INFO /home/khang/Documents/SystemVerilog/Soc_RV32I/SoC/VERIFICATION/Monitor/axi_monitor.sv(47) @ 1615000: uvm_test_top.env.agent.monitor [MON_WR] Detected WRITE : Addr = 1000007c, Data = 51d9470d
# UVM_INFO /home/khang/Documents/SystemVerilog/Soc_RV32I/SoC/VERIFICATION/Monitor/axi_monitor.sv(47) @ 1665000: uvm_test_top.env.agent.monitor [MON_WR] Detected WRITE : Addr = 10000080, Data = 2f9fac3b
# UVM_INFO /home/khang/Documents/SystemVerilog/Soc_RV32I/SoC/VERIFICATION/Monitor/axi_monitor.sv(47) @ 1715000: uvm_test_top.env.agent.monitor [MON_WR] Detected WRITE : Addr = 10000084, Data = e9618fc6
# UVM_INFO /home/khang/Documents/SystemVerilog/Soc_RV32I/SoC/VERIFICATION/Monitor/axi_monitor.sv(47) @ 1765000: uvm_test_top.env.agent.monitor [MON_WR] Detected WRITE : Addr = 10000088, Data = 7513470a
# UVM_INFO /home/khang/Documents/SystemVerilog/Soc_RV32I/SoC/VERIFICATION/Monitor/axi_monitor.sv(47) @ 1815000: uvm_test_top.env.agent.monitor [MON_WR] Detected WRITE : Addr = 1000008c, Data = 5b0fdf65
# UVM_INFO /home/khang/Documents/SystemVerilog/Soc_RV32I/SoC/VERIFICATION/Monitor/axi_monitor.sv(47) @ 1865000: uvm_test_top.env.agent.monitor [MON_WR] Detected WRITE : Addr = 10000090, Data = c22b14f1
# UVM_INFO /home/khang/Documents/SystemVerilog/Soc_RV32I/SoC/VERIFICATION/Monitor/axi_monitor.sv(47) @ 1915000: uvm_test_top.env.agent.monitor [MON_WR] Detected WRITE : Addr = 10000094, Data = 308beba2
# UVM_INFO /home/khang/Documents/SystemVerilog/Soc_RV32I/SoC/VERIFICATION/Monitor/axi_monitor.sv(47) @ 1965000: uvm_test_top.env.agent.monitor [MON_WR] Detected WRITE : Addr = 10000098, Data = e4b0ce68
# UVM_INFO /home/khang/Documents/SystemVerilog/Soc_RV32I/SoC/VERIFICATION/Monitor/axi_monitor.sv(47) @ 2015000: uvm_test_top.env.agent.monitor [MON_WR] Detected WRITE : Addr = 1000009c, Data = b75d5db1
# UVM_INFO /home/khang/Documents/SystemVerilog/Soc_RV32I/SoC/VERIFICATION/Monitor/axi_monitor.sv(47) @ 2065000: uvm_test_top.env.agent.monitor [MON_WR] Detected WRITE : Addr = 100000a0, Data = bc0c8e71
# UVM_INFO /home/khang/Documents/SystemVerilog/Soc_RV32I/SoC/VERIFICATION/Monitor/axi_monitor.sv(47) @ 2115000: uvm_test_top.env.agent.monitor [MON_WR] Detected WRITE : Addr = 100000a4, Data = 08e6c691
# UVM_INFO /home/khang/Documents/SystemVerilog/Soc_RV32I/SoC/VERIFICATION/Monitor/axi_monitor.sv(47) @ 2165000: uvm_test_top.env.agent.monitor [MON_WR] Detected WRITE : Addr = 100000a8, Data = 6c9583e0
# UVM_INFO /home/khang/Documents/SystemVerilog/Soc_RV32I/SoC/VERIFICATION/Monitor/axi_monitor.sv(47) @ 2215000: uvm_test_top.env.agent.monitor [MON_WR] Detected WRITE : Addr = 100000ac, Data = b13b210a
# UVM_INFO /home/khang/Documents/SystemVerilog/Soc_RV32I/SoC/VERIFICATION/Monitor/axi_monitor.sv(47) @ 2265000: uvm_test_top.env.agent.monitor [MON_WR] Detected WRITE : Addr = 100000b0, Data = bc073d69
# UVM_INFO /home/khang/Documents/SystemVerilog/Soc_RV32I/SoC/VERIFICATION/Monitor/axi_monitor.sv(47) @ 2315000: uvm_test_top.env.agent.monitor [MON_WR] Detected WRITE : Addr = 100000b4, Data = ed91b61e
# UVM_INFO /home/khang/Documents/SystemVerilog/Soc_RV32I/SoC/VERIFICATION/Monitor/axi_monitor.sv(47) @ 2365000: uvm_test_top.env.agent.monitor [MON_WR] Detected WRITE : Addr = 100000b8, Data = 5087cd7a
# UVM_INFO /home/khang/Documents/SystemVerilog/Soc_RV32I/SoC/VERIFICATION/Monitor/axi_monitor.sv(47) @ 2415000: uvm_test_top.env.agent.monitor [MON_WR] Detected WRITE : Addr = 100000bc, Data = f7741098
# UVM_INFO /home/khang/Documents/SystemVerilog/Soc_RV32I/SoC/VERIFICATION/Monitor/axi_monitor.sv(47) @ 2465000: uvm_test_top.env.agent.monitor [MON_WR] Detected WRITE : Addr = 100000c0, Data = cdd6606a
# UVM_INFO /home/khang/Documents/SystemVerilog/Soc_RV32I/SoC/VERIFICATION/Monitor/axi_monitor.sv(47) @ 2515000: uvm_test_top.env.agent.monitor [MON_WR] Detected WRITE : Addr = 100000c4, Data = bc9bd36a
# UVM_INFO /home/khang/Documents/SystemVerilog/Soc_RV32I/SoC/VERIFICATION/Monitor/axi_monitor.sv(47) @ 2565000: uvm_test_top.env.agent.monitor [MON_WR] Detected WRITE : Addr = 100000c8, Data = 56e3a2de
# UVM_INFO /home/khang/Documents/SystemVerilog/Soc_RV32I/SoC/VERIFICATION/Monitor/axi_monitor.sv(47) @ 2615000: uvm_test_top.env.agent.monitor [MON_WR] Detected WRITE : Addr = 100000cc, Data = 9930a175
# UVM_INFO /home/khang/Documents/SystemVerilog/Soc_RV32I/SoC/VERIFICATION/Monitor/axi_monitor.sv(47) @ 2665000: uvm_test_top.env.agent.monitor [MON_WR] Detected WRITE : Addr = 100000d0, Data = 13856763
# UVM_INFO /home/khang/Documents/SystemVerilog/Soc_RV32I/SoC/VERIFICATION/Monitor/axi_monitor.sv(47) @ 2715000: uvm_test_top.env.agent.monitor [MON_WR] Detected WRITE : Addr = 100000d4, Data = 6f0470b8
# UVM_INFO /home/khang/Documents/SystemVerilog/Soc_RV32I/SoC/VERIFICATION/Monitor/axi_monitor.sv(47) @ 2765000: uvm_test_top.env.agent.monitor [MON_WR] Detected WRITE : Addr = 100000d8, Data = 41361087
# UVM_INFO /home/khang/Documents/SystemVerilog/Soc_RV32I/SoC/VERIFICATION/Monitor/axi_monitor.sv(47) @ 2815000: uvm_test_top.env.agent.monitor [MON_WR] Detected WRITE : Addr = 100000dc, Data = ee8abe6a
# UVM_INFO /home/khang/Documents/SystemVerilog/Soc_RV32I/SoC/VERIFICATION/Monitor/axi_monitor.sv(47) @ 2865000: uvm_test_top.env.agent.monitor [MON_WR] Detected WRITE : Addr = 100000e0, Data = 8245992e
# UVM_INFO /home/khang/Documents/SystemVerilog/Soc_RV32I/SoC/VERIFICATION/Monitor/axi_monitor.sv(47) @ 2915000: uvm_test_top.env.agent.monitor [MON_WR] Detected WRITE : Addr = 100000e4, Data = 2bc2c00f
# UVM_INFO /home/khang/Documents/SystemVerilog/Soc_RV32I/SoC/VERIFICATION/Monitor/axi_monitor.sv(47) @ 2965000: uvm_test_top.env.agent.monitor [MON_WR] Detected WRITE : Addr = 100000e8, Data = 5d34c8eb
# UVM_INFO /home/khang/Documents/SystemVerilog/Soc_RV32I/SoC/VERIFICATION/Monitor/axi_monitor.sv(47) @ 3015000: uvm_test_top.env.agent.monitor [MON_WR] Detected WRITE : Addr = 100000ec, Data = 9ae07149
# UVM_INFO /home/khang/Documents/SystemVerilog/Soc_RV32I/SoC/VERIFICATION/Monitor/axi_monitor.sv(47) @ 3065000: uvm_test_top.env.agent.monitor [MON_WR] Detected WRITE : Addr = 100000f0, Data = 649517c5
# UVM_INFO /home/khang/Documents/SystemVerilog/Soc_RV32I/SoC/VERIFICATION/Monitor/axi_monitor.sv(47) @ 3115000: uvm_test_top.env.agent.monitor [MON_WR] Detected WRITE : Addr = 100000f4, Data = b6510131
# UVM_INFO /home/khang/Documents/SystemVerilog/Soc_RV32I/SoC/VERIFICATION/Monitor/axi_monitor.sv(47) @ 3165000: uvm_test_top.env.agent.monitor [MON_WR] Detected WRITE : Addr = 100000f8, Data = c1fc0db2
# UVM_INFO /home/khang/Documents/SystemVerilog/Soc_RV32I/SoC/VERIFICATION/Monitor/axi_monitor.sv(47) @ 3215000: uvm_test_top.env.agent.monitor [MON_WR] Detected WRITE : Addr = 100000fc, Data = 399e6030
# UVM_INFO /home/khang/Documents/SystemVerilog/Soc_RV32I/SoC/VERIFICATION/Monitor/axi_monitor.sv(47) @ 3265000: uvm_test_top.env.agent.monitor [MON_WR] Detected WRITE : Addr = 10000100, Data = a8cc4d76
# UVM_INFO /home/khang/Documents/SystemVerilog/Soc_RV32I/SoC/VERIFICATION/Monitor/axi_monitor.sv(47) @ 3315000: uvm_test_top.env.agent.monitor [MON_WR] Detected WRITE : Addr = 10000104, Data = 096c8621
# UVM_INFO /home/khang/Documents/SystemVerilog/Soc_RV32I/SoC/VERIFICATION/Monitor/axi_monitor.sv(47) @ 3365000: uvm_test_top.env.agent.monitor [MON_WR] Detected WRITE : Addr = 10000108, Data = 06a10941
# UVM_INFO /home/khang/Documents/SystemVerilog/Soc_RV32I/SoC/VERIFICATION/Monitor/axi_monitor.sv(47) @ 3415000: uvm_test_top.env.agent.monitor [MON_WR] Detected WRITE : Addr = 1000010c, Data = fddfe3fb
# UVM_INFO /home/khang/Documents/SystemVerilog/Soc_RV32I/SoC/VERIFICATION/Monitor/axi_monitor.sv(47) @ 3465000: uvm_test_top.env.agent.monitor [MON_WR] Detected WRITE : Addr = 10000110, Data = 6a0d1bec
# UVM_INFO /home/khang/Documents/SystemVerilog/Soc_RV32I/SoC/VERIFICATION/Monitor/axi_monitor.sv(47) @ 3515000: uvm_test_top.env.agent.monitor [MON_WR] Detected WRITE : Addr = 10000114, Data = eaf353fd
# UVM_INFO /home/khang/Documents/SystemVerilog/Soc_RV32I/SoC/VERIFICATION/Monitor/axi_monitor.sv(47) @ 3565000: uvm_test_top.env.agent.monitor [MON_WR] Detected WRITE : Addr = 10000118, Data = 2fb95a00
# UVM_INFO /home/khang/Documents/SystemVerilog/Soc_RV32I/SoC/VERIFICATION/Monitor/axi_monitor.sv(47) @ 3615000: uvm_test_top.env.agent.monitor [MON_WR] Detected WRITE : Addr = 1000011c, Data = 2756a1b6
# UVM_INFO /home/khang/Documents/SystemVerilog/Soc_RV32I/SoC/VERIFICATION/Monitor/axi_monitor.sv(47) @ 3665000: uvm_test_top.env.agent.monitor [MON_WR] Detected WRITE : Addr = 10000120, Data = 197961e5
# UVM_INFO /home/khang/Documents/SystemVerilog/Soc_RV32I/SoC/VERIFICATION/Monitor/axi_monitor.sv(47) @ 3715000: uvm_test_top.env.agent.monitor [MON_WR] Detected WRITE : Addr = 10000124, Data = 6d61fc3c
# UVM_INFO /home/khang/Documents/SystemVerilog/Soc_RV32I/SoC/VERIFICATION/Monitor/axi_monitor.sv(47) @ 3765000: uvm_test_top.env.agent.monitor [MON_WR] Detected WRITE : Addr = 10000128, Data = cf6f9693
# UVM_INFO /home/khang/Documents/SystemVerilog/Soc_RV32I/SoC/VERIFICATION/Monitor/axi_monitor.sv(47) @ 3815000: uvm_test_top.env.agent.monitor [MON_WR] Detected WRITE : Addr = 1000012c, Data = fb1c384b
# UVM_INFO /home/khang/Documents/SystemVerilog/Soc_RV32I/SoC/VERIFICATION/Monitor/axi_monitor.sv(47) @ 3865000: uvm_test_top.env.agent.monitor [MON_WR] Detected WRITE : Addr = 10000130, Data = bae78ad5
# UVM_INFO /home/khang/Documents/SystemVerilog/Soc_RV32I/SoC/VERIFICATION/Monitor/axi_monitor.sv(47) @ 3915000: uvm_test_top.env.agent.monitor [MON_WR] Detected WRITE : Addr = 10000134, Data = 50ff9175
# UVM_INFO /home/khang/Documents/SystemVerilog/Soc_RV32I/SoC/VERIFICATION/Monitor/axi_monitor.sv(47) @ 3965000: uvm_test_top.env.agent.monitor [MON_WR] Detected WRITE : Addr = 10000138, Data = 4a434e05
# UVM_INFO /home/khang/Documents/SystemVerilog/Soc_RV32I/SoC/VERIFICATION/Monitor/axi_monitor.sv(47) @ 4015000: uvm_test_top.env.agent.monitor [MON_WR] Detected WRITE : Addr = 1000013c, Data = 04f6e42d
# UVM_INFO /home/khang/Documents/SystemVerilog/Soc_RV32I/SoC/VERIFICATION/Monitor/axi_monitor.sv(47) @ 4065000: uvm_test_top.env.agent.monitor [MON_WR] Detected WRITE : Addr = 10000140, Data = 260f3664
# UVM_INFO /home/khang/Documents/SystemVerilog/Soc_RV32I/SoC/VERIFICATION/Monitor/axi_monitor.sv(47) @ 4115000: uvm_test_top.env.agent.monitor [MON_WR] Detected WRITE : Addr = 10000144, Data = 8599556b
# UVM_INFO /home/khang/Documents/SystemVerilog/Soc_RV32I/SoC/VERIFICATION/Monitor/axi_monitor.sv(47) @ 4165000: uvm_test_top.env.agent.monitor [MON_WR] Detected WRITE : Addr = 10000148, Data = 4f7767b3
# UVM_INFO /home/khang/Documents/SystemVerilog/Soc_RV32I/SoC/VERIFICATION/Monitor/axi_monitor.sv(47) @ 4215000: uvm_test_top.env.agent.monitor [MON_WR] Detected WRITE : Addr = 1000014c, Data = 335e289d
# UVM_INFO /home/khang/Documents/SystemVerilog/Soc_RV32I/SoC/VERIFICATION/Monitor/axi_monitor.sv(47) @ 4265000: uvm_test_top.env.agent.monitor [MON_WR] Detected WRITE : Addr = 10000150, Data = 8e971332
# UVM_INFO /home/khang/Documents/SystemVerilog/Soc_RV32I/SoC/VERIFICATION/Monitor/axi_monitor.sv(47) @ 4315000: uvm_test_top.env.agent.monitor [MON_WR] Detected WRITE : Addr = 10000154, Data = b433f0e9
# UVM_INFO /home/khang/Documents/SystemVerilog/Soc_RV32I/SoC/VERIFICATION/Monitor/axi_monitor.sv(47) @ 4365000: uvm_test_top.env.agent.monitor [MON_WR] Detected WRITE : Addr = 10000158, Data = 21115291
# UVM_INFO /home/khang/Documents/SystemVerilog/Soc_RV32I/SoC/VERIFICATION/Monitor/axi_monitor.sv(47) @ 4415000: uvm_test_top.env.agent.monitor [MON_WR] Detected WRITE : Addr = 1000015c, Data = 5400b7eb
# UVM_INFO /home/khang/Documents/SystemVerilog/Soc_RV32I/SoC/VERIFICATION/Monitor/axi_monitor.sv(47) @ 4465000: uvm_test_top.env.agent.monitor [MON_WR] Detected WRITE : Addr = 10000160, Data = 6e783ead
# UVM_INFO /home/khang/Documents/SystemVerilog/Soc_RV32I/SoC/VERIFICATION/Monitor/axi_monitor.sv(47) @ 4515000: uvm_test_top.env.agent.monitor [MON_WR] Detected WRITE : Addr = 10000164, Data = 1480f0eb
# UVM_INFO /home/khang/Documents/SystemVerilog/Soc_RV32I/SoC/VERIFICATION/Monitor/axi_monitor.sv(47) @ 4565000: uvm_test_top.env.agent.monitor [MON_WR] Detected WRITE : Addr = 10000168, Data = 8456cf2d
# UVM_INFO /home/khang/Documents/SystemVerilog/Soc_RV32I/SoC/VERIFICATION/Monitor/axi_monitor.sv(47) @ 4615000: uvm_test_top.env.agent.monitor [MON_WR] Detected WRITE : Addr = 1000016c, Data = 6eef5855
# UVM_INFO /home/khang/Documents/SystemVerilog/Soc_RV32I/SoC/VERIFICATION/Monitor/axi_monitor.sv(47) @ 4665000: uvm_test_top.env.agent.monitor [MON_WR] Detected WRITE : Addr = 10000170, Data = 3b95def8
# UVM_INFO /home/khang/Documents/SystemVerilog/Soc_RV32I/SoC/VERIFICATION/Monitor/axi_monitor.sv(47) @ 4715000: uvm_test_top.env.agent.monitor [MON_WR] Detected WRITE : Addr = 10000174, Data = 2273df63
# UVM_INFO /home/khang/Documents/SystemVerilog/Soc_RV32I/SoC/VERIFICATION/Monitor/axi_monitor.sv(47) @ 4765000: uvm_test_top.env.agent.monitor [MON_WR] Detected WRITE : Addr = 10000178, Data = efd1818f
# UVM_INFO /home/khang/Documents/SystemVerilog/Soc_RV32I/SoC/VERIFICATION/Monitor/axi_monitor.sv(47) @ 4815000: uvm_test_top.env.agent.monitor [MON_WR] Detected WRITE : Addr = 1000017c, Data = b4a1cd8d
# UVM_INFO /home/khang/Documents/SystemVerilog/Soc_RV32I/SoC/VERIFICATION/Monitor/axi_monitor.sv(47) @ 4865000: uvm_test_top.env.agent.monitor [MON_WR] Detected WRITE : Addr = 10000180, Data = eefbdabc
# UVM_INFO /home/khang/Documents/SystemVerilog/Soc_RV32I/SoC/VERIFICATION/Monitor/axi_monitor.sv(47) @ 4915000: uvm_test_top.env.agent.monitor [MON_WR] Detected WRITE : Addr = 10000184, Data = 722ec4b8
# UVM_INFO /home/khang/Documents/SystemVerilog/Soc_RV32I/SoC/VERIFICATION/Monitor/axi_monitor.sv(47) @ 4965000: uvm_test_top.env.agent.monitor [MON_WR] Detected WRITE : Addr = 10000188, Data = 0abd05b6
# UVM_INFO /home/khang/Documents/SystemVerilog/Soc_RV32I/SoC/VERIFICATION/Monitor/axi_monitor.sv(47) @ 5015000: uvm_test_top.env.agent.monitor [MON_WR] Detected WRITE : Addr = 1000018c, Data = 741acd64
# UVM_INFO /home/khang/Documents/SystemVerilog/Soc_RV32I/SoC/VERIFICATION/Monitor/axi_monitor.sv(47) @ 5065000: uvm_test_top.env.agent.monitor [MON_WR] Detected WRITE : Addr = 10000190, Data = b0b5d963
# UVM_INFO /home/khang/Documents/SystemVerilog/Soc_RV32I/SoC/VERIFICATION/Monitor/axi_monitor.sv(47) @ 5115000: uvm_test_top.env.agent.monitor [MON_WR] Detected WRITE : Addr = 10000194, Data = 6763dbde
# UVM_INFO /home/khang/Documents/SystemVerilog/Soc_RV32I/SoC/VERIFICATION/Monitor/axi_monitor.sv(47) @ 5165000: uvm_test_top.env.agent.monitor [MON_WR] Detected WRITE : Addr = 10000198, Data = 5130e0b1
# UVM_INFO /home/khang/Documents/SystemVerilog/Soc_RV32I/SoC/VERIFICATION/Monitor/axi_monitor.sv(47) @ 5215000: uvm_test_top.env.agent.monitor [MON_WR] Detected WRITE : Addr = 1000019c, Data = a26bd9cc
# UVM_INFO /home/khang/Documents/SystemVerilog/Soc_RV32I/SoC/VERIFICATION/Monitor/axi_monitor.sv(47) @ 5265000: uvm_test_top.env.agent.monitor [MON_WR] Detected WRITE : Addr = 100001a0, Data = 03aa27fe
# UVM_INFO /home/khang/Documents/SystemVerilog/Soc_RV32I/SoC/VERIFICATION/Monitor/axi_monitor.sv(47) @ 5315000: uvm_test_top.env.agent.monitor [MON_WR] Detected WRITE : Addr = 100001a4, Data = cf861899
# UVM_INFO /home/khang/Documents/SystemVerilog/Soc_RV32I/SoC/VERIFICATION/Monitor/axi_monitor.sv(47) @ 5365000: uvm_test_top.env.agent.monitor [MON_WR] Detected WRITE : Addr = 100001a8, Data = 93a47fd6
# UVM_INFO /home/khang/Documents/SystemVerilog/Soc_RV32I/SoC/VERIFICATION/Monitor/axi_monitor.sv(47) @ 5415000: uvm_test_top.env.agent.monitor [MON_WR] Detected WRITE : Addr = 100001ac, Data = 8554cb7d
# UVM_INFO /home/khang/Documents/SystemVerilog/Soc_RV32I/SoC/VERIFICATION/Monitor/axi_monitor.sv(47) @ 5465000: uvm_test_top.env.agent.monitor [MON_WR] Detected WRITE : Addr = 100001b0, Data = 260eeb76
# UVM_INFO /home/khang/Documents/SystemVerilog/Soc_RV32I/SoC/VERIFICATION/Monitor/axi_monitor.sv(47) @ 5515000: uvm_test_top.env.agent.monitor [MON_WR] Detected WRITE : Addr = 100001b4, Data = 0672e620
# UVM_INFO /home/khang/Documents/SystemVerilog/Soc_RV32I/SoC/VERIFICATION/Monitor/axi_monitor.sv(47) @ 5565000: uvm_test_top.env.agent.monitor [MON_WR] Detected WRITE : Addr = 100001b8, Data = 67d3edd9
# UVM_INFO /home/khang/Documents/SystemVerilog/Soc_RV32I/SoC/VERIFICATION/Monitor/axi_monitor.sv(47) @ 5615000: uvm_test_top.env.agent.monitor [MON_WR] Detected WRITE : Addr = 100001bc, Data = 28794f7c
# UVM_INFO /home/khang/Documents/SystemVerilog/Soc_RV32I/SoC/VERIFICATION/Monitor/axi_monitor.sv(47) @ 5665000: uvm_test_top.env.agent.monitor [MON_WR] Detected WRITE : Addr = 100001c0, Data = 99222de6
# UVM_INFO /home/khang/Documents/SystemVerilog/Soc_RV32I/SoC/VERIFICATION/Monitor/axi_monitor.sv(47) @ 5715000: uvm_test_top.env.agent.monitor [MON_WR] Detected WRITE : Addr = 100001c4, Data = 8b9e0bc9
# UVM_INFO /home/khang/Documents/SystemVerilog/Soc_RV32I/SoC/VERIFICATION/Monitor/axi_monitor.sv(47) @ 5765000: uvm_test_top.env.agent.monitor [MON_WR] Detected WRITE : Addr = 100001c8, Data = b7c9417d
# UVM_INFO /home/khang/Documents/SystemVerilog/Soc_RV32I/SoC/VERIFICATION/Monitor/axi_monitor.sv(47) @ 5815000: uvm_test_top.env.agent.monitor [MON_WR] Detected WRITE : Addr = 100001cc, Data = 1bd37268
# UVM_INFO /home/khang/Documents/SystemVerilog/Soc_RV32I/SoC/VERIFICATION/Monitor/axi_monitor.sv(47) @ 5865000: uvm_test_top.env.agent.monitor [MON_WR] Detected WRITE : Addr = 100001d0, Data = 43263b03
# UVM_INFO /home/khang/Documents/SystemVerilog/Soc_RV32I/SoC/VERIFICATION/Monitor/axi_monitor.sv(47) @ 5915000: uvm_test_top.env.agent.monitor [MON_WR] Detected WRITE : Addr = 100001d4, Data = 25088d39
# UVM_INFO /home/khang/Documents/SystemVerilog/Soc_RV32I/SoC/VERIFICATION/Monitor/axi_monitor.sv(47) @ 5965000: uvm_test_top.env.agent.monitor [MON_WR] Detected WRITE : Addr = 100001d8, Data = a69d774a
# UVM_INFO /home/khang/Documents/SystemVerilog/Soc_RV32I/SoC/VERIFICATION/Monitor/axi_monitor.sv(47) @ 6015000: uvm_test_top.env.agent.monitor [MON_WR] Detected WRITE : Addr = 100001dc, Data = 6171acbe
# UVM_INFO /home/khang/Documents/SystemVerilog/Soc_RV32I/SoC/VERIFICATION/Monitor/axi_monitor.sv(47) @ 6065000: uvm_test_top.env.agent.monitor [MON_WR] Detected WRITE : Addr = 100001e0, Data = 57f17e24
# UVM_INFO /home/khang/Documents/SystemVerilog/Soc_RV32I/SoC/VERIFICATION/Monitor/axi_monitor.sv(47) @ 6115000: uvm_test_top.env.agent.monitor [MON_WR] Detected WRITE : Addr = 100001e4, Data = ef15f862
# UVM_INFO /home/khang/Documents/SystemVerilog/Soc_RV32I/SoC/VERIFICATION/Monitor/axi_monitor.sv(47) @ 6165000: uvm_test_top.env.agent.monitor [MON_WR] Detected WRITE : Addr = 100001e8, Data = 5c030e17
# UVM_INFO /home/khang/Documents/SystemVerilog/Soc_RV32I/SoC/VERIFICATION/Monitor/axi_monitor.sv(47) @ 6215000: uvm_test_top.env.agent.monitor [MON_WR] Detected WRITE : Addr = 100001ec, Data = a7690430
# UVM_INFO /home/khang/Documents/SystemVerilog/Soc_RV32I/SoC/VERIFICATION/Monitor/axi_monitor.sv(47) @ 6265000: uvm_test_top.env.agent.monitor [MON_WR] Detected WRITE : Addr = 100001f0, Data = c5784ad7
# UVM_INFO /home/khang/Documents/SystemVerilog/Soc_RV32I/SoC/VERIFICATION/Monitor/axi_monitor.sv(47) @ 6315000: uvm_test_top.env.agent.monitor [MON_WR] Detected WRITE : Addr = 100001f4, Data = 79adc97c
# UVM_INFO /home/khang/Documents/SystemVerilog/Soc_RV32I/SoC/VERIFICATION/Monitor/axi_monitor.sv(47) @ 6365000: uvm_test_top.env.agent.monitor [MON_WR] Detected WRITE : Addr = 100001f8, Data = 34c87f85
# UVM_INFO /home/khang/Documents/SystemVerilog/Soc_RV32I/SoC/VERIFICATION/Monitor/axi_monitor.sv(47) @ 6415000: uvm_test_top.env.agent.monitor [MON_WR] Detected WRITE : Addr = 100001fc, Data = 4a7dc21b
# UVM_INFO /home/khang/Documents/SystemVerilog/Soc_RV32I/SoC/VERIFICATION/Monitor/axi_monitor.sv(47) @ 6465000: uvm_test_top.env.agent.monitor [MON_WR] Detected WRITE : Addr = 10000200, Data = 6c1a4a11
# UVM_INFO /home/khang/Documents/SystemVerilog/Soc_RV32I/SoC/VERIFICATION/Monitor/axi_monitor.sv(47) @ 6515000: uvm_test_top.env.agent.monitor [MON_WR] Detected WRITE : Addr = 10000204, Data = c7ef2c09
# UVM_INFO /home/khang/Documents/SystemVerilog/Soc_RV32I/SoC/VERIFICATION/Monitor/axi_monitor.sv(47) @ 6565000: uvm_test_top.env.agent.monitor [MON_WR] Detected WRITE : Addr = 10000208, Data = 66190f28
# UVM_INFO /home/khang/Documents/SystemVerilog/Soc_RV32I/SoC/VERIFICATION/Monitor/axi_monitor.sv(47) @ 6615000: uvm_test_top.env.agent.monitor [MON_WR] Detected WRITE : Addr = 1000020c, Data = b70e9dfe
# UVM_INFO /home/khang/Documents/SystemVerilog/Soc_RV32I/SoC/VERIFICATION/Monitor/axi_monitor.sv(47) @ 6665000: uvm_test_top.env.agent.monitor [MON_WR] Detected WRITE : Addr = 10000210, Data = d50d6bf3
# UVM_INFO /home/khang/Documents/SystemVerilog/Soc_RV32I/SoC/VERIFICATION/Monitor/axi_monitor.sv(47) @ 6715000: uvm_test_top.env.agent.monitor [MON_WR] Detected WRITE : Addr = 10000214, Data = c1944a2d
# UVM_INFO /home/khang/Documents/SystemVerilog/Soc_RV32I/SoC/VERIFICATION/Monitor/axi_monitor.sv(47) @ 6765000: uvm_test_top.env.agent.monitor [MON_WR] Detected WRITE : Addr = 10000218, Data = 048fc769
# UVM_INFO /home/khang/Documents/SystemVerilog/Soc_RV32I/SoC/VERIFICATION/Monitor/axi_monitor.sv(47) @ 6815000: uvm_test_top.env.agent.monitor [MON_WR] Detected WRITE : Addr = 1000021c, Data = cf67a86e
# UVM_INFO /home/khang/Documents/SystemVerilog/Soc_RV32I/SoC/VERIFICATION/Monitor/axi_monitor.sv(47) @ 6865000: uvm_test_top.env.agent.monitor [MON_WR] Detected WRITE : Addr = 10000220, Data = 40b3acb3
# UVM_INFO /home/khang/Documents/SystemVerilog/Soc_RV32I/SoC/VERIFICATION/Monitor/axi_monitor.sv(47) @ 6915000: uvm_test_top.env.agent.monitor [MON_WR] Detected WRITE : Addr = 10000224, Data = b7b6cc99
# UVM_INFO /home/khang/Documents/SystemVerilog/Soc_RV32I/SoC/VERIFICATION/Monitor/axi_monitor.sv(47) @ 6965000: uvm_test_top.env.agent.monitor [MON_WR] Detected WRITE : Addr = 10000228, Data = 12a0b141
# UVM_INFO /home/khang/Documents/SystemVerilog/Soc_RV32I/SoC/VERIFICATION/Monitor/axi_monitor.sv(47) @ 7015000: uvm_test_top.env.agent.monitor [MON_WR] Detected WRITE : Addr = 1000022c, Data = d0c4f4a8
# UVM_INFO /home/khang/Documents/SystemVerilog/Soc_RV32I/SoC/VERIFICATION/Monitor/axi_monitor.sv(47) @ 7065000: uvm_test_top.env.agent.monitor [MON_WR] Detected WRITE : Addr = 10000230, Data = 47bf71d9
# UVM_INFO /home/khang/Documents/SystemVerilog/Soc_RV32I/SoC/VERIFICATION/Monitor/axi_monitor.sv(47) @ 7115000: uvm_test_top.env.agent.monitor [MON_WR] Detected WRITE : Addr = 10000234, Data = 4da73e41
# UVM_INFO /home/khang/Documents/SystemVerilog/Soc_RV32I/SoC/VERIFICATION/Monitor/axi_monitor.sv(47) @ 7165000: uvm_test_top.env.agent.monitor [MON_WR] Detected WRITE : Addr = 10000238, Data = 47b0af04
# UVM_INFO /home/khang/Documents/SystemVerilog/Soc_RV32I/SoC/VERIFICATION/Monitor/axi_monitor.sv(47) @ 7215000: uvm_test_top.env.agent.monitor [MON_WR] Detected WRITE : Addr = 1000023c, Data = 582561e2
# UVM_INFO /home/khang/Documents/SystemVerilog/Soc_RV32I/SoC/VERIFICATION/Monitor/axi_monitor.sv(47) @ 7265000: uvm_test_top.env.agent.monitor [MON_WR] Detected WRITE : Addr = 10000240, Data = 731cc8d4
# UVM_INFO /home/khang/Documents/SystemVerilog/Soc_RV32I/SoC/VERIFICATION/Monitor/axi_monitor.sv(47) @ 7315000: uvm_test_top.env.agent.monitor [MON_WR] Detected WRITE : Addr = 10000244, Data = 96ec8f67
# UVM_INFO /home/khang/Documents/SystemVerilog/Soc_RV32I/SoC/VERIFICATION/Monitor/axi_monitor.sv(47) @ 7365000: uvm_test_top.env.agent.monitor [MON_WR] Detected WRITE : Addr = 10000248, Data = d4c267f9
# UVM_INFO /home/khang/Documents/SystemVerilog/Soc_RV32I/SoC/VERIFICATION/Monitor/axi_monitor.sv(47) @ 7415000: uvm_test_top.env.agent.monitor [MON_WR] Detected WRITE : Addr = 1000024c, Data = 8b1860a8
# UVM_INFO /home/khang/Documents/SystemVerilog/Soc_RV32I/SoC/VERIFICATION/Monitor/axi_monitor.sv(47) @ 7465000: uvm_test_top.env.agent.monitor [MON_WR] Detected WRITE : Addr = 10000250, Data = c543ff9c
# UVM_INFO /home/khang/Documents/SystemVerilog/Soc_RV32I/SoC/VERIFICATION/Monitor/axi_monitor.sv(47) @ 7515000: uvm_test_top.env.agent.monitor [MON_WR] Detected WRITE : Addr = 10000254, Data = 82ebd979
# UVM_INFO /home/khang/Documents/SystemVerilog/Soc_RV32I/SoC/VERIFICATION/Monitor/axi_monitor.sv(47) @ 7565000: uvm_test_top.env.agent.monitor [MON_WR] Detected WRITE : Addr = 10000258, Data = 19ffdced
# UVM_INFO /home/khang/Documents/SystemVerilog/Soc_RV32I/SoC/VERIFICATION/Monitor/axi_monitor.sv(47) @ 7615000: uvm_test_top.env.agent.monitor [MON_WR] Detected WRITE : Addr = 1000025c, Data = d91bded6
# UVM_INFO /home/khang/Documents/SystemVerilog/Soc_RV32I/SoC/VERIFICATION/Monitor/axi_monitor.sv(47) @ 7665000: uvm_test_top.env.agent.monitor [MON_WR] Detected WRITE : Addr = 10000260, Data = 44eccf2a
# UVM_INFO /home/khang/Documents/SystemVerilog/Soc_RV32I/SoC/VERIFICATION/Monitor/axi_monitor.sv(47) @ 7715000: uvm_test_top.env.agent.monitor [MON_WR] Detected WRITE : Addr = 10000264, Data = 4f296459
# UVM_INFO /home/khang/Documents/SystemVerilog/Soc_RV32I/SoC/VERIFICATION/Monitor/axi_monitor.sv(47) @ 7765000: uvm_test_top.env.agent.monitor [MON_WR] Detected WRITE : Addr = 10000268, Data = 8742ce85
# UVM_INFO /home/khang/Documents/SystemVerilog/Soc_RV32I/SoC/VERIFICATION/Monitor/axi_monitor.sv(47) @ 7815000: uvm_test_top.env.agent.monitor [MON_WR] Detected WRITE : Addr = 1000026c, Data = c63a3bcc
# UVM_INFO /home/khang/Documents/SystemVerilog/Soc_RV32I/SoC/VERIFICATION/Monitor/axi_monitor.sv(47) @ 7865000: uvm_test_top.env.agent.monitor [MON_WR] Detected WRITE : Addr = 10000270, Data = 2b474717
# UVM_INFO /home/khang/Documents/SystemVerilog/Soc_RV32I/SoC/VERIFICATION/Monitor/axi_monitor.sv(47) @ 7915000: uvm_test_top.env.agent.monitor [MON_WR] Detected WRITE : Addr = 10000274, Data = 3f8bdae0
# UVM_INFO /home/khang/Documents/SystemVerilog/Soc_RV32I/SoC/VERIFICATION/Monitor/axi_monitor.sv(47) @ 7965000: uvm_test_top.env.agent.monitor [MON_WR] Detected WRITE : Addr = 10000278, Data = 0d9f6e0a
# UVM_INFO /home/khang/Documents/SystemVerilog/Soc_RV32I/SoC/VERIFICATION/Monitor/axi_monitor.sv(47) @ 8015000: uvm_test_top.env.agent.monitor [MON_WR] Detected WRITE : Addr = 1000027c, Data = 7566babd
# UVM_INFO /home/khang/Documents/SystemVerilog/Soc_RV32I/SoC/VERIFICATION/Monitor/axi_monitor.sv(47) @ 8065000: uvm_test_top.env.agent.monitor [MON_WR] Detected WRITE : Addr = 10000280, Data = 19b4640d
# UVM_INFO /home/khang/Documents/SystemVerilog/Soc_RV32I/SoC/VERIFICATION/Monitor/axi_monitor.sv(47) @ 8115000: uvm_test_top.env.agent.monitor [MON_WR] Detected WRITE : Addr = 10000284, Data = 6f327247
# UVM_INFO /home/khang/Documents/SystemVerilog/Soc_RV32I/SoC/VERIFICATION/Monitor/axi_monitor.sv(47) @ 8165000: uvm_test_top.env.agent.monitor [MON_WR] Detected WRITE : Addr = 10000288, Data = fb315429
# UVM_INFO /home/khang/Documents/SystemVerilog/Soc_RV32I/SoC/VERIFICATION/Monitor/axi_monitor.sv(47) @ 8215000: uvm_test_top.env.agent.monitor [MON_WR] Detected WRITE : Addr = 1000028c, Data = f16806c8
# UVM_INFO /home/khang/Documents/SystemVerilog/Soc_RV32I/SoC/VERIFICATION/Monitor/axi_monitor.sv(47) @ 8265000: uvm_test_top.env.agent.monitor [MON_WR] Detected WRITE : Addr = 10000290, Data = 19efd8b4
# UVM_INFO /home/khang/Documents/SystemVerilog/Soc_RV32I/SoC/VERIFICATION/Monitor/axi_monitor.sv(47) @ 8315000: uvm_test_top.env.agent.monitor [MON_WR] Detected WRITE : Addr = 10000294, Data = 3ef4979d
# UVM_INFO /home/khang/Documents/SystemVerilog/Soc_RV32I/SoC/VERIFICATION/Monitor/axi_monitor.sv(47) @ 8365000: uvm_test_top.env.agent.monitor [MON_WR] Detected WRITE : Addr = 10000298, Data = 25a39060
# UVM_INFO /home/khang/Documents/SystemVerilog/Soc_RV32I/SoC/VERIFICATION/Monitor/axi_monitor.sv(47) @ 8415000: uvm_test_top.env.agent.monitor [MON_WR] Detected WRITE : Addr = 1000029c, Data = 76c2b44d
# UVM_INFO /home/khang/Documents/SystemVerilog/Soc_RV32I/SoC/VERIFICATION/Monitor/axi_monitor.sv(47) @ 8465000: uvm_test_top.env.agent.monitor [MON_WR] Detected WRITE : Addr = 100002a0, Data = 0ac22906
# UVM_INFO /home/khang/Documents/SystemVerilog/Soc_RV32I/SoC/VERIFICATION/Monitor/axi_monitor.sv(47) @ 8515000: uvm_test_top.env.agent.monitor [MON_WR] Detected WRITE : Addr = 100002a4, Data = b03da247
# UVM_INFO /home/khang/Documents/SystemVerilog/Soc_RV32I/SoC/VERIFICATION/Monitor/axi_monitor.sv(47) @ 8565000: uvm_test_top.env.agent.monitor [MON_WR] Detected WRITE : Addr = 100002a8, Data = 077ec721
# UVM_INFO /home/khang/Documents/SystemVerilog/Soc_RV32I/SoC/VERIFICATION/Monitor/axi_monitor.sv(47) @ 8615000: uvm_test_top.env.agent.monitor [MON_WR] Detected WRITE : Addr = 100002ac, Data = 2d2dd7f6
# UVM_INFO /home/khang/Documents/SystemVerilog/Soc_RV32I/SoC/VERIFICATION/Monitor/axi_monitor.sv(47) @ 8665000: uvm_test_top.env.agent.monitor [MON_WR] Detected WRITE : Addr = 100002b0, Data = 27bf557d
# UVM_INFO /home/khang/Documents/SystemVerilog/Soc_RV32I/SoC/VERIFICATION/Monitor/axi_monitor.sv(47) @ 8715000: uvm_test_top.env.agent.monitor [MON_WR] Detected WRITE : Addr = 100002b4, Data = 97af498c
# UVM_INFO /home/khang/Documents/SystemVerilog/Soc_RV32I/SoC/VERIFICATION/Monitor/axi_monitor.sv(47) @ 8765000: uvm_test_top.env.agent.monitor [MON_WR] Detected WRITE : Addr = 100002b8, Data = 4d100681
# UVM_INFO /home/khang/Documents/SystemVerilog/Soc_RV32I/SoC/VERIFICATION/Monitor/axi_monitor.sv(47) @ 8815000: uvm_test_top.env.agent.monitor [MON_WR] Detected WRITE : Addr = 100002bc, Data = 8407190f
# UVM_INFO /home/khang/Documents/SystemVerilog/Soc_RV32I/SoC/VERIFICATION/Monitor/axi_monitor.sv(47) @ 8865000: uvm_test_top.env.agent.monitor [MON_WR] Detected WRITE : Addr = 100002c0, Data = 08df84cd
# UVM_INFO /home/khang/Documents/SystemVerilog/Soc_RV32I/SoC/VERIFICATION/Monitor/axi_monitor.sv(47) @ 8915000: uvm_test_top.env.agent.monitor [MON_WR] Detected WRITE : Addr = 100002c4, Data = 83d7030b
# UVM_INFO /home/khang/Documents/SystemVerilog/Soc_RV32I/SoC/VERIFICATION/Monitor/axi_monitor.sv(47) @ 8965000: uvm_test_top.env.agent.monitor [MON_WR] Detected WRITE : Addr = 100002c8, Data = 8254eb4d
# UVM_INFO /home/khang/Documents/SystemVerilog/Soc_RV32I/SoC/VERIFICATION/Monitor/axi_monitor.sv(47) @ 9015000: uvm_test_top.env.agent.monitor [MON_WR] Detected WRITE : Addr = 100002cc, Data = ee4d6679
# UVM_INFO /home/khang/Documents/SystemVerilog/Soc_RV32I/SoC/VERIFICATION/Monitor/axi_monitor.sv(47) @ 9065000: uvm_test_top.env.agent.monitor [MON_WR] Detected WRITE : Addr = 100002d0, Data = b54872c3
# UVM_INFO /home/khang/Documents/SystemVerilog/Soc_RV32I/SoC/VERIFICATION/Monitor/axi_monitor.sv(47) @ 9115000: uvm_test_top.env.agent.monitor [MON_WR] Detected WRITE : Addr = 100002d4, Data = d9352675
# UVM_INFO /home/khang/Documents/SystemVerilog/Soc_RV32I/SoC/VERIFICATION/Monitor/axi_monitor.sv(47) @ 9165000: uvm_test_top.env.agent.monitor [MON_WR] Detected WRITE : Addr = 100002d8, Data = a1b36770
# UVM_INFO /home/khang/Documents/SystemVerilog/Soc_RV32I/SoC/VERIFICATION/Monitor/axi_monitor.sv(47) @ 9215000: uvm_test_top.env.agent.monitor [MON_WR] Detected WRITE : Addr = 100002dc, Data = d50537bb
# UVM_INFO /home/khang/Documents/SystemVerilog/Soc_RV32I/SoC/VERIFICATION/Monitor/axi_monitor.sv(47) @ 9265000: uvm_test_top.env.agent.monitor [MON_WR] Detected WRITE : Addr = 100002e0, Data = bf59b4ca
# UVM_INFO /home/khang/Documents/SystemVerilog/Soc_RV32I/SoC/VERIFICATION/Monitor/axi_monitor.sv(47) @ 9315000: uvm_test_top.env.agent.monitor [MON_WR] Detected WRITE : Addr = 100002e4, Data = 8543fa05
# UVM_INFO /home/khang/Documents/SystemVerilog/Soc_RV32I/SoC/VERIFICATION/Monitor/axi_monitor.sv(47) @ 9365000: uvm_test_top.env.agent.monitor [MON_WR] Detected WRITE : Addr = 100002e8, Data = b3fe4b78
# UVM_INFO /home/khang/Documents/SystemVerilog/Soc_RV32I/SoC/VERIFICATION/Monitor/axi_monitor.sv(47) @ 9415000: uvm_test_top.env.agent.monitor [MON_WR] Detected WRITE : Addr = 100002ec, Data = 2ba2c2f3
# UVM_INFO /home/khang/Documents/SystemVerilog/Soc_RV32I/SoC/VERIFICATION/Monitor/axi_monitor.sv(47) @ 9465000: uvm_test_top.env.agent.monitor [MON_WR] Detected WRITE : Addr = 100002f0, Data = 5d8937e5
# UVM_INFO /home/khang/Documents/SystemVerilog/Soc_RV32I/SoC/VERIFICATION/Monitor/axi_monitor.sv(47) @ 9515000: uvm_test_top.env.agent.monitor [MON_WR] Detected WRITE : Addr = 100002f4, Data = c51c4aaa
# UVM_INFO /home/khang/Documents/SystemVerilog/Soc_RV32I/SoC/VERIFICATION/Monitor/axi_monitor.sv(47) @ 9565000: uvm_test_top.env.agent.monitor [MON_WR] Detected WRITE : Addr = 100002f8, Data = 846d943c
# UVM_INFO /home/khang/Documents/SystemVerilog/Soc_RV32I/SoC/VERIFICATION/Monitor/axi_monitor.sv(47) @ 9615000: uvm_test_top.env.agent.monitor [MON_WR] Detected WRITE : Addr = 100002fc, Data = 9575e401
# UVM_INFO /home/khang/Documents/SystemVerilog/Soc_RV32I/SoC/VERIFICATION/Monitor/axi_monitor.sv(47) @ 9665000: uvm_test_top.env.agent.monitor [MON_WR] Detected WRITE : Addr = 10000300, Data = 9c4fc977
# UVM_INFO /home/khang/Documents/SystemVerilog/Soc_RV32I/SoC/VERIFICATION/Monitor/axi_monitor.sv(47) @ 9715000: uvm_test_top.env.agent.monitor [MON_WR] Detected WRITE : Addr = 10000304, Data = 08dd9ec7
# UVM_INFO /home/khang/Documents/SystemVerilog/Soc_RV32I/SoC/VERIFICATION/Monitor/axi_monitor.sv(47) @ 9765000: uvm_test_top.env.agent.monitor [MON_WR] Detected WRITE : Addr = 10000308, Data = d646d9dd
# UVM_INFO /home/khang/Documents/SystemVerilog/Soc_RV32I/SoC/VERIFICATION/Monitor/axi_monitor.sv(47) @ 9815000: uvm_test_top.env.agent.monitor [MON_WR] Detected WRITE : Addr = 1000030c, Data = ab7356db
# UVM_INFO /home/khang/Documents/SystemVerilog/Soc_RV32I/SoC/VERIFICATION/Monitor/axi_monitor.sv(47) @ 9865000: uvm_test_top.env.agent.monitor [MON_WR] Detected WRITE : Addr = 10000310, Data = 53afb1cb
# UVM_INFO /home/khang/Documents/SystemVerilog/Soc_RV32I/SoC/VERIFICATION/Monitor/axi_monitor.sv(47) @ 9915000: uvm_test_top.env.agent.monitor [MON_WR] Detected WRITE : Addr = 10000314, Data = 98f9bee6
# UVM_INFO /home/khang/Documents/SystemVerilog/Soc_RV32I/SoC/VERIFICATION/Monitor/axi_monitor.sv(47) @ 9965000: uvm_test_top.env.agent.monitor [MON_WR] Detected WRITE : Addr = 10000318, Data = 1729ba11
# UVM_INFO /home/khang/Documents/SystemVerilog/Soc_RV32I/SoC/VERIFICATION/Monitor/axi_monitor.sv(47) @ 10015000: uvm_test_top.env.agent.monitor [MON_WR] Detected WRITE : Addr = 1000031c, Data = dc6b5cd0
# UVM_INFO /home/khang/Documents/SystemVerilog/Soc_RV32I/SoC/VERIFICATION/Monitor/axi_monitor.sv(47) @ 10065000: uvm_test_top.env.agent.monitor [MON_WR] Detected WRITE : Addr = 10000320, Data = d60e701c
# UVM_INFO /home/khang/Documents/SystemVerilog/Soc_RV32I/SoC/VERIFICATION/Monitor/axi_monitor.sv(47) @ 10115000: uvm_test_top.env.agent.monitor [MON_WR] Detected WRITE : Addr = 10000324, Data = 5f0fb4d9
# UVM_INFO /home/khang/Documents/SystemVerilog/Soc_RV32I/SoC/VERIFICATION/Monitor/axi_monitor.sv(47) @ 10165000: uvm_test_top.env.agent.monitor [MON_WR] Detected WRITE : Addr = 10000328, Data = aefe7499
# UVM_INFO /home/khang/Documents/SystemVerilog/Soc_RV32I/SoC/VERIFICATION/Monitor/axi_monitor.sv(47) @ 10215000: uvm_test_top.env.agent.monitor [MON_WR] Detected WRITE : Addr = 1000032c, Data = c856fed9
# UVM_INFO /home/khang/Documents/SystemVerilog/Soc_RV32I/SoC/VERIFICATION/Monitor/axi_monitor.sv(47) @ 10265000: uvm_test_top.env.agent.monitor [MON_WR] Detected WRITE : Addr = 10000330, Data = 65d6c3b8
# UVM_INFO /home/khang/Documents/SystemVerilog/Soc_RV32I/SoC/VERIFICATION/Monitor/axi_monitor.sv(47) @ 10315000: uvm_test_top.env.agent.monitor [MON_WR] Detected WRITE : Addr = 10000334, Data = dbb3f534
# UVM_INFO /home/khang/Documents/SystemVerilog/Soc_RV32I/SoC/VERIFICATION/Monitor/axi_monitor.sv(47) @ 10365000: uvm_test_top.env.agent.monitor [MON_WR] Detected WRITE : Addr = 10000338, Data = 92fab314
# UVM_INFO /home/khang/Documents/SystemVerilog/Soc_RV32I/SoC/VERIFICATION/Monitor/axi_monitor.sv(47) @ 10415000: uvm_test_top.env.agent.monitor [MON_WR] Detected WRITE : Addr = 1000033c, Data = 23d2c72d
# UVM_INFO /home/khang/Documents/SystemVerilog/Soc_RV32I/SoC/VERIFICATION/Monitor/axi_monitor.sv(47) @ 10465000: uvm_test_top.env.agent.monitor [MON_WR] Detected WRITE : Addr = 10000340, Data = 43f738e4
# UVM_INFO /home/khang/Documents/SystemVerilog/Soc_RV32I/SoC/VERIFICATION/Monitor/axi_monitor.sv(47) @ 10515000: uvm_test_top.env.agent.monitor [MON_WR] Detected WRITE : Addr = 10000344, Data = 50333218
# UVM_INFO /home/khang/Documents/SystemVerilog/Soc_RV32I/SoC/VERIFICATION/Monitor/axi_monitor.sv(47) @ 10565000: uvm_test_top.env.agent.monitor [MON_WR] Detected WRITE : Addr = 10000348, Data = 650a1110
# UVM_INFO /home/khang/Documents/SystemVerilog/Soc_RV32I/SoC/VERIFICATION/Monitor/axi_monitor.sv(47) @ 10615000: uvm_test_top.env.agent.monitor [MON_WR] Detected WRITE : Addr = 1000034c, Data = 396e6a53
# UVM_INFO /home/khang/Documents/SystemVerilog/Soc_RV32I/SoC/VERIFICATION/Monitor/axi_monitor.sv(47) @ 10665000: uvm_test_top.env.agent.monitor [MON_WR] Detected WRITE : Addr = 10000350, Data = f545d3a8
# UVM_INFO /home/khang/Documents/SystemVerilog/Soc_RV32I/SoC/VERIFICATION/Monitor/axi_monitor.sv(47) @ 10715000: uvm_test_top.env.agent.monitor [MON_WR] Detected WRITE : Addr = 10000354, Data = 88bdae4d
# UVM_INFO /home/khang/Documents/SystemVerilog/Soc_RV32I/SoC/VERIFICATION/Monitor/axi_monitor.sv(47) @ 10765000: uvm_test_top.env.agent.monitor [MON_WR] Detected WRITE : Addr = 10000358, Data = bfb056da
# UVM_INFO /home/khang/Documents/SystemVerilog/Soc_RV32I/SoC/VERIFICATION/Monitor/axi_monitor.sv(47) @ 10815000: uvm_test_top.env.agent.monitor [MON_WR] Detected WRITE : Addr = 1000035c, Data = be8a9d51
# UVM_INFO /home/khang/Documents/SystemVerilog/Soc_RV32I/SoC/VERIFICATION/Monitor/axi_monitor.sv(47) @ 10865000: uvm_test_top.env.agent.monitor [MON_WR] Detected WRITE : Addr = 10000360, Data = 4e95f47f
# UVM_INFO /home/khang/Documents/SystemVerilog/Soc_RV32I/SoC/VERIFICATION/Monitor/axi_monitor.sv(47) @ 10915000: uvm_test_top.env.agent.monitor [MON_WR] Detected WRITE : Addr = 10000364, Data = 3362ebd8
# UVM_INFO /home/khang/Documents/SystemVerilog/Soc_RV32I/SoC/VERIFICATION/Monitor/axi_monitor.sv(47) @ 10965000: uvm_test_top.env.agent.monitor [MON_WR] Detected WRITE : Addr = 10000368, Data = c4b8761e
# UVM_INFO /home/khang/Documents/SystemVerilog/Soc_RV32I/SoC/VERIFICATION/Monitor/axi_monitor.sv(47) @ 11015000: uvm_test_top.env.agent.monitor [MON_WR] Detected WRITE : Addr = 1000036c, Data = 4d5f98b3
# UVM_INFO /home/khang/Documents/SystemVerilog/Soc_RV32I/SoC/VERIFICATION/Monitor/axi_monitor.sv(47) @ 11065000: uvm_test_top.env.agent.monitor [MON_WR] Detected WRITE : Addr = 10000370, Data = efaa8943
# UVM_INFO /home/khang/Documents/SystemVerilog/Soc_RV32I/SoC/VERIFICATION/Monitor/axi_monitor.sv(47) @ 11115000: uvm_test_top.env.agent.monitor [MON_WR] Detected WRITE : Addr = 10000374, Data = c9efd680
# UVM_INFO /home/khang/Documents/SystemVerilog/Soc_RV32I/SoC/VERIFICATION/Monitor/axi_monitor.sv(47) @ 11165000: uvm_test_top.env.agent.monitor [MON_WR] Detected WRITE : Addr = 10000378, Data = f0d1c539
# UVM_INFO /home/khang/Documents/SystemVerilog/Soc_RV32I/SoC/VERIFICATION/Monitor/axi_monitor.sv(47) @ 11215000: uvm_test_top.env.agent.monitor [MON_WR] Detected WRITE : Addr = 1000037c, Data = eb391884
# UVM_INFO /home/khang/Documents/SystemVerilog/Soc_RV32I/SoC/VERIFICATION/Monitor/axi_monitor.sv(47) @ 11265000: uvm_test_top.env.agent.monitor [MON_WR] Detected WRITE : Addr = 10000380, Data = dea9b3e3
# UVM_INFO /home/khang/Documents/SystemVerilog/Soc_RV32I/SoC/VERIFICATION/Monitor/axi_monitor.sv(47) @ 11315000: uvm_test_top.env.agent.monitor [MON_WR] Detected WRITE : Addr = 10000384, Data = f4d11686
# UVM_INFO /home/khang/Documents/SystemVerilog/Soc_RV32I/SoC/VERIFICATION/Monitor/axi_monitor.sv(47) @ 11365000: uvm_test_top.env.agent.monitor [MON_WR] Detected WRITE : Addr = 10000388, Data = fddbda95
# UVM_INFO /home/khang/Documents/SystemVerilog/Soc_RV32I/SoC/VERIFICATION/Monitor/axi_monitor.sv(47) @ 11415000: uvm_test_top.env.agent.monitor [MON_WR] Detected WRITE : Addr = 1000038c, Data = 3edbb465
# UVM_INFO /home/khang/Documents/SystemVerilog/Soc_RV32I/SoC/VERIFICATION/Monitor/axi_monitor.sv(47) @ 11465000: uvm_test_top.env.agent.monitor [MON_WR] Detected WRITE : Addr = 10000390, Data = 2dd2718e
# UVM_INFO /home/khang/Documents/SystemVerilog/Soc_RV32I/SoC/VERIFICATION/Monitor/axi_monitor.sv(47) @ 11515000: uvm_test_top.env.agent.monitor [MON_WR] Detected WRITE : Addr = 10000394, Data = 1899d174
# UVM_INFO /home/khang/Documents/SystemVerilog/Soc_RV32I/SoC/VERIFICATION/Monitor/axi_monitor.sv(47) @ 11565000: uvm_test_top.env.agent.monitor [MON_WR] Detected WRITE : Addr = 10000398, Data = 38f2fb14
# UVM_INFO /home/khang/Documents/SystemVerilog/Soc_RV32I/SoC/VERIFICATION/Monitor/axi_monitor.sv(47) @ 11615000: uvm_test_top.env.agent.monitor [MON_WR] Detected WRITE : Addr = 1000039c, Data = 8076a93c
# UVM_INFO /home/khang/Documents/SystemVerilog/Soc_RV32I/SoC/VERIFICATION/Monitor/axi_monitor.sv(47) @ 11665000: uvm_test_top.env.agent.monitor [MON_WR] Detected WRITE : Addr = 100003a0, Data = c2c9a57e
# UVM_INFO /home/khang/Documents/SystemVerilog/Soc_RV32I/SoC/VERIFICATION/Monitor/axi_monitor.sv(47) @ 11715000: uvm_test_top.env.agent.monitor [MON_WR] Detected WRITE : Addr = 100003a4, Data = 4553700a
# UVM_INFO /home/khang/Documents/SystemVerilog/Soc_RV32I/SoC/VERIFICATION/Monitor/axi_monitor.sv(47) @ 11765000: uvm_test_top.env.agent.monitor [MON_WR] Detected WRITE : Addr = 100003a8, Data = d5835b01
# UVM_INFO /home/khang/Documents/SystemVerilog/Soc_RV32I/SoC/VERIFICATION/Monitor/axi_monitor.sv(47) @ 11815000: uvm_test_top.env.agent.monitor [MON_WR] Detected WRITE : Addr = 100003ac, Data = de72ee6b
# UVM_INFO /home/khang/Documents/SystemVerilog/Soc_RV32I/SoC/VERIFICATION/Monitor/axi_monitor.sv(47) @ 11865000: uvm_test_top.env.agent.monitor [MON_WR] Detected WRITE : Addr = 100003b0, Data = ff0bc633
# UVM_INFO /home/khang/Documents/SystemVerilog/Soc_RV32I/SoC/VERIFICATION/Monitor/axi_monitor.sv(47) @ 11915000: uvm_test_top.env.agent.monitor [MON_WR] Detected WRITE : Addr = 100003b4, Data = 2ce9a8ac
# UVM_INFO /home/khang/Documents/SystemVerilog/Soc_RV32I/SoC/VERIFICATION/Monitor/axi_monitor.sv(47) @ 11965000: uvm_test_top.env.agent.monitor [MON_WR] Detected WRITE : Addr = 100003b8, Data = fe902767
# UVM_INFO /home/khang/Documents/SystemVerilog/Soc_RV32I/SoC/VERIFICATION/Monitor/axi_monitor.sv(47) @ 12015000: uvm_test_top.env.agent.monitor [MON_WR] Detected WRITE : Addr = 100003bc, Data = 6d5773e1
# UVM_INFO /home/khang/Documents/SystemVerilog/Soc_RV32I/SoC/VERIFICATION/Monitor/axi_monitor.sv(47) @ 12065000: uvm_test_top.env.agent.monitor [MON_WR] Detected WRITE : Addr = 100003c0, Data = 57102523
# UVM_INFO /home/khang/Documents/SystemVerilog/Soc_RV32I/SoC/VERIFICATION/Monitor/axi_monitor.sv(47) @ 12115000: uvm_test_top.env.agent.monitor [MON_WR] Detected WRITE : Addr = 100003c4, Data = d5e4cd78
# UVM_INFO /home/khang/Documents/SystemVerilog/Soc_RV32I/SoC/VERIFICATION/Monitor/axi_monitor.sv(47) @ 12165000: uvm_test_top.env.agent.monitor [MON_WR] Detected WRITE : Addr = 100003c8, Data = 7cdddcb0
# UVM_INFO /home/khang/Documents/SystemVerilog/Soc_RV32I/SoC/VERIFICATION/Monitor/axi_monitor.sv(47) @ 12215000: uvm_test_top.env.agent.monitor [MON_WR] Detected WRITE : Addr = 100003cc, Data = 6b831409
# UVM_INFO /home/khang/Documents/SystemVerilog/Soc_RV32I/SoC/VERIFICATION/Monitor/axi_monitor.sv(47) @ 12265000: uvm_test_top.env.agent.monitor [MON_WR] Detected WRITE : Addr = 100003d0, Data = 9565053f
# UVM_INFO /home/khang/Documents/SystemVerilog/Soc_RV32I/SoC/VERIFICATION/Monitor/axi_monitor.sv(47) @ 12315000: uvm_test_top.env.agent.monitor [MON_WR] Detected WRITE : Addr = 100003d4, Data = 3ed54e27
# UVM_INFO /home/khang/Documents/SystemVerilog/Soc_RV32I/SoC/VERIFICATION/Monitor/axi_monitor.sv(47) @ 12365000: uvm_test_top.env.agent.monitor [MON_WR] Detected WRITE : Addr = 100003d8, Data = d4ccc7f2
# UVM_INFO /home/khang/Documents/SystemVerilog/Soc_RV32I/SoC/VERIFICATION/Monitor/axi_monitor.sv(47) @ 12415000: uvm_test_top.env.agent.monitor [MON_WR] Detected WRITE : Addr = 100003dc, Data = 770a1e8c
# UVM_INFO /home/khang/Documents/SystemVerilog/Soc_RV32I/SoC/VERIFICATION/Monitor/axi_monitor.sv(47) @ 12465000: uvm_test_top.env.agent.monitor [MON_WR] Detected WRITE : Addr = 100003e0, Data = b12235a3
# UVM_INFO /home/khang/Documents/SystemVerilog/Soc_RV32I/SoC/VERIFICATION/Monitor/axi_monitor.sv(47) @ 12515000: uvm_test_top.env.agent.monitor [MON_WR] Detected WRITE : Addr = 100003e4, Data = f08c0af8
# UVM_INFO /home/khang/Documents/SystemVerilog/Soc_RV32I/SoC/VERIFICATION/Monitor/axi_monitor.sv(47) @ 12565000: uvm_test_top.env.agent.monitor [MON_WR] Detected WRITE : Addr = 100003e8, Data = caa1453d
# UVM_INFO /home/khang/Documents/SystemVerilog/Soc_RV32I/SoC/VERIFICATION/Monitor/axi_monitor.sv(47) @ 12615000: uvm_test_top.env.agent.monitor [MON_WR] Detected WRITE : Addr = 100003ec, Data = 972aebab
# UVM_INFO /home/khang/Documents/SystemVerilog/Soc_RV32I/SoC/VERIFICATION/Monitor/axi_monitor.sv(47) @ 12665000: uvm_test_top.env.agent.monitor [MON_WR] Detected WRITE : Addr = 100003f0, Data = b7efe666
# UVM_INFO /home/khang/Documents/SystemVerilog/Soc_RV32I/SoC/VERIFICATION/Monitor/axi_monitor.sv(47) @ 12715000: uvm_test_top.env.agent.monitor [MON_WR] Detected WRITE : Addr = 100003f4, Data = 6975b80f
# UVM_INFO /home/khang/Documents/SystemVerilog/Soc_RV32I/SoC/VERIFICATION/Monitor/axi_monitor.sv(47) @ 12765000: uvm_test_top.env.agent.monitor [MON_WR] Detected WRITE : Addr = 100003f8, Data = 60da5de0
# UVM_INFO /home/khang/Documents/SystemVerilog/Soc_RV32I/SoC/VERIFICATION/Monitor/axi_monitor.sv(47) @ 12815000: uvm_test_top.env.agent.monitor [MON_WR] Detected WRITE : Addr = 100003fc, Data = 966aba0b
# UVM_INFO /home/khang/Documents/SystemVerilog/Soc_RV32I/SoC/VERIFICATION/Monitor/axi_monitor.sv(67) @ 12865000: uvm_test_top.env.agent.monitor [MON_RD] Deteced READ : Addr = 10000000, Data = 244d92a7
# UVM_INFO /home/khang/Documents/SystemVerilog/Soc_RV32I/SoC/VERIFICATION/Scoreboard/axi_scoreboard.sv(49) @ 12865000: uvm_test_top.env.scoreboard [SCB_PASS] [DRAM] PASS Addr=10000000 Expected=244d92a7 Got=244d92a7
# UVM_INFO /home/khang/Documents/SystemVerilog/Soc_RV32I/SoC/VERIFICATION/Monitor/axi_monitor.sv(67) @ 12915000: uvm_test_top.env.agent.monitor [MON_RD] Deteced READ : Addr = 10000004, Data = 175e8081
# UVM_INFO /home/khang/Documents/SystemVerilog/Soc_RV32I/SoC/VERIFICATION/Scoreboard/axi_scoreboard.sv(49) @ 12915000: uvm_test_top.env.scoreboard [SCB_PASS] [DRAM] PASS Addr=10000004 Expected=175e8081 Got=175e8081
# UVM_INFO /home/khang/Documents/SystemVerilog/Soc_RV32I/SoC/VERIFICATION/Monitor/axi_monitor.sv(67) @ 12965000: uvm_test_top.env.agent.monitor [MON_RD] Deteced READ : Addr = 10000008, Data = acf35035
# UVM_INFO /home/khang/Documents/SystemVerilog/Soc_RV32I/SoC/VERIFICATION/Scoreboard/axi_scoreboard.sv(49) @ 12965000: uvm_test_top.env.scoreboard [SCB_PASS] [DRAM] PASS Addr=10000008 Expected=acf35035 Got=acf35035
# UVM_INFO /home/khang/Documents/SystemVerilog/Soc_RV32I/SoC/VERIFICATION/Monitor/axi_monitor.sv(67) @ 13015000: uvm_test_top.env.agent.monitor [MON_RD] Deteced READ : Addr = 1000000c, Data = 810200bb
# UVM_INFO /home/khang/Documents/SystemVerilog/Soc_RV32I/SoC/VERIFICATION/Scoreboard/axi_scoreboard.sv(49) @ 13015000: uvm_test_top.env.scoreboard [SCB_PASS] [DRAM] PASS Addr=1000000c Expected=810200bb Got=810200bb
# UVM_INFO /home/khang/Documents/SystemVerilog/Soc_RV32I/SoC/VERIFICATION/Monitor/axi_monitor.sv(67) @ 13065000: uvm_test_top.env.agent.monitor [MON_RD] Deteced READ : Addr = 10000010, Data = dea2898c
# UVM_INFO /home/khang/Documents/SystemVerilog/Soc_RV32I/SoC/VERIFICATION/Scoreboard/axi_scoreboard.sv(49) @ 13065000: uvm_test_top.env.scoreboard [SCB_PASS] [DRAM] PASS Addr=10000010 Expected=dea2898c Got=dea2898c
# UVM_INFO /home/khang/Documents/SystemVerilog/Soc_RV32I/SoC/VERIFICATION/Monitor/axi_monitor.sv(67) @ 13115000: uvm_test_top.env.agent.monitor [MON_RD] Deteced READ : Addr = 10000014, Data = e5ecee67
# UVM_INFO /home/khang/Documents/SystemVerilog/Soc_RV32I/SoC/VERIFICATION/Scoreboard/axi_scoreboard.sv(49) @ 13115000: uvm_test_top.env.scoreboard [SCB_PASS] [DRAM] PASS Addr=10000014 Expected=e5ecee67 Got=e5ecee67
# UVM_INFO /home/khang/Documents/SystemVerilog/Soc_RV32I/SoC/VERIFICATION/Monitor/axi_monitor.sv(67) @ 13165000: uvm_test_top.env.agent.monitor [MON_RD] Deteced READ : Addr = 10000018, Data = 960cf76d
# UVM_INFO /home/khang/Documents/SystemVerilog/Soc_RV32I/SoC/VERIFICATION/Scoreboard/axi_scoreboard.sv(49) @ 13165000: uvm_test_top.env.scoreboard [SCB_PASS] [DRAM] PASS Addr=10000018 Expected=960cf76d Got=960cf76d
# UVM_INFO /home/khang/Documents/SystemVerilog/Soc_RV32I/SoC/VERIFICATION/Monitor/axi_monitor.sv(67) @ 13215000: uvm_test_top.env.agent.monitor [MON_RD] Deteced READ : Addr = 1000001c, Data = 78fcd9a8
# UVM_INFO /home/khang/Documents/SystemVerilog/Soc_RV32I/SoC/VERIFICATION/Scoreboard/axi_scoreboard.sv(49) @ 13215000: uvm_test_top.env.scoreboard [SCB_PASS] [DRAM] PASS Addr=1000001c Expected=78fcd9a8 Got=78fcd9a8
# UVM_INFO /home/khang/Documents/SystemVerilog/Soc_RV32I/SoC/VERIFICATION/Monitor/axi_monitor.sv(67) @ 13265000: uvm_test_top.env.agent.monitor [MON_RD] Deteced READ : Addr = 10000020, Data = b82afa7f
# UVM_INFO /home/khang/Documents/SystemVerilog/Soc_RV32I/SoC/VERIFICATION/Scoreboard/axi_scoreboard.sv(49) @ 13265000: uvm_test_top.env.scoreboard [SCB_PASS] [DRAM] PASS Addr=10000020 Expected=b82afa7f Got=b82afa7f
# UVM_INFO /home/khang/Documents/SystemVerilog/Soc_RV32I/SoC/VERIFICATION/Monitor/axi_monitor.sv(67) @ 13315000: uvm_test_top.env.agent.monitor [MON_RD] Deteced READ : Addr = 10000024, Data = 043bc4c3
# UVM_INFO /home/khang/Documents/SystemVerilog/Soc_RV32I/SoC/VERIFICATION/Scoreboard/axi_scoreboard.sv(49) @ 13315000: uvm_test_top.env.scoreboard [SCB_PASS] [DRAM] PASS Addr=10000024 Expected=043bc4c3 Got=043bc4c3
# UVM_INFO /home/khang/Documents/SystemVerilog/Soc_RV32I/SoC/VERIFICATION/Monitor/axi_monitor.sv(67) @ 13365000: uvm_test_top.env.agent.monitor [MON_RD] Deteced READ : Addr = 10000028, Data = 5495726e
# UVM_INFO /home/khang/Documents/SystemVerilog/Soc_RV32I/SoC/VERIFICATION/Scoreboard/axi_scoreboard.sv(49) @ 13365000: uvm_test_top.env.scoreboard [SCB_PASS] [DRAM] PASS Addr=10000028 Expected=5495726e Got=5495726e
# UVM_INFO /home/khang/Documents/SystemVerilog/Soc_RV32I/SoC/VERIFICATION/Monitor/axi_monitor.sv(67) @ 13415000: uvm_test_top.env.agent.monitor [MON_RD] Deteced READ : Addr = 1000002c, Data = 6aee576f
# UVM_INFO /home/khang/Documents/SystemVerilog/Soc_RV32I/SoC/VERIFICATION/Scoreboard/axi_scoreboard.sv(49) @ 13415000: uvm_test_top.env.scoreboard [SCB_PASS] [DRAM] PASS Addr=1000002c Expected=6aee576f Got=6aee576f
# UVM_INFO /home/khang/Documents/SystemVerilog/Soc_RV32I/SoC/VERIFICATION/Monitor/axi_monitor.sv(67) @ 13465000: uvm_test_top.env.agent.monitor [MON_RD] Deteced READ : Addr = 10000030, Data = 3b13dd8e
# UVM_INFO /home/khang/Documents/SystemVerilog/Soc_RV32I/SoC/VERIFICATION/Scoreboard/axi_scoreboard.sv(49) @ 13465000: uvm_test_top.env.scoreboard [SCB_PASS] [DRAM] PASS Addr=10000030 Expected=3b13dd8e Got=3b13dd8e
# UVM_INFO /home/khang/Documents/SystemVerilog/Soc_RV32I/SoC/VERIFICATION/Monitor/axi_monitor.sv(67) @ 13515000: uvm_test_top.env.agent.monitor [MON_RD] Deteced READ : Addr = 10000034, Data = 612f20ca
# UVM_INFO /home/khang/Documents/SystemVerilog/Soc_RV32I/SoC/VERIFICATION/Scoreboard/axi_scoreboard.sv(49) @ 13515000: uvm_test_top.env.scoreboard [SCB_PASS] [DRAM] PASS Addr=10000034 Expected=612f20ca Got=612f20ca
# UVM_INFO /home/khang/Documents/SystemVerilog/Soc_RV32I/SoC/VERIFICATION/Monitor/axi_monitor.sv(67) @ 13565000: uvm_test_top.env.agent.monitor [MON_RD] Deteced READ : Addr = 10000038, Data = 3b4a1434
# UVM_INFO /home/khang/Documents/SystemVerilog/Soc_RV32I/SoC/VERIFICATION/Scoreboard/axi_scoreboard.sv(49) @ 13565000: uvm_test_top.env.scoreboard [SCB_PASS] [DRAM] PASS Addr=10000038 Expected=3b4a1434 Got=3b4a1434
# UVM_INFO /home/khang/Documents/SystemVerilog/Soc_RV32I/SoC/VERIFICATION/Monitor/axi_monitor.sv(67) @ 13615000: uvm_test_top.env.agent.monitor [MON_RD] Deteced READ : Addr = 1000003c, Data = a9faf686
# UVM_INFO /home/khang/Documents/SystemVerilog/Soc_RV32I/SoC/VERIFICATION/Scoreboard/axi_scoreboard.sv(49) @ 13615000: uvm_test_top.env.scoreboard [SCB_PASS] [DRAM] PASS Addr=1000003c Expected=a9faf686 Got=a9faf686
# UVM_INFO /home/khang/Documents/SystemVerilog/Soc_RV32I/SoC/VERIFICATION/Monitor/axi_monitor.sv(67) @ 13665000: uvm_test_top.env.agent.monitor [MON_RD] Deteced READ : Addr = 10000040, Data = 25bd0bdb
# UVM_INFO /home/khang/Documents/SystemVerilog/Soc_RV32I/SoC/VERIFICATION/Scoreboard/axi_scoreboard.sv(49) @ 13665000: uvm_test_top.env.scoreboard [SCB_PASS] [DRAM] PASS Addr=10000040 Expected=25bd0bdb Got=25bd0bdb
# UVM_INFO /home/khang/Documents/SystemVerilog/Soc_RV32I/SoC/VERIFICATION/Monitor/axi_monitor.sv(67) @ 13715000: uvm_test_top.env.agent.monitor [MON_RD] Deteced READ : Addr = 10000044, Data = 31351b4b
# UVM_INFO /home/khang/Documents/SystemVerilog/Soc_RV32I/SoC/VERIFICATION/Scoreboard/axi_scoreboard.sv(49) @ 13715000: uvm_test_top.env.scoreboard [SCB_PASS] [DRAM] PASS Addr=10000044 Expected=31351b4b Got=31351b4b
# UVM_INFO /home/khang/Documents/SystemVerilog/Soc_RV32I/SoC/VERIFICATION/Monitor/axi_monitor.sv(67) @ 13765000: uvm_test_top.env.agent.monitor [MON_RD] Deteced READ : Addr = 10000048, Data = 8dc45c6d
# UVM_INFO /home/khang/Documents/SystemVerilog/Soc_RV32I/SoC/VERIFICATION/Scoreboard/axi_scoreboard.sv(49) @ 13765000: uvm_test_top.env.scoreboard [SCB_PASS] [DRAM] PASS Addr=10000048 Expected=8dc45c6d Got=8dc45c6d
# UVM_INFO /home/khang/Documents/SystemVerilog/Soc_RV32I/SoC/VERIFICATION/Monitor/axi_monitor.sv(67) @ 13815000: uvm_test_top.env.agent.monitor [MON_RD] Deteced READ : Addr = 1000004c, Data = 9e804c41
# UVM_INFO /home/khang/Documents/SystemVerilog/Soc_RV32I/SoC/VERIFICATION/Scoreboard/axi_scoreboard.sv(49) @ 13815000: uvm_test_top.env.scoreboard [SCB_PASS] [DRAM] PASS Addr=1000004c Expected=9e804c41 Got=9e804c41
# UVM_INFO /home/khang/Documents/SystemVerilog/Soc_RV32I/SoC/VERIFICATION/Monitor/axi_monitor.sv(67) @ 13865000: uvm_test_top.env.agent.monitor [MON_RD] Deteced READ : Addr = 10000050, Data = c460eff3
# UVM_INFO /home/khang/Documents/SystemVerilog/Soc_RV32I/SoC/VERIFICATION/Scoreboard/axi_scoreboard.sv(49) @ 13865000: uvm_test_top.env.scoreboard [SCB_PASS] [DRAM] PASS Addr=10000050 Expected=c460eff3 Got=c460eff3
# UVM_INFO /home/khang/Documents/SystemVerilog/Soc_RV32I/SoC/VERIFICATION/Monitor/axi_monitor.sv(67) @ 13915000: uvm_test_top.env.agent.monitor [MON_RD] Deteced READ : Addr = 10000054, Data = 4b445176
# UVM_INFO /home/khang/Documents/SystemVerilog/Soc_RV32I/SoC/VERIFICATION/Scoreboard/axi_scoreboard.sv(49) @ 13915000: uvm_test_top.env.scoreboard [SCB_PASS] [DRAM] PASS Addr=10000054 Expected=4b445176 Got=4b445176
# UVM_INFO /home/khang/Documents/SystemVerilog/Soc_RV32I/SoC/VERIFICATION/Monitor/axi_monitor.sv(67) @ 13965000: uvm_test_top.env.agent.monitor [MON_RD] Deteced READ : Addr = 10000058, Data = cc7a1153
# UVM_INFO /home/khang/Documents/SystemVerilog/Soc_RV32I/SoC/VERIFICATION/Scoreboard/axi_scoreboard.sv(49) @ 13965000: uvm_test_top.env.scoreboard [SCB_PASS] [DRAM] PASS Addr=10000058 Expected=cc7a1153 Got=cc7a1153
# UVM_INFO /home/khang/Documents/SystemVerilog/Soc_RV32I/SoC/VERIFICATION/Monitor/axi_monitor.sv(67) @ 14015000: uvm_test_top.env.agent.monitor [MON_RD] Deteced READ : Addr = 1000005c, Data = 5be18ee1
# UVM_INFO /home/khang/Documents/SystemVerilog/Soc_RV32I/SoC/VERIFICATION/Scoreboard/axi_scoreboard.sv(49) @ 14015000: uvm_test_top.env.scoreboard [SCB_PASS] [DRAM] PASS Addr=1000005c Expected=5be18ee1 Got=5be18ee1
# UVM_INFO /home/khang/Documents/SystemVerilog/Soc_RV32I/SoC/VERIFICATION/Monitor/axi_monitor.sv(67) @ 14065000: uvm_test_top.env.agent.monitor [MON_RD] Deteced READ : Addr = 10000060, Data = e2210c89
# UVM_INFO /home/khang/Documents/SystemVerilog/Soc_RV32I/SoC/VERIFICATION/Scoreboard/axi_scoreboard.sv(49) @ 14065000: uvm_test_top.env.scoreboard [SCB_PASS] [DRAM] PASS Addr=10000060 Expected=e2210c89 Got=e2210c89
# UVM_INFO /home/khang/Documents/SystemVerilog/Soc_RV32I/SoC/VERIFICATION/Monitor/axi_monitor.sv(67) @ 14115000: uvm_test_top.env.agent.monitor [MON_RD] Deteced READ : Addr = 10000064, Data = 65fcadc8
# UVM_INFO /home/khang/Documents/SystemVerilog/Soc_RV32I/SoC/VERIFICATION/Scoreboard/axi_scoreboard.sv(49) @ 14115000: uvm_test_top.env.scoreboard [SCB_PASS] [DRAM] PASS Addr=10000064 Expected=65fcadc8 Got=65fcadc8
# UVM_INFO /home/khang/Documents/SystemVerilog/Soc_RV32I/SoC/VERIFICATION/Monitor/axi_monitor.sv(67) @ 14165000: uvm_test_top.env.agent.monitor [MON_RD] Deteced READ : Addr = 10000068, Data = 1706444e
# UVM_INFO /home/khang/Documents/SystemVerilog/Soc_RV32I/SoC/VERIFICATION/Scoreboard/axi_scoreboard.sv(49) @ 14165000: uvm_test_top.env.scoreboard [SCB_PASS] [DRAM] PASS Addr=10000068 Expected=1706444e Got=1706444e
# UVM_INFO /home/khang/Documents/SystemVerilog/Soc_RV32I/SoC/VERIFICATION/Monitor/axi_monitor.sv(67) @ 14215000: uvm_test_top.env.agent.monitor [MON_RD] Deteced READ : Addr = 1000006c, Data = f49f2295
# UVM_INFO /home/khang/Documents/SystemVerilog/Soc_RV32I/SoC/VERIFICATION/Scoreboard/axi_scoreboard.sv(49) @ 14215000: uvm_test_top.env.scoreboard [SCB_PASS] [DRAM] PASS Addr=1000006c Expected=f49f2295 Got=f49f2295
# UVM_INFO /home/khang/Documents/SystemVerilog/Soc_RV32I/SoC/VERIFICATION/Monitor/axi_monitor.sv(67) @ 14265000: uvm_test_top.env.agent.monitor [MON_RD] Deteced READ : Addr = 10000070, Data = 40aff1af
# UVM_INFO /home/khang/Documents/SystemVerilog/Soc_RV32I/SoC/VERIFICATION/Scoreboard/axi_scoreboard.sv(49) @ 14265000: uvm_test_top.env.scoreboard [SCB_PASS] [DRAM] PASS Addr=10000070 Expected=40aff1af Got=40aff1af
# UVM_INFO /home/khang/Documents/SystemVerilog/Soc_RV32I/SoC/VERIFICATION/Monitor/axi_monitor.sv(67) @ 14315000: uvm_test_top.env.agent.monitor [MON_RD] Deteced READ : Addr = 10000074, Data = 6909e7f5
# UVM_INFO /home/khang/Documents/SystemVerilog/Soc_RV32I/SoC/VERIFICATION/Scoreboard/axi_scoreboard.sv(49) @ 14315000: uvm_test_top.env.scoreboard [SCB_PASS] [DRAM] PASS Addr=10000074 Expected=6909e7f5 Got=6909e7f5
# UVM_INFO /home/khang/Documents/SystemVerilog/Soc_RV32I/SoC/VERIFICATION/Monitor/axi_monitor.sv(67) @ 14365000: uvm_test_top.env.agent.monitor [MON_RD] Deteced READ : Addr = 10000078, Data = fc6328a1
# UVM_INFO /home/khang/Documents/SystemVerilog/Soc_RV32I/SoC/VERIFICATION/Scoreboard/axi_scoreboard.sv(49) @ 14365000: uvm_test_top.env.scoreboard [SCB_PASS] [DRAM] PASS Addr=10000078 Expected=fc6328a1 Got=fc6328a1
# UVM_INFO /home/khang/Documents/SystemVerilog/Soc_RV32I/SoC/VERIFICATION/Monitor/axi_monitor.sv(67) @ 14415000: uvm_test_top.env.agent.monitor [MON_RD] Deteced READ : Addr = 1000007c, Data = 51d9470d
# UVM_INFO /home/khang/Documents/SystemVerilog/Soc_RV32I/SoC/VERIFICATION/Scoreboard/axi_scoreboard.sv(49) @ 14415000: uvm_test_top.env.scoreboard [SCB_PASS] [DRAM] PASS Addr=1000007c Expected=51d9470d Got=51d9470d
# UVM_INFO /home/khang/Documents/SystemVerilog/Soc_RV32I/SoC/VERIFICATION/Monitor/axi_monitor.sv(67) @ 14465000: uvm_test_top.env.agent.monitor [MON_RD] Deteced READ : Addr = 10000080, Data = 2f9fac3b
# UVM_INFO /home/khang/Documents/SystemVerilog/Soc_RV32I/SoC/VERIFICATION/Scoreboard/axi_scoreboard.sv(49) @ 14465000: uvm_test_top.env.scoreboard [SCB_PASS] [DRAM] PASS Addr=10000080 Expected=2f9fac3b Got=2f9fac3b
# UVM_INFO /home/khang/Documents/SystemVerilog/Soc_RV32I/SoC/VERIFICATION/Monitor/axi_monitor.sv(67) @ 14515000: uvm_test_top.env.agent.monitor [MON_RD] Deteced READ : Addr = 10000084, Data = e9618fc6
# UVM_INFO /home/khang/Documents/SystemVerilog/Soc_RV32I/SoC/VERIFICATION/Scoreboard/axi_scoreboard.sv(49) @ 14515000: uvm_test_top.env.scoreboard [SCB_PASS] [DRAM] PASS Addr=10000084 Expected=e9618fc6 Got=e9618fc6
# UVM_INFO /home/khang/Documents/SystemVerilog/Soc_RV32I/SoC/VERIFICATION/Monitor/axi_monitor.sv(67) @ 14565000: uvm_test_top.env.agent.monitor [MON_RD] Deteced READ : Addr = 10000088, Data = 7513470a
# UVM_INFO /home/khang/Documents/SystemVerilog/Soc_RV32I/SoC/VERIFICATION/Scoreboard/axi_scoreboard.sv(49) @ 14565000: uvm_test_top.env.scoreboard [SCB_PASS] [DRAM] PASS Addr=10000088 Expected=7513470a Got=7513470a
# UVM_INFO /home/khang/Documents/SystemVerilog/Soc_RV32I/SoC/VERIFICATION/Monitor/axi_monitor.sv(67) @ 14615000: uvm_test_top.env.agent.monitor [MON_RD] Deteced READ : Addr = 1000008c, Data = 5b0fdf65
# UVM_INFO /home/khang/Documents/SystemVerilog/Soc_RV32I/SoC/VERIFICATION/Scoreboard/axi_scoreboard.sv(49) @ 14615000: uvm_test_top.env.scoreboard [SCB_PASS] [DRAM] PASS Addr=1000008c Expected=5b0fdf65 Got=5b0fdf65
# UVM_INFO /home/khang/Documents/SystemVerilog/Soc_RV32I/SoC/VERIFICATION/Monitor/axi_monitor.sv(67) @ 14665000: uvm_test_top.env.agent.monitor [MON_RD] Deteced READ : Addr = 10000090, Data = c22b14f1
# UVM_INFO /home/khang/Documents/SystemVerilog/Soc_RV32I/SoC/VERIFICATION/Scoreboard/axi_scoreboard.sv(49) @ 14665000: uvm_test_top.env.scoreboard [SCB_PASS] [DRAM] PASS Addr=10000090 Expected=c22b14f1 Got=c22b14f1
# UVM_INFO /home/khang/Documents/SystemVerilog/Soc_RV32I/SoC/VERIFICATION/Monitor/axi_monitor.sv(67) @ 14715000: uvm_test_top.env.agent.monitor [MON_RD] Deteced READ : Addr = 10000094, Data = 308beba2
# UVM_INFO /home/khang/Documents/SystemVerilog/Soc_RV32I/SoC/VERIFICATION/Scoreboard/axi_scoreboard.sv(49) @ 14715000: uvm_test_top.env.scoreboard [SCB_PASS] [DRAM] PASS Addr=10000094 Expected=308beba2 Got=308beba2
# UVM_INFO /home/khang/Documents/SystemVerilog/Soc_RV32I/SoC/VERIFICATION/Monitor/axi_monitor.sv(67) @ 14765000: uvm_test_top.env.agent.monitor [MON_RD] Deteced READ : Addr = 10000098, Data = e4b0ce68
# UVM_INFO /home/khang/Documents/SystemVerilog/Soc_RV32I/SoC/VERIFICATION/Scoreboard/axi_scoreboard.sv(49) @ 14765000: uvm_test_top.env.scoreboard [SCB_PASS] [DRAM] PASS Addr=10000098 Expected=e4b0ce68 Got=e4b0ce68
# UVM_INFO /home/khang/Documents/SystemVerilog/Soc_RV32I/SoC/VERIFICATION/Monitor/axi_monitor.sv(67) @ 14815000: uvm_test_top.env.agent.monitor [MON_RD] Deteced READ : Addr = 1000009c, Data = b75d5db1
# UVM_INFO /home/khang/Documents/SystemVerilog/Soc_RV32I/SoC/VERIFICATION/Scoreboard/axi_scoreboard.sv(49) @ 14815000: uvm_test_top.env.scoreboard [SCB_PASS] [DRAM] PASS Addr=1000009c Expected=b75d5db1 Got=b75d5db1
# UVM_INFO /home/khang/Documents/SystemVerilog/Soc_RV32I/SoC/VERIFICATION/Monitor/axi_monitor.sv(67) @ 14865000: uvm_test_top.env.agent.monitor [MON_RD] Deteced READ : Addr = 100000a0, Data = bc0c8e71
# UVM_INFO /home/khang/Documents/SystemVerilog/Soc_RV32I/SoC/VERIFICATION/Scoreboard/axi_scoreboard.sv(49) @ 14865000: uvm_test_top.env.scoreboard [SCB_PASS] [DRAM] PASS Addr=100000a0 Expected=bc0c8e71 Got=bc0c8e71
# UVM_INFO /home/khang/Documents/SystemVerilog/Soc_RV32I/SoC/VERIFICATION/Monitor/axi_monitor.sv(67) @ 14915000: uvm_test_top.env.agent.monitor [MON_RD] Deteced READ : Addr = 100000a4, Data = 08e6c691
# UVM_INFO /home/khang/Documents/SystemVerilog/Soc_RV32I/SoC/VERIFICATION/Scoreboard/axi_scoreboard.sv(49) @ 14915000: uvm_test_top.env.scoreboard [SCB_PASS] [DRAM] PASS Addr=100000a4 Expected=08e6c691 Got=08e6c691
# UVM_INFO /home/khang/Documents/SystemVerilog/Soc_RV32I/SoC/VERIFICATION/Monitor/axi_monitor.sv(67) @ 14965000: uvm_test_top.env.agent.monitor [MON_RD] Deteced READ : Addr = 100000a8, Data = 6c9583e0
# UVM_INFO /home/khang/Documents/SystemVerilog/Soc_RV32I/SoC/VERIFICATION/Scoreboard/axi_scoreboard.sv(49) @ 14965000: uvm_test_top.env.scoreboard [SCB_PASS] [DRAM] PASS Addr=100000a8 Expected=6c9583e0 Got=6c9583e0
# UVM_INFO /home/khang/Documents/SystemVerilog/Soc_RV32I/SoC/VERIFICATION/Monitor/axi_monitor.sv(67) @ 15015000: uvm_test_top.env.agent.monitor [MON_RD] Deteced READ : Addr = 100000ac, Data = b13b210a
# UVM_INFO /home/khang/Documents/SystemVerilog/Soc_RV32I/SoC/VERIFICATION/Scoreboard/axi_scoreboard.sv(49) @ 15015000: uvm_test_top.env.scoreboard [SCB_PASS] [DRAM] PASS Addr=100000ac Expected=b13b210a Got=b13b210a
# UVM_INFO /home/khang/Documents/SystemVerilog/Soc_RV32I/SoC/VERIFICATION/Monitor/axi_monitor.sv(67) @ 15065000: uvm_test_top.env.agent.monitor [MON_RD] Deteced READ : Addr = 100000b0, Data = bc073d69
# UVM_INFO /home/khang/Documents/SystemVerilog/Soc_RV32I/SoC/VERIFICATION/Scoreboard/axi_scoreboard.sv(49) @ 15065000: uvm_test_top.env.scoreboard [SCB_PASS] [DRAM] PASS Addr=100000b0 Expected=bc073d69 Got=bc073d69
# UVM_INFO /home/khang/Documents/SystemVerilog/Soc_RV32I/SoC/VERIFICATION/Monitor/axi_monitor.sv(67) @ 15115000: uvm_test_top.env.agent.monitor [MON_RD] Deteced READ : Addr = 100000b4, Data = ed91b61e
# UVM_INFO /home/khang/Documents/SystemVerilog/Soc_RV32I/SoC/VERIFICATION/Scoreboard/axi_scoreboard.sv(49) @ 15115000: uvm_test_top.env.scoreboard [SCB_PASS] [DRAM] PASS Addr=100000b4 Expected=ed91b61e Got=ed91b61e
# UVM_INFO /home/khang/Documents/SystemVerilog/Soc_RV32I/SoC/VERIFICATION/Monitor/axi_monitor.sv(67) @ 15165000: uvm_test_top.env.agent.monitor [MON_RD] Deteced READ : Addr = 100000b8, Data = 5087cd7a
# UVM_INFO /home/khang/Documents/SystemVerilog/Soc_RV32I/SoC/VERIFICATION/Scoreboard/axi_scoreboard.sv(49) @ 15165000: uvm_test_top.env.scoreboard [SCB_PASS] [DRAM] PASS Addr=100000b8 Expected=5087cd7a Got=5087cd7a
# UVM_INFO /home/khang/Documents/SystemVerilog/Soc_RV32I/SoC/VERIFICATION/Monitor/axi_monitor.sv(67) @ 15215000: uvm_test_top.env.agent.monitor [MON_RD] Deteced READ : Addr = 100000bc, Data = f7741098
# UVM_INFO /home/khang/Documents/SystemVerilog/Soc_RV32I/SoC/VERIFICATION/Scoreboard/axi_scoreboard.sv(49) @ 15215000: uvm_test_top.env.scoreboard [SCB_PASS] [DRAM] PASS Addr=100000bc Expected=f7741098 Got=f7741098
# UVM_INFO /home/khang/Documents/SystemVerilog/Soc_RV32I/SoC/VERIFICATION/Monitor/axi_monitor.sv(67) @ 15265000: uvm_test_top.env.agent.monitor [MON_RD] Deteced READ : Addr = 100000c0, Data = cdd6606a
# UVM_INFO /home/khang/Documents/SystemVerilog/Soc_RV32I/SoC/VERIFICATION/Scoreboard/axi_scoreboard.sv(49) @ 15265000: uvm_test_top.env.scoreboard [SCB_PASS] [DRAM] PASS Addr=100000c0 Expected=cdd6606a Got=cdd6606a
# UVM_INFO /home/khang/Documents/SystemVerilog/Soc_RV32I/SoC/VERIFICATION/Monitor/axi_monitor.sv(67) @ 15315000: uvm_test_top.env.agent.monitor [MON_RD] Deteced READ : Addr = 100000c4, Data = bc9bd36a
# UVM_INFO /home/khang/Documents/SystemVerilog/Soc_RV32I/SoC/VERIFICATION/Scoreboard/axi_scoreboard.sv(49) @ 15315000: uvm_test_top.env.scoreboard [SCB_PASS] [DRAM] PASS Addr=100000c4 Expected=bc9bd36a Got=bc9bd36a
# UVM_INFO /home/khang/Documents/SystemVerilog/Soc_RV32I/SoC/VERIFICATION/Monitor/axi_monitor.sv(67) @ 15365000: uvm_test_top.env.agent.monitor [MON_RD] Deteced READ : Addr = 100000c8, Data = 56e3a2de
# UVM_INFO /home/khang/Documents/SystemVerilog/Soc_RV32I/SoC/VERIFICATION/Scoreboard/axi_scoreboard.sv(49) @ 15365000: uvm_test_top.env.scoreboard [SCB_PASS] [DRAM] PASS Addr=100000c8 Expected=56e3a2de Got=56e3a2de
# UVM_INFO /home/khang/Documents/SystemVerilog/Soc_RV32I/SoC/VERIFICATION/Monitor/axi_monitor.sv(67) @ 15415000: uvm_test_top.env.agent.monitor [MON_RD] Deteced READ : Addr = 100000cc, Data = 9930a175
# UVM_INFO /home/khang/Documents/SystemVerilog/Soc_RV32I/SoC/VERIFICATION/Scoreboard/axi_scoreboard.sv(49) @ 15415000: uvm_test_top.env.scoreboard [SCB_PASS] [DRAM] PASS Addr=100000cc Expected=9930a175 Got=9930a175
# UVM_INFO /home/khang/Documents/SystemVerilog/Soc_RV32I/SoC/VERIFICATION/Monitor/axi_monitor.sv(67) @ 15465000: uvm_test_top.env.agent.monitor [MON_RD] Deteced READ : Addr = 100000d0, Data = 13856763
# UVM_INFO /home/khang/Documents/SystemVerilog/Soc_RV32I/SoC/VERIFICATION/Scoreboard/axi_scoreboard.sv(49) @ 15465000: uvm_test_top.env.scoreboard [SCB_PASS] [DRAM] PASS Addr=100000d0 Expected=13856763 Got=13856763
# UVM_INFO /home/khang/Documents/SystemVerilog/Soc_RV32I/SoC/VERIFICATION/Monitor/axi_monitor.sv(67) @ 15515000: uvm_test_top.env.agent.monitor [MON_RD] Deteced READ : Addr = 100000d4, Data = 6f0470b8
# UVM_INFO /home/khang/Documents/SystemVerilog/Soc_RV32I/SoC/VERIFICATION/Scoreboard/axi_scoreboard.sv(49) @ 15515000: uvm_test_top.env.scoreboard [SCB_PASS] [DRAM] PASS Addr=100000d4 Expected=6f0470b8 Got=6f0470b8
# UVM_INFO /home/khang/Documents/SystemVerilog/Soc_RV32I/SoC/VERIFICATION/Monitor/axi_monitor.sv(67) @ 15565000: uvm_test_top.env.agent.monitor [MON_RD] Deteced READ : Addr = 100000d8, Data = 41361087
# UVM_INFO /home/khang/Documents/SystemVerilog/Soc_RV32I/SoC/VERIFICATION/Scoreboard/axi_scoreboard.sv(49) @ 15565000: uvm_test_top.env.scoreboard [SCB_PASS] [DRAM] PASS Addr=100000d8 Expected=41361087 Got=41361087
# UVM_INFO /home/khang/Documents/SystemVerilog/Soc_RV32I/SoC/VERIFICATION/Monitor/axi_monitor.sv(67) @ 15615000: uvm_test_top.env.agent.monitor [MON_RD] Deteced READ : Addr = 100000dc, Data = ee8abe6a
# UVM_INFO /home/khang/Documents/SystemVerilog/Soc_RV32I/SoC/VERIFICATION/Scoreboard/axi_scoreboard.sv(49) @ 15615000: uvm_test_top.env.scoreboard [SCB_PASS] [DRAM] PASS Addr=100000dc Expected=ee8abe6a Got=ee8abe6a
# UVM_INFO /home/khang/Documents/SystemVerilog/Soc_RV32I/SoC/VERIFICATION/Monitor/axi_monitor.sv(67) @ 15665000: uvm_test_top.env.agent.monitor [MON_RD] Deteced READ : Addr = 100000e0, Data = 8245992e
# UVM_INFO /home/khang/Documents/SystemVerilog/Soc_RV32I/SoC/VERIFICATION/Scoreboard/axi_scoreboard.sv(49) @ 15665000: uvm_test_top.env.scoreboard [SCB_PASS] [DRAM] PASS Addr=100000e0 Expected=8245992e Got=8245992e
# UVM_INFO /home/khang/Documents/SystemVerilog/Soc_RV32I/SoC/VERIFICATION/Monitor/axi_monitor.sv(67) @ 15715000: uvm_test_top.env.agent.monitor [MON_RD] Deteced READ : Addr = 100000e4, Data = 2bc2c00f
# UVM_INFO /home/khang/Documents/SystemVerilog/Soc_RV32I/SoC/VERIFICATION/Scoreboard/axi_scoreboard.sv(49) @ 15715000: uvm_test_top.env.scoreboard [SCB_PASS] [DRAM] PASS Addr=100000e4 Expected=2bc2c00f Got=2bc2c00f
# UVM_INFO /home/khang/Documents/SystemVerilog/Soc_RV32I/SoC/VERIFICATION/Monitor/axi_monitor.sv(67) @ 15765000: uvm_test_top.env.agent.monitor [MON_RD] Deteced READ : Addr = 100000e8, Data = 5d34c8eb
# UVM_INFO /home/khang/Documents/SystemVerilog/Soc_RV32I/SoC/VERIFICATION/Scoreboard/axi_scoreboard.sv(49) @ 15765000: uvm_test_top.env.scoreboard [SCB_PASS] [DRAM] PASS Addr=100000e8 Expected=5d34c8eb Got=5d34c8eb
# UVM_INFO /home/khang/Documents/SystemVerilog/Soc_RV32I/SoC/VERIFICATION/Monitor/axi_monitor.sv(67) @ 15815000: uvm_test_top.env.agent.monitor [MON_RD] Deteced READ : Addr = 100000ec, Data = 9ae07149
# UVM_INFO /home/khang/Documents/SystemVerilog/Soc_RV32I/SoC/VERIFICATION/Scoreboard/axi_scoreboard.sv(49) @ 15815000: uvm_test_top.env.scoreboard [SCB_PASS] [DRAM] PASS Addr=100000ec Expected=9ae07149 Got=9ae07149
# UVM_INFO /home/khang/Documents/SystemVerilog/Soc_RV32I/SoC/VERIFICATION/Monitor/axi_monitor.sv(67) @ 15865000: uvm_test_top.env.agent.monitor [MON_RD] Deteced READ : Addr = 100000f0, Data = 649517c5
# UVM_INFO /home/khang/Documents/SystemVerilog/Soc_RV32I/SoC/VERIFICATION/Scoreboard/axi_scoreboard.sv(49) @ 15865000: uvm_test_top.env.scoreboard [SCB_PASS] [DRAM] PASS Addr=100000f0 Expected=649517c5 Got=649517c5
# UVM_INFO /home/khang/Documents/SystemVerilog/Soc_RV32I/SoC/VERIFICATION/Monitor/axi_monitor.sv(67) @ 15915000: uvm_test_top.env.agent.monitor [MON_RD] Deteced READ : Addr = 100000f4, Data = b6510131
# UVM_INFO /home/khang/Documents/SystemVerilog/Soc_RV32I/SoC/VERIFICATION/Scoreboard/axi_scoreboard.sv(49) @ 15915000: uvm_test_top.env.scoreboard [SCB_PASS] [DRAM] PASS Addr=100000f4 Expected=b6510131 Got=b6510131
# UVM_INFO /home/khang/Documents/SystemVerilog/Soc_RV32I/SoC/VERIFICATION/Monitor/axi_monitor.sv(67) @ 15965000: uvm_test_top.env.agent.monitor [MON_RD] Deteced READ : Addr = 100000f8, Data = c1fc0db2
# UVM_INFO /home/khang/Documents/SystemVerilog/Soc_RV32I/SoC/VERIFICATION/Scoreboard/axi_scoreboard.sv(49) @ 15965000: uvm_test_top.env.scoreboard [SCB_PASS] [DRAM] PASS Addr=100000f8 Expected=c1fc0db2 Got=c1fc0db2
# UVM_INFO /home/khang/Documents/SystemVerilog/Soc_RV32I/SoC/VERIFICATION/Monitor/axi_monitor.sv(67) @ 16015000: uvm_test_top.env.agent.monitor [MON_RD] Deteced READ : Addr = 100000fc, Data = 399e6030
# UVM_INFO /home/khang/Documents/SystemVerilog/Soc_RV32I/SoC/VERIFICATION/Scoreboard/axi_scoreboard.sv(49) @ 16015000: uvm_test_top.env.scoreboard [SCB_PASS] [DRAM] PASS Addr=100000fc Expected=399e6030 Got=399e6030
# UVM_INFO /home/khang/Documents/SystemVerilog/Soc_RV32I/SoC/VERIFICATION/Monitor/axi_monitor.sv(67) @ 16065000: uvm_test_top.env.agent.monitor [MON_RD] Deteced READ : Addr = 10000100, Data = a8cc4d76
# UVM_INFO /home/khang/Documents/SystemVerilog/Soc_RV32I/SoC/VERIFICATION/Scoreboard/axi_scoreboard.sv(49) @ 16065000: uvm_test_top.env.scoreboard [SCB_PASS] [DRAM] PASS Addr=10000100 Expected=a8cc4d76 Got=a8cc4d76
# UVM_INFO /home/khang/Documents/SystemVerilog/Soc_RV32I/SoC/VERIFICATION/Monitor/axi_monitor.sv(67) @ 16115000: uvm_test_top.env.agent.monitor [MON_RD] Deteced READ : Addr = 10000104, Data = 096c8621
# UVM_INFO /home/khang/Documents/SystemVerilog/Soc_RV32I/SoC/VERIFICATION/Scoreboard/axi_scoreboard.sv(49) @ 16115000: uvm_test_top.env.scoreboard [SCB_PASS] [DRAM] PASS Addr=10000104 Expected=096c8621 Got=096c8621
# UVM_INFO /home/khang/Documents/SystemVerilog/Soc_RV32I/SoC/VERIFICATION/Monitor/axi_monitor.sv(67) @ 16165000: uvm_test_top.env.agent.monitor [MON_RD] Deteced READ : Addr = 10000108, Data = 06a10941
# UVM_INFO /home/khang/Documents/SystemVerilog/Soc_RV32I/SoC/VERIFICATION/Scoreboard/axi_scoreboard.sv(49) @ 16165000: uvm_test_top.env.scoreboard [SCB_PASS] [DRAM] PASS Addr=10000108 Expected=06a10941 Got=06a10941
# UVM_INFO /home/khang/Documents/SystemVerilog/Soc_RV32I/SoC/VERIFICATION/Monitor/axi_monitor.sv(67) @ 16215000: uvm_test_top.env.agent.monitor [MON_RD] Deteced READ : Addr = 1000010c, Data = fddfe3fb
# UVM_INFO /home/khang/Documents/SystemVerilog/Soc_RV32I/SoC/VERIFICATION/Scoreboard/axi_scoreboard.sv(49) @ 16215000: uvm_test_top.env.scoreboard [SCB_PASS] [DRAM] PASS Addr=1000010c Expected=fddfe3fb Got=fddfe3fb
# UVM_INFO /home/khang/Documents/SystemVerilog/Soc_RV32I/SoC/VERIFICATION/Monitor/axi_monitor.sv(67) @ 16265000: uvm_test_top.env.agent.monitor [MON_RD] Deteced READ : Addr = 10000110, Data = 6a0d1bec
# UVM_INFO /home/khang/Documents/SystemVerilog/Soc_RV32I/SoC/VERIFICATION/Scoreboard/axi_scoreboard.sv(49) @ 16265000: uvm_test_top.env.scoreboard [SCB_PASS] [DRAM] PASS Addr=10000110 Expected=6a0d1bec Got=6a0d1bec
# UVM_INFO /home/khang/Documents/SystemVerilog/Soc_RV32I/SoC/VERIFICATION/Monitor/axi_monitor.sv(67) @ 16315000: uvm_test_top.env.agent.monitor [MON_RD] Deteced READ : Addr = 10000114, Data = eaf353fd
