--- [0/4] Dang xoa file .mem cu va chay script Python tao 100 testcase moi ---
python3 gen_mem.py
Generated /home/khang/Documents/SystemVerilog/Soc_RV32I/SoC/SIM/cpu_instr.mem  (seed=None)
Generated /home/khang/Documents/SystemVerilog/Soc_RV32I/SoC/SIM/instr.mem  (seed=None)
--- Dang dung ROOT: /home/khang/Documents/SystemVerilog/Soc_RV32I/SoC ---
rm -rf work
vlib work
--- [1/4] Bien dich Interfaces ---
vlog -sv +acc -L uvm -cover bcst /home/khang/Documents/SystemVerilog/Soc_RV32I/SoC/INF/*.sv
QuestaSim-64 vlog 2024.1 Compiler 2024.02 Feb  1 2024
Start time: 19:06:32 on May 06,2026
vlog -sv "+acc" -L uvm -cover bcst /home/khang/Documents/SystemVerilog/Soc_RV32I/SoC/INF/clk_rst_inf.sv /home/khang/Documents/SystemVerilog/Soc_RV32I/SoC/INF/soc_inf.sv 
-- Compiling interface clk_rst_inf
-- Compiling interface soc_inf

Top level modules:
	--none--
End time: 19:06:32 on May 06,2026, Elapsed time: 0:00:00
Errors: 0, Warnings: 0
--- [2/4] Bien dich DUT (SoC Logic) ---
vlog -sv +acc -L uvm -cover bcst +incdir+/home/khang/Documents/SystemVerilog/Soc_RV32I/SoC/DUT/CPU /home/khang/Documents/SystemVerilog/Soc_RV32I/SoC/DUT/Slaves/*.sv /home/khang/Documents/SystemVerilog/Soc_RV32I/SoC/DUT/CPU/*.sv /home/khang/Documents/SystemVerilog/Soc_RV32I/SoC/DUT/Master/*.sv /home/khang/Documents/SystemVerilog/Soc_RV32I/SoC/DUT/AXI_Master.sv /home/khang/Documents/SystemVerilog/Soc_RV32I/SoC/DUT/AXI4_Lite_Interconnect.sv /home/khang/Documents/SystemVerilog/Soc_RV32I/SoC/DUT/TOP.sv
QuestaSim-64 vlog 2024.1 Compiler 2024.02 Feb  1 2024
Start time: 19:06:32 on May 06,2026
vlog -sv "+acc" -L uvm -cover bcst "+incdir+/home/khang/Documents/SystemVerilog/Soc_RV32I/SoC/DUT/CPU" /home/khang/Documents/SystemVerilog/Soc_RV32I/SoC/DUT/Slaves/RAM.sv /home/khang/Documents/SystemVerilog/Soc_RV32I/SoC/DUT/Slaves/SPI.sv /home/khang/Documents/SystemVerilog/Soc_RV32I/SoC/DUT/Slaves/Timer.sv /home/khang/Documents/SystemVerilog/Soc_RV32I/SoC/DUT/Slaves/UART.sv /home/khang/Documents/SystemVerilog/Soc_RV32I/SoC/DUT/CPU/ALU.sv /home/khang/Documents/SystemVerilog/Soc_RV32I/SoC/DUT/CPU/ALUControl.sv /home/khang/Documents/SystemVerilog/Soc_RV32I/SoC/DUT/CPU/ControlUnit.sv /home/khang/Documents/SystemVerilog/Soc_RV32I/SoC/DUT/CPU/EX_MEM.sv /home/khang/Documents/SystemVerilog/Soc_RV32I/SoC/DUT/CPU/HazardUnit.sv /home/khang/Documents/SystemVerilog/Soc_RV32I/SoC/DUT/CPU/ID_EX.sv /home/khang/Documents/SystemVerilog/Soc_RV32I/SoC/DUT/CPU/IF_ID.sv /home/khang/Documents/SystemVerilog/Soc_RV32I/SoC/DUT/CPU/MEM_WB.sv /home/khang/Documents/SystemVerilog/Soc_RV32I/SoC/DUT/CPU/MainDecoder.sv /home/khang/Documents/SystemVerilog/Soc_RV32I/SoC/DUT/CPU/RegFile.sv /home/khang/Documents/SystemVerilog/Soc_RV32I/SoC/DUT/CPU/data_mem.sv /home/khang/Documents/SystemVerilog/Soc_RV32I/SoC/DUT/CPU/instr_mem.sv /home/khang/Documents/SystemVerilog/Soc_RV32I/SoC/DUT/CPU/pc.sv /home/khang/Documents/SystemVerilog/Soc_RV32I/SoC/DUT/CPU/signExtend.sv /home/khang/Documents/SystemVerilog/Soc_RV32I/SoC/DUT/Master/CPU.sv /home/khang/Documents/SystemVerilog/Soc_RV32I/SoC/DUT/Master/LSU.sv /home/khang/Documents/SystemVerilog/Soc_RV32I/SoC/DUT/AXI_Master.sv /home/khang/Documents/SystemVerilog/Soc_RV32I/SoC/DUT/AXI4_Lite_Interconnect.sv /home/khang/Documents/SystemVerilog/Soc_RV32I/SoC/DUT/TOP.sv 
-- Compiling module RAM
-- Compiling module SPI
-- Compiling module Timer
-- Compiling module UART
-- Compiling module ALU
-- Compiling module ALUControl
-- Compiling module ControlUnit
-- Compiling module EX_MEM
-- Compiling module HazardUnit
-- Compiling module ID_EX
-- Compiling module IF_ID
-- Compiling module MEM_WB
-- Compiling module MainDecoder
-- Compiling module RegFile
-- Compiling module data_mem
-- Compiling module instr_mem
-- Compiling module pc_reg
-- Compiling module signExtend
-- Compiling module CPU
-- Compiling module LSU
-- Compiling module AXI_Master
-- Compiling module AXI4_Lite_Interconnect
** Warning: /home/khang/Documents/SystemVerilog/Soc_RV32I/SoC/DUT/AXI4_Lite_Interconnect.sv(43): (vlog-13314) Defaulting port 's_axi_bresp' kind to 'var' rather than 'wire' due to default compile option setting of -svinputport=relaxed.
** Warning: /home/khang/Documents/SystemVerilog/Soc_RV32I/SoC/DUT/AXI4_Lite_Interconnect.sv(52): (vlog-13314) Defaulting port 's_axi_rdata' kind to 'var' rather than 'wire' due to default compile option setting of -svinputport=relaxed.
** Warning: /home/khang/Documents/SystemVerilog/Soc_RV32I/SoC/DUT/AXI4_Lite_Interconnect.sv(53): (vlog-13314) Defaulting port 's_axi_rresp' kind to 'var' rather than 'wire' due to default compile option setting of -svinputport=relaxed.
-- Compiling module TOP

Top level modules:
	data_mem
	instr_mem
	TOP
End time: 19:06:32 on May 06,2026, Elapsed time: 0:00:00
Errors: 0, Warnings: 3
--- [3/4] Bien dich UVM Package ---
vlog -sv +acc -L uvm -cover bcst +incdir+/home/khang/Documents/SystemVerilog/Soc_RV32I/SoC/VERIFICATION/Transaction \
            +incdir+/home/khang/Documents/SystemVerilog/Soc_RV32I/SoC/VERIFICATION/Sequencer \
            +incdir+/home/khang/Documents/SystemVerilog/Soc_RV32I/SoC/VERIFICATION/Monitor \
            +incdir+/home/khang/Documents/SystemVerilog/Soc_RV32I/SoC/VERIFICATION/Driver \
            +incdir+/home/khang/Documents/SystemVerilog/Soc_RV32I/SoC/VERIFICATION/Agent \
            +incdir+/home/khang/Documents/SystemVerilog/Soc_RV32I/SoC/VERIFICATION/Coverage \
            +incdir+/home/khang/Documents/SystemVerilog/Soc_RV32I/SoC/VERIFICATION/Env \
            +incdir+/home/khang/Documents/SystemVerilog/Soc_RV32I/SoC/VERIFICATION/Scoreboard \
            +incdir+/home/khang/Documents/SystemVerilog/Soc_RV32I/SoC/VERIFICATION/Sequence \
            +incdir+/home/khang/Documents/SystemVerilog/Soc_RV32I/SoC/VERIFICATION/Test \
            /home/khang/Documents/SystemVerilog/Soc_RV32I/SoC/VERIFICATION/Package/soc_pkg.svh
QuestaSim-64 vlog 2024.1 Compiler 2024.02 Feb  1 2024
Start time: 19:06:32 on May 06,2026
vlog -sv "+acc" -L uvm -cover bcst "+incdir+/home/khang/Documents/SystemVerilog/Soc_RV32I/SoC/VERIFICATION/Transaction" "+incdir+/home/khang/Documents/SystemVerilog/Soc_RV32I/SoC/VERIFICATION/Sequencer" "+incdir+/home/khang/Documents/SystemVerilog/Soc_RV32I/SoC/VERIFICATION/Monitor" "+incdir+/home/khang/Documents/SystemVerilog/Soc_RV32I/SoC/VERIFICATION/Driver" "+incdir+/home/khang/Documents/SystemVerilog/Soc_RV32I/SoC/VERIFICATION/Agent" "+incdir+/home/khang/Documents/SystemVerilog/Soc_RV32I/SoC/VERIFICATION/Coverage" "+incdir+/home/khang/Documents/SystemVerilog/Soc_RV32I/SoC/VERIFICATION/Env" "+incdir+/home/khang/Documents/SystemVerilog/Soc_RV32I/SoC/VERIFICATION/Scoreboard" "+incdir+/home/khang/Documents/SystemVerilog/Soc_RV32I/SoC/VERIFICATION/Sequence" "+incdir+/home/khang/Documents/SystemVerilog/Soc_RV32I/SoC/VERIFICATION/Test" /home/khang/Documents/SystemVerilog/Soc_RV32I/SoC/VERIFICATION/Package/soc_pkg.svh 
-- Compiling package soc_pkg
-- Importing package mtiUvm.uvm_pkg (uvm-1.1d Built-in)
** Note: (vlog-2286) /home/khang/Documents/SystemVerilog/Soc_RV32I/SoC/VERIFICATION/Package/soc_pkg.svh(3): Using implicit +incdir+/tools/mq/2024.1/questasim/uvm-1.1d/../verilog_src/uvm-1.1d/src from import uvm_pkg

Top level modules:
	--none--
End time: 19:06:33 on May 06,2026, Elapsed time: 0:00:01
Errors: 0, Warnings: 0
--- [4/4] Bien dich Top Testbench ---
vlog -sv +acc -L uvm -cover bcst /home/khang/Documents/SystemVerilog/Soc_RV32I/SoC/VERIFICATION/top_tb.sv
QuestaSim-64 vlog 2024.1 Compiler 2024.02 Feb  1 2024
Start time: 19:06:33 on May 06,2026
vlog -sv "+acc" -L uvm -cover bcst /home/khang/Documents/SystemVerilog/Soc_RV32I/SoC/VERIFICATION/top_tb.sv 
-- Compiling module top_tb
-- Importing package mtiUvm.uvm_pkg (uvm-1.1d Built-in)
-- Importing package soc_pkg
** Note: (vlog-2286) /home/khang/Documents/SystemVerilog/Soc_RV32I/SoC/VERIFICATION/top_tb.sv(6): Using implicit +incdir+/tools/mq/2024.1/questasim/uvm-1.1d/../verilog_src/uvm-1.1d/src from import uvm_pkg

Top level modules:
	top_tb
End time: 19:06:33 on May 06,2026, Elapsed time: 0:00:00
Errors: 0, Warnings: 0
--- [Optimize] Chay vopt ---
vopt +acc +cover top_tb -o vopt_top
QuestaSim-64 vopt 2024.1 Compiler 2024.02 Feb  1 2024
** Warning: (vopt-10587) Some optimizations are turned off because the +acc switch is in effect. This will cause your simulation to run slowly. Please use -access/-debug to maintain needed visibility.
Start time: 19:06:33 on May 06,2026
vopt "+acc" "+cover" top_tb -o vopt_top 

Top level modules:
	top_tb

Analyzing design...
** Warning: (vopt-10016) Option '-L uvm' was detected by vlog for design-unit 'top_tb', but was not detected by vopt. The vlog option will be ignored.
-- Loading module top_tb
-- Importing package mtiUvm.uvm_pkg (uvm-1.1d Built-in)
** Warning: (vopt-10016) Option '-L uvm' was detected by vlog for design-unit 'soc_pkg', but was not detected by vopt. The vlog option will be ignored.
-- Importing package soc_pkg
-- Loading package mtiUvm.questa_uvm_pkg
** Warning: (vopt-10016) Option '-L uvm' was detected by vlog for design-unit 'clk_rst_inf', but was not detected by vopt. The vlog option will be ignored.
-- Loading interface clk_rst_inf
** Warning: (vopt-10016) Option '-L uvm' was detected by vlog for design-unit 'soc_inf', but was not detected by vopt. The vlog option will be ignored.
-- Loading interface soc_inf
** Warning: (vopt-10016) Option '-L uvm' was detected by vlog for design-unit 'TOP', but was not detected by vopt. The vlog option will be ignored.
-- Loading module TOP
** Warning: (vopt-10016) Option '-L uvm' was detected by vlog for design-unit 'AXI_Master', but was not detected by vopt. The vlog option will be ignored.
-- Loading module AXI_Master
** Warning: (vopt-10016) Option '-L uvm' was detected by vlog for design-unit 'CPU', but was not detected by vopt. The vlog option will be ignored.
-- Loading module CPU
** Warning: (vopt-10016) Option '-L uvm' was detected by vlog for design-unit 'pc_reg', but was not detected by vopt. The vlog option will be ignored.
-- Loading module pc_reg
** Warning: (vopt-10016) Option '-L uvm' was detected by vlog for design-unit 'IF_ID', but was not detected by vopt. The vlog option will be ignored.
-- Loading module IF_ID
** Warning: (vopt-10016) Option '-L uvm' was detected by vlog for design-unit 'ControlUnit', but was not detected by vopt. The vlog option will be ignored.
-- Loading module ControlUnit
** Warning: (vopt-10016) Option '-L uvm' was detected by vlog for design-unit 'MainDecoder', but was not detected by vopt. The vlog option will be ignored.
-- Loading module MainDecoder
** Warning: (vopt-10016) Option '-L uvm' was detected by vlog for design-unit 'ALUControl', but was not detected by vopt. The vlog option will be ignored.
-- Loading module ALUControl
** Warning: (vopt-10016) Option '-L uvm' was detected by vlog for design-unit 'RegFile', but was not detected by vopt. The vlog option will be ignored.
-- Loading module RegFile
** Warning: (vopt-10016) Option '-L uvm' was detected by vlog for design-unit 'signExtend', but was not detected by vopt. The vlog option will be ignored.
-- Loading module signExtend
** Warning: (vopt-10016) Option '-L uvm' was detected by vlog for design-unit 'ID_EX', but was not detected by vopt. The vlog option will be ignored.
-- Loading module ID_EX
** Warning: (vopt-10016) Option '-L uvm' was detected by vlog for design-unit 'ALU', but was not detected by vopt. The vlog option will be ignored.
-- Loading module ALU
** Warning: (vopt-10016) Option '-L uvm' was detected by vlog for design-unit 'EX_MEM', but was not detected by vopt. The vlog option will be ignored.
-- Loading module EX_MEM
** Warning: (vopt-10016) Option '-L uvm' was detected by vlog for design-unit 'MEM_WB', but was not detected by vopt. The vlog option will be ignored.
-- Loading module MEM_WB
** Warning: (vopt-10016) Option '-L uvm' was detected by vlog for design-unit 'HazardUnit', but was not detected by vopt. The vlog option will be ignored.
-- Loading module HazardUnit
** Warning: (vopt-10016) Option '-L uvm' was detected by vlog for design-unit 'LSU', but was not detected by vopt. The vlog option will be ignored.
-- Loading module LSU
** Warning: (vopt-10016) Option '-L uvm' was detected by vlog for design-unit 'AXI4_Lite_Interconnect', but was not detected by vopt. The vlog option will be ignored.
-- Loading module AXI4_Lite_Interconnect
** Warning: (vopt-10016) Option '-L uvm' was detected by vlog for design-unit 'RAM', but was not detected by vopt. The vlog option will be ignored.
-- Loading module RAM
** Warning: (vopt-10016) Option '-L uvm' was detected by vlog for design-unit 'Timer', but was not detected by vopt. The vlog option will be ignored.
-- Loading module Timer
** Warning: (vopt-10016) Option '-L uvm' was detected by vlog for design-unit 'UART', but was not detected by vopt. The vlog option will be ignored.
-- Loading module UART
** Warning: (vopt-10016) Option '-L uvm' was detected by vlog for design-unit 'SPI', but was not detected by vopt. The vlog option will be ignored.
-- Loading module SPI
** Warning: (vopt-13408) Code coverage will be disabled for some DUs/packages/classes and source files.
Optimizing 30 design-units (inlining 0/25 module instances):
-- Optimizing package mtiUvm.questa_uvm_pkg(fast)
-- Optimizing package soc_pkg(fast)
-- Optimizing interface soc_inf(fast__2)
-- Optimizing module LSU(fast)
** Note: (vopt-143) Recognized 1 FSM in module "LSU(fast)".
-- Optimizing module AXI4_Lite_Interconnect(fast)
** Warning: /home/khang/Documents/SystemVerilog/Soc_RV32I/SoC/DUT/AXI4_Lite_Interconnect.sv(43): (vopt-13314) Defaulting port 's_axi_bresp' kind to 'var' rather than 'wire' due to default compile option setting of -svinputport=relaxed.
** Warning: /home/khang/Documents/SystemVerilog/Soc_RV32I/SoC/DUT/AXI4_Lite_Interconnect.sv(52): (vopt-13314) Defaulting port 's_axi_rdata' kind to 'var' rather than 'wire' due to default compile option setting of -svinputport=relaxed.
** Warning: /home/khang/Documents/SystemVerilog/Soc_RV32I/SoC/DUT/AXI4_Lite_Interconnect.sv(53): (vopt-13314) Defaulting port 's_axi_rresp' kind to 'var' rather than 'wire' due to default compile option setting of -svinputport=relaxed.
-- Optimizing module UART(fast)
** Note: (vopt-143) Recognized 2 FSMs in module "UART(fast)".
-- Optimizing module CPU(fast)
-- Optimizing module SPI(fast)
** Note: (vopt-143) Recognized 1 FSM in module "SPI(fast)".
-- Optimizing module Timer(fast)
-- Optimizing module top_tb(fast)
-- Optimizing module TOP(fast)
-- Optimizing module RAM(fast)
-- Optimizing module RAM(fast__1)
-- Optimizing module ID_EX(fast)
-- Optimizing module HazardUnit(fast)
-- Optimizing module AXI_Master(fast)
-- Optimizing module MainDecoder(fast)
-- Optimizing module EX_MEM(fast)
-- Optimizing module ALU(fast)
-- Optimizing module MEM_WB(fast)
-- Optimizing module RegFile(fast)
-- Optimizing module signExtend(fast)
-- Optimizing module IF_ID(fast)
-- Optimizing module ALUControl(fast)
-- Optimizing module ControlUnit(fast)
-- Optimizing interface clk_rst_inf(fast__2)
-- Optimizing module pc_reg(fast)
-- Optimizing interface soc_inf(fast)
-- Optimizing interface clk_rst_inf(fast)
-- Optimizing package mtiUvm.uvm_pkg (uvm-1.1d Built-in)(fast)
Optimized design name is vopt_top
End time: 19:06:34 on May 06,2026, Elapsed time: 0:00:01
Errors: 0, Warnings: 30
--- [SINGLE TEST MODE] Dang chay test: axi_random_wr_rd_test ---
Reading pref.tcl

# 2024.1

# vsim -c -L uvm -coverage -sv_seed random vopt_top "+UVM_TESTNAME=axi_random_wr_rd_test" -do "coverage save -onexit coverage_result.ucdb; run -all; quit" 
# Start time: 19:06:35 on May 06,2026
# //  Questa Sim-64
# //  Version 2024.1 linux_x86_64 Feb  1 2024
# //
# // Unpublished work. Copyright 2024 Siemens
# //
# // This material contains trade secrets or otherwise confidential information
# // owned by Siemens Industry Software Inc. or its affiliates (collectively,
# // "SISW"), or its licensors. Access to and use of this information is strictly
# // limited as set forth in the Customer's applicable agreements with SISW.
# //
# // This material may not be copied, distributed, or otherwise disclosed outside
# // of the Customer's facilities without the express written permission of SISW,
# // and may not be used in any way not expressly authorized by SISW.
# //
# Loading sv_std.std
# Loading work.clk_rst_inf(fast)
# Loading work.soc_inf(fast)
# Loading mtiUvm.uvm_pkg(fast)
# Loading work.soc_pkg(fast)
# Loading mtiUvm.questa_uvm_pkg(fast)
# Loading work.top_tb(fast)
# Loading work.clk_rst_inf(fast__2)
# Loading work.soc_inf(fast__2)
# Loading work.TOP(fast)
# Loading work.AXI_Master(fast)
# Loading work.CPU(fast)
# Loading work.pc_reg(fast)
# Loading work.IF_ID(fast)
# Loading work.ControlUnit(fast)
# Loading work.MainDecoder(fast)
# Loading work.ALUControl(fast)
# Loading work.RegFile(fast)
# Loading work.signExtend(fast)
# Loading work.ID_EX(fast)
# Loading work.ALU(fast)
# Loading work.EX_MEM(fast)
# Loading work.MEM_WB(fast)
# Loading work.HazardUnit(fast)
# Loading work.LSU(fast)
# Loading work.AXI4_Lite_Interconnect(fast)
# Loading work.RAM(fast)
# Loading work.RAM(fast__1)
# Loading work.Timer(fast)
# Loading work.UART(fast)
# Loading work.SPI(fast)
# Loading /tools/mq/2024.1/questasim/uvm-1.1d/linux_x86_64/uvm_dpi.so
# Sv_Seed = 1127180274
# coverage save -onexit coverage_result.ucdb
#  run -all
# ----------------------------------------------------------------
# UVM-1.1d
# (C) 2007-2013 Mentor Graphics Corporation
# (C) 2007-2013 Cadence Design Systems, Inc.
# (C) 2006-2013 Synopsys, Inc.
# (C) 2011-2013 Cypress Semiconductor Corp.
# ----------------------------------------------------------------
# 
#   ***********       IMPORTANT RELEASE NOTES         ************
# 
#   You are using a version of the UVM library that has been compiled
#   with `UVM_NO_DEPRECATED undefined.
#   See http://www.eda.org/svdb/view.php?id=3313 for more details.
# 
#   You are using a version of the UVM library that has been compiled
#   with `UVM_OBJECT_MUST_HAVE_CONSTRUCTOR undefined.
#   See http://www.eda.org/svdb/view.php?id=3770 for more details.
# 
#       (Specify +UVM_NO_RELNOTES to turn off this notice)
# 
# UVM_INFO verilog_src/questa_uvm_pkg-1.2/src/questa_uvm_pkg.sv(277) @ 0: reporter [Questa UVM] QUESTA_UVM-1.2.3
# UVM_INFO verilog_src/questa_uvm_pkg-1.2/src/questa_uvm_pkg.sv(278) @ 0: reporter [Questa UVM]  questa_uvm::init(+struct)
# [RAM] Loading file: instr.mem
# [RAM] mem[0] = 3438ed13
# [RAM] mem[1] = 05e28f63
# [RAM] mem[2] = 034da723
# [RAM] mem[3] = 1c542ca3
# [RAM] mem[4] = 651df193
# [RAM] mem[5] = f70a0fe3
# [RAM] mem[6] = 02ea2223
# [RAM] mem[7] = f9a40ae3
# [RAM] mem[8] = fd6a7393
# [RAM] mem[9] = 56b3a103
# [RAM] mem[10] = 9a8a2b23
# [RAM] mem[11] = f81925a3
# [RAM] mem[12] = 0b6c0663
# [RAM] mem[13] = 011b50b3
# [RAM] mem[14] = 01c5dcb3
# [RAM] mem[15] = eee22383
# [RAM] mem[16] = e8990313
# [RAM] mem[17] = 5b878693
# [RAM] mem[18] = fa7ffdef
# [RAM] mem[19] = 8e562d23
# [RAM] mem[20] = 853f2723
# [RAM] mem[21] = f09688e3
# [RAM] mem[22] = 89daa083
# [RAM] mem[23] = 07c78563
# [RAM] mem[24] = 3820026f
# [RAM] mem[25] = 33c007ef
# [RAM] mem[26] = 1e45a503
# [RAM] mem[27] = 001c5ab3
# [RAM] mem[28] = 12c9aea3
# [RAM] mem[29] = 0f788563
# [RAM] mem[30] = 41da58b3
# [RAM] mem[31] = be1ff46f
# [RAM] mem[32] = 79c0066f
# [RAM] mem[33] = f98a8ae3
# [RAM] mem[34] = ba2aa503
# [RAM] mem[35] = f276a723
# [RAM] mem[36] = e2b0e993
# [RAM] mem[37] = 3920066f
# [RAM] mem[38] = f14fa503
# [RAM] mem[39] = 29c22123
# [RAM] mem[40] = db39fe93
# [RAM] mem[41] = 01228863
# [RAM] mem[42] = 516b6293
# [RAM] mem[43] = 52e007ef
# [RAM] mem[44] = 00a5cab3
# [RAM] mem[45] = ab2ca923
# [RAM] mem[46] = c981ab03
# [RAM] mem[47] = fb9ff46f
# [RAM] mem[48] = 405f5233
# [RAM] mem[49] = 533c2b83
# [RAM] mem[50] = 807dad23
# [RAM] mem[51] = 5e400fef
# [RAM] mem[52] = 68772303
# [RAM] mem[53] = 58fa2203
# [RAM] mem[54] = 67c12b23
# [RAM] mem[55] = 80dffa6f
# [RAM] mem[56] = af59a483
# [RAM] mem[57] = 0496ff13
# [RAM] mem[58] = 01728f33
# [RAM] mem[59] = 4be002ef
# [RAM] mem[60] = aaa22ca3
# [RAM] mem[61] = df254093
# [RAM] mem[62] = 4352f993
# [RAM] mem[63] = 010d0363
# [RAM] mem[64] = d7814613
# [RAM] mem[65] = 259e2603
# [RAM] mem[66] = f1dffeef
# [RAM] mem[67] = 07622683
# [RAM] mem[68] = 50c8a1a3
# [RAM] mem[69] = 1fd0af83
# [RAM] mem[70] = d67e7c13
# [RAM] mem[71] = 9f6fa883
# [RAM] mem[72] = 2b1b8893
# [RAM] mem[73] = 72daf713
# [RAM] mem[74] = 02a0066f
# [RAM] mem[75] = 019c0a63
# [RAM] mem[76] = 7123af83
# [RAM] mem[77] = 92dffd6f
# [RAM] mem[78] = 47a3aca3
# [RAM] mem[79] = 1613a2a3
# [RAM] mem[80] = 01d98363
# [RAM] mem[81] = 08aa0663
# [RAM] mem[82] = 068e8463
# [RAM] mem[83] = 01cd8463
# [RAM] mem[84] = f82389e3
# [RAM] mem[85] = 01aa2b33
# [RAM] mem[86] = 255dcc93
# [RAM] mem[87] = 66568713
# [RAM] mem[88] = 0ec40163
# [RAM] mem[89] = f55f06e3
# [RAM] mem[90] = d87ffd6f
# [RAM] mem[91] = 36c00b6f
# [RAM] mem[92] = fa6e0ee3
# [RAM] mem[93] = f47ff46f
# [RAM] mem[94] = fb7289e3
# [RAM] mem[95] = 030327a3
# [RAM] mem[96] = dbf12823
# [RAM] mem[97] = 098caf23
# [RAM] mem[98] = f0de0de3
# [RAM] mem[99] = bccf8413
# [RAM] No INIT_FILE specified
# UVM_INFO @ 0: reporter [RNTST] Running test axi_random_wr_rd_test...
# ** Warning: (vsim-PLI-8707) No address specified on line 2 of file "instr.mem" 
# while loading into associative array using readmem command.    : /home/khang/Documents/SystemVerilog/Soc_RV32I/SoC/VERIFICATION/Scoreboard/axi_scoreboard.sv(31)
#    Time: 0 ps  Iteration: 8  Region: /uvm_pkg::uvm_phase::m_run_phases
# UVM_INFO /home/khang/Documents/SystemVerilog/Soc_RV32I/SoC/VERIFICATION/Sequence/axi_random_wr_rd.sv(23) @ 0: uvm_test_top.env.agent.sequencer@@seq [SEQ] --- STARTING SMART RANDOM TEST (ID 11, 12) ---
# UVM_INFO /home/khang/Documents/SystemVerilog/Soc_RV32I/SoC/VERIFICATION/Monitor/axi_monitor.sv(47) @ 65000: uvm_test_top.env.agent.monitor [MON_WR] Detected WRITE : Addr = 10000000, Data = 19392e63
# UVM_INFO /home/khang/Documents/SystemVerilog/Soc_RV32I/SoC/VERIFICATION/Driver/axi_driver.sv(67) @ 75000: uvm_test_top.env.agent.driver [DRV] Write Done: Addr=10000000, Data=19392e63
# UVM_INFO /home/khang/Documents/SystemVerilog/Soc_RV32I/SoC/VERIFICATION/Monitor/axi_monitor.sv(47) @ 115000: uvm_test_top.env.agent.monitor [MON_WR] Detected WRITE : Addr = 10000004, Data = 49ac36f5
# UVM_INFO /home/khang/Documents/SystemVerilog/Soc_RV32I/SoC/VERIFICATION/Driver/axi_driver.sv(67) @ 125000: uvm_test_top.env.agent.driver [DRV] Write Done: Addr=10000004, Data=49ac36f5
# UVM_INFO /home/khang/Documents/SystemVerilog/Soc_RV32I/SoC/VERIFICATION/Monitor/axi_monitor.sv(47) @ 165000: uvm_test_top.env.agent.monitor [MON_WR] Detected WRITE : Addr = 10000008, Data = 093f2912
# UVM_INFO /home/khang/Documents/SystemVerilog/Soc_RV32I/SoC/VERIFICATION/Driver/axi_driver.sv(67) @ 175000: uvm_test_top.env.agent.driver [DRV] Write Done: Addr=10000008, Data=093f2912
# UVM_INFO /home/khang/Documents/SystemVerilog/Soc_RV32I/SoC/VERIFICATION/Monitor/axi_monitor.sv(47) @ 215000: uvm_test_top.env.agent.monitor [MON_WR] Detected WRITE : Addr = 1000000c, Data = a2ed4d76
# UVM_INFO /home/khang/Documents/SystemVerilog/Soc_RV32I/SoC/VERIFICATION/Driver/axi_driver.sv(67) @ 225000: uvm_test_top.env.agent.driver [DRV] Write Done: Addr=1000000c, Data=a2ed4d76
# UVM_INFO /home/khang/Documents/SystemVerilog/Soc_RV32I/SoC/VERIFICATION/Monitor/axi_monitor.sv(47) @ 265000: uvm_test_top.env.agent.monitor [MON_WR] Detected WRITE : Addr = 10000010, Data = 60f79e22
# UVM_INFO /home/khang/Documents/SystemVerilog/Soc_RV32I/SoC/VERIFICATION/Driver/axi_driver.sv(67) @ 275000: uvm_test_top.env.agent.driver [DRV] Write Done: Addr=10000010, Data=60f79e22
# UVM_INFO /home/khang/Documents/SystemVerilog/Soc_RV32I/SoC/VERIFICATION/Monitor/axi_monitor.sv(47) @ 315000: uvm_test_top.env.agent.monitor [MON_WR] Detected WRITE : Addr = 10000014, Data = 3f5e3464
# UVM_INFO /home/khang/Documents/SystemVerilog/Soc_RV32I/SoC/VERIFICATION/Driver/axi_driver.sv(67) @ 325000: uvm_test_top.env.agent.driver [DRV] Write Done: Addr=10000014, Data=3f5e3464
# UVM_INFO /home/khang/Documents/SystemVerilog/Soc_RV32I/SoC/VERIFICATION/Monitor/axi_monitor.sv(47) @ 365000: uvm_test_top.env.agent.monitor [MON_WR] Detected WRITE : Addr = 10000018, Data = a17d2e6f
# UVM_INFO /home/khang/Documents/SystemVerilog/Soc_RV32I/SoC/VERIFICATION/Driver/axi_driver.sv(67) @ 375000: uvm_test_top.env.agent.driver [DRV] Write Done: Addr=10000018, Data=a17d2e6f
# UVM_INFO /home/khang/Documents/SystemVerilog/Soc_RV32I/SoC/VERIFICATION/Monitor/axi_monitor.sv(47) @ 415000: uvm_test_top.env.agent.monitor [MON_WR] Detected WRITE : Addr = 1000001c, Data = f4234e06
# UVM_INFO /home/khang/Documents/SystemVerilog/Soc_RV32I/SoC/VERIFICATION/Driver/axi_driver.sv(67) @ 425000: uvm_test_top.env.agent.driver [DRV] Write Done: Addr=1000001c, Data=f4234e06
# UVM_INFO /home/khang/Documents/SystemVerilog/Soc_RV32I/SoC/VERIFICATION/Monitor/axi_monitor.sv(47) @ 465000: uvm_test_top.env.agent.monitor [MON_WR] Detected WRITE : Addr = 10000020, Data = b5de4081
# UVM_INFO /home/khang/Documents/SystemVerilog/Soc_RV32I/SoC/VERIFICATION/Driver/axi_driver.sv(67) @ 475000: uvm_test_top.env.agent.driver [DRV] Write Done: Addr=10000020, Data=b5de4081
# UVM_INFO /home/khang/Documents/SystemVerilog/Soc_RV32I/SoC/VERIFICATION/Monitor/axi_monitor.sv(47) @ 515000: uvm_test_top.env.agent.monitor [MON_WR] Detected WRITE : Addr = 10000024, Data = 3076f591
# UVM_INFO /home/khang/Documents/SystemVerilog/Soc_RV32I/SoC/VERIFICATION/Driver/axi_driver.sv(67) @ 525000: uvm_test_top.env.agent.driver [DRV] Write Done: Addr=10000024, Data=3076f591
# UVM_INFO /home/khang/Documents/SystemVerilog/Soc_RV32I/SoC/VERIFICATION/Monitor/axi_monitor.sv(47) @ 565000: uvm_test_top.env.agent.monitor [MON_WR] Detected WRITE : Addr = 10000028, Data = e6006ce9
# UVM_INFO /home/khang/Documents/SystemVerilog/Soc_RV32I/SoC/VERIFICATION/Driver/axi_driver.sv(67) @ 575000: uvm_test_top.env.agent.driver [DRV] Write Done: Addr=10000028, Data=e6006ce9
# UVM_INFO /home/khang/Documents/SystemVerilog/Soc_RV32I/SoC/VERIFICATION/Monitor/axi_monitor.sv(47) @ 615000: uvm_test_top.env.agent.monitor [MON_WR] Detected WRITE : Addr = 1000002c, Data = 2a670731
# UVM_INFO /home/khang/Documents/SystemVerilog/Soc_RV32I/SoC/VERIFICATION/Driver/axi_driver.sv(67) @ 625000: uvm_test_top.env.agent.driver [DRV] Write Done: Addr=1000002c, Data=2a670731
# UVM_INFO /home/khang/Documents/SystemVerilog/Soc_RV32I/SoC/VERIFICATION/Monitor/axi_monitor.sv(47) @ 665000: uvm_test_top.env.agent.monitor [MON_WR] Detected WRITE : Addr = 10000030, Data = bd148d1c
# UVM_INFO /home/khang/Documents/SystemVerilog/Soc_RV32I/SoC/VERIFICATION/Driver/axi_driver.sv(67) @ 675000: uvm_test_top.env.agent.driver [DRV] Write Done: Addr=10000030, Data=bd148d1c
# UVM_INFO /home/khang/Documents/SystemVerilog/Soc_RV32I/SoC/VERIFICATION/Monitor/axi_monitor.sv(47) @ 715000: uvm_test_top.env.agent.monitor [MON_WR] Detected WRITE : Addr = 10000034, Data = b378cde4
# UVM_INFO /home/khang/Documents/SystemVerilog/Soc_RV32I/SoC/VERIFICATION/Driver/axi_driver.sv(67) @ 725000: uvm_test_top.env.agent.driver [DRV] Write Done: Addr=10000034, Data=b378cde4
# UVM_INFO /home/khang/Documents/SystemVerilog/Soc_RV32I/SoC/VERIFICATION/Monitor/axi_monitor.sv(47) @ 765000: uvm_test_top.env.agent.monitor [MON_WR] Detected WRITE : Addr = 10000038, Data = a955e85d
# UVM_INFO /home/khang/Documents/SystemVerilog/Soc_RV32I/SoC/VERIFICATION/Driver/axi_driver.sv(67) @ 775000: uvm_test_top.env.agent.driver [DRV] Write Done: Addr=10000038, Data=a955e85d
# UVM_INFO /home/khang/Documents/SystemVerilog/Soc_RV32I/SoC/VERIFICATION/Monitor/axi_monitor.sv(47) @ 815000: uvm_test_top.env.agent.monitor [MON_WR] Detected WRITE : Addr = 1000003c, Data = 17c8442f
# UVM_INFO /home/khang/Documents/SystemVerilog/Soc_RV32I/SoC/VERIFICATION/Driver/axi_driver.sv(67) @ 825000: uvm_test_top.env.agent.driver [DRV] Write Done: Addr=1000003c, Data=17c8442f
# UVM_INFO /home/khang/Documents/SystemVerilog/Soc_RV32I/SoC/VERIFICATION/Monitor/axi_monitor.sv(47) @ 865000: uvm_test_top.env.agent.monitor [MON_WR] Detected WRITE : Addr = 10000040, Data = 012c8de3
# UVM_INFO /home/khang/Documents/SystemVerilog/Soc_RV32I/SoC/VERIFICATION/Driver/axi_driver.sv(67) @ 875000: uvm_test_top.env.agent.driver [DRV] Write Done: Addr=10000040, Data=012c8de3
# UVM_INFO /home/khang/Documents/SystemVerilog/Soc_RV32I/SoC/VERIFICATION/Monitor/axi_monitor.sv(47) @ 915000: uvm_test_top.env.agent.monitor [MON_WR] Detected WRITE : Addr = 10000044, Data = 5cab6503
# UVM_INFO /home/khang/Documents/SystemVerilog/Soc_RV32I/SoC/VERIFICATION/Driver/axi_driver.sv(67) @ 925000: uvm_test_top.env.agent.driver [DRV] Write Done: Addr=10000044, Data=5cab6503
# UVM_INFO /home/khang/Documents/SystemVerilog/Soc_RV32I/SoC/VERIFICATION/Monitor/axi_monitor.sv(47) @ 965000: uvm_test_top.env.agent.monitor [MON_WR] Detected WRITE : Addr = 10000048, Data = 194dd870
# UVM_INFO /home/khang/Documents/SystemVerilog/Soc_RV32I/SoC/VERIFICATION/Driver/axi_driver.sv(67) @ 975000: uvm_test_top.env.agent.driver [DRV] Write Done: Addr=10000048, Data=194dd870
# UVM_INFO /home/khang/Documents/SystemVerilog/Soc_RV32I/SoC/VERIFICATION/Monitor/axi_monitor.sv(47) @ 1015000: uvm_test_top.env.agent.monitor [MON_WR] Detected WRITE : Addr = 1000004c, Data = 572e619b
# UVM_INFO /home/khang/Documents/SystemVerilog/Soc_RV32I/SoC/VERIFICATION/Driver/axi_driver.sv(67) @ 1025000: uvm_test_top.env.agent.driver [DRV] Write Done: Addr=1000004c, Data=572e619b
# UVM_INFO /home/khang/Documents/SystemVerilog/Soc_RV32I/SoC/VERIFICATION/Monitor/axi_monitor.sv(47) @ 1065000: uvm_test_top.env.agent.monitor [MON_WR] Detected WRITE : Addr = 10000050, Data = 1302ab17
# UVM_INFO /home/khang/Documents/SystemVerilog/Soc_RV32I/SoC/VERIFICATION/Driver/axi_driver.sv(67) @ 1075000: uvm_test_top.env.agent.driver [DRV] Write Done: Addr=10000050, Data=1302ab17
# UVM_INFO /home/khang/Documents/SystemVerilog/Soc_RV32I/SoC/VERIFICATION/Monitor/axi_monitor.sv(47) @ 1115000: uvm_test_top.env.agent.monitor [MON_WR] Detected WRITE : Addr = 10000054, Data = dad8bac9
# UVM_INFO /home/khang/Documents/SystemVerilog/Soc_RV32I/SoC/VERIFICATION/Driver/axi_driver.sv(67) @ 1125000: uvm_test_top.env.agent.driver [DRV] Write Done: Addr=10000054, Data=dad8bac9
# UVM_INFO /home/khang/Documents/SystemVerilog/Soc_RV32I/SoC/VERIFICATION/Monitor/axi_monitor.sv(47) @ 1165000: uvm_test_top.env.agent.monitor [MON_WR] Detected WRITE : Addr = 10000058, Data = ae02d3ac
# UVM_INFO /home/khang/Documents/SystemVerilog/Soc_RV32I/SoC/VERIFICATION/Driver/axi_driver.sv(67) @ 1175000: uvm_test_top.env.agent.driver [DRV] Write Done: Addr=10000058, Data=ae02d3ac
# UVM_INFO /home/khang/Documents/SystemVerilog/Soc_RV32I/SoC/VERIFICATION/Monitor/axi_monitor.sv(47) @ 1215000: uvm_test_top.env.agent.monitor [MON_WR] Detected WRITE : Addr = 1000005c, Data = ac40c3ed
# UVM_INFO /home/khang/Documents/SystemVerilog/Soc_RV32I/SoC/VERIFICATION/Driver/axi_driver.sv(67) @ 1225000: uvm_test_top.env.agent.driver [DRV] Write Done: Addr=1000005c, Data=ac40c3ed
# UVM_INFO /home/khang/Documents/SystemVerilog/Soc_RV32I/SoC/VERIFICATION/Monitor/axi_monitor.sv(47) @ 1265000: uvm_test_top.env.agent.monitor [MON_WR] Detected WRITE : Addr = 10000060, Data = 31f20928
# UVM_INFO /home/khang/Documents/SystemVerilog/Soc_RV32I/SoC/VERIFICATION/Driver/axi_driver.sv(67) @ 1275000: uvm_test_top.env.agent.driver [DRV] Write Done: Addr=10000060, Data=31f20928
# UVM_INFO /home/khang/Documents/SystemVerilog/Soc_RV32I/SoC/VERIFICATION/Monitor/axi_monitor.sv(47) @ 1315000: uvm_test_top.env.agent.monitor [MON_WR] Detected WRITE : Addr = 10000064, Data = 08d87d75
# UVM_INFO /home/khang/Documents/SystemVerilog/Soc_RV32I/SoC/VERIFICATION/Driver/axi_driver.sv(67) @ 1325000: uvm_test_top.env.agent.driver [DRV] Write Done: Addr=10000064, Data=08d87d75
# UVM_INFO /home/khang/Documents/SystemVerilog/Soc_RV32I/SoC/VERIFICATION/Monitor/axi_monitor.sv(47) @ 1365000: uvm_test_top.env.agent.monitor [MON_WR] Detected WRITE : Addr = 10000068, Data = d2a7852e
# UVM_INFO /home/khang/Documents/SystemVerilog/Soc_RV32I/SoC/VERIFICATION/Driver/axi_driver.sv(67) @ 1375000: uvm_test_top.env.agent.driver [DRV] Write Done: Addr=10000068, Data=d2a7852e
# UVM_INFO /home/khang/Documents/SystemVerilog/Soc_RV32I/SoC/VERIFICATION/Monitor/axi_monitor.sv(47) @ 1415000: uvm_test_top.env.agent.monitor [MON_WR] Detected WRITE : Addr = 1000006c, Data = 596b646c
# UVM_INFO /home/khang/Documents/SystemVerilog/Soc_RV32I/SoC/VERIFICATION/Driver/axi_driver.sv(67) @ 1425000: uvm_test_top.env.agent.driver [DRV] Write Done: Addr=1000006c, Data=596b646c
# UVM_INFO /home/khang/Documents/SystemVerilog/Soc_RV32I/SoC/VERIFICATION/Monitor/axi_monitor.sv(47) @ 1465000: uvm_test_top.env.agent.monitor [MON_WR] Detected WRITE : Addr = 10000070, Data = 80784484
# UVM_INFO /home/khang/Documents/SystemVerilog/Soc_RV32I/SoC/VERIFICATION/Driver/axi_driver.sv(67) @ 1475000: uvm_test_top.env.agent.driver [DRV] Write Done: Addr=10000070, Data=80784484
# UVM_INFO /home/khang/Documents/SystemVerilog/Soc_RV32I/SoC/VERIFICATION/Monitor/axi_monitor.sv(47) @ 1515000: uvm_test_top.env.agent.monitor [MON_WR] Detected WRITE : Addr = 10000074, Data = 04ae8b7b
# UVM_INFO /home/khang/Documents/SystemVerilog/Soc_RV32I/SoC/VERIFICATION/Driver/axi_driver.sv(67) @ 1525000: uvm_test_top.env.agent.driver [DRV] Write Done: Addr=10000074, Data=04ae8b7b
# UVM_INFO /home/khang/Documents/SystemVerilog/Soc_RV32I/SoC/VERIFICATION/Monitor/axi_monitor.sv(47) @ 1565000: uvm_test_top.env.agent.monitor [MON_WR] Detected WRITE : Addr = 10000078, Data = 2c767df0
# UVM_INFO /home/khang/Documents/SystemVerilog/Soc_RV32I/SoC/VERIFICATION/Driver/axi_driver.sv(67) @ 1575000: uvm_test_top.env.agent.driver [DRV] Write Done: Addr=10000078, Data=2c767df0
# UVM_INFO /home/khang/Documents/SystemVerilog/Soc_RV32I/SoC/VERIFICATION/Monitor/axi_monitor.sv(47) @ 1615000: uvm_test_top.env.agent.monitor [MON_WR] Detected WRITE : Addr = 1000007c, Data = 24388016
# UVM_INFO /home/khang/Documents/SystemVerilog/Soc_RV32I/SoC/VERIFICATION/Driver/axi_driver.sv(67) @ 1625000: uvm_test_top.env.agent.driver [DRV] Write Done: Addr=1000007c, Data=24388016
# UVM_INFO /home/khang/Documents/SystemVerilog/Soc_RV32I/SoC/VERIFICATION/Monitor/axi_monitor.sv(47) @ 1665000: uvm_test_top.env.agent.monitor [MON_WR] Detected WRITE : Addr = 10000080, Data = b8915360
# UVM_INFO /home/khang/Documents/SystemVerilog/Soc_RV32I/SoC/VERIFICATION/Driver/axi_driver.sv(67) @ 1675000: uvm_test_top.env.agent.driver [DRV] Write Done: Addr=10000080, Data=b8915360
# UVM_INFO /home/khang/Documents/SystemVerilog/Soc_RV32I/SoC/VERIFICATION/Monitor/axi_monitor.sv(47) @ 1715000: uvm_test_top.env.agent.monitor [MON_WR] Detected WRITE : Addr = 10000084, Data = 6b995f33
# UVM_INFO /home/khang/Documents/SystemVerilog/Soc_RV32I/SoC/VERIFICATION/Driver/axi_driver.sv(67) @ 1725000: uvm_test_top.env.agent.driver [DRV] Write Done: Addr=10000084, Data=6b995f33
# UVM_INFO /home/khang/Documents/SystemVerilog/Soc_RV32I/SoC/VERIFICATION/Monitor/axi_monitor.sv(47) @ 1765000: uvm_test_top.env.agent.monitor [MON_WR] Detected WRITE : Addr = 10000088, Data = d217ac8f
# UVM_INFO /home/khang/Documents/SystemVerilog/Soc_RV32I/SoC/VERIFICATION/Driver/axi_driver.sv(67) @ 1775000: uvm_test_top.env.agent.driver [DRV] Write Done: Addr=10000088, Data=d217ac8f
# UVM_INFO /home/khang/Documents/SystemVerilog/Soc_RV32I/SoC/VERIFICATION/Monitor/axi_monitor.sv(47) @ 1815000: uvm_test_top.env.agent.monitor [MON_WR] Detected WRITE : Addr = 1000008c, Data = 32c3cd88
# UVM_INFO /home/khang/Documents/SystemVerilog/Soc_RV32I/SoC/VERIFICATION/Driver/axi_driver.sv(67) @ 1825000: uvm_test_top.env.agent.driver [DRV] Write Done: Addr=1000008c, Data=32c3cd88
# UVM_INFO /home/khang/Documents/SystemVerilog/Soc_RV32I/SoC/VERIFICATION/Monitor/axi_monitor.sv(47) @ 1865000: uvm_test_top.env.agent.monitor [MON_WR] Detected WRITE : Addr = 10000090, Data = b6274d07
# UVM_INFO /home/khang/Documents/SystemVerilog/Soc_RV32I/SoC/VERIFICATION/Driver/axi_driver.sv(67) @ 1875000: uvm_test_top.env.agent.driver [DRV] Write Done: Addr=10000090, Data=b6274d07
# UVM_INFO /home/khang/Documents/SystemVerilog/Soc_RV32I/SoC/VERIFICATION/Monitor/axi_monitor.sv(47) @ 1915000: uvm_test_top.env.agent.monitor [MON_WR] Detected WRITE : Addr = 10000094, Data = 5c52d0a6
# UVM_INFO /home/khang/Documents/SystemVerilog/Soc_RV32I/SoC/VERIFICATION/Driver/axi_driver.sv(67) @ 1925000: uvm_test_top.env.agent.driver [DRV] Write Done: Addr=10000094, Data=5c52d0a6
# UVM_INFO /home/khang/Documents/SystemVerilog/Soc_RV32I/SoC/VERIFICATION/Monitor/axi_monitor.sv(47) @ 1965000: uvm_test_top.env.agent.monitor [MON_WR] Detected WRITE : Addr = 10000098, Data = 5e34386e
# UVM_INFO /home/khang/Documents/SystemVerilog/Soc_RV32I/SoC/VERIFICATION/Driver/axi_driver.sv(67) @ 1975000: uvm_test_top.env.agent.driver [DRV] Write Done: Addr=10000098, Data=5e34386e
# UVM_INFO /home/khang/Documents/SystemVerilog/Soc_RV32I/SoC/VERIFICATION/Monitor/axi_monitor.sv(47) @ 2015000: uvm_test_top.env.agent.monitor [MON_WR] Detected WRITE : Addr = 1000009c, Data = 4463a73e
# UVM_INFO /home/khang/Documents/SystemVerilog/Soc_RV32I/SoC/VERIFICATION/Driver/axi_driver.sv(67) @ 2025000: uvm_test_top.env.agent.driver [DRV] Write Done: Addr=1000009c, Data=4463a73e
# UVM_INFO /home/khang/Documents/SystemVerilog/Soc_RV32I/SoC/VERIFICATION/Monitor/axi_monitor.sv(47) @ 2065000: uvm_test_top.env.agent.monitor [MON_WR] Detected WRITE : Addr = 100000a0, Data = 9f094b72
# UVM_INFO /home/khang/Documents/SystemVerilog/Soc_RV32I/SoC/VERIFICATION/Driver/axi_driver.sv(67) @ 2075000: uvm_test_top.env.agent.driver [DRV] Write Done: Addr=100000a0, Data=9f094b72
# UVM_INFO /home/khang/Documents/SystemVerilog/Soc_RV32I/SoC/VERIFICATION/Monitor/axi_monitor.sv(47) @ 2115000: uvm_test_top.env.agent.monitor [MON_WR] Detected WRITE : Addr = 100000a4, Data = 27810683
# UVM_INFO /home/khang/Documents/SystemVerilog/Soc_RV32I/SoC/VERIFICATION/Driver/axi_driver.sv(67) @ 2125000: uvm_test_top.env.agent.driver [DRV] Write Done: Addr=100000a4, Data=27810683
# UVM_INFO /home/khang/Documents/SystemVerilog/Soc_RV32I/SoC/VERIFICATION/Monitor/axi_monitor.sv(47) @ 2165000: uvm_test_top.env.agent.monitor [MON_WR] Detected WRITE : Addr = 100000a8, Data = f89771be
# UVM_INFO /home/khang/Documents/SystemVerilog/Soc_RV32I/SoC/VERIFICATION/Driver/axi_driver.sv(67) @ 2175000: uvm_test_top.env.agent.driver [DRV] Write Done: Addr=100000a8, Data=f89771be
# UVM_INFO /home/khang/Documents/SystemVerilog/Soc_RV32I/SoC/VERIFICATION/Monitor/axi_monitor.sv(47) @ 2215000: uvm_test_top.env.agent.monitor [MON_WR] Detected WRITE : Addr = 100000ac, Data = 14a38068
# UVM_INFO /home/khang/Documents/SystemVerilog/Soc_RV32I/SoC/VERIFICATION/Driver/axi_driver.sv(67) @ 2225000: uvm_test_top.env.agent.driver [DRV] Write Done: Addr=100000ac, Data=14a38068
# UVM_INFO /home/khang/Documents/SystemVerilog/Soc_RV32I/SoC/VERIFICATION/Monitor/axi_monitor.sv(47) @ 2265000: uvm_test_top.env.agent.monitor [MON_WR] Detected WRITE : Addr = 100000b0, Data = 35db287e
# UVM_INFO /home/khang/Documents/SystemVerilog/Soc_RV32I/SoC/VERIFICATION/Driver/axi_driver.sv(67) @ 2275000: uvm_test_top.env.agent.driver [DRV] Write Done: Addr=100000b0, Data=35db287e
# UVM_INFO /home/khang/Documents/SystemVerilog/Soc_RV32I/SoC/VERIFICATION/Monitor/axi_monitor.sv(47) @ 2315000: uvm_test_top.env.agent.monitor [MON_WR] Detected WRITE : Addr = 100000b4, Data = 7944cb0c
# UVM_INFO /home/khang/Documents/SystemVerilog/Soc_RV32I/SoC/VERIFICATION/Driver/axi_driver.sv(67) @ 2325000: uvm_test_top.env.agent.driver [DRV] Write Done: Addr=100000b4, Data=7944cb0c
# UVM_INFO /home/khang/Documents/SystemVerilog/Soc_RV32I/SoC/VERIFICATION/Monitor/axi_monitor.sv(47) @ 2365000: uvm_test_top.env.agent.monitor [MON_WR] Detected WRITE : Addr = 100000b8, Data = fd68cee1
# UVM_INFO /home/khang/Documents/SystemVerilog/Soc_RV32I/SoC/VERIFICATION/Driver/axi_driver.sv(67) @ 2375000: uvm_test_top.env.agent.driver [DRV] Write Done: Addr=100000b8, Data=fd68cee1
# UVM_INFO /home/khang/Documents/SystemVerilog/Soc_RV32I/SoC/VERIFICATION/Monitor/axi_monitor.sv(47) @ 2415000: uvm_test_top.env.agent.monitor [MON_WR] Detected WRITE : Addr = 100000bc, Data = 199738ec
# UVM_INFO /home/khang/Documents/SystemVerilog/Soc_RV32I/SoC/VERIFICATION/Driver/axi_driver.sv(67) @ 2425000: uvm_test_top.env.agent.driver [DRV] Write Done: Addr=100000bc, Data=199738ec
# UVM_INFO /home/khang/Documents/SystemVerilog/Soc_RV32I/SoC/VERIFICATION/Monitor/axi_monitor.sv(47) @ 2465000: uvm_test_top.env.agent.monitor [MON_WR] Detected WRITE : Addr = 100000c0, Data = b38e8bf5
# UVM_INFO /home/khang/Documents/SystemVerilog/Soc_RV32I/SoC/VERIFICATION/Driver/axi_driver.sv(67) @ 2475000: uvm_test_top.env.agent.driver [DRV] Write Done: Addr=100000c0, Data=b38e8bf5
# UVM_INFO /home/khang/Documents/SystemVerilog/Soc_RV32I/SoC/VERIFICATION/Monitor/axi_monitor.sv(47) @ 2515000: uvm_test_top.env.agent.monitor [MON_WR] Detected WRITE : Addr = 100000c4, Data = d7aab112
# UVM_INFO /home/khang/Documents/SystemVerilog/Soc_RV32I/SoC/VERIFICATION/Driver/axi_driver.sv(67) @ 2525000: uvm_test_top.env.agent.driver [DRV] Write Done: Addr=100000c4, Data=d7aab112
# UVM_INFO /home/khang/Documents/SystemVerilog/Soc_RV32I/SoC/VERIFICATION/Monitor/axi_monitor.sv(47) @ 2565000: uvm_test_top.env.agent.monitor [MON_WR] Detected WRITE : Addr = 100000c8, Data = 034dff02
# UVM_INFO /home/khang/Documents/SystemVerilog/Soc_RV32I/SoC/VERIFICATION/Driver/axi_driver.sv(67) @ 2575000: uvm_test_top.env.agent.driver [DRV] Write Done: Addr=100000c8, Data=034dff02
# UVM_INFO /home/khang/Documents/SystemVerilog/Soc_RV32I/SoC/VERIFICATION/Monitor/axi_monitor.sv(47) @ 2615000: uvm_test_top.env.agent.monitor [MON_WR] Detected WRITE : Addr = 100000cc, Data = 88c7859e
# UVM_INFO /home/khang/Documents/SystemVerilog/Soc_RV32I/SoC/VERIFICATION/Driver/axi_driver.sv(67) @ 2625000: uvm_test_top.env.agent.driver [DRV] Write Done: Addr=100000cc, Data=88c7859e
# UVM_INFO /home/khang/Documents/SystemVerilog/Soc_RV32I/SoC/VERIFICATION/Monitor/axi_monitor.sv(47) @ 2665000: uvm_test_top.env.agent.monitor [MON_WR] Detected WRITE : Addr = 100000d0, Data = 18aa7695
# UVM_INFO /home/khang/Documents/SystemVerilog/Soc_RV32I/SoC/VERIFICATION/Driver/axi_driver.sv(67) @ 2675000: uvm_test_top.env.agent.driver [DRV] Write Done: Addr=100000d0, Data=18aa7695
# UVM_INFO /home/khang/Documents/SystemVerilog/Soc_RV32I/SoC/VERIFICATION/Monitor/axi_monitor.sv(47) @ 2715000: uvm_test_top.env.agent.monitor [MON_WR] Detected WRITE : Addr = 100000d4, Data = c719bd98
# UVM_INFO /home/khang/Documents/SystemVerilog/Soc_RV32I/SoC/VERIFICATION/Driver/axi_driver.sv(67) @ 2725000: uvm_test_top.env.agent.driver [DRV] Write Done: Addr=100000d4, Data=c719bd98
# UVM_INFO /home/khang/Documents/SystemVerilog/Soc_RV32I/SoC/VERIFICATION/Monitor/axi_monitor.sv(47) @ 2765000: uvm_test_top.env.agent.monitor [MON_WR] Detected WRITE : Addr = 100000d8, Data = 8bd3f3e8
# UVM_INFO /home/khang/Documents/SystemVerilog/Soc_RV32I/SoC/VERIFICATION/Driver/axi_driver.sv(67) @ 2775000: uvm_test_top.env.agent.driver [DRV] Write Done: Addr=100000d8, Data=8bd3f3e8
# UVM_INFO /home/khang/Documents/SystemVerilog/Soc_RV32I/SoC/VERIFICATION/Monitor/axi_monitor.sv(47) @ 2815000: uvm_test_top.env.agent.monitor [MON_WR] Detected WRITE : Addr = 100000dc, Data = 1a3b6b62
# UVM_INFO /home/khang/Documents/SystemVerilog/Soc_RV32I/SoC/VERIFICATION/Driver/axi_driver.sv(67) @ 2825000: uvm_test_top.env.agent.driver [DRV] Write Done: Addr=100000dc, Data=1a3b6b62
# UVM_INFO /home/khang/Documents/SystemVerilog/Soc_RV32I/SoC/VERIFICATION/Monitor/axi_monitor.sv(47) @ 2865000: uvm_test_top.env.agent.monitor [MON_WR] Detected WRITE : Addr = 100000e0, Data = c63e4809
# UVM_INFO /home/khang/Documents/SystemVerilog/Soc_RV32I/SoC/VERIFICATION/Driver/axi_driver.sv(67) @ 2875000: uvm_test_top.env.agent.driver [DRV] Write Done: Addr=100000e0, Data=c63e4809
# UVM_INFO /home/khang/Documents/SystemVerilog/Soc_RV32I/SoC/VERIFICATION/Monitor/axi_monitor.sv(47) @ 2915000: uvm_test_top.env.agent.monitor [MON_WR] Detected WRITE : Addr = 100000e4, Data = 9ef036a5
# UVM_INFO /home/khang/Documents/SystemVerilog/Soc_RV32I/SoC/VERIFICATION/Driver/axi_driver.sv(67) @ 2925000: uvm_test_top.env.agent.driver [DRV] Write Done: Addr=100000e4, Data=9ef036a5
# UVM_INFO /home/khang/Documents/SystemVerilog/Soc_RV32I/SoC/VERIFICATION/Monitor/axi_monitor.sv(47) @ 2965000: uvm_test_top.env.agent.monitor [MON_WR] Detected WRITE : Addr = 100000e8, Data = dfbcaa75
# UVM_INFO /home/khang/Documents/SystemVerilog/Soc_RV32I/SoC/VERIFICATION/Driver/axi_driver.sv(67) @ 2975000: uvm_test_top.env.agent.driver [DRV] Write Done: Addr=100000e8, Data=dfbcaa75
# UVM_INFO /home/khang/Documents/SystemVerilog/Soc_RV32I/SoC/VERIFICATION/Monitor/axi_monitor.sv(47) @ 3015000: uvm_test_top.env.agent.monitor [MON_WR] Detected WRITE : Addr = 100000ec, Data = 886c4e87
# UVM_INFO /home/khang/Documents/SystemVerilog/Soc_RV32I/SoC/VERIFICATION/Driver/axi_driver.sv(67) @ 3025000: uvm_test_top.env.agent.driver [DRV] Write Done: Addr=100000ec, Data=886c4e87
# UVM_INFO /home/khang/Documents/SystemVerilog/Soc_RV32I/SoC/VERIFICATION/Monitor/axi_monitor.sv(47) @ 3065000: uvm_test_top.env.agent.monitor [MON_WR] Detected WRITE : Addr = 100000f0, Data = 38415994
# UVM_INFO /home/khang/Documents/SystemVerilog/Soc_RV32I/SoC/VERIFICATION/Driver/axi_driver.sv(67) @ 3075000: uvm_test_top.env.agent.driver [DRV] Write Done: Addr=100000f0, Data=38415994
# UVM_INFO /home/khang/Documents/SystemVerilog/Soc_RV32I/SoC/VERIFICATION/Monitor/axi_monitor.sv(47) @ 3115000: uvm_test_top.env.agent.monitor [MON_WR] Detected WRITE : Addr = 100000f4, Data = e9e37742
# UVM_INFO /home/khang/Documents/SystemVerilog/Soc_RV32I/SoC/VERIFICATION/Driver/axi_driver.sv(67) @ 3125000: uvm_test_top.env.agent.driver [DRV] Write Done: Addr=100000f4, Data=e9e37742
# UVM_INFO /home/khang/Documents/SystemVerilog/Soc_RV32I/SoC/VERIFICATION/Monitor/axi_monitor.sv(47) @ 3165000: uvm_test_top.env.agent.monitor [MON_WR] Detected WRITE : Addr = 100000f8, Data = f5423dd6
# UVM_INFO /home/khang/Documents/SystemVerilog/Soc_RV32I/SoC/VERIFICATION/Driver/axi_driver.sv(67) @ 3175000: uvm_test_top.env.agent.driver [DRV] Write Done: Addr=100000f8, Data=f5423dd6
# UVM_INFO /home/khang/Documents/SystemVerilog/Soc_RV32I/SoC/VERIFICATION/Monitor/axi_monitor.sv(47) @ 3215000: uvm_test_top.env.agent.monitor [MON_WR] Detected WRITE : Addr = 100000fc, Data = 41c2fb41
# UVM_INFO /home/khang/Documents/SystemVerilog/Soc_RV32I/SoC/VERIFICATION/Driver/axi_driver.sv(67) @ 3225000: uvm_test_top.env.agent.driver [DRV] Write Done: Addr=100000fc, Data=41c2fb41
# UVM_INFO /home/khang/Documents/SystemVerilog/Soc_RV32I/SoC/VERIFICATION/Monitor/axi_monitor.sv(47) @ 3265000: uvm_test_top.env.agent.monitor [MON_WR] Detected WRITE : Addr = 10000100, Data = 2da6d4b7
# UVM_INFO /home/khang/Documents/SystemVerilog/Soc_RV32I/SoC/VERIFICATION/Driver/axi_driver.sv(67) @ 3275000: uvm_test_top.env.agent.driver [DRV] Write Done: Addr=10000100, Data=2da6d4b7
# UVM_INFO /home/khang/Documents/SystemVerilog/Soc_RV32I/SoC/VERIFICATION/Monitor/axi_monitor.sv(47) @ 3315000: uvm_test_top.env.agent.monitor [MON_WR] Detected WRITE : Addr = 10000104, Data = 9c7cd0d8
# UVM_INFO /home/khang/Documents/SystemVerilog/Soc_RV32I/SoC/VERIFICATION/Driver/axi_driver.sv(67) @ 3325000: uvm_test_top.env.agent.driver [DRV] Write Done: Addr=10000104, Data=9c7cd0d8
# UVM_INFO /home/khang/Documents/SystemVerilog/Soc_RV32I/SoC/VERIFICATION/Monitor/axi_monitor.sv(47) @ 3365000: uvm_test_top.env.agent.monitor [MON_WR] Detected WRITE : Addr = 10000108, Data = 82cfd81c
# UVM_INFO /home/khang/Documents/SystemVerilog/Soc_RV32I/SoC/VERIFICATION/Driver/axi_driver.sv(67) @ 3375000: uvm_test_top.env.agent.driver [DRV] Write Done: Addr=10000108, Data=82cfd81c
# UVM_INFO /home/khang/Documents/SystemVerilog/Soc_RV32I/SoC/VERIFICATION/Monitor/axi_monitor.sv(47) @ 3415000: uvm_test_top.env.agent.monitor [MON_WR] Detected WRITE : Addr = 1000010c, Data = 4f78a7a8
# UVM_INFO /home/khang/Documents/SystemVerilog/Soc_RV32I/SoC/VERIFICATION/Driver/axi_driver.sv(67) @ 3425000: uvm_test_top.env.agent.driver [DRV] Write Done: Addr=1000010c, Data=4f78a7a8
# UVM_INFO /home/khang/Documents/SystemVerilog/Soc_RV32I/SoC/VERIFICATION/Monitor/axi_monitor.sv(47) @ 3465000: uvm_test_top.env.agent.monitor [MON_WR] Detected WRITE : Addr = 10000110, Data = e8cf91ad
# UVM_INFO /home/khang/Documents/SystemVerilog/Soc_RV32I/SoC/VERIFICATION/Driver/axi_driver.sv(67) @ 3475000: uvm_test_top.env.agent.driver [DRV] Write Done: Addr=10000110, Data=e8cf91ad
# UVM_INFO /home/khang/Documents/SystemVerilog/Soc_RV32I/SoC/VERIFICATION/Monitor/axi_monitor.sv(47) @ 3515000: uvm_test_top.env.agent.monitor [MON_WR] Detected WRITE : Addr = 10000114, Data = f73b63d1
# UVM_INFO /home/khang/Documents/SystemVerilog/Soc_RV32I/SoC/VERIFICATION/Driver/axi_driver.sv(67) @ 3525000: uvm_test_top.env.agent.driver [DRV] Write Done: Addr=10000114, Data=f73b63d1
# UVM_INFO /home/khang/Documents/SystemVerilog/Soc_RV32I/SoC/VERIFICATION/Monitor/axi_monitor.sv(47) @ 3565000: uvm_test_top.env.agent.monitor [MON_WR] Detected WRITE : Addr = 10000118, Data = cef1c7bc
# UVM_INFO /home/khang/Documents/SystemVerilog/Soc_RV32I/SoC/VERIFICATION/Driver/axi_driver.sv(67) @ 3575000: uvm_test_top.env.agent.driver [DRV] Write Done: Addr=10000118, Data=cef1c7bc
# UVM_INFO /home/khang/Documents/SystemVerilog/Soc_RV32I/SoC/VERIFICATION/Monitor/axi_monitor.sv(47) @ 3615000: uvm_test_top.env.agent.monitor [MON_WR] Detected WRITE : Addr = 1000011c, Data = ba4c048c
# UVM_INFO /home/khang/Documents/SystemVerilog/Soc_RV32I/SoC/VERIFICATION/Driver/axi_driver.sv(67) @ 3625000: uvm_test_top.env.agent.driver [DRV] Write Done: Addr=1000011c, Data=ba4c048c
# UVM_INFO /home/khang/Documents/SystemVerilog/Soc_RV32I/SoC/VERIFICATION/Monitor/axi_monitor.sv(47) @ 3665000: uvm_test_top.env.agent.monitor [MON_WR] Detected WRITE : Addr = 10000120, Data = 3c8172a5
# UVM_INFO /home/khang/Documents/SystemVerilog/Soc_RV32I/SoC/VERIFICATION/Driver/axi_driver.sv(67) @ 3675000: uvm_test_top.env.agent.driver [DRV] Write Done: Addr=10000120, Data=3c8172a5
# UVM_INFO /home/khang/Documents/SystemVerilog/Soc_RV32I/SoC/VERIFICATION/Monitor/axi_monitor.sv(47) @ 3715000: uvm_test_top.env.agent.monitor [MON_WR] Detected WRITE : Addr = 10000124, Data = 5c5d99a8
# UVM_INFO /home/khang/Documents/SystemVerilog/Soc_RV32I/SoC/VERIFICATION/Driver/axi_driver.sv(67) @ 3725000: uvm_test_top.env.agent.driver [DRV] Write Done: Addr=10000124, Data=5c5d99a8
# UVM_INFO /home/khang/Documents/SystemVerilog/Soc_RV32I/SoC/VERIFICATION/Monitor/axi_monitor.sv(47) @ 3765000: uvm_test_top.env.agent.monitor [MON_WR] Detected WRITE : Addr = 10000128, Data = d0a45535
# UVM_INFO /home/khang/Documents/SystemVerilog/Soc_RV32I/SoC/VERIFICATION/Driver/axi_driver.sv(67) @ 3775000: uvm_test_top.env.agent.driver [DRV] Write Done: Addr=10000128, Data=d0a45535
# UVM_INFO /home/khang/Documents/SystemVerilog/Soc_RV32I/SoC/VERIFICATION/Monitor/axi_monitor.sv(47) @ 3815000: uvm_test_top.env.agent.monitor [MON_WR] Detected WRITE : Addr = 1000012c, Data = e2d3e2de
# UVM_INFO /home/khang/Documents/SystemVerilog/Soc_RV32I/SoC/VERIFICATION/Driver/axi_driver.sv(67) @ 3825000: uvm_test_top.env.agent.driver [DRV] Write Done: Addr=1000012c, Data=e2d3e2de
# UVM_INFO /home/khang/Documents/SystemVerilog/Soc_RV32I/SoC/VERIFICATION/Monitor/axi_monitor.sv(47) @ 3865000: uvm_test_top.env.agent.monitor [MON_WR] Detected WRITE : Addr = 10000130, Data = b217a977
# UVM_INFO /home/khang/Documents/SystemVerilog/Soc_RV32I/SoC/VERIFICATION/Driver/axi_driver.sv(67) @ 3875000: uvm_test_top.env.agent.driver [DRV] Write Done: Addr=10000130, Data=b217a977
# UVM_INFO /home/khang/Documents/SystemVerilog/Soc_RV32I/SoC/VERIFICATION/Monitor/axi_monitor.sv(47) @ 3915000: uvm_test_top.env.agent.monitor [MON_WR] Detected WRITE : Addr = 10000134, Data = e295cdbf
# UVM_INFO /home/khang/Documents/SystemVerilog/Soc_RV32I/SoC/VERIFICATION/Driver/axi_driver.sv(67) @ 3925000: uvm_test_top.env.agent.driver [DRV] Write Done: Addr=10000134, Data=e295cdbf
# UVM_INFO /home/khang/Documents/SystemVerilog/Soc_RV32I/SoC/VERIFICATION/Monitor/axi_monitor.sv(47) @ 3965000: uvm_test_top.env.agent.monitor [MON_WR] Detected WRITE : Addr = 10000138, Data = a9ca5a72
# UVM_INFO /home/khang/Documents/SystemVerilog/Soc_RV32I/SoC/VERIFICATION/Driver/axi_driver.sv(67) @ 3975000: uvm_test_top.env.agent.driver [DRV] Write Done: Addr=10000138, Data=a9ca5a72
# UVM_INFO /home/khang/Documents/SystemVerilog/Soc_RV32I/SoC/VERIFICATION/Monitor/axi_monitor.sv(47) @ 4015000: uvm_test_top.env.agent.monitor [MON_WR] Detected WRITE : Addr = 1000013c, Data = b479cca1
# UVM_INFO /home/khang/Documents/SystemVerilog/Soc_RV32I/SoC/VERIFICATION/Driver/axi_driver.sv(67) @ 4025000: uvm_test_top.env.agent.driver [DRV] Write Done: Addr=1000013c, Data=b479cca1
# UVM_INFO /home/khang/Documents/SystemVerilog/Soc_RV32I/SoC/VERIFICATION/Monitor/axi_monitor.sv(47) @ 4065000: uvm_test_top.env.agent.monitor [MON_WR] Detected WRITE : Addr = 10000140, Data = 0288060b
# UVM_INFO /home/khang/Documents/SystemVerilog/Soc_RV32I/SoC/VERIFICATION/Driver/axi_driver.sv(67) @ 4075000: uvm_test_top.env.agent.driver [DRV] Write Done: Addr=10000140, Data=0288060b
# UVM_INFO /home/khang/Documents/SystemVerilog/Soc_RV32I/SoC/VERIFICATION/Monitor/axi_monitor.sv(47) @ 4115000: uvm_test_top.env.agent.monitor [MON_WR] Detected WRITE : Addr = 10000144, Data = 93a5dfb7
# UVM_INFO /home/khang/Documents/SystemVerilog/Soc_RV32I/SoC/VERIFICATION/Driver/axi_driver.sv(67) @ 4125000: uvm_test_top.env.agent.driver [DRV] Write Done: Addr=10000144, Data=93a5dfb7
# UVM_INFO /home/khang/Documents/SystemVerilog/Soc_RV32I/SoC/VERIFICATION/Monitor/axi_monitor.sv(47) @ 4165000: uvm_test_top.env.agent.monitor [MON_WR] Detected WRITE : Addr = 10000148, Data = f4915c88
# UVM_INFO /home/khang/Documents/SystemVerilog/Soc_RV32I/SoC/VERIFICATION/Driver/axi_driver.sv(67) @ 4175000: uvm_test_top.env.agent.driver [DRV] Write Done: Addr=10000148, Data=f4915c88
# UVM_INFO /home/khang/Documents/SystemVerilog/Soc_RV32I/SoC/VERIFICATION/Monitor/axi_monitor.sv(47) @ 4215000: uvm_test_top.env.agent.monitor [MON_WR] Detected WRITE : Addr = 1000014c, Data = 50ce8699
# UVM_INFO /home/khang/Documents/SystemVerilog/Soc_RV32I/SoC/VERIFICATION/Driver/axi_driver.sv(67) @ 4225000: uvm_test_top.env.agent.driver [DRV] Write Done: Addr=1000014c, Data=50ce8699
# UVM_INFO /home/khang/Documents/SystemVerilog/Soc_RV32I/SoC/VERIFICATION/Monitor/axi_monitor.sv(47) @ 4265000: uvm_test_top.env.agent.monitor [MON_WR] Detected WRITE : Addr = 10000150, Data = 3cfcba66
# UVM_INFO /home/khang/Documents/SystemVerilog/Soc_RV32I/SoC/VERIFICATION/Driver/axi_driver.sv(67) @ 4275000: uvm_test_top.env.agent.driver [DRV] Write Done: Addr=10000150, Data=3cfcba66
# UVM_INFO /home/khang/Documents/SystemVerilog/Soc_RV32I/SoC/VERIFICATION/Monitor/axi_monitor.sv(47) @ 4315000: uvm_test_top.env.agent.monitor [MON_WR] Detected WRITE : Addr = 10000154, Data = b0a21f66
# UVM_INFO /home/khang/Documents/SystemVerilog/Soc_RV32I/SoC/VERIFICATION/Driver/axi_driver.sv(67) @ 4325000: uvm_test_top.env.agent.driver [DRV] Write Done: Addr=10000154, Data=b0a21f66
# UVM_INFO /home/khang/Documents/SystemVerilog/Soc_RV32I/SoC/VERIFICATION/Monitor/axi_monitor.sv(47) @ 4365000: uvm_test_top.env.agent.monitor [MON_WR] Detected WRITE : Addr = 10000158, Data = eb8c1f78
# UVM_INFO /home/khang/Documents/SystemVerilog/Soc_RV32I/SoC/VERIFICATION/Driver/axi_driver.sv(67) @ 4375000: uvm_test_top.env.agent.driver [DRV] Write Done: Addr=10000158, Data=eb8c1f78
# UVM_INFO /home/khang/Documents/SystemVerilog/Soc_RV32I/SoC/VERIFICATION/Monitor/axi_monitor.sv(47) @ 4415000: uvm_test_top.env.agent.monitor [MON_WR] Detected WRITE : Addr = 1000015c, Data = 38c6d2e9
# UVM_INFO /home/khang/Documents/SystemVerilog/Soc_RV32I/SoC/VERIFICATION/Driver/axi_driver.sv(67) @ 4425000: uvm_test_top.env.agent.driver [DRV] Write Done: Addr=1000015c, Data=38c6d2e9
# UVM_INFO /home/khang/Documents/SystemVerilog/Soc_RV32I/SoC/VERIFICATION/Monitor/axi_monitor.sv(47) @ 4465000: uvm_test_top.env.agent.monitor [MON_WR] Detected WRITE : Addr = 10000160, Data = d7b44967
# UVM_INFO /home/khang/Documents/SystemVerilog/Soc_RV32I/SoC/VERIFICATION/Driver/axi_driver.sv(67) @ 4475000: uvm_test_top.env.agent.driver [DRV] Write Done: Addr=10000160, Data=d7b44967
# UVM_INFO /home/khang/Documents/SystemVerilog/Soc_RV32I/SoC/VERIFICATION/Monitor/axi_monitor.sv(47) @ 4515000: uvm_test_top.env.agent.monitor [MON_WR] Detected WRITE : Addr = 10000164, Data = e627fe9d
# UVM_INFO /home/khang/Documents/SystemVerilog/Soc_RV32I/SoC/VERIFICATION/Driver/axi_driver.sv(67) @ 4525000: uvm_test_top.env.agent.driver [DRV] Write Done: Addr=10000164, Data=e627fe9d
# UVM_INFO /home/khang/Documents/SystemVerilog/Soc_RV32I/SoC/VERIFICATION/Monitor/axi_monitor.sv(47) @ 4565000: uvm_test_top.env.agent.monitor [MON_WR] Detected WRITE : Addr = 10000168, Data = 45b30276
# UVM_INFO /home/khang/Documents/SystemVerilog/Soc_RV32I/SoC/VERIFICATION/Driver/axi_driver.sv(67) @ 4575000: uvm_test_top.env.agent.driver [DRV] Write Done: Addr=10000168, Data=45b30276
# UVM_INFO /home/khang/Documents/SystemVerilog/Soc_RV32I/SoC/VERIFICATION/Monitor/axi_monitor.sv(47) @ 4615000: uvm_test_top.env.agent.monitor [MON_WR] Detected WRITE : Addr = 1000016c, Data = d407b1e0
# UVM_INFO /home/khang/Documents/SystemVerilog/Soc_RV32I/SoC/VERIFICATION/Driver/axi_driver.sv(67) @ 4625000: uvm_test_top.env.agent.driver [DRV] Write Done: Addr=1000016c, Data=d407b1e0
# UVM_INFO /home/khang/Documents/SystemVerilog/Soc_RV32I/SoC/VERIFICATION/Monitor/axi_monitor.sv(47) @ 4665000: uvm_test_top.env.agent.monitor [MON_WR] Detected WRITE : Addr = 10000170, Data = dbeab522
# UVM_INFO /home/khang/Documents/SystemVerilog/Soc_RV32I/SoC/VERIFICATION/Driver/axi_driver.sv(67) @ 4675000: uvm_test_top.env.agent.driver [DRV] Write Done: Addr=10000170, Data=dbeab522
# UVM_INFO /home/khang/Documents/SystemVerilog/Soc_RV32I/SoC/VERIFICATION/Monitor/axi_monitor.sv(47) @ 4715000: uvm_test_top.env.agent.monitor [MON_WR] Detected WRITE : Addr = 10000174, Data = 9184cb48
# UVM_INFO /home/khang/Documents/SystemVerilog/Soc_RV32I/SoC/VERIFICATION/Driver/axi_driver.sv(67) @ 4725000: uvm_test_top.env.agent.driver [DRV] Write Done: Addr=10000174, Data=9184cb48
# UVM_INFO /home/khang/Documents/SystemVerilog/Soc_RV32I/SoC/VERIFICATION/Monitor/axi_monitor.sv(47) @ 4765000: uvm_test_top.env.agent.monitor [MON_WR] Detected WRITE : Addr = 10000178, Data = 0ea3f5cb
# UVM_INFO /home/khang/Documents/SystemVerilog/Soc_RV32I/SoC/VERIFICATION/Driver/axi_driver.sv(67) @ 4775000: uvm_test_top.env.agent.driver [DRV] Write Done: Addr=10000178, Data=0ea3f5cb
# UVM_INFO /home/khang/Documents/SystemVerilog/Soc_RV32I/SoC/VERIFICATION/Monitor/axi_monitor.sv(47) @ 4815000: uvm_test_top.env.agent.monitor [MON_WR] Detected WRITE : Addr = 1000017c, Data = dfba11c8
# UVM_INFO /home/khang/Documents/SystemVerilog/Soc_RV32I/SoC/VERIFICATION/Driver/axi_driver.sv(67) @ 4825000: uvm_test_top.env.agent.driver [DRV] Write Done: Addr=1000017c, Data=dfba11c8
# UVM_INFO /home/khang/Documents/SystemVerilog/Soc_RV32I/SoC/VERIFICATION/Monitor/axi_monitor.sv(47) @ 4865000: uvm_test_top.env.agent.monitor [MON_WR] Detected WRITE : Addr = 10000180, Data = f0c6fa71
# UVM_INFO /home/khang/Documents/SystemVerilog/Soc_RV32I/SoC/VERIFICATION/Driver/axi_driver.sv(67) @ 4875000: uvm_test_top.env.agent.driver [DRV] Write Done: Addr=10000180, Data=f0c6fa71
# UVM_INFO /home/khang/Documents/SystemVerilog/Soc_RV32I/SoC/VERIFICATION/Monitor/axi_monitor.sv(47) @ 4915000: uvm_test_top.env.agent.monitor [MON_WR] Detected WRITE : Addr = 10000184, Data = c3c10d99
# UVM_INFO /home/khang/Documents/SystemVerilog/Soc_RV32I/SoC/VERIFICATION/Driver/axi_driver.sv(67) @ 4925000: uvm_test_top.env.agent.driver [DRV] Write Done: Addr=10000184, Data=c3c10d99
# UVM_INFO /home/khang/Documents/SystemVerilog/Soc_RV32I/SoC/VERIFICATION/Monitor/axi_monitor.sv(47) @ 4965000: uvm_test_top.env.agent.monitor [MON_WR] Detected WRITE : Addr = 10000188, Data = 3295b0cf
# UVM_INFO /home/khang/Documents/SystemVerilog/Soc_RV32I/SoC/VERIFICATION/Driver/axi_driver.sv(67) @ 4975000: uvm_test_top.env.agent.driver [DRV] Write Done: Addr=10000188, Data=3295b0cf
# UVM_INFO /home/khang/Documents/SystemVerilog/Soc_RV32I/SoC/VERIFICATION/Monitor/axi_monitor.sv(47) @ 5015000: uvm_test_top.env.agent.monitor [MON_WR] Detected WRITE : Addr = 1000018c, Data = 70258de4
# UVM_INFO /home/khang/Documents/SystemVerilog/Soc_RV32I/SoC/VERIFICATION/Driver/axi_driver.sv(67) @ 5025000: uvm_test_top.env.agent.driver [DRV] Write Done: Addr=1000018c, Data=70258de4
# UVM_INFO /home/khang/Documents/SystemVerilog/Soc_RV32I/SoC/VERIFICATION/Monitor/axi_monitor.sv(47) @ 5065000: uvm_test_top.env.agent.monitor [MON_WR] Detected WRITE : Addr = 10000190, Data = c8c02b6a
# UVM_INFO /home/khang/Documents/SystemVerilog/Soc_RV32I/SoC/VERIFICATION/Driver/axi_driver.sv(67) @ 5075000: uvm_test_top.env.agent.driver [DRV] Write Done: Addr=10000190, Data=c8c02b6a
# UVM_INFO /home/khang/Documents/SystemVerilog/Soc_RV32I/SoC/VERIFICATION/Monitor/axi_monitor.sv(47) @ 5115000: uvm_test_top.env.agent.monitor [MON_WR] Detected WRITE : Addr = 10000194, Data = 60080ee4
# UVM_INFO /home/khang/Documents/SystemVerilog/Soc_RV32I/SoC/VERIFICATION/Driver/axi_driver.sv(67) @ 5125000: uvm_test_top.env.agent.driver [DRV] Write Done: Addr=10000194, Data=60080ee4
# UVM_INFO /home/khang/Documents/SystemVerilog/Soc_RV32I/SoC/VERIFICATION/Monitor/axi_monitor.sv(47) @ 5165000: uvm_test_top.env.agent.monitor [MON_WR] Detected WRITE : Addr = 10000198, Data = 8deb047c
# UVM_INFO /home/khang/Documents/SystemVerilog/Soc_RV32I/SoC/VERIFICATION/Driver/axi_driver.sv(67) @ 5175000: uvm_test_top.env.agent.driver [DRV] Write Done: Addr=10000198, Data=8deb047c
# UVM_INFO /home/khang/Documents/SystemVerilog/Soc_RV32I/SoC/VERIFICATION/Monitor/axi_monitor.sv(47) @ 5215000: uvm_test_top.env.agent.monitor [MON_WR] Detected WRITE : Addr = 1000019c, Data = 8b6b7a94
# UVM_INFO /home/khang/Documents/SystemVerilog/Soc_RV32I/SoC/VERIFICATION/Driver/axi_driver.sv(67) @ 5225000: uvm_test_top.env.agent.driver [DRV] Write Done: Addr=1000019c, Data=8b6b7a94
# UVM_INFO /home/khang/Documents/SystemVerilog/Soc_RV32I/SoC/VERIFICATION/Monitor/axi_monitor.sv(47) @ 5265000: uvm_test_top.env.agent.monitor [MON_WR] Detected WRITE : Addr = 100001a0, Data = 46665a9f
# UVM_INFO /home/khang/Documents/SystemVerilog/Soc_RV32I/SoC/VERIFICATION/Driver/axi_driver.sv(67) @ 5275000: uvm_test_top.env.agent.driver [DRV] Write Done: Addr=100001a0, Data=46665a9f
# UVM_INFO /home/khang/Documents/SystemVerilog/Soc_RV32I/SoC/VERIFICATION/Monitor/axi_monitor.sv(47) @ 5315000: uvm_test_top.env.agent.monitor [MON_WR] Detected WRITE : Addr = 100001a4, Data = 35b9b8f9
# UVM_INFO /home/khang/Documents/SystemVerilog/Soc_RV32I/SoC/VERIFICATION/Driver/axi_driver.sv(67) @ 5325000: uvm_test_top.env.agent.driver [DRV] Write Done: Addr=100001a4, Data=35b9b8f9
# UVM_INFO /home/khang/Documents/SystemVerilog/Soc_RV32I/SoC/VERIFICATION/Monitor/axi_monitor.sv(47) @ 5365000: uvm_test_top.env.agent.monitor [MON_WR] Detected WRITE : Addr = 100001a8, Data = c3849af3
# UVM_INFO /home/khang/Documents/SystemVerilog/Soc_RV32I/SoC/VERIFICATION/Driver/axi_driver.sv(67) @ 5375000: uvm_test_top.env.agent.driver [DRV] Write Done: Addr=100001a8, Data=c3849af3
# UVM_INFO /home/khang/Documents/SystemVerilog/Soc_RV32I/SoC/VERIFICATION/Monitor/axi_monitor.sv(47) @ 5415000: uvm_test_top.env.agent.monitor [MON_WR] Detected WRITE : Addr = 100001ac, Data = 45715a14
# UVM_INFO /home/khang/Documents/SystemVerilog/Soc_RV32I/SoC/VERIFICATION/Driver/axi_driver.sv(67) @ 5425000: uvm_test_top.env.agent.driver [DRV] Write Done: Addr=100001ac, Data=45715a14
# UVM_INFO /home/khang/Documents/SystemVerilog/Soc_RV32I/SoC/VERIFICATION/Monitor/axi_monitor.sv(47) @ 5465000: uvm_test_top.env.agent.monitor [MON_WR] Detected WRITE : Addr = 100001b0, Data = 55f81fde
# UVM_INFO /home/khang/Documents/SystemVerilog/Soc_RV32I/SoC/VERIFICATION/Driver/axi_driver.sv(67) @ 5475000: uvm_test_top.env.agent.driver [DRV] Write Done: Addr=100001b0, Data=55f81fde
# UVM_INFO /home/khang/Documents/SystemVerilog/Soc_RV32I/SoC/VERIFICATION/Monitor/axi_monitor.sv(47) @ 5515000: uvm_test_top.env.agent.monitor [MON_WR] Detected WRITE : Addr = 100001b4, Data = 6928cf00
# UVM_INFO /home/khang/Documents/SystemVerilog/Soc_RV32I/SoC/VERIFICATION/Driver/axi_driver.sv(67) @ 5525000: uvm_test_top.env.agent.driver [DRV] Write Done: Addr=100001b4, Data=6928cf00
# UVM_INFO /home/khang/Documents/SystemVerilog/Soc_RV32I/SoC/VERIFICATION/Monitor/axi_monitor.sv(47) @ 5565000: uvm_test_top.env.agent.monitor [MON_WR] Detected WRITE : Addr = 100001b8, Data = 58841318
# UVM_INFO /home/khang/Documents/SystemVerilog/Soc_RV32I/SoC/VERIFICATION/Driver/axi_driver.sv(67) @ 5575000: uvm_test_top.env.agent.driver [DRV] Write Done: Addr=100001b8, Data=58841318
# UVM_INFO /home/khang/Documents/SystemVerilog/Soc_RV32I/SoC/VERIFICATION/Monitor/axi_monitor.sv(47) @ 5615000: uvm_test_top.env.agent.monitor [MON_WR] Detected WRITE : Addr = 100001bc, Data = 788fc105
# UVM_INFO /home/khang/Documents/SystemVerilog/Soc_RV32I/SoC/VERIFICATION/Driver/axi_driver.sv(67) @ 5625000: uvm_test_top.env.agent.driver [DRV] Write Done: Addr=100001bc, Data=788fc105
# UVM_INFO /home/khang/Documents/SystemVerilog/Soc_RV32I/SoC/VERIFICATION/Monitor/axi_monitor.sv(47) @ 5665000: uvm_test_top.env.agent.monitor [MON_WR] Detected WRITE : Addr = 100001c0, Data = b35a50ab
# UVM_INFO /home/khang/Documents/SystemVerilog/Soc_RV32I/SoC/VERIFICATION/Driver/axi_driver.sv(67) @ 5675000: uvm_test_top.env.agent.driver [DRV] Write Done: Addr=100001c0, Data=b35a50ab
# UVM_INFO /home/khang/Documents/SystemVerilog/Soc_RV32I/SoC/VERIFICATION/Monitor/axi_monitor.sv(47) @ 5715000: uvm_test_top.env.agent.monitor [MON_WR] Detected WRITE : Addr = 100001c4, Data = 6592474d
# UVM_INFO /home/khang/Documents/SystemVerilog/Soc_RV32I/SoC/VERIFICATION/Driver/axi_driver.sv(67) @ 5725000: uvm_test_top.env.agent.driver [DRV] Write Done: Addr=100001c4, Data=6592474d
# UVM_INFO /home/khang/Documents/SystemVerilog/Soc_RV32I/SoC/VERIFICATION/Monitor/axi_monitor.sv(47) @ 5765000: uvm_test_top.env.agent.monitor [MON_WR] Detected WRITE : Addr = 100001c8, Data = c8287afe
# UVM_INFO /home/khang/Documents/SystemVerilog/Soc_RV32I/SoC/VERIFICATION/Driver/axi_driver.sv(67) @ 5775000: uvm_test_top.env.agent.driver [DRV] Write Done: Addr=100001c8, Data=c8287afe
# UVM_INFO /home/khang/Documents/SystemVerilog/Soc_RV32I/SoC/VERIFICATION/Monitor/axi_monitor.sv(47) @ 5815000: uvm_test_top.env.agent.monitor [MON_WR] Detected WRITE : Addr = 100001cc, Data = 7ffaecb5
# UVM_INFO /home/khang/Documents/SystemVerilog/Soc_RV32I/SoC/VERIFICATION/Driver/axi_driver.sv(67) @ 5825000: uvm_test_top.env.agent.driver [DRV] Write Done: Addr=100001cc, Data=7ffaecb5
# UVM_INFO /home/khang/Documents/SystemVerilog/Soc_RV32I/SoC/VERIFICATION/Monitor/axi_monitor.sv(47) @ 5865000: uvm_test_top.env.agent.monitor [MON_WR] Detected WRITE : Addr = 100001d0, Data = b7384d4b
# UVM_INFO /home/khang/Documents/SystemVerilog/Soc_RV32I/SoC/VERIFICATION/Driver/axi_driver.sv(67) @ 5875000: uvm_test_top.env.agent.driver [DRV] Write Done: Addr=100001d0, Data=b7384d4b
# UVM_INFO /home/khang/Documents/SystemVerilog/Soc_RV32I/SoC/VERIFICATION/Monitor/axi_monitor.sv(47) @ 5915000: uvm_test_top.env.agent.monitor [MON_WR] Detected WRITE : Addr = 100001d4, Data = 21acf442
# UVM_INFO /home/khang/Documents/SystemVerilog/Soc_RV32I/SoC/VERIFICATION/Driver/axi_driver.sv(67) @ 5925000: uvm_test_top.env.agent.driver [DRV] Write Done: Addr=100001d4, Data=21acf442
# UVM_INFO /home/khang/Documents/SystemVerilog/Soc_RV32I/SoC/VERIFICATION/Monitor/axi_monitor.sv(47) @ 5965000: uvm_test_top.env.agent.monitor [MON_WR] Detected WRITE : Addr = 100001d8, Data = 0f911884
# UVM_INFO /home/khang/Documents/SystemVerilog/Soc_RV32I/SoC/VERIFICATION/Driver/axi_driver.sv(67) @ 5975000: uvm_test_top.env.agent.driver [DRV] Write Done: Addr=100001d8, Data=0f911884
# UVM_INFO /home/khang/Documents/SystemVerilog/Soc_RV32I/SoC/VERIFICATION/Monitor/axi_monitor.sv(47) @ 6015000: uvm_test_top.env.agent.monitor [MON_WR] Detected WRITE : Addr = 100001dc, Data = 53044036
# UVM_INFO /home/khang/Documents/SystemVerilog/Soc_RV32I/SoC/VERIFICATION/Driver/axi_driver.sv(67) @ 6025000: uvm_test_top.env.agent.driver [DRV] Write Done: Addr=100001dc, Data=53044036
# UVM_INFO /home/khang/Documents/SystemVerilog/Soc_RV32I/SoC/VERIFICATION/Monitor/axi_monitor.sv(47) @ 6065000: uvm_test_top.env.agent.monitor [MON_WR] Detected WRITE : Addr = 100001e0, Data = 62cccc58
# UVM_INFO /home/khang/Documents/SystemVerilog/Soc_RV32I/SoC/VERIFICATION/Driver/axi_driver.sv(67) @ 6075000: uvm_test_top.env.agent.driver [DRV] Write Done: Addr=100001e0, Data=62cccc58
# UVM_INFO /home/khang/Documents/SystemVerilog/Soc_RV32I/SoC/VERIFICATION/Monitor/axi_monitor.sv(47) @ 6115000: uvm_test_top.env.agent.monitor [MON_WR] Detected WRITE : Addr = 100001e4, Data = 71b91a12
# UVM_INFO /home/khang/Documents/SystemVerilog/Soc_RV32I/SoC/VERIFICATION/Driver/axi_driver.sv(67) @ 6125000: uvm_test_top.env.agent.driver [DRV] Write Done: Addr=100001e4, Data=71b91a12
# UVM_INFO /home/khang/Documents/SystemVerilog/Soc_RV32I/SoC/VERIFICATION/Monitor/axi_monitor.sv(47) @ 6165000: uvm_test_top.env.agent.monitor [MON_WR] Detected WRITE : Addr = 100001e8, Data = be89ed32
# UVM_INFO /home/khang/Documents/SystemVerilog/Soc_RV32I/SoC/VERIFICATION/Driver/axi_driver.sv(67) @ 6175000: uvm_test_top.env.agent.driver [DRV] Write Done: Addr=100001e8, Data=be89ed32
# UVM_INFO /home/khang/Documents/SystemVerilog/Soc_RV32I/SoC/VERIFICATION/Monitor/axi_monitor.sv(47) @ 6215000: uvm_test_top.env.agent.monitor [MON_WR] Detected WRITE : Addr = 100001ec, Data = 578b6712
# UVM_INFO /home/khang/Documents/SystemVerilog/Soc_RV32I/SoC/VERIFICATION/Driver/axi_driver.sv(67) @ 6225000: uvm_test_top.env.agent.driver [DRV] Write Done: Addr=100001ec, Data=578b6712
# UVM_INFO /home/khang/Documents/SystemVerilog/Soc_RV32I/SoC/VERIFICATION/Monitor/axi_monitor.sv(47) @ 6265000: uvm_test_top.env.agent.monitor [MON_WR] Detected WRITE : Addr = 100001f0, Data = e15cdc02
# UVM_INFO /home/khang/Documents/SystemVerilog/Soc_RV32I/SoC/VERIFICATION/Driver/axi_driver.sv(67) @ 6275000: uvm_test_top.env.agent.driver [DRV] Write Done: Addr=100001f0, Data=e15cdc02
# UVM_INFO /home/khang/Documents/SystemVerilog/Soc_RV32I/SoC/VERIFICATION/Monitor/axi_monitor.sv(47) @ 6315000: uvm_test_top.env.agent.monitor [MON_WR] Detected WRITE : Addr = 100001f4, Data = c2688e64
# UVM_INFO /home/khang/Documents/SystemVerilog/Soc_RV32I/SoC/VERIFICATION/Driver/axi_driver.sv(67) @ 6325000: uvm_test_top.env.agent.driver [DRV] Write Done: Addr=100001f4, Data=c2688e64
# UVM_INFO /home/khang/Documents/SystemVerilog/Soc_RV32I/SoC/VERIFICATION/Monitor/axi_monitor.sv(47) @ 6365000: uvm_test_top.env.agent.monitor [MON_WR] Detected WRITE : Addr = 100001f8, Data = b4ae371d
# UVM_INFO /home/khang/Documents/SystemVerilog/Soc_RV32I/SoC/VERIFICATION/Driver/axi_driver.sv(67) @ 6375000: uvm_test_top.env.agent.driver [DRV] Write Done: Addr=100001f8, Data=b4ae371d
# UVM_INFO /home/khang/Documents/SystemVerilog/Soc_RV32I/SoC/VERIFICATION/Monitor/axi_monitor.sv(47) @ 6415000: uvm_test_top.env.agent.monitor [MON_WR] Detected WRITE : Addr = 100001fc, Data = 3584a190
# UVM_INFO /home/khang/Documents/SystemVerilog/Soc_RV32I/SoC/VERIFICATION/Driver/axi_driver.sv(67) @ 6425000: uvm_test_top.env.agent.driver [DRV] Write Done: Addr=100001fc, Data=3584a190
# UVM_INFO /home/khang/Documents/SystemVerilog/Soc_RV32I/SoC/VERIFICATION/Monitor/axi_monitor.sv(47) @ 6465000: uvm_test_top.env.agent.monitor [MON_WR] Detected WRITE : Addr = 10000200, Data = 5ae8474b
# UVM_INFO /home/khang/Documents/SystemVerilog/Soc_RV32I/SoC/VERIFICATION/Driver/axi_driver.sv(67) @ 6475000: uvm_test_top.env.agent.driver [DRV] Write Done: Addr=10000200, Data=5ae8474b
# UVM_INFO /home/khang/Documents/SystemVerilog/Soc_RV32I/SoC/VERIFICATION/Monitor/axi_monitor.sv(47) @ 6515000: uvm_test_top.env.agent.monitor [MON_WR] Detected WRITE : Addr = 10000204, Data = 1a6f6823
# UVM_INFO /home/khang/Documents/SystemVerilog/Soc_RV32I/SoC/VERIFICATION/Driver/axi_driver.sv(67) @ 6525000: uvm_test_top.env.agent.driver [DRV] Write Done: Addr=10000204, Data=1a6f6823
# UVM_INFO /home/khang/Documents/SystemVerilog/Soc_RV32I/SoC/VERIFICATION/Monitor/axi_monitor.sv(47) @ 6565000: uvm_test_top.env.agent.monitor [MON_WR] Detected WRITE : Addr = 10000208, Data = bf2e9255
# UVM_INFO /home/khang/Documents/SystemVerilog/Soc_RV32I/SoC/VERIFICATION/Driver/axi_driver.sv(67) @ 6575000: uvm_test_top.env.agent.driver [DRV] Write Done: Addr=10000208, Data=bf2e9255
# UVM_INFO /home/khang/Documents/SystemVerilog/Soc_RV32I/SoC/VERIFICATION/Monitor/axi_monitor.sv(47) @ 6615000: uvm_test_top.env.agent.monitor [MON_WR] Detected WRITE : Addr = 1000020c, Data = 81ee1a07
# UVM_INFO /home/khang/Documents/SystemVerilog/Soc_RV32I/SoC/VERIFICATION/Driver/axi_driver.sv(67) @ 6625000: uvm_test_top.env.agent.driver [DRV] Write Done: Addr=1000020c, Data=81ee1a07
# UVM_INFO /home/khang/Documents/SystemVerilog/Soc_RV32I/SoC/VERIFICATION/Monitor/axi_monitor.sv(47) @ 6665000: uvm_test_top.env.agent.monitor [MON_WR] Detected WRITE : Addr = 10000210, Data = 87a7fe24
# UVM_INFO /home/khang/Documents/SystemVerilog/Soc_RV32I/SoC/VERIFICATION/Driver/axi_driver.sv(67) @ 6675000: uvm_test_top.env.agent.driver [DRV] Write Done: Addr=10000210, Data=87a7fe24
# UVM_INFO /home/khang/Documents/SystemVerilog/Soc_RV32I/SoC/VERIFICATION/Monitor/axi_monitor.sv(47) @ 6715000: uvm_test_top.env.agent.monitor [MON_WR] Detected WRITE : Addr = 10000214, Data = aa3130e2
# UVM_INFO /home/khang/Documents/SystemVerilog/Soc_RV32I/SoC/VERIFICATION/Driver/axi_driver.sv(67) @ 6725000: uvm_test_top.env.agent.driver [DRV] Write Done: Addr=10000214, Data=aa3130e2
# UVM_INFO /home/khang/Documents/SystemVerilog/Soc_RV32I/SoC/VERIFICATION/Monitor/axi_monitor.sv(47) @ 6765000: uvm_test_top.env.agent.monitor [MON_WR] Detected WRITE : Addr = 10000218, Data = b3aea49b
# UVM_INFO /home/khang/Documents/SystemVerilog/Soc_RV32I/SoC/VERIFICATION/Driver/axi_driver.sv(67) @ 6775000: uvm_test_top.env.agent.driver [DRV] Write Done: Addr=10000218, Data=b3aea49b
# UVM_INFO /home/khang/Documents/SystemVerilog/Soc_RV32I/SoC/VERIFICATION/Monitor/axi_monitor.sv(47) @ 6815000: uvm_test_top.env.agent.monitor [MON_WR] Detected WRITE : Addr = 1000021c, Data = 1d452459
# UVM_INFO /home/khang/Documents/SystemVerilog/Soc_RV32I/SoC/VERIFICATION/Driver/axi_driver.sv(67) @ 6825000: uvm_test_top.env.agent.driver [DRV] Write Done: Addr=1000021c, Data=1d452459
# UVM_INFO /home/khang/Documents/SystemVerilog/Soc_RV32I/SoC/VERIFICATION/Monitor/axi_monitor.sv(47) @ 6865000: uvm_test_top.env.agent.monitor [MON_WR] Detected WRITE : Addr = 10000220, Data = 6946779a
# UVM_INFO /home/khang/Documents/SystemVerilog/Soc_RV32I/SoC/VERIFICATION/Driver/axi_driver.sv(67) @ 6875000: uvm_test_top.env.agent.driver [DRV] Write Done: Addr=10000220, Data=6946779a
# UVM_INFO /home/khang/Documents/SystemVerilog/Soc_RV32I/SoC/VERIFICATION/Monitor/axi_monitor.sv(47) @ 6915000: uvm_test_top.env.agent.monitor [MON_WR] Detected WRITE : Addr = 10000224, Data = b9ae9c03
# UVM_INFO /home/khang/Documents/SystemVerilog/Soc_RV32I/SoC/VERIFICATION/Driver/axi_driver.sv(67) @ 6925000: uvm_test_top.env.agent.driver [DRV] Write Done: Addr=10000224, Data=b9ae9c03
# UVM_INFO /home/khang/Documents/SystemVerilog/Soc_RV32I/SoC/VERIFICATION/Monitor/axi_monitor.sv(47) @ 6965000: uvm_test_top.env.agent.monitor [MON_WR] Detected WRITE : Addr = 10000228, Data = 655d7b9c
# UVM_INFO /home/khang/Documents/SystemVerilog/Soc_RV32I/SoC/VERIFICATION/Driver/axi_driver.sv(67) @ 6975000: uvm_test_top.env.agent.driver [DRV] Write Done: Addr=10000228, Data=655d7b9c
# UVM_INFO /home/khang/Documents/SystemVerilog/Soc_RV32I/SoC/VERIFICATION/Monitor/axi_monitor.sv(47) @ 7015000: uvm_test_top.env.agent.monitor [MON_WR] Detected WRITE : Addr = 1000022c, Data = 8c1b1f0e
# UVM_INFO /home/khang/Documents/SystemVerilog/Soc_RV32I/SoC/VERIFICATION/Driver/axi_driver.sv(67) @ 7025000: uvm_test_top.env.agent.driver [DRV] Write Done: Addr=1000022c, Data=8c1b1f0e
# UVM_INFO /home/khang/Documents/SystemVerilog/Soc_RV32I/SoC/VERIFICATION/Monitor/axi_monitor.sv(47) @ 7065000: uvm_test_top.env.agent.monitor [MON_WR] Detected WRITE : Addr = 10000230, Data = 4aea2723
# UVM_INFO /home/khang/Documents/SystemVerilog/Soc_RV32I/SoC/VERIFICATION/Driver/axi_driver.sv(67) @ 7075000: uvm_test_top.env.agent.driver [DRV] Write Done: Addr=10000230, Data=4aea2723
# UVM_INFO /home/khang/Documents/SystemVerilog/Soc_RV32I/SoC/VERIFICATION/Monitor/axi_monitor.sv(47) @ 7115000: uvm_test_top.env.agent.monitor [MON_WR] Detected WRITE : Addr = 10000234, Data = 8593d4bb
# UVM_INFO /home/khang/Documents/SystemVerilog/Soc_RV32I/SoC/VERIFICATION/Driver/axi_driver.sv(67) @ 7125000: uvm_test_top.env.agent.driver [DRV] Write Done: Addr=10000234, Data=8593d4bb
# UVM_INFO /home/khang/Documents/SystemVerilog/Soc_RV32I/SoC/VERIFICATION/Monitor/axi_monitor.sv(47) @ 7165000: uvm_test_top.env.agent.monitor [MON_WR] Detected WRITE : Addr = 10000238, Data = 8694bd04
# UVM_INFO /home/khang/Documents/SystemVerilog/Soc_RV32I/SoC/VERIFICATION/Driver/axi_driver.sv(67) @ 7175000: uvm_test_top.env.agent.driver [DRV] Write Done: Addr=10000238, Data=8694bd04
# UVM_INFO /home/khang/Documents/SystemVerilog/Soc_RV32I/SoC/VERIFICATION/Monitor/axi_monitor.sv(47) @ 7215000: uvm_test_top.env.agent.monitor [MON_WR] Detected WRITE : Addr = 1000023c, Data = 05580b1a
# UVM_INFO /home/khang/Documents/SystemVerilog/Soc_RV32I/SoC/VERIFICATION/Driver/axi_driver.sv(67) @ 7225000: uvm_test_top.env.agent.driver [DRV] Write Done: Addr=1000023c, Data=05580b1a
# UVM_INFO /home/khang/Documents/SystemVerilog/Soc_RV32I/SoC/VERIFICATION/Monitor/axi_monitor.sv(47) @ 7265000: uvm_test_top.env.agent.monitor [MON_WR] Detected WRITE : Addr = 10000240, Data = 15e409e3
# UVM_INFO /home/khang/Documents/SystemVerilog/Soc_RV32I/SoC/VERIFICATION/Driver/axi_driver.sv(67) @ 7275000: uvm_test_top.env.agent.driver [DRV] Write Done: Addr=10000240, Data=15e409e3
# UVM_INFO /home/khang/Documents/SystemVerilog/Soc_RV32I/SoC/VERIFICATION/Monitor/axi_monitor.sv(47) @ 7315000: uvm_test_top.env.agent.monitor [MON_WR] Detected WRITE : Addr = 10000244, Data = 1e1f15d6
# UVM_INFO /home/khang/Documents/SystemVerilog/Soc_RV32I/SoC/VERIFICATION/Driver/axi_driver.sv(67) @ 7325000: uvm_test_top.env.agent.driver [DRV] Write Done: Addr=10000244, Data=1e1f15d6
# UVM_INFO /home/khang/Documents/SystemVerilog/Soc_RV32I/SoC/VERIFICATION/Monitor/axi_monitor.sv(47) @ 7365000: uvm_test_top.env.agent.monitor [MON_WR] Detected WRITE : Addr = 10000248, Data = 79d589fe
# UVM_INFO /home/khang/Documents/SystemVerilog/Soc_RV32I/SoC/VERIFICATION/Driver/axi_driver.sv(67) @ 7375000: uvm_test_top.env.agent.driver [DRV] Write Done: Addr=10000248, Data=79d589fe
# UVM_INFO /home/khang/Documents/SystemVerilog/Soc_RV32I/SoC/VERIFICATION/Monitor/axi_monitor.sv(47) @ 7415000: uvm_test_top.env.agent.monitor [MON_WR] Detected WRITE : Addr = 1000024c, Data = d68d6764
# UVM_INFO /home/khang/Documents/SystemVerilog/Soc_RV32I/SoC/VERIFICATION/Driver/axi_driver.sv(67) @ 7425000: uvm_test_top.env.agent.driver [DRV] Write Done: Addr=1000024c, Data=d68d6764
# UVM_INFO /home/khang/Documents/SystemVerilog/Soc_RV32I/SoC/VERIFICATION/Monitor/axi_monitor.sv(47) @ 7465000: uvm_test_top.env.agent.monitor [MON_WR] Detected WRITE : Addr = 10000250, Data = 2142c9b1
# UVM_INFO /home/khang/Documents/SystemVerilog/Soc_RV32I/SoC/VERIFICATION/Driver/axi_driver.sv(67) @ 7475000: uvm_test_top.env.agent.driver [DRV] Write Done: Addr=10000250, Data=2142c9b1
# UVM_INFO /home/khang/Documents/SystemVerilog/Soc_RV32I/SoC/VERIFICATION/Monitor/axi_monitor.sv(47) @ 7515000: uvm_test_top.env.agent.monitor [MON_WR] Detected WRITE : Addr = 10000254, Data = d8b3c467
# UVM_INFO /home/khang/Documents/SystemVerilog/Soc_RV32I/SoC/VERIFICATION/Driver/axi_driver.sv(67) @ 7525000: uvm_test_top.env.agent.driver [DRV] Write Done: Addr=10000254, Data=d8b3c467
# UVM_INFO /home/khang/Documents/SystemVerilog/Soc_RV32I/SoC/VERIFICATION/Monitor/axi_monitor.sv(47) @ 7565000: uvm_test_top.env.agent.monitor [MON_WR] Detected WRITE : Addr = 10000258, Data = 4840e193
# UVM_INFO /home/khang/Documents/SystemVerilog/Soc_RV32I/SoC/VERIFICATION/Driver/axi_driver.sv(67) @ 7575000: uvm_test_top.env.agent.driver [DRV] Write Done: Addr=10000258, Data=4840e193
# UVM_INFO /home/khang/Documents/SystemVerilog/Soc_RV32I/SoC/VERIFICATION/Monitor/axi_monitor.sv(47) @ 7615000: uvm_test_top.env.agent.monitor [MON_WR] Detected WRITE : Addr = 1000025c, Data = 663a64ee
# UVM_INFO /home/khang/Documents/SystemVerilog/Soc_RV32I/SoC/VERIFICATION/Driver/axi_driver.sv(67) @ 7625000: uvm_test_top.env.agent.driver [DRV] Write Done: Addr=1000025c, Data=663a64ee
# UVM_INFO /home/khang/Documents/SystemVerilog/Soc_RV32I/SoC/VERIFICATION/Monitor/axi_monitor.sv(47) @ 7665000: uvm_test_top.env.agent.monitor [MON_WR] Detected WRITE : Addr = 10000260, Data = bae2dcc1
# UVM_INFO /home/khang/Documents/SystemVerilog/Soc_RV32I/SoC/VERIFICATION/Driver/axi_driver.sv(67) @ 7675000: uvm_test_top.env.agent.driver [DRV] Write Done: Addr=10000260, Data=bae2dcc1
# UVM_INFO /home/khang/Documents/SystemVerilog/Soc_RV32I/SoC/VERIFICATION/Monitor/axi_monitor.sv(47) @ 7715000: uvm_test_top.env.agent.monitor [MON_WR] Detected WRITE : Addr = 10000264, Data = cb555d6a
# UVM_INFO /home/khang/Documents/SystemVerilog/Soc_RV32I/SoC/VERIFICATION/Driver/axi_driver.sv(67) @ 7725000: uvm_test_top.env.agent.driver [DRV] Write Done: Addr=10000264, Data=cb555d6a
# UVM_INFO /home/khang/Documents/SystemVerilog/Soc_RV32I/SoC/VERIFICATION/Monitor/axi_monitor.sv(47) @ 7765000: uvm_test_top.env.agent.monitor [MON_WR] Detected WRITE : Addr = 10000268, Data = 47a9875b
# UVM_INFO /home/khang/Documents/SystemVerilog/Soc_RV32I/SoC/VERIFICATION/Driver/axi_driver.sv(67) @ 7775000: uvm_test_top.env.agent.driver [DRV] Write Done: Addr=10000268, Data=47a9875b
# UVM_INFO /home/khang/Documents/SystemVerilog/Soc_RV32I/SoC/VERIFICATION/Monitor/axi_monitor.sv(47) @ 7815000: uvm_test_top.env.agent.monitor [MON_WR] Detected WRITE : Addr = 1000026c, Data = ca22fef5
# UVM_INFO /home/khang/Documents/SystemVerilog/Soc_RV32I/SoC/VERIFICATION/Driver/axi_driver.sv(67) @ 7825000: uvm_test_top.env.agent.driver [DRV] Write Done: Addr=1000026c, Data=ca22fef5
# UVM_INFO /home/khang/Documents/SystemVerilog/Soc_RV32I/SoC/VERIFICATION/Monitor/axi_monitor.sv(47) @ 7865000: uvm_test_top.env.agent.monitor [MON_WR] Detected WRITE : Addr = 10000270, Data = 6137ee8d
# UVM_INFO /home/khang/Documents/SystemVerilog/Soc_RV32I/SoC/VERIFICATION/Driver/axi_driver.sv(67) @ 7875000: uvm_test_top.env.agent.driver [DRV] Write Done: Addr=10000270, Data=6137ee8d
# UVM_INFO /home/khang/Documents/SystemVerilog/Soc_RV32I/SoC/VERIFICATION/Monitor/axi_monitor.sv(47) @ 7915000: uvm_test_top.env.agent.monitor [MON_WR] Detected WRITE : Addr = 10000274, Data = 9c9a7111
# UVM_INFO /home/khang/Documents/SystemVerilog/Soc_RV32I/SoC/VERIFICATION/Driver/axi_driver.sv(67) @ 7925000: uvm_test_top.env.agent.driver [DRV] Write Done: Addr=10000274, Data=9c9a7111
# UVM_INFO /home/khang/Documents/SystemVerilog/Soc_RV32I/SoC/VERIFICATION/Monitor/axi_monitor.sv(47) @ 7965000: uvm_test_top.env.agent.monitor [MON_WR] Detected WRITE : Addr = 10000278, Data = 68aa478c
# UVM_INFO /home/khang/Documents/SystemVerilog/Soc_RV32I/SoC/VERIFICATION/Driver/axi_driver.sv(67) @ 7975000: uvm_test_top.env.agent.driver [DRV] Write Done: Addr=10000278, Data=68aa478c
# UVM_INFO /home/khang/Documents/SystemVerilog/Soc_RV32I/SoC/VERIFICATION/Monitor/axi_monitor.sv(47) @ 8015000: uvm_test_top.env.agent.monitor [MON_WR] Detected WRITE : Addr = 1000027c, Data = cedba678
# UVM_INFO /home/khang/Documents/SystemVerilog/Soc_RV32I/SoC/VERIFICATION/Driver/axi_driver.sv(67) @ 8025000: uvm_test_top.env.agent.driver [DRV] Write Done: Addr=1000027c, Data=cedba678
# UVM_INFO /home/khang/Documents/SystemVerilog/Soc_RV32I/SoC/VERIFICATION/Monitor/axi_monitor.sv(47) @ 8065000: uvm_test_top.env.agent.monitor [MON_WR] Detected WRITE : Addr = 10000280, Data = ca5b0a6d
# UVM_INFO /home/khang/Documents/SystemVerilog/Soc_RV32I/SoC/VERIFICATION/Driver/axi_driver.sv(67) @ 8075000: uvm_test_top.env.agent.driver [DRV] Write Done: Addr=10000280, Data=ca5b0a6d
# UVM_INFO /home/khang/Documents/SystemVerilog/Soc_RV32I/SoC/VERIFICATION/Monitor/axi_monitor.sv(47) @ 8115000: uvm_test_top.env.agent.monitor [MON_WR] Detected WRITE : Addr = 10000284, Data = 6ba03f76
# UVM_INFO /home/khang/Documents/SystemVerilog/Soc_RV32I/SoC/VERIFICATION/Driver/axi_driver.sv(67) @ 8125000: uvm_test_top.env.agent.driver [DRV] Write Done: Addr=10000284, Data=6ba03f76
# UVM_INFO /home/khang/Documents/SystemVerilog/Soc_RV32I/SoC/VERIFICATION/Monitor/axi_monitor.sv(47) @ 8165000: uvm_test_top.env.agent.monitor [MON_WR] Detected WRITE : Addr = 10000288, Data = fda77517
# UVM_INFO /home/khang/Documents/SystemVerilog/Soc_RV32I/SoC/VERIFICATION/Driver/axi_driver.sv(67) @ 8175000: uvm_test_top.env.agent.driver [DRV] Write Done: Addr=10000288, Data=fda77517
# UVM_INFO /home/khang/Documents/SystemVerilog/Soc_RV32I/SoC/VERIFICATION/Monitor/axi_monitor.sv(47) @ 8215000: uvm_test_top.env.agent.monitor [MON_WR] Detected WRITE : Addr = 1000028c, Data = 48531575
# UVM_INFO /home/khang/Documents/SystemVerilog/Soc_RV32I/SoC/VERIFICATION/Driver/axi_driver.sv(67) @ 8225000: uvm_test_top.env.agent.driver [DRV] Write Done: Addr=1000028c, Data=48531575
# UVM_INFO /home/khang/Documents/SystemVerilog/Soc_RV32I/SoC/VERIFICATION/Monitor/axi_monitor.sv(47) @ 8265000: uvm_test_top.env.agent.monitor [MON_WR] Detected WRITE : Addr = 10000290, Data = d3f0e13a
# UVM_INFO /home/khang/Documents/SystemVerilog/Soc_RV32I/SoC/VERIFICATION/Driver/axi_driver.sv(67) @ 8275000: uvm_test_top.env.agent.driver [DRV] Write Done: Addr=10000290, Data=d3f0e13a
# UVM_INFO /home/khang/Documents/SystemVerilog/Soc_RV32I/SoC/VERIFICATION/Monitor/axi_monitor.sv(47) @ 8315000: uvm_test_top.env.agent.monitor [MON_WR] Detected WRITE : Addr = 10000294, Data = b2bf5fce
# UVM_INFO /home/khang/Documents/SystemVerilog/Soc_RV32I/SoC/VERIFICATION/Driver/axi_driver.sv(67) @ 8325000: uvm_test_top.env.agent.driver [DRV] Write Done: Addr=10000294, Data=b2bf5fce
# UVM_INFO /home/khang/Documents/SystemVerilog/Soc_RV32I/SoC/VERIFICATION/Monitor/axi_monitor.sv(47) @ 8365000: uvm_test_top.env.agent.monitor [MON_WR] Detected WRITE : Addr = 10000298, Data = f1723015
# UVM_INFO /home/khang/Documents/SystemVerilog/Soc_RV32I/SoC/VERIFICATION/Driver/axi_driver.sv(67) @ 8375000: uvm_test_top.env.agent.driver [DRV] Write Done: Addr=10000298, Data=f1723015
# UVM_INFO /home/khang/Documents/SystemVerilog/Soc_RV32I/SoC/VERIFICATION/Monitor/axi_monitor.sv(47) @ 8415000: uvm_test_top.env.agent.monitor [MON_WR] Detected WRITE : Addr = 1000029c, Data = 7befa95a
# UVM_INFO /home/khang/Documents/SystemVerilog/Soc_RV32I/SoC/VERIFICATION/Driver/axi_driver.sv(67) @ 8425000: uvm_test_top.env.agent.driver [DRV] Write Done: Addr=1000029c, Data=7befa95a
# UVM_INFO /home/khang/Documents/SystemVerilog/Soc_RV32I/SoC/VERIFICATION/Monitor/axi_monitor.sv(47) @ 8465000: uvm_test_top.env.agent.monitor [MON_WR] Detected WRITE : Addr = 100002a0, Data = 0f84dd9d
# UVM_INFO /home/khang/Documents/SystemVerilog/Soc_RV32I/SoC/VERIFICATION/Driver/axi_driver.sv(67) @ 8475000: uvm_test_top.env.agent.driver [DRV] Write Done: Addr=100002a0, Data=0f84dd9d
# UVM_INFO /home/khang/Documents/SystemVerilog/Soc_RV32I/SoC/VERIFICATION/Monitor/axi_monitor.sv(47) @ 8515000: uvm_test_top.env.agent.monitor [MON_WR] Detected WRITE : Addr = 100002a4, Data = d242dca1
# UVM_INFO /home/khang/Documents/SystemVerilog/Soc_RV32I/SoC/VERIFICATION/Driver/axi_driver.sv(67) @ 8525000: uvm_test_top.env.agent.driver [DRV] Write Done: Addr=100002a4, Data=d242dca1
# UVM_INFO /home/khang/Documents/SystemVerilog/Soc_RV32I/SoC/VERIFICATION/Monitor/axi_monitor.sv(47) @ 8565000: uvm_test_top.env.agent.monitor [MON_WR] Detected WRITE : Addr = 100002a8, Data = 7eca4c4c
# UVM_INFO /home/khang/Documents/SystemVerilog/Soc_RV32I/SoC/VERIFICATION/Driver/axi_driver.sv(67) @ 8575000: uvm_test_top.env.agent.driver [DRV] Write Done: Addr=100002a8, Data=7eca4c4c
# UVM_INFO /home/khang/Documents/SystemVerilog/Soc_RV32I/SoC/VERIFICATION/Monitor/axi_monitor.sv(47) @ 8615000: uvm_test_top.env.agent.monitor [MON_WR] Detected WRITE : Addr = 100002ac, Data = b88634b2
# UVM_INFO /home/khang/Documents/SystemVerilog/Soc_RV32I/SoC/VERIFICATION/Driver/axi_driver.sv(67) @ 8625000: uvm_test_top.env.agent.driver [DRV] Write Done: Addr=100002ac, Data=b88634b2
# UVM_INFO /home/khang/Documents/SystemVerilog/Soc_RV32I/SoC/VERIFICATION/Monitor/axi_monitor.sv(47) @ 8665000: uvm_test_top.env.agent.monitor [MON_WR] Detected WRITE : Addr = 100002b0, Data = 6508128e
# UVM_INFO /home/khang/Documents/SystemVerilog/Soc_RV32I/SoC/VERIFICATION/Driver/axi_driver.sv(67) @ 8675000: uvm_test_top.env.agent.driver [DRV] Write Done: Addr=100002b0, Data=6508128e
# UVM_INFO /home/khang/Documents/SystemVerilog/Soc_RV32I/SoC/VERIFICATION/Monitor/axi_monitor.sv(47) @ 8715000: uvm_test_top.env.agent.monitor [MON_WR] Detected WRITE : Addr = 100002b4, Data = 2e9c177f
# UVM_INFO /home/khang/Documents/SystemVerilog/Soc_RV32I/SoC/VERIFICATION/Driver/axi_driver.sv(67) @ 8725000: uvm_test_top.env.agent.driver [DRV] Write Done: Addr=100002b4, Data=2e9c177f
# UVM_INFO /home/khang/Documents/SystemVerilog/Soc_RV32I/SoC/VERIFICATION/Monitor/axi_monitor.sv(47) @ 8765000: uvm_test_top.env.agent.monitor [MON_WR] Detected WRITE : Addr = 100002b8, Data = 099e2a93
# UVM_INFO /home/khang/Documents/SystemVerilog/Soc_RV32I/SoC/VERIFICATION/Driver/axi_driver.sv(67) @ 8775000: uvm_test_top.env.agent.driver [DRV] Write Done: Addr=100002b8, Data=099e2a93
# UVM_INFO /home/khang/Documents/SystemVerilog/Soc_RV32I/SoC/VERIFICATION/Monitor/axi_monitor.sv(47) @ 8815000: uvm_test_top.env.agent.monitor [MON_WR] Detected WRITE : Addr = 100002bc, Data = 35c56188
# UVM_INFO /home/khang/Documents/SystemVerilog/Soc_RV32I/SoC/VERIFICATION/Driver/axi_driver.sv(67) @ 8825000: uvm_test_top.env.agent.driver [DRV] Write Done: Addr=100002bc, Data=35c56188
# UVM_INFO /home/khang/Documents/SystemVerilog/Soc_RV32I/SoC/VERIFICATION/Monitor/axi_monitor.sv(47) @ 8865000: uvm_test_top.env.agent.monitor [MON_WR] Detected WRITE : Addr = 100002c0, Data = 3a52c90c
# UVM_INFO /home/khang/Documents/SystemVerilog/Soc_RV32I/SoC/VERIFICATION/Driver/axi_driver.sv(67) @ 8875000: uvm_test_top.env.agent.driver [DRV] Write Done: Addr=100002c0, Data=3a52c90c
# UVM_INFO /home/khang/Documents/SystemVerilog/Soc_RV32I/SoC/VERIFICATION/Monitor/axi_monitor.sv(47) @ 8915000: uvm_test_top.env.agent.monitor [MON_WR] Detected WRITE : Addr = 100002c4, Data = 0fa88966
# UVM_INFO /home/khang/Documents/SystemVerilog/Soc_RV32I/SoC/VERIFICATION/Driver/axi_driver.sv(67) @ 8925000: uvm_test_top.env.agent.driver [DRV] Write Done: Addr=100002c4, Data=0fa88966
# UVM_INFO /home/khang/Documents/SystemVerilog/Soc_RV32I/SoC/VERIFICATION/Monitor/axi_monitor.sv(47) @ 8965000: uvm_test_top.env.agent.monitor [MON_WR] Detected WRITE : Addr = 100002c8, Data = d51e1dca
# UVM_INFO /home/khang/Documents/SystemVerilog/Soc_RV32I/SoC/VERIFICATION/Driver/axi_driver.sv(67) @ 8975000: uvm_test_top.env.agent.driver [DRV] Write Done: Addr=100002c8, Data=d51e1dca
# UVM_INFO /home/khang/Documents/SystemVerilog/Soc_RV32I/SoC/VERIFICATION/Monitor/axi_monitor.sv(47) @ 9015000: uvm_test_top.env.agent.monitor [MON_WR] Detected WRITE : Addr = 100002cc, Data = c035d3ce
# UVM_INFO /home/khang/Documents/SystemVerilog/Soc_RV32I/SoC/VERIFICATION/Driver/axi_driver.sv(67) @ 9025000: uvm_test_top.env.agent.driver [DRV] Write Done: Addr=100002cc, Data=c035d3ce
# UVM_INFO /home/khang/Documents/SystemVerilog/Soc_RV32I/SoC/VERIFICATION/Monitor/axi_monitor.sv(47) @ 9065000: uvm_test_top.env.agent.monitor [MON_WR] Detected WRITE : Addr = 100002d0, Data = 3f103394
# UVM_INFO /home/khang/Documents/SystemVerilog/Soc_RV32I/SoC/VERIFICATION/Driver/axi_driver.sv(67) @ 9075000: uvm_test_top.env.agent.driver [DRV] Write Done: Addr=100002d0, Data=3f103394
# UVM_INFO /home/khang/Documents/SystemVerilog/Soc_RV32I/SoC/VERIFICATION/Monitor/axi_monitor.sv(47) @ 9115000: uvm_test_top.env.agent.monitor [MON_WR] Detected WRITE : Addr = 100002d4, Data = b55c6531
# UVM_INFO /home/khang/Documents/SystemVerilog/Soc_RV32I/SoC/VERIFICATION/Driver/axi_driver.sv(67) @ 9125000: uvm_test_top.env.agent.driver [DRV] Write Done: Addr=100002d4, Data=b55c6531
# UVM_INFO /home/khang/Documents/SystemVerilog/Soc_RV32I/SoC/VERIFICATION/Monitor/axi_monitor.sv(47) @ 9165000: uvm_test_top.env.agent.monitor [MON_WR] Detected WRITE : Addr = 100002d8, Data = aa20c4f0
# UVM_INFO /home/khang/Documents/SystemVerilog/Soc_RV32I/SoC/VERIFICATION/Driver/axi_driver.sv(67) @ 9175000: uvm_test_top.env.agent.driver [DRV] Write Done: Addr=100002d8, Data=aa20c4f0
# UVM_INFO /home/khang/Documents/SystemVerilog/Soc_RV32I/SoC/VERIFICATION/Monitor/axi_monitor.sv(47) @ 9215000: uvm_test_top.env.agent.monitor [MON_WR] Detected WRITE : Addr = 100002dc, Data = b3b4da94
# UVM_INFO /home/khang/Documents/SystemVerilog/Soc_RV32I/SoC/VERIFICATION/Driver/axi_driver.sv(67) @ 9225000: uvm_test_top.env.agent.driver [DRV] Write Done: Addr=100002dc, Data=b3b4da94
# UVM_INFO /home/khang/Documents/SystemVerilog/Soc_RV32I/SoC/VERIFICATION/Monitor/axi_monitor.sv(47) @ 9265000: uvm_test_top.env.agent.monitor [MON_WR] Detected WRITE : Addr = 100002e0, Data = be393319
# UVM_INFO /home/khang/Documents/SystemVerilog/Soc_RV32I/SoC/VERIFICATION/Driver/axi_driver.sv(67) @ 9275000: uvm_test_top.env.agent.driver [DRV] Write Done: Addr=100002e0, Data=be393319
# UVM_INFO /home/khang/Documents/SystemVerilog/Soc_RV32I/SoC/VERIFICATION/Monitor/axi_monitor.sv(47) @ 9315000: uvm_test_top.env.agent.monitor [MON_WR] Detected WRITE : Addr = 100002e4, Data = 2fb78da8
# UVM_INFO /home/khang/Documents/SystemVerilog/Soc_RV32I/SoC/VERIFICATION/Driver/axi_driver.sv(67) @ 9325000: uvm_test_top.env.agent.driver [DRV] Write Done: Addr=100002e4, Data=2fb78da8
# UVM_INFO /home/khang/Documents/SystemVerilog/Soc_RV32I/SoC/VERIFICATION/Monitor/axi_monitor.sv(47) @ 9365000: uvm_test_top.env.agent.monitor [MON_WR] Detected WRITE : Addr = 100002e8, Data = ac673e36
# UVM_INFO /home/khang/Documents/SystemVerilog/Soc_RV32I/SoC/VERIFICATION/Driver/axi_driver.sv(67) @ 9375000: uvm_test_top.env.agent.driver [DRV] Write Done: Addr=100002e8, Data=ac673e36
# UVM_INFO /home/khang/Documents/SystemVerilog/Soc_RV32I/SoC/VERIFICATION/Monitor/axi_monitor.sv(47) @ 9415000: uvm_test_top.env.agent.monitor [MON_WR] Detected WRITE : Addr = 100002ec, Data = df930382
# UVM_INFO /home/khang/Documents/SystemVerilog/Soc_RV32I/SoC/VERIFICATION/Driver/axi_driver.sv(67) @ 9425000: uvm_test_top.env.agent.driver [DRV] Write Done: Addr=100002ec, Data=df930382
# UVM_INFO /home/khang/Documents/SystemVerilog/Soc_RV32I/SoC/VERIFICATION/Monitor/axi_monitor.sv(47) @ 9465000: uvm_test_top.env.agent.monitor [MON_WR] Detected WRITE : Addr = 100002f0, Data = 0a87141e
# UVM_INFO /home/khang/Documents/SystemVerilog/Soc_RV32I/SoC/VERIFICATION/Driver/axi_driver.sv(67) @ 9475000: uvm_test_top.env.agent.driver [DRV] Write Done: Addr=100002f0, Data=0a87141e
# UVM_INFO /home/khang/Documents/SystemVerilog/Soc_RV32I/SoC/VERIFICATION/Monitor/axi_monitor.sv(47) @ 9515000: uvm_test_top.env.agent.monitor [MON_WR] Detected WRITE : Addr = 100002f4, Data = 5f8a4b31
# UVM_INFO /home/khang/Documents/SystemVerilog/Soc_RV32I/SoC/VERIFICATION/Driver/axi_driver.sv(67) @ 9525000: uvm_test_top.env.agent.driver [DRV] Write Done: Addr=100002f4, Data=5f8a4b31
# UVM_INFO /home/khang/Documents/SystemVerilog/Soc_RV32I/SoC/VERIFICATION/Monitor/axi_monitor.sv(47) @ 9565000: uvm_test_top.env.agent.monitor [MON_WR] Detected WRITE : Addr = 100002f8, Data = a7043f99
# UVM_INFO /home/khang/Documents/SystemVerilog/Soc_RV32I/SoC/VERIFICATION/Driver/axi_driver.sv(67) @ 9575000: uvm_test_top.env.agent.driver [DRV] Write Done: Addr=100002f8, Data=a7043f99
# UVM_INFO /home/khang/Documents/SystemVerilog/Soc_RV32I/SoC/VERIFICATION/Monitor/axi_monitor.sv(47) @ 9615000: uvm_test_top.env.agent.monitor [MON_WR] Detected WRITE : Addr = 100002fc, Data = c9b46589
# UVM_INFO /home/khang/Documents/SystemVerilog/Soc_RV32I/SoC/VERIFICATION/Driver/axi_driver.sv(67) @ 9625000: uvm_test_top.env.agent.driver [DRV] Write Done: Addr=100002fc, Data=c9b46589
# UVM_INFO /home/khang/Documents/SystemVerilog/Soc_RV32I/SoC/VERIFICATION/Monitor/axi_monitor.sv(47) @ 9665000: uvm_test_top.env.agent.monitor [MON_WR] Detected WRITE : Addr = 10000300, Data = 64719bb9
# UVM_INFO /home/khang/Documents/SystemVerilog/Soc_RV32I/SoC/VERIFICATION/Driver/axi_driver.sv(67) @ 9675000: uvm_test_top.env.agent.driver [DRV] Write Done: Addr=10000300, Data=64719bb9
# UVM_INFO /home/khang/Documents/SystemVerilog/Soc_RV32I/SoC/VERIFICATION/Monitor/axi_monitor.sv(47) @ 9715000: uvm_test_top.env.agent.monitor [MON_WR] Detected WRITE : Addr = 10000304, Data = a0283438
# UVM_INFO /home/khang/Documents/SystemVerilog/Soc_RV32I/SoC/VERIFICATION/Driver/axi_driver.sv(67) @ 9725000: uvm_test_top.env.agent.driver [DRV] Write Done: Addr=10000304, Data=a0283438
# UVM_INFO /home/khang/Documents/SystemVerilog/Soc_RV32I/SoC/VERIFICATION/Monitor/axi_monitor.sv(47) @ 9765000: uvm_test_top.env.agent.monitor [MON_WR] Detected WRITE : Addr = 10000308, Data = 9648451e
# UVM_INFO /home/khang/Documents/SystemVerilog/Soc_RV32I/SoC/VERIFICATION/Driver/axi_driver.sv(67) @ 9775000: uvm_test_top.env.agent.driver [DRV] Write Done: Addr=10000308, Data=9648451e
# UVM_INFO /home/khang/Documents/SystemVerilog/Soc_RV32I/SoC/VERIFICATION/Monitor/axi_monitor.sv(47) @ 9815000: uvm_test_top.env.agent.monitor [MON_WR] Detected WRITE : Addr = 1000030c, Data = ea2f8bdb
# UVM_INFO /home/khang/Documents/SystemVerilog/Soc_RV32I/SoC/VERIFICATION/Driver/axi_driver.sv(67) @ 9825000: uvm_test_top.env.agent.driver [DRV] Write Done: Addr=1000030c, Data=ea2f8bdb
# UVM_INFO /home/khang/Documents/SystemVerilog/Soc_RV32I/SoC/VERIFICATION/Monitor/axi_monitor.sv(47) @ 9865000: uvm_test_top.env.agent.monitor [MON_WR] Detected WRITE : Addr = 10000310, Data = e5a1d36c
# UVM_INFO /home/khang/Documents/SystemVerilog/Soc_RV32I/SoC/VERIFICATION/Driver/axi_driver.sv(67) @ 9875000: uvm_test_top.env.agent.driver [DRV] Write Done: Addr=10000310, Data=e5a1d36c
# UVM_INFO /home/khang/Documents/SystemVerilog/Soc_RV32I/SoC/VERIFICATION/Monitor/axi_monitor.sv(47) @ 9915000: uvm_test_top.env.agent.monitor [MON_WR] Detected WRITE : Addr = 10000314, Data = bbc40b82
# UVM_INFO /home/khang/Documents/SystemVerilog/Soc_RV32I/SoC/VERIFICATION/Driver/axi_driver.sv(67) @ 9925000: uvm_test_top.env.agent.driver [DRV] Write Done: Addr=10000314, Data=bbc40b82
# UVM_INFO /home/khang/Documents/SystemVerilog/Soc_RV32I/SoC/VERIFICATION/Monitor/axi_monitor.sv(47) @ 9965000: uvm_test_top.env.agent.monitor [MON_WR] Detected WRITE : Addr = 10000318, Data = 613c2442
# UVM_INFO /home/khang/Documents/SystemVerilog/Soc_RV32I/SoC/VERIFICATION/Driver/axi_driver.sv(67) @ 9975000: uvm_test_top.env.agent.driver [DRV] Write Done: Addr=10000318, Data=613c2442
# UVM_INFO /home/khang/Documents/SystemVerilog/Soc_RV32I/SoC/VERIFICATION/Monitor/axi_monitor.sv(47) @ 10015000: uvm_test_top.env.agent.monitor [MON_WR] Detected WRITE : Addr = 1000031c, Data = f2c1e7c0
# UVM_INFO /home/khang/Documents/SystemVerilog/Soc_RV32I/SoC/VERIFICATION/Driver/axi_driver.sv(67) @ 10025000: uvm_test_top.env.agent.driver [DRV] Write Done: Addr=1000031c, Data=f2c1e7c0
# UVM_INFO /home/khang/Documents/SystemVerilog/Soc_RV32I/SoC/VERIFICATION/Monitor/axi_monitor.sv(47) @ 10065000: uvm_test_top.env.agent.monitor [MON_WR] Detected WRITE : Addr = 10000320, Data = 56c085a3
# UVM_INFO /home/khang/Documents/SystemVerilog/Soc_RV32I/SoC/VERIFICATION/Driver/axi_driver.sv(67) @ 10075000: uvm_test_top.env.agent.driver [DRV] Write Done: Addr=10000320, Data=56c085a3
