--- [0/4] Dang xoa file .mem cu va chay script Python tao 100 testcase moi ---
python3 gen_mem.py
Generated /home/khang/Documents/SystemVerilog/Soc_RV32I/SoC/SIM/cpu_instr.mem  (seed=42)
Generated /home/khang/Documents/SystemVerilog/Soc_RV32I/SoC/SIM/instr.mem  (seed=99)
--- Dang dung ROOT: /home/khang/Documents/SystemVerilog/Soc_RV32I/SoC ---
rm -rf work
vlib work
--- [1/4] Bien dich Interfaces ---
vlog -sv +acc -L uvm -cover bcst /home/khang/Documents/SystemVerilog/Soc_RV32I/SoC/INF/*.sv
QuestaSim-64 vlog 2024.1 Compiler 2024.02 Feb  1 2024
Start time: 09:25:08 on May 05,2026
vlog -sv "+acc" -L uvm -cover bcst /home/khang/Documents/SystemVerilog/Soc_RV32I/SoC/INF/clk_rst_inf.sv /home/khang/Documents/SystemVerilog/Soc_RV32I/SoC/INF/soc_inf.sv 
-- Compiling interface clk_rst_inf
-- Compiling interface soc_inf

Top level modules:
	--none--
End time: 09:25:08 on May 05,2026, Elapsed time: 0:00:00
Errors: 0, Warnings: 0
--- [2/4] Bien dich DUT (SoC Logic) ---
vlog -sv +acc -L uvm -cover bcst +incdir+/home/khang/Documents/SystemVerilog/Soc_RV32I/SoC/DUT/CPU /home/khang/Documents/SystemVerilog/Soc_RV32I/SoC/DUT/Slaves/*.sv /home/khang/Documents/SystemVerilog/Soc_RV32I/SoC/DUT/CPU/*.sv /home/khang/Documents/SystemVerilog/Soc_RV32I/SoC/DUT/Master/*.sv /home/khang/Documents/SystemVerilog/Soc_RV32I/SoC/DUT/AXI_Master.sv /home/khang/Documents/SystemVerilog/Soc_RV32I/SoC/DUT/AXI4_Lite_Interconnect.sv /home/khang/Documents/SystemVerilog/Soc_RV32I/SoC/DUT/TOP.sv
QuestaSim-64 vlog 2024.1 Compiler 2024.02 Feb  1 2024
Start time: 09:25:08 on May 05,2026
vlog -sv "+acc" -L uvm -cover bcst "+incdir+/home/khang/Documents/SystemVerilog/Soc_RV32I/SoC/DUT/CPU" /home/khang/Documents/SystemVerilog/Soc_RV32I/SoC/DUT/Slaves/RAM.sv /home/khang/Documents/SystemVerilog/Soc_RV32I/SoC/DUT/Slaves/SPI.sv /home/khang/Documents/SystemVerilog/Soc_RV32I/SoC/DUT/Slaves/Timer.sv /home/khang/Documents/SystemVerilog/Soc_RV32I/SoC/DUT/Slaves/UART.sv /home/khang/Documents/SystemVerilog/Soc_RV32I/SoC/DUT/CPU/ALU.sv /home/khang/Documents/SystemVerilog/Soc_RV32I/SoC/DUT/CPU/ALUControl.sv /home/khang/Documents/SystemVerilog/Soc_RV32I/SoC/DUT/CPU/ControlUnit.sv /home/khang/Documents/SystemVerilog/Soc_RV32I/SoC/DUT/CPU/EX_MEM.sv /home/khang/Documents/SystemVerilog/Soc_RV32I/SoC/DUT/CPU/HazardUnit.sv /home/khang/Documents/SystemVerilog/Soc_RV32I/SoC/DUT/CPU/ID_EX.sv /home/khang/Documents/SystemVerilog/Soc_RV32I/SoC/DUT/CPU/IF_ID.sv /home/khang/Documents/SystemVerilog/Soc_RV32I/SoC/DUT/CPU/MEM_WB.sv /home/khang/Documents/SystemVerilog/Soc_RV32I/SoC/DUT/CPU/MainDecoder.sv /home/khang/Documents/SystemVerilog/Soc_RV32I/SoC/DUT/CPU/RegFile.sv /home/khang/Documents/SystemVerilog/Soc_RV32I/SoC/DUT/CPU/data_mem.sv /home/khang/Documents/SystemVerilog/Soc_RV32I/SoC/DUT/CPU/instr_mem.sv /home/khang/Documents/SystemVerilog/Soc_RV32I/SoC/DUT/CPU/pc.sv /home/khang/Documents/SystemVerilog/Soc_RV32I/SoC/DUT/CPU/signExtend.sv /home/khang/Documents/SystemVerilog/Soc_RV32I/SoC/DUT/Master/CPU.sv /home/khang/Documents/SystemVerilog/Soc_RV32I/SoC/DUT/Master/LSU.sv /home/khang/Documents/SystemVerilog/Soc_RV32I/SoC/DUT/AXI_Master.sv /home/khang/Documents/SystemVerilog/Soc_RV32I/SoC/DUT/AXI4_Lite_Interconnect.sv /home/khang/Documents/SystemVerilog/Soc_RV32I/SoC/DUT/TOP.sv 
-- Compiling module RAM
-- Compiling module SPI
-- Compiling module Timer
-- Compiling module UART
-- Compiling module ALU
-- Compiling module ALUControl
-- Compiling module ControlUnit
-- Compiling module EX_MEM
-- Compiling module HazardUnit
-- Compiling module ID_EX
-- Compiling module IF_ID
-- Compiling module MEM_WB
-- Compiling module MainDecoder
-- Compiling module RegFile
-- Compiling module data_mem
-- Compiling module instr_mem
-- Compiling module pc_reg
-- Compiling module signExtend
-- Compiling module CPU
-- Compiling module LSU
-- Compiling module AXI_Master
-- Compiling module AXI4_Lite_Interconnect
** Warning: /home/khang/Documents/SystemVerilog/Soc_RV32I/SoC/DUT/AXI4_Lite_Interconnect.sv(43): (vlog-13314) Defaulting port 's_axi_bresp' kind to 'var' rather than 'wire' due to default compile option setting of -svinputport=relaxed.
** Warning: /home/khang/Documents/SystemVerilog/Soc_RV32I/SoC/DUT/AXI4_Lite_Interconnect.sv(52): (vlog-13314) Defaulting port 's_axi_rdata' kind to 'var' rather than 'wire' due to default compile option setting of -svinputport=relaxed.
** Warning: /home/khang/Documents/SystemVerilog/Soc_RV32I/SoC/DUT/AXI4_Lite_Interconnect.sv(53): (vlog-13314) Defaulting port 's_axi_rresp' kind to 'var' rather than 'wire' due to default compile option setting of -svinputport=relaxed.
-- Compiling module TOP

Top level modules:
	TOP
End time: 09:25:08 on May 05,2026, Elapsed time: 0:00:00
Errors: 0, Warnings: 3
--- [3/4] Bien dich UVM Package ---
vlog -sv +acc -L uvm -cover bcst +incdir+/home/khang/Documents/SystemVerilog/Soc_RV32I/SoC/VERIFICATION/Transaction \
            +incdir+/home/khang/Documents/SystemVerilog/Soc_RV32I/SoC/VERIFICATION/Sequencer \
            +incdir+/home/khang/Documents/SystemVerilog/Soc_RV32I/SoC/VERIFICATION/Monitor \
            +incdir+/home/khang/Documents/SystemVerilog/Soc_RV32I/SoC/VERIFICATION/Driver \
            +incdir+/home/khang/Documents/SystemVerilog/Soc_RV32I/SoC/VERIFICATION/Agent \
            +incdir+/home/khang/Documents/SystemVerilog/Soc_RV32I/SoC/VERIFICATION/Coverage \
            +incdir+/home/khang/Documents/SystemVerilog/Soc_RV32I/SoC/VERIFICATION/Env \
            +incdir+/home/khang/Documents/SystemVerilog/Soc_RV32I/SoC/VERIFICATION/Scoreboard \
            +incdir+/home/khang/Documents/SystemVerilog/Soc_RV32I/SoC/VERIFICATION/Sequence \
            +incdir+/home/khang/Documents/SystemVerilog/Soc_RV32I/SoC/VERIFICATION/Test \
            /home/khang/Documents/SystemVerilog/Soc_RV32I/SoC/VERIFICATION/Package/soc_pkg.svh
QuestaSim-64 vlog 2024.1 Compiler 2024.02 Feb  1 2024
Start time: 09:25:08 on May 05,2026
vlog -sv "+acc" -L uvm -cover bcst "+incdir+/home/khang/Documents/SystemVerilog/Soc_RV32I/SoC/VERIFICATION/Transaction" "+incdir+/home/khang/Documents/SystemVerilog/Soc_RV32I/SoC/VERIFICATION/Sequencer" "+incdir+/home/khang/Documents/SystemVerilog/Soc_RV32I/SoC/VERIFICATION/Monitor" "+incdir+/home/khang/Documents/SystemVerilog/Soc_RV32I/SoC/VERIFICATION/Driver" "+incdir+/home/khang/Documents/SystemVerilog/Soc_RV32I/SoC/VERIFICATION/Agent" "+incdir+/home/khang/Documents/SystemVerilog/Soc_RV32I/SoC/VERIFICATION/Coverage" "+incdir+/home/khang/Documents/SystemVerilog/Soc_RV32I/SoC/VERIFICATION/Env" "+incdir+/home/khang/Documents/SystemVerilog/Soc_RV32I/SoC/VERIFICATION/Scoreboard" "+incdir+/home/khang/Documents/SystemVerilog/Soc_RV32I/SoC/VERIFICATION/Sequence" "+incdir+/home/khang/Documents/SystemVerilog/Soc_RV32I/SoC/VERIFICATION/Test" /home/khang/Documents/SystemVerilog/Soc_RV32I/SoC/VERIFICATION/Package/soc_pkg.svh 
-- Compiling package soc_pkg
-- Importing package mtiUvm.uvm_pkg (uvm-1.1d Built-in)
** Note: (vlog-2286) /home/khang/Documents/SystemVerilog/Soc_RV32I/SoC/VERIFICATION/Package/soc_pkg.svh(3): Using implicit +incdir+/tools/mq/2024.1/questasim/uvm-1.1d/../verilog_src/uvm-1.1d/src from import uvm_pkg

Top level modules:
	--none--
End time: 09:25:08 on May 05,2026, Elapsed time: 0:00:00
Errors: 0, Warnings: 0
--- [4/4] Bien dich Top Testbench ---
vlog -sv +acc -L uvm -cover bcst /home/khang/Documents/SystemVerilog/Soc_RV32I/SoC/VERIFICATION/top_tb.sv
QuestaSim-64 vlog 2024.1 Compiler 2024.02 Feb  1 2024
Start time: 09:25:08 on May 05,2026
vlog -sv "+acc" -L uvm -cover bcst /home/khang/Documents/SystemVerilog/Soc_RV32I/SoC/VERIFICATION/top_tb.sv 
-- Compiling module top_tb
-- Importing package mtiUvm.uvm_pkg (uvm-1.1d Built-in)
-- Importing package soc_pkg
** Note: (vlog-2286) /home/khang/Documents/SystemVerilog/Soc_RV32I/SoC/VERIFICATION/top_tb.sv(6): Using implicit +incdir+/tools/mq/2024.1/questasim/uvm-1.1d/../verilog_src/uvm-1.1d/src from import uvm_pkg

Top level modules:
	top_tb
End time: 09:25:08 on May 05,2026, Elapsed time: 0:00:00
Errors: 0, Warnings: 0
--- [Optimize] Chay vopt ---
vopt +acc +cover top_tb -o vopt_top
QuestaSim-64 vopt 2024.1 Compiler 2024.02 Feb  1 2024
** Warning: (vopt-10587) Some optimizations are turned off because the +acc switch is in effect. This will cause your simulation to run slowly. Please use -access/-debug to maintain needed visibility.
Start time: 09:25:08 on May 05,2026
vopt "+acc" "+cover" top_tb -o vopt_top 

Top level modules:
	top_tb

Analyzing design...
** Warning: (vopt-10016) Option '-L uvm' was detected by vlog for design-unit 'top_tb', but was not detected by vopt. The vlog option will be ignored.
-- Loading module top_tb
-- Importing package mtiUvm.uvm_pkg (uvm-1.1d Built-in)
** Warning: (vopt-10016) Option '-L uvm' was detected by vlog for design-unit 'soc_pkg', but was not detected by vopt. The vlog option will be ignored.
-- Importing package soc_pkg
-- Loading package mtiUvm.questa_uvm_pkg
** Warning: (vopt-10016) Option '-L uvm' was detected by vlog for design-unit 'clk_rst_inf', but was not detected by vopt. The vlog option will be ignored.
-- Loading interface clk_rst_inf
** Warning: (vopt-10016) Option '-L uvm' was detected by vlog for design-unit 'soc_inf', but was not detected by vopt. The vlog option will be ignored.
-- Loading interface soc_inf
** Warning: (vopt-10016) Option '-L uvm' was detected by vlog for design-unit 'TOP', but was not detected by vopt. The vlog option will be ignored.
-- Loading module TOP
** Warning: (vopt-10016) Option '-L uvm' was detected by vlog for design-unit 'AXI_Master', but was not detected by vopt. The vlog option will be ignored.
-- Loading module AXI_Master
** Warning: (vopt-10016) Option '-L uvm' was detected by vlog for design-unit 'CPU', but was not detected by vopt. The vlog option will be ignored.
-- Loading module CPU
** Warning: (vopt-10016) Option '-L uvm' was detected by vlog for design-unit 'pc_reg', but was not detected by vopt. The vlog option will be ignored.
-- Loading module pc_reg
** Warning: (vopt-10016) Option '-L uvm' was detected by vlog for design-unit 'instr_mem', but was not detected by vopt. The vlog option will be ignored.
-- Loading module instr_mem
** Warning: (vopt-10016) Option '-L uvm' was detected by vlog for design-unit 'IF_ID', but was not detected by vopt. The vlog option will be ignored.
-- Loading module IF_ID
** Warning: (vopt-10016) Option '-L uvm' was detected by vlog for design-unit 'ControlUnit', but was not detected by vopt. The vlog option will be ignored.
-- Loading module ControlUnit
** Warning: (vopt-10016) Option '-L uvm' was detected by vlog for design-unit 'MainDecoder', but was not detected by vopt. The vlog option will be ignored.
-- Loading module MainDecoder
** Warning: (vopt-10016) Option '-L uvm' was detected by vlog for design-unit 'ALUControl', but was not detected by vopt. The vlog option will be ignored.
-- Loading module ALUControl
** Warning: (vopt-10016) Option '-L uvm' was detected by vlog for design-unit 'RegFile', but was not detected by vopt. The vlog option will be ignored.
-- Loading module RegFile
** Warning: (vopt-10016) Option '-L uvm' was detected by vlog for design-unit 'signExtend', but was not detected by vopt. The vlog option will be ignored.
-- Loading module signExtend
** Warning: (vopt-10016) Option '-L uvm' was detected by vlog for design-unit 'ID_EX', but was not detected by vopt. The vlog option will be ignored.
-- Loading module ID_EX
** Warning: (vopt-10016) Option '-L uvm' was detected by vlog for design-unit 'ALU', but was not detected by vopt. The vlog option will be ignored.
-- Loading module ALU
** Warning: (vopt-10016) Option '-L uvm' was detected by vlog for design-unit 'EX_MEM', but was not detected by vopt. The vlog option will be ignored.
-- Loading module EX_MEM
** Warning: (vopt-10016) Option '-L uvm' was detected by vlog for design-unit 'data_mem', but was not detected by vopt. The vlog option will be ignored.
-- Loading module data_mem
** Warning: (vopt-10016) Option '-L uvm' was detected by vlog for design-unit 'MEM_WB', but was not detected by vopt. The vlog option will be ignored.
-- Loading module MEM_WB
** Warning: (vopt-10016) Option '-L uvm' was detected by vlog for design-unit 'HazardUnit', but was not detected by vopt. The vlog option will be ignored.
-- Loading module HazardUnit
** Warning: (vopt-10016) Option '-L uvm' was detected by vlog for design-unit 'LSU', but was not detected by vopt. The vlog option will be ignored.
-- Loading module LSU
** Warning: (vopt-10016) Option '-L uvm' was detected by vlog for design-unit 'AXI4_Lite_Interconnect', but was not detected by vopt. The vlog option will be ignored.
-- Loading module AXI4_Lite_Interconnect
** Warning: (vopt-10016) Option '-L uvm' was detected by vlog for design-unit 'RAM', but was not detected by vopt. The vlog option will be ignored.
-- Loading module RAM
** Warning: (vopt-10016) Option '-L uvm' was detected by vlog for design-unit 'Timer', but was not detected by vopt. The vlog option will be ignored.
-- Loading module Timer
** Warning: (vopt-10016) Option '-L uvm' was detected by vlog for design-unit 'UART', but was not detected by vopt. The vlog option will be ignored.
-- Loading module UART
** Warning: (vopt-10016) Option '-L uvm' was detected by vlog for design-unit 'SPI', but was not detected by vopt. The vlog option will be ignored.
-- Loading module SPI
** Warning: (vopt-13408) Code coverage will be disabled for some DUs/packages/classes and source files.
Optimizing 32 design-units (inlining 0/27 module instances):
-- Optimizing package mtiUvm.questa_uvm_pkg(fast)
-- Optimizing package soc_pkg(fast)
-- Optimizing interface soc_inf(fast__2)
-- Optimizing module AXI4_Lite_Interconnect(fast)
** Warning: /home/khang/Documents/SystemVerilog/Soc_RV32I/SoC/DUT/AXI4_Lite_Interconnect.sv(43): (vopt-13314) Defaulting port 's_axi_bresp' kind to 'var' rather than 'wire' due to default compile option setting of -svinputport=relaxed.
** Warning: /home/khang/Documents/SystemVerilog/Soc_RV32I/SoC/DUT/AXI4_Lite_Interconnect.sv(52): (vopt-13314) Defaulting port 's_axi_rdata' kind to 'var' rather than 'wire' due to default compile option setting of -svinputport=relaxed.
** Warning: /home/khang/Documents/SystemVerilog/Soc_RV32I/SoC/DUT/AXI4_Lite_Interconnect.sv(53): (vopt-13314) Defaulting port 's_axi_rresp' kind to 'var' rather than 'wire' due to default compile option setting of -svinputport=relaxed.
-- Optimizing module LSU(fast)
** Note: (vopt-143) Recognized 1 FSM in module "LSU(fast)".
-- Optimizing module UART(fast)
** Note: (vopt-143) Recognized 2 FSMs in module "UART(fast)".
-- Optimizing module CPU(fast)
-- Optimizing module SPI(fast)
** Note: (vopt-143) Recognized 1 FSM in module "SPI(fast)".
-- Optimizing module top_tb(fast)
-- Optimizing module Timer(fast)
-- Optimizing module TOP(fast)
-- Optimizing module RAM(fast)
-- Optimizing module RAM(fast__1)
-- Optimizing module ID_EX(fast)
-- Optimizing module HazardUnit(fast)
-- Optimizing module MainDecoder(fast)
-- Optimizing module EX_MEM(fast)
-- Optimizing module AXI_Master(fast)
-- Optimizing module ALU(fast)
-- Optimizing module MEM_WB(fast)
-- Optimizing module RegFile(fast)
-- Optimizing module signExtend(fast)
-- Optimizing module IF_ID(fast)
-- Optimizing module ALUControl(fast)
-- Optimizing module data_mem(fast)
-- Optimizing module ControlUnit(fast)
-- Optimizing interface clk_rst_inf(fast__2)
-- Optimizing module pc_reg(fast)
-- Optimizing module instr_mem(fast)
-- Optimizing interface soc_inf(fast)
-- Optimizing interface clk_rst_inf(fast)
-- Optimizing package mtiUvm.uvm_pkg (uvm-1.1d Built-in)(fast)
Optimized design name is vopt_top
End time: 09:25:09 on May 05,2026, Elapsed time: 0:00:01
Errors: 0, Warnings: 32
--- [SINGLE TEST MODE] Dang chay test: axi_multi_slaves_test ---
Reading pref.tcl

# 2024.1

# vsim -c -L uvm -coverage -sv_seed random vopt_top "+UVM_TESTNAME=axi_multi_slaves_test" -do "coverage save -onexit coverage_result.ucdb; run -all; quit" 
# Start time: 09:25:11 on May 05,2026
# //  Questa Sim-64
# //  Version 2024.1 linux_x86_64 Feb  1 2024
# //
# // Unpublished work. Copyright 2024 Siemens
# //
# // This material contains trade secrets or otherwise confidential information
# // owned by Siemens Industry Software Inc. or its affiliates (collectively,
# // "SISW"), or its licensors. Access to and use of this information is strictly
# // limited as set forth in the Customer's applicable agreements with SISW.
# //
# // This material may not be copied, distributed, or otherwise disclosed outside
# // of the Customer's facilities without the express written permission of SISW,
# // and may not be used in any way not expressly authorized by SISW.
# //
# Loading sv_std.std
# Loading work.clk_rst_inf(fast)
# Loading work.soc_inf(fast)
# Loading mtiUvm.uvm_pkg(fast)
# Loading work.soc_pkg(fast)
# Loading mtiUvm.questa_uvm_pkg(fast)
# Loading work.top_tb(fast)
# Loading work.clk_rst_inf(fast__2)
# Loading work.soc_inf(fast__2)
# Loading work.TOP(fast)
# Loading work.AXI_Master(fast)
# Loading work.CPU(fast)
# Loading work.pc_reg(fast)
# Loading work.instr_mem(fast)
# Loading work.IF_ID(fast)
# Loading work.ControlUnit(fast)
# Loading work.MainDecoder(fast)
# Loading work.ALUControl(fast)
# Loading work.RegFile(fast)
# Loading work.signExtend(fast)
# Loading work.ID_EX(fast)
# Loading work.ALU(fast)
# Loading work.EX_MEM(fast)
# Loading work.data_mem(fast)
# Loading work.MEM_WB(fast)
# Loading work.HazardUnit(fast)
# Loading work.LSU(fast)
# Loading work.AXI4_Lite_Interconnect(fast)
# Loading work.RAM(fast)
# Loading work.RAM(fast__1)
# Loading work.Timer(fast)
# Loading work.UART(fast)
# Loading work.SPI(fast)
# Loading /tools/mq/2024.1/questasim/uvm-1.1d/linux_x86_64/uvm_dpi.so
# Sv_Seed = 3821963006
# coverage save -onexit coverage_result.ucdb
#  run -all
# ----------------------------------------------------------------
# UVM-1.1d
# (C) 2007-2013 Mentor Graphics Corporation
# (C) 2007-2013 Cadence Design Systems, Inc.
# (C) 2006-2013 Synopsys, Inc.
# (C) 2011-2013 Cypress Semiconductor Corp.
# ----------------------------------------------------------------
# 
#   ***********       IMPORTANT RELEASE NOTES         ************
# 
#   You are using a version of the UVM library that has been compiled
#   with `UVM_NO_DEPRECATED undefined.
#   See http://www.eda.org/svdb/view.php?id=3313 for more details.
# 
#   You are using a version of the UVM library that has been compiled
#   with `UVM_OBJECT_MUST_HAVE_CONSTRUCTOR undefined.
#   See http://www.eda.org/svdb/view.php?id=3770 for more details.
# 
#       (Specify +UVM_NO_RELNOTES to turn off this notice)
# 
# UVM_INFO verilog_src/questa_uvm_pkg-1.2/src/questa_uvm_pkg.sv(277) @ 0: reporter [Questa UVM] QUESTA_UVM-1.2.3
# UVM_INFO verilog_src/questa_uvm_pkg-1.2/src/questa_uvm_pkg.sv(278) @ 0: reporter [Questa UVM]  questa_uvm::init(+struct)
# --- SUCCESS: Loaded instructions from .mem ---
# UVM_INFO @ 0: reporter [RNTST] Running test axi_multi_slaves_test...
# Da nap instr.mem vao top tb
# UVM_INFO /home/khang/Documents/SystemVerilog/Soc_RV32I/SoC/VERIFICATION/Sequence/axi_multi_slaves_sequence.sv(36) @ 0: uvm_test_top.env.agent.sequencer@@seq [SEQ] --- Basic AXI4-Lite Multi Slaves ---
# UVM_INFO /home/khang/Documents/SystemVerilog/Soc_RV32I/SoC/VERIFICATION/Sequence/axi_multi_slaves_sequence.sv(41) @ 0: uvm_test_top.env.agent.sequencer@@seq [SEQ] === TEST 1: Basic DRAM Access ===
# UVM_INFO /home/khang/Documents/SystemVerilog/Soc_RV32I/SoC/VERIFICATION/Monitor/axi_monitor.sv(47) @ 65000: uvm_test_top.env.agent.monitor [MON_WR] Detected WRITE : Addr = 10000000, Data = a5a5a5a5
# UVM_INFO /home/khang/Documents/SystemVerilog/Soc_RV32I/SoC/VERIFICATION/Monitor/axi_monitor.sv(47) @ 115000: uvm_test_top.env.agent.monitor [MON_WR] Detected WRITE : Addr = 10000004, Data = 5a5a5a5a
# UVM_INFO /home/khang/Documents/SystemVerilog/Soc_RV32I/SoC/VERIFICATION/Monitor/axi_monitor.sv(67) @ 165000: uvm_test_top.env.agent.monitor [MON_RD] Deteced READ : Addr = 10000000, Data = a5a5a5a5
# UVM_INFO /home/khang/Documents/SystemVerilog/Soc_RV32I/SoC/VERIFICATION/Scoreboard/axi_scoreboard.sv(49) @ 165000: uvm_test_top.env.scoreboard [SCB_PASS] [DRAM] PASS Addr=10000000 Expected=a5a5a5a5 Got=a5a5a5a5
# UVM_INFO /home/khang/Documents/SystemVerilog/Soc_RV32I/SoC/VERIFICATION/Monitor/axi_monitor.sv(67) @ 215000: uvm_test_top.env.agent.monitor [MON_RD] Deteced READ : Addr = 10000004, Data = 5a5a5a5a
# UVM_INFO /home/khang/Documents/SystemVerilog/Soc_RV32I/SoC/VERIFICATION/Scoreboard/axi_scoreboard.sv(49) @ 215000: uvm_test_top.env.scoreboard [SCB_PASS] [DRAM] PASS Addr=10000004 Expected=5a5a5a5a Got=5a5a5a5a
# UVM_INFO /home/khang/Documents/SystemVerilog/Soc_RV32I/SoC/VERIFICATION/Sequence/axi_multi_slaves_sequence.sv(50) @ 225000: uvm_test_top.env.agent.sequencer@@seq [SEQ] === TEST 2: Timer Basic Operation ===
# UVM_INFO /home/khang/Documents/SystemVerilog/Soc_RV32I/SoC/VERIFICATION/Monitor/axi_monitor.sv(47) @ 275000: uvm_test_top.env.agent.monitor [MON_WR] Detected WRITE : Addr = 20000004, Data = 00000064
# UVM_INFO /home/khang/Documents/SystemVerilog/Soc_RV32I/SoC/VERIFICATION/Scoreboard/axi_scoreboard.sv(66) @ 275000: uvm_test_top.env.scoreboard [SCB_WR] [TIMER] WRITE Addr=20000004 Data=00000064
# UVM_INFO /home/khang/Documents/SystemVerilog/Soc_RV32I/SoC/VERIFICATION/Monitor/axi_monitor.sv(47) @ 335000: uvm_test_top.env.agent.monitor [MON_WR] Detected WRITE : Addr = 20000000, Data = 00000001
# UVM_INFO /home/khang/Documents/SystemVerilog/Soc_RV32I/SoC/VERIFICATION/Scoreboard/axi_scoreboard.sv(66) @ 335000: uvm_test_top.env.scoreboard [SCB_WR] [TIMER] WRITE Addr=20000000 Data=00000001
# UVM_INFO /home/khang/Documents/SystemVerilog/Soc_RV32I/SoC/VERIFICATION/Monitor/axi_monitor.sv(67) @ 385000: uvm_test_top.env.agent.monitor [MON_RD] Deteced READ : Addr = 20000004, Data = 00000064
# UVM_INFO /home/khang/Documents/SystemVerilog/Soc_RV32I/SoC/VERIFICATION/Scoreboard/axi_scoreboard.sv(82) @ 385000: uvm_test_top.env.scoreboard [SCB_PASS] [TIMER] PASS Addr=20000004 Expected=00000064 Got=00000064
# UVM_INFO /home/khang/Documents/SystemVerilog/Soc_RV32I/SoC/VERIFICATION/Monitor/axi_monitor.sv(67) @ 435000: uvm_test_top.env.agent.monitor [MON_RD] Deteced READ : Addr = 20000000, Data = 00000001
# UVM_INFO /home/khang/Documents/SystemVerilog/Soc_RV32I/SoC/VERIFICATION/Scoreboard/axi_scoreboard.sv(82) @ 435000: uvm_test_top.env.scoreboard [SCB_PASS] [TIMER] PASS Addr=20000000 Expected=00000001 Got=00000001
# UVM_INFO /home/khang/Documents/SystemVerilog/Soc_RV32I/SoC/VERIFICATION/Monitor/axi_monitor.sv(67) @ 485000: uvm_test_top.env.agent.monitor [MON_RD] Deteced READ : Addr = 20000008, Data = 0000000e
# UVM_INFO /home/khang/Documents/SystemVerilog/Soc_RV32I/SoC/VERIFICATION/Scoreboard/axi_scoreboard.sv(90) @ 485000: uvm_test_top.env.scoreboard [SCB_RD] [TIMER] READ Addr=20000008 Data=0000000e (status/no prior write)
# UVM_INFO /home/khang/Documents/SystemVerilog/Soc_RV32I/SoC/VERIFICATION/Sequence/axi_multi_slaves_sequence.sv(60) @ 495000: uvm_test_top.env.agent.sequencer@@seq [SEQ] === TEST 3: UART Communication ===
# UVM_INFO /home/khang/Documents/SystemVerilog/Soc_RV32I/SoC/VERIFICATION/Monitor/axi_monitor.sv(47) @ 535000: uvm_test_top.env.agent.monitor [MON_WR] Detected WRITE : Addr = 3000000c, Data = 000001b2
# UVM_INFO /home/khang/Documents/SystemVerilog/Soc_RV32I/SoC/VERIFICATION/Scoreboard/axi_scoreboard.sv(66) @ 535000: uvm_test_top.env.scoreboard [SCB_WR] [UART] WRITE Addr=3000000c Data=000001b2
# UVM_INFO /home/khang/Documents/SystemVerilog/Soc_RV32I/SoC/VERIFICATION/Monitor/axi_monitor.sv(47) @ 585000: uvm_test_top.env.agent.monitor [MON_WR] Detected WRITE : Addr = 30000000, Data = 00000041
# UVM_INFO /home/khang/Documents/SystemVerilog/Soc_RV32I/SoC/VERIFICATION/Scoreboard/axi_scoreboard.sv(66) @ 585000: uvm_test_top.env.scoreboard [SCB_WR] [UART] WRITE Addr=30000000 Data=00000041
# UVM_INFO /home/khang/Documents/SystemVerilog/Soc_RV32I/SoC/VERIFICATION/Monitor/axi_monitor.sv(67) @ 635000: uvm_test_top.env.agent.monitor [MON_RD] Deteced READ : Addr = 3000000c, Data = 000001b2
# UVM_INFO /home/khang/Documents/SystemVerilog/Soc_RV32I/SoC/VERIFICATION/Scoreboard/axi_scoreboard.sv(82) @ 635000: uvm_test_top.env.scoreboard [SCB_PASS] [UART] PASS Addr=3000000c Expected=000001b2 Got=000001b2
# UVM_INFO /home/khang/Documents/SystemVerilog/Soc_RV32I/SoC/VERIFICATION/Monitor/axi_monitor.sv(67) @ 685000: uvm_test_top.env.agent.monitor [MON_RD] Deteced READ : Addr = 30000000, Data = 00000000
# UVM_INFO /home/khang/Documents/SystemVerilog/Soc_RV32I/SoC/VERIFICATION/Scoreboard/axi_scoreboard.sv(76) @ 685000: uvm_test_top.env.scoreboard [SCB_PASS] [UART] PASS Addr=30000000 is write-only, read returned 00000000 (expected 0x00)
# UVM_INFO /home/khang/Documents/SystemVerilog/Soc_RV32I/SoC/VERIFICATION/Sequence/axi_multi_slaves_sequence.sv(69) @ 695000: uvm_test_top.env.agent.sequencer@@seq [SEQ] === TEST 4: SPI Data Transfer ===
# UVM_INFO /home/khang/Documents/SystemVerilog/Soc_RV32I/SoC/VERIFICATION/Monitor/axi_monitor.sv(47) @ 735000: uvm_test_top.env.agent.monitor [MON_WR] Detected WRITE : Addr = 4000000c, Data = 0000000a
# UVM_INFO /home/khang/Documents/SystemVerilog/Soc_RV32I/SoC/VERIFICATION/Scoreboard/axi_scoreboard.sv(66) @ 735000: uvm_test_top.env.scoreboard [SCB_WR] [SPI] WRITE Addr=4000000c Data=0000000a
# UVM_INFO /home/khang/Documents/SystemVerilog/Soc_RV32I/SoC/VERIFICATION/Monitor/axi_monitor.sv(47) @ 785000: uvm_test_top.env.agent.monitor [MON_WR] Detected WRITE : Addr = 40000000, Data = 000000ab
# UVM_INFO /home/khang/Documents/SystemVerilog/Soc_RV32I/SoC/VERIFICATION/Scoreboard/axi_scoreboard.sv(66) @ 785000: uvm_test_top.env.scoreboard [SCB_WR] [SPI] WRITE Addr=40000000 Data=000000ab
# UVM_INFO /home/khang/Documents/SystemVerilog/Soc_RV32I/SoC/VERIFICATION/Monitor/axi_monitor.sv(67) @ 835000: uvm_test_top.env.agent.monitor [MON_RD] Deteced READ : Addr = 4000000c, Data = 0000000a
# UVM_INFO /home/khang/Documents/SystemVerilog/Soc_RV32I/SoC/VERIFICATION/Scoreboard/axi_scoreboard.sv(82) @ 835000: uvm_test_top.env.scoreboard [SCB_PASS] [SPI] PASS Addr=4000000c Expected=0000000a Got=0000000a
# UVM_INFO /home/khang/Documents/SystemVerilog/Soc_RV32I/SoC/VERIFICATION/Monitor/axi_monitor.sv(67) @ 885000: uvm_test_top.env.agent.monitor [MON_RD] Deteced READ : Addr = 40000000, Data = 00000000
# UVM_INFO /home/khang/Documents/SystemVerilog/Soc_RV32I/SoC/VERIFICATION/Scoreboard/axi_scoreboard.sv(76) @ 885000: uvm_test_top.env.scoreboard [SCB_PASS] [SPI] PASS Addr=40000000 is write-only, read returned 00000000 (expected 0x00)
# UVM_INFO /home/khang/Documents/SystemVerilog/Soc_RV32I/SoC/VERIFICATION/Sequence/axi_multi_slaves_sequence.sv(78) @ 895000: uvm_test_top.env.agent.sequencer@@seq [SEQ] === TEST 5: DRAM Burst Write/Read ===
# UVM_INFO /home/khang/Documents/SystemVerilog/Soc_RV32I/SoC/VERIFICATION/Monitor/axi_monitor.sv(47) @ 935000: uvm_test_top.env.agent.monitor [MON_WR] Detected WRITE : Addr = 10000000, Data = 10000000
# UVM_INFO /home/khang/Documents/SystemVerilog/Soc_RV32I/SoC/VERIFICATION/Monitor/axi_monitor.sv(47) @ 985000: uvm_test_top.env.agent.monitor [MON_WR] Detected WRITE : Addr = 10000004, Data = 10000001
# UVM_INFO /home/khang/Documents/SystemVerilog/Soc_RV32I/SoC/VERIFICATION/Monitor/axi_monitor.sv(47) @ 1035000: uvm_test_top.env.agent.monitor [MON_WR] Detected WRITE : Addr = 10000008, Data = 10000002
# UVM_INFO /home/khang/Documents/SystemVerilog/Soc_RV32I/SoC/VERIFICATION/Monitor/axi_monitor.sv(47) @ 1085000: uvm_test_top.env.agent.monitor [MON_WR] Detected WRITE : Addr = 1000000c, Data = 10000003
# UVM_INFO /home/khang/Documents/SystemVerilog/Soc_RV32I/SoC/VERIFICATION/Monitor/axi_monitor.sv(47) @ 1135000: uvm_test_top.env.agent.monitor [MON_WR] Detected WRITE : Addr = 10000010, Data = 10000004
# UVM_INFO /home/khang/Documents/SystemVerilog/Soc_RV32I/SoC/VERIFICATION/Monitor/axi_monitor.sv(47) @ 1185000: uvm_test_top.env.agent.monitor [MON_WR] Detected WRITE : Addr = 10000014, Data = 10000005
# UVM_INFO /home/khang/Documents/SystemVerilog/Soc_RV32I/SoC/VERIFICATION/Monitor/axi_monitor.sv(47) @ 1235000: uvm_test_top.env.agent.monitor [MON_WR] Detected WRITE : Addr = 10000018, Data = 10000006
# UVM_INFO /home/khang/Documents/SystemVerilog/Soc_RV32I/SoC/VERIFICATION/Monitor/axi_monitor.sv(47) @ 1285000: uvm_test_top.env.agent.monitor [MON_WR] Detected WRITE : Addr = 1000001c, Data = 10000007
# UVM_INFO /home/khang/Documents/SystemVerilog/Soc_RV32I/SoC/VERIFICATION/Monitor/axi_monitor.sv(67) @ 1335000: uvm_test_top.env.agent.monitor [MON_RD] Deteced READ : Addr = 10000000, Data = 10000000
# UVM_INFO /home/khang/Documents/SystemVerilog/Soc_RV32I/SoC/VERIFICATION/Scoreboard/axi_scoreboard.sv(49) @ 1335000: uvm_test_top.env.scoreboard [SCB_PASS] [DRAM] PASS Addr=10000000 Expected=10000000 Got=10000000
# UVM_INFO /home/khang/Documents/SystemVerilog/Soc_RV32I/SoC/VERIFICATION/Monitor/axi_monitor.sv(67) @ 1385000: uvm_test_top.env.agent.monitor [MON_RD] Deteced READ : Addr = 10000004, Data = 10000001
# UVM_INFO /home/khang/Documents/SystemVerilog/Soc_RV32I/SoC/VERIFICATION/Scoreboard/axi_scoreboard.sv(49) @ 1385000: uvm_test_top.env.scoreboard [SCB_PASS] [DRAM] PASS Addr=10000004 Expected=10000001 Got=10000001
# UVM_INFO /home/khang/Documents/SystemVerilog/Soc_RV32I/SoC/VERIFICATION/Monitor/axi_monitor.sv(67) @ 1435000: uvm_test_top.env.agent.monitor [MON_RD] Deteced READ : Addr = 10000008, Data = 10000002
# UVM_INFO /home/khang/Documents/SystemVerilog/Soc_RV32I/SoC/VERIFICATION/Scoreboard/axi_scoreboard.sv(49) @ 1435000: uvm_test_top.env.scoreboard [SCB_PASS] [DRAM] PASS Addr=10000008 Expected=10000002 Got=10000002
# UVM_INFO /home/khang/Documents/SystemVerilog/Soc_RV32I/SoC/VERIFICATION/Monitor/axi_monitor.sv(67) @ 1485000: uvm_test_top.env.agent.monitor [MON_RD] Deteced READ : Addr = 1000000c, Data = 10000003
# UVM_INFO /home/khang/Documents/SystemVerilog/Soc_RV32I/SoC/VERIFICATION/Scoreboard/axi_scoreboard.sv(49) @ 1485000: uvm_test_top.env.scoreboard [SCB_PASS] [DRAM] PASS Addr=1000000c Expected=10000003 Got=10000003
# UVM_INFO /home/khang/Documents/SystemVerilog/Soc_RV32I/SoC/VERIFICATION/Monitor/axi_monitor.sv(67) @ 1535000: uvm_test_top.env.agent.monitor [MON_RD] Deteced READ : Addr = 10000010, Data = 10000004
# UVM_INFO /home/khang/Documents/SystemVerilog/Soc_RV32I/SoC/VERIFICATION/Scoreboard/axi_scoreboard.sv(49) @ 1535000: uvm_test_top.env.scoreboard [SCB_PASS] [DRAM] PASS Addr=10000010 Expected=10000004 Got=10000004
# UVM_INFO /home/khang/Documents/SystemVerilog/Soc_RV32I/SoC/VERIFICATION/Monitor/axi_monitor.sv(67) @ 1585000: uvm_test_top.env.agent.monitor [MON_RD] Deteced READ : Addr = 10000014, Data = 10000005
# UVM_INFO /home/khang/Documents/SystemVerilog/Soc_RV32I/SoC/VERIFICATION/Scoreboard/axi_scoreboard.sv(49) @ 1585000: uvm_test_top.env.scoreboard [SCB_PASS] [DRAM] PASS Addr=10000014 Expected=10000005 Got=10000005
# UVM_INFO /home/khang/Documents/SystemVerilog/Soc_RV32I/SoC/VERIFICATION/Monitor/axi_monitor.sv(67) @ 1635000: uvm_test_top.env.agent.monitor [MON_RD] Deteced READ : Addr = 10000018, Data = 10000006
# UVM_INFO /home/khang/Documents/SystemVerilog/Soc_RV32I/SoC/VERIFICATION/Scoreboard/axi_scoreboard.sv(49) @ 1635000: uvm_test_top.env.scoreboard [SCB_PASS] [DRAM] PASS Addr=10000018 Expected=10000006 Got=10000006
# UVM_INFO /home/khang/Documents/SystemVerilog/Soc_RV32I/SoC/VERIFICATION/Monitor/axi_monitor.sv(67) @ 1685000: uvm_test_top.env.agent.monitor [MON_RD] Deteced READ : Addr = 1000001c, Data = 10000007
# UVM_INFO /home/khang/Documents/SystemVerilog/Soc_RV32I/SoC/VERIFICATION/Scoreboard/axi_scoreboard.sv(49) @ 1685000: uvm_test_top.env.scoreboard [SCB_PASS] [DRAM] PASS Addr=1000001c Expected=10000007 Got=10000007
# UVM_INFO /home/khang/Documents/SystemVerilog/Soc_RV32I/SoC/VERIFICATION/Sequence/axi_multi_slaves_sequence.sv(89) @ 1695000: uvm_test_top.env.agent.sequencer@@seq [SEQ] === TEST 6: Interleaved Access Across Slaves ===
# UVM_INFO /home/khang/Documents/SystemVerilog/Soc_RV32I/SoC/VERIFICATION/Monitor/axi_monitor.sv(47) @ 1735000: uvm_test_top.env.agent.monitor [MON_WR] Detected WRITE : Addr = 10000000, Data = deadbeef
# UVM_INFO /home/khang/Documents/SystemVerilog/Soc_RV32I/SoC/VERIFICATION/Monitor/axi_monitor.sv(47) @ 1795000: uvm_test_top.env.agent.monitor [MON_WR] Detected WRITE : Addr = 20000004, Data = 00000032
# UVM_INFO /home/khang/Documents/SystemVerilog/Soc_RV32I/SoC/VERIFICATION/Scoreboard/axi_scoreboard.sv(66) @ 1795000: uvm_test_top.env.scoreboard [SCB_WR] [TIMER] WRITE Addr=20000004 Data=00000032
# UVM_INFO /home/khang/Documents/SystemVerilog/Soc_RV32I/SoC/VERIFICATION/Monitor/axi_monitor.sv(47) @ 1845000: uvm_test_top.env.agent.monitor [MON_WR] Detected WRITE : Addr = 3000000c, Data = 00000100
# UVM_INFO /home/khang/Documents/SystemVerilog/Soc_RV32I/SoC/VERIFICATION/Scoreboard/axi_scoreboard.sv(66) @ 1845000: uvm_test_top.env.scoreboard [SCB_WR] [UART] WRITE Addr=3000000c Data=00000100
# UVM_INFO /home/khang/Documents/SystemVerilog/Soc_RV32I/SoC/VERIFICATION/Monitor/axi_monitor.sv(47) @ 1895000: uvm_test_top.env.agent.monitor [MON_WR] Detected WRITE : Addr = 4000000c, Data = 00000005
# UVM_INFO /home/khang/Documents/SystemVerilog/Soc_RV32I/SoC/VERIFICATION/Scoreboard/axi_scoreboard.sv(66) @ 1895000: uvm_test_top.env.scoreboard [SCB_WR] [SPI] WRITE Addr=4000000c Data=00000005
# UVM_INFO /home/khang/Documents/SystemVerilog/Soc_RV32I/SoC/VERIFICATION/Monitor/axi_monitor.sv(67) @ 1945000: uvm_test_top.env.agent.monitor [MON_RD] Deteced READ : Addr = 10000000, Data = deadbeef
# UVM_INFO /home/khang/Documents/SystemVerilog/Soc_RV32I/SoC/VERIFICATION/Scoreboard/axi_scoreboard.sv(49) @ 1945000: uvm_test_top.env.scoreboard [SCB_PASS] [DRAM] PASS Addr=10000000 Expected=deadbeef Got=deadbeef
# UVM_INFO /home/khang/Documents/SystemVerilog/Soc_RV32I/SoC/VERIFICATION/Monitor/axi_monitor.sv(67) @ 1995000: uvm_test_top.env.agent.monitor [MON_RD] Deteced READ : Addr = 20000004, Data = 00000032
# UVM_INFO /home/khang/Documents/SystemVerilog/Soc_RV32I/SoC/VERIFICATION/Scoreboard/axi_scoreboard.sv(82) @ 1995000: uvm_test_top.env.scoreboard [SCB_PASS] [TIMER] PASS Addr=20000004 Expected=00000032 Got=00000032
# UVM_INFO /home/khang/Documents/SystemVerilog/Soc_RV32I/SoC/VERIFICATION/Monitor/axi_monitor.sv(67) @ 2045000: uvm_test_top.env.agent.monitor [MON_RD] Deteced READ : Addr = 3000000c, Data = 00000100
# UVM_INFO /home/khang/Documents/SystemVerilog/Soc_RV32I/SoC/VERIFICATION/Scoreboard/axi_scoreboard.sv(82) @ 2045000: uvm_test_top.env.scoreboard [SCB_PASS] [UART] PASS Addr=3000000c Expected=00000100 Got=00000100
# UVM_INFO /home/khang/Documents/SystemVerilog/Soc_RV32I/SoC/VERIFICATION/Monitor/axi_monitor.sv(67) @ 2095000: uvm_test_top.env.agent.monitor [MON_RD] Deteced READ : Addr = 4000000c, Data = 00000005
# UVM_INFO /home/khang/Documents/SystemVerilog/Soc_RV32I/SoC/VERIFICATION/Scoreboard/axi_scoreboard.sv(82) @ 2095000: uvm_test_top.env.scoreboard [SCB_PASS] [SPI] PASS Addr=4000000c Expected=00000005 Got=00000005
# UVM_INFO /home/khang/Documents/SystemVerilog/Soc_RV32I/SoC/VERIFICATION/Sequence/axi_multi_slaves_sequence.sv(103) @ 2105000: uvm_test_top.env.agent.sequencer@@seq [SEQ] === TEST 7: Timer Disable/Re-enable ===
# UVM_INFO /home/khang/Documents/SystemVerilog/Soc_RV32I/SoC/VERIFICATION/Monitor/axi_monitor.sv(47) @ 2155000: uvm_test_top.env.agent.monitor [MON_WR] Detected WRITE : Addr = 20000004, Data = 00000050
# UVM_INFO /home/khang/Documents/SystemVerilog/Soc_RV32I/SoC/VERIFICATION/Scoreboard/axi_scoreboard.sv(66) @ 2155000: uvm_test_top.env.scoreboard [SCB_WR] [TIMER] WRITE Addr=20000004 Data=00000050
# UVM_INFO /home/khang/Documents/SystemVerilog/Soc_RV32I/SoC/VERIFICATION/Monitor/axi_monitor.sv(47) @ 2215000: uvm_test_top.env.agent.monitor [MON_WR] Detected WRITE : Addr = 20000000, Data = 00000001
# UVM_INFO /home/khang/Documents/SystemVerilog/Soc_RV32I/SoC/VERIFICATION/Scoreboard/axi_scoreboard.sv(66) @ 2215000: uvm_test_top.env.scoreboard [SCB_WR] [TIMER] WRITE Addr=20000000 Data=00000001
# UVM_INFO /home/khang/Documents/SystemVerilog/Soc_RV32I/SoC/VERIFICATION/Monitor/axi_monitor.sv(67) @ 2265000: uvm_test_top.env.agent.monitor [MON_RD] Deteced READ : Addr = 20000008, Data = 00000028
# UVM_INFO /home/khang/Documents/SystemVerilog/Soc_RV32I/SoC/VERIFICATION/Scoreboard/axi_scoreboard.sv(90) @ 2265000: uvm_test_top.env.scoreboard [SCB_RD] [TIMER] READ Addr=20000008 Data=00000028 (status/no prior write)
# UVM_INFO /home/khang/Documents/SystemVerilog/Soc_RV32I/SoC/VERIFICATION/Monitor/axi_monitor.sv(47) @ 2325000: uvm_test_top.env.agent.monitor [MON_WR] Detected WRITE : Addr = 20000000, Data = 00000000
# UVM_INFO /home/khang/Documents/SystemVerilog/Soc_RV32I/SoC/VERIFICATION/Scoreboard/axi_scoreboard.sv(66) @ 2325000: uvm_test_top.env.scoreboard [SCB_WR] [TIMER] WRITE Addr=20000000 Data=00000000
# UVM_INFO /home/khang/Documents/SystemVerilog/Soc_RV32I/SoC/VERIFICATION/Monitor/axi_monitor.sv(67) @ 2375000: uvm_test_top.env.agent.monitor [MON_RD] Deteced READ : Addr = 20000008, Data = 00000000
# UVM_INFO /home/khang/Documents/SystemVerilog/Soc_RV32I/SoC/VERIFICATION/Scoreboard/axi_scoreboard.sv(90) @ 2375000: uvm_test_top.env.scoreboard [SCB_RD] [TIMER] READ Addr=20000008 Data=00000000 (status/no prior write)
# UVM_INFO /home/khang/Documents/SystemVerilog/Soc_RV32I/SoC/VERIFICATION/Monitor/axi_monitor.sv(67) @ 2425000: uvm_test_top.env.agent.monitor [MON_RD] Deteced READ : Addr = 20000000, Data = 00000000
# UVM_INFO /home/khang/Documents/SystemVerilog/Soc_RV32I/SoC/VERIFICATION/Scoreboard/axi_scoreboard.sv(82) @ 2425000: uvm_test_top.env.scoreboard [SCB_PASS] [TIMER] PASS Addr=20000000 Expected=00000000 Got=00000000
# UVM_INFO /home/khang/Documents/SystemVerilog/Soc_RV32I/SoC/VERIFICATION/Sequence/axi_multi_slaves_sequence.sv(114) @ 2435000: uvm_test_top.env.agent.sequencer@@seq [SEQ] === TEST 8: UART Multiple TX ===
# UVM_INFO /home/khang/Documents/SystemVerilog/Soc_RV32I/SoC/VERIFICATION/Monitor/axi_monitor.sv(47) @ 2475000: uvm_test_top.env.agent.monitor [MON_WR] Detected WRITE : Addr = 3000000c, Data = 000001b2
# UVM_INFO /home/khang/Documents/SystemVerilog/Soc_RV32I/SoC/VERIFICATION/Scoreboard/axi_scoreboard.sv(66) @ 2475000: uvm_test_top.env.scoreboard [SCB_WR] [UART] WRITE Addr=3000000c Data=000001b2
# UVM_INFO /home/khang/Documents/SystemVerilog/Soc_RV32I/SoC/VERIFICATION/Monitor/axi_monitor.sv(47) @ 2525000: uvm_test_top.env.agent.monitor [MON_WR] Detected WRITE : Addr = 30000000, Data = 00000048
# UVM_INFO /home/khang/Documents/SystemVerilog/Soc_RV32I/SoC/VERIFICATION/Scoreboard/axi_scoreboard.sv(66) @ 2525000: uvm_test_top.env.scoreboard [SCB_WR] [UART] WRITE Addr=30000000 Data=00000048
# UVM_INFO /home/khang/Documents/SystemVerilog/Soc_RV32I/SoC/VERIFICATION/Monitor/axi_monitor.sv(47) @ 2575000: uvm_test_top.env.agent.monitor [MON_WR] Detected WRITE : Addr = 30000000, Data = 00000045
# UVM_INFO /home/khang/Documents/SystemVerilog/Soc_RV32I/SoC/VERIFICATION/Scoreboard/axi_scoreboard.sv(66) @ 2575000: uvm_test_top.env.scoreboard [SCB_WR] [UART] WRITE Addr=30000000 Data=00000045
# UVM_INFO /home/khang/Documents/SystemVerilog/Soc_RV32I/SoC/VERIFICATION/Monitor/axi_monitor.sv(47) @ 2625000: uvm_test_top.env.agent.monitor [MON_WR] Detected WRITE : Addr = 30000000, Data = 0000004c
# UVM_INFO /home/khang/Documents/SystemVerilog/Soc_RV32I/SoC/VERIFICATION/Scoreboard/axi_scoreboard.sv(66) @ 2625000: uvm_test_top.env.scoreboard [SCB_WR] [UART] WRITE Addr=30000000 Data=0000004c
# UVM_INFO /home/khang/Documents/SystemVerilog/Soc_RV32I/SoC/VERIFICATION/Monitor/axi_monitor.sv(47) @ 2675000: uvm_test_top.env.agent.monitor [MON_WR] Detected WRITE : Addr = 30000000, Data = 0000004c
# UVM_INFO /home/khang/Documents/SystemVerilog/Soc_RV32I/SoC/VERIFICATION/Scoreboard/axi_scoreboard.sv(66) @ 2675000: uvm_test_top.env.scoreboard [SCB_WR] [UART] WRITE Addr=30000000 Data=0000004c
# UVM_INFO /home/khang/Documents/SystemVerilog/Soc_RV32I/SoC/VERIFICATION/Monitor/axi_monitor.sv(47) @ 2725000: uvm_test_top.env.agent.monitor [MON_WR] Detected WRITE : Addr = 30000000, Data = 0000004f
# UVM_INFO /home/khang/Documents/SystemVerilog/Soc_RV32I/SoC/VERIFICATION/Scoreboard/axi_scoreboard.sv(66) @ 2725000: uvm_test_top.env.scoreboard [SCB_WR] [UART] WRITE Addr=30000000 Data=0000004f
# UVM_INFO /home/khang/Documents/SystemVerilog/Soc_RV32I/SoC/VERIFICATION/Sequence/axi_multi_slaves_sequence.sv(125) @ 2735000: uvm_test_top.env.agent.sequencer@@seq [SEQ] === TEST 9: SPI Multiple Transfers ===
# UVM_INFO /home/khang/Documents/SystemVerilog/Soc_RV32I/SoC/VERIFICATION/Monitor/axi_monitor.sv(47) @ 2775000: uvm_test_top.env.agent.monitor [MON_WR] Detected WRITE : Addr = 4000000c, Data = 00000008
# UVM_INFO /home/khang/Documents/SystemVerilog/Soc_RV32I/SoC/VERIFICATION/Scoreboard/axi_scoreboard.sv(66) @ 2775000: uvm_test_top.env.scoreboard [SCB_WR] [SPI] WRITE Addr=4000000c Data=00000008
# UVM_INFO /home/khang/Documents/SystemVerilog/Soc_RV32I/SoC/VERIFICATION/Monitor/axi_monitor.sv(47) @ 2825000: uvm_test_top.env.agent.monitor [MON_WR] Detected WRITE : Addr = 40000000, Data = 000000ff
# UVM_INFO /home/khang/Documents/SystemVerilog/Soc_RV32I/SoC/VERIFICATION/Scoreboard/axi_scoreboard.sv(66) @ 2825000: uvm_test_top.env.scoreboard [SCB_WR] [SPI] WRITE Addr=40000000 Data=000000ff
# UVM_INFO /home/khang/Documents/SystemVerilog/Soc_RV32I/SoC/VERIFICATION/Monitor/axi_monitor.sv(47) @ 2875000: uvm_test_top.env.agent.monitor [MON_WR] Detected WRITE : Addr = 40000000, Data = 00000055
# UVM_INFO /home/khang/Documents/SystemVerilog/Soc_RV32I/SoC/VERIFICATION/Scoreboard/axi_scoreboard.sv(66) @ 2875000: uvm_test_top.env.scoreboard [SCB_WR] [SPI] WRITE Addr=40000000 Data=00000055
# UVM_INFO /home/khang/Documents/SystemVerilog/Soc_RV32I/SoC/VERIFICATION/Monitor/axi_monitor.sv(47) @ 2925000: uvm_test_top.env.agent.monitor [MON_WR] Detected WRITE : Addr = 40000000, Data = 000000aa
# UVM_INFO /home/khang/Documents/SystemVerilog/Soc_RV32I/SoC/VERIFICATION/Scoreboard/axi_scoreboard.sv(66) @ 2925000: uvm_test_top.env.scoreboard [SCB_WR] [SPI] WRITE Addr=40000000 Data=000000aa
# UVM_INFO /home/khang/Documents/SystemVerilog/Soc_RV32I/SoC/VERIFICATION/Monitor/axi_monitor.sv(67) @ 2975000: uvm_test_top.env.agent.monitor [MON_RD] Deteced READ : Addr = 40000000, Data = 00000000
# UVM_INFO /home/khang/Documents/SystemVerilog/Soc_RV32I/SoC/VERIFICATION/Scoreboard/axi_scoreboard.sv(76) @ 2975000: uvm_test_top.env.scoreboard [SCB_PASS] [SPI] PASS Addr=40000000 is write-only, read returned 00000000 (expected 0x00)
# UVM_INFO /home/khang/Documents/SystemVerilog/Soc_RV32I/SoC/VERIFICATION/Sequence/axi_multi_slaves_sequence.sv(135) @ 2985000: uvm_test_top.env.agent.sequencer@@seq [SEQ] === TEST 10: DRAM Address Boundaries ===
# UVM_INFO /home/khang/Documents/SystemVerilog/Soc_RV32I/SoC/VERIFICATION/Monitor/axi_monitor.sv(47) @ 3025000: uvm_test_top.env.agent.monitor [MON_WR] Detected WRITE : Addr = 10000000, Data = 00000001
# UVM_INFO /home/khang/Documents/SystemVerilog/Soc_RV32I/SoC/VERIFICATION/Monitor/axi_monitor.sv(47) @ 3075000: uvm_test_top.env.agent.monitor [MON_WR] Detected WRITE : Addr = 10000ffc, Data = ffffffff
# UVM_INFO /home/khang/Documents/SystemVerilog/Soc_RV32I/SoC/VERIFICATION/Monitor/axi_monitor.sv(67) @ 3125000: uvm_test_top.env.agent.monitor [MON_RD] Deteced READ : Addr = 10000000, Data = 00000001
# UVM_INFO /home/khang/Documents/SystemVerilog/Soc_RV32I/SoC/VERIFICATION/Scoreboard/axi_scoreboard.sv(49) @ 3125000: uvm_test_top.env.scoreboard [SCB_PASS] [DRAM] PASS Addr=10000000 Expected=00000001 Got=00000001
# UVM_INFO /home/khang/Documents/SystemVerilog/Soc_RV32I/SoC/VERIFICATION/Monitor/axi_monitor.sv(67) @ 3175000: uvm_test_top.env.agent.monitor [MON_RD] Deteced READ : Addr = 10000ffc, Data = ffffffff
# UVM_INFO /home/khang/Documents/SystemVerilog/Soc_RV32I/SoC/VERIFICATION/Scoreboard/axi_scoreboard.sv(49) @ 3175000: uvm_test_top.env.scoreboard [SCB_PASS] [DRAM] PASS Addr=10000ffc Expected=ffffffff Got=ffffffff
# UVM_INFO /home/khang/Documents/SystemVerilog/Soc_RV32I/SoC/VERIFICATION/Sequence/axi_multi_slaves_sequence.sv(144) @ 3185000: uvm_test_top.env.agent.sequencer@@seq [SEQ] === TEST 11: Read All Status Registers ===
# UVM_INFO /home/khang/Documents/SystemVerilog/Soc_RV32I/SoC/VERIFICATION/Monitor/axi_monitor.sv(67) @ 3225000: uvm_test_top.env.agent.monitor [MON_RD] Deteced READ : Addr = 20000000, Data = 00000000
# UVM_INFO /home/khang/Documents/SystemVerilog/Soc_RV32I/SoC/VERIFICATION/Scoreboard/axi_scoreboard.sv(82) @ 3225000: uvm_test_top.env.scoreboard [SCB_PASS] [TIMER] PASS Addr=20000000 Expected=00000000 Got=00000000
# UVM_INFO /home/khang/Documents/SystemVerilog/Soc_RV32I/SoC/VERIFICATION/Monitor/axi_monitor.sv(67) @ 3275000: uvm_test_top.env.agent.monitor [MON_RD] Deteced READ : Addr = 20000004, Data = 00000050
# UVM_INFO /home/khang/Documents/SystemVerilog/Soc_RV32I/SoC/VERIFICATION/Scoreboard/axi_scoreboard.sv(82) @ 3275000: uvm_test_top.env.scoreboard [SCB_PASS] [TIMER] PASS Addr=20000004 Expected=00000050 Got=00000050
# UVM_INFO /home/khang/Documents/SystemVerilog/Soc_RV32I/SoC/VERIFICATION/Monitor/axi_monitor.sv(67) @ 3325000: uvm_test_top.env.agent.monitor [MON_RD] Deteced READ : Addr = 20000008, Data = 00000000
# UVM_INFO /home/khang/Documents/SystemVerilog/Soc_RV32I/SoC/VERIFICATION/Scoreboard/axi_scoreboard.sv(90) @ 3325000: uvm_test_top.env.scoreboard [SCB_RD] [TIMER] READ Addr=20000008 Data=00000000 (status/no prior write)
# UVM_INFO /home/khang/Documents/SystemVerilog/Soc_RV32I/SoC/VERIFICATION/Monitor/axi_monitor.sv(67) @ 3375000: uvm_test_top.env.agent.monitor [MON_RD] Deteced READ : Addr = 3000000c, Data = 000001b2
# UVM_INFO /home/khang/Documents/SystemVerilog/Soc_RV32I/SoC/VERIFICATION/Scoreboard/axi_scoreboard.sv(82) @ 3375000: uvm_test_top.env.scoreboard [SCB_PASS] [UART] PASS Addr=3000000c Expected=000001b2 Got=000001b2
# UVM_INFO /home/khang/Documents/SystemVerilog/Soc_RV32I/SoC/VERIFICATION/Monitor/axi_monitor.sv(67) @ 3425000: uvm_test_top.env.agent.monitor [MON_RD] Deteced READ : Addr = 4000000c, Data = 00000008
# UVM_INFO /home/khang/Documents/SystemVerilog/Soc_RV32I/SoC/VERIFICATION/Scoreboard/axi_scoreboard.sv(82) @ 3425000: uvm_test_top.env.scoreboard [SCB_PASS] [SPI] PASS Addr=4000000c Expected=00000008 Got=00000008
# UVM_INFO /home/khang/Documents/SystemVerilog/Soc_RV32I/SoC/VERIFICATION/Sequence/axi_multi_slaves_sequence.sv(154) @ 3435000: uvm_test_top.env.agent.sequencer@@seq [SEQ] === TEST 12: Rapid DRAM Writes ===
# UVM_INFO /home/khang/Documents/SystemVerilog/Soc_RV32I/SoC/VERIFICATION/Monitor/axi_monitor.sv(47) @ 3475000: uvm_test_top.env.agent.monitor [MON_WR] Detected WRITE : Addr = 10000100, Data = 11111111
# UVM_INFO /home/khang/Documents/SystemVerilog/Soc_RV32I/SoC/VERIFICATION/Monitor/axi_monitor.sv(47) @ 3525000: uvm_test_top.env.agent.monitor [MON_WR] Detected WRITE : Addr = 10000104, Data = 22222222
# UVM_INFO /home/khang/Documents/SystemVerilog/Soc_RV32I/SoC/VERIFICATION/Monitor/axi_monitor.sv(47) @ 3575000: uvm_test_top.env.agent.monitor [MON_WR] Detected WRITE : Addr = 10000108, Data = 33333333
# UVM_INFO /home/khang/Documents/SystemVerilog/Soc_RV32I/SoC/VERIFICATION/Monitor/axi_monitor.sv(47) @ 3625000: uvm_test_top.env.agent.monitor [MON_WR] Detected WRITE : Addr = 1000010c, Data = 44444444
# UVM_INFO /home/khang/Documents/SystemVerilog/Soc_RV32I/SoC/VERIFICATION/Monitor/axi_monitor.sv(67) @ 3675000: uvm_test_top.env.agent.monitor [MON_RD] Deteced READ : Addr = 10000100, Data = 11111111
# UVM_INFO /home/khang/Documents/SystemVerilog/Soc_RV32I/SoC/VERIFICATION/Scoreboard/axi_scoreboard.sv(49) @ 3675000: uvm_test_top.env.scoreboard [SCB_PASS] [DRAM] PASS Addr=10000100 Expected=11111111 Got=11111111
# UVM_INFO /home/khang/Documents/SystemVerilog/Soc_RV32I/SoC/VERIFICATION/Monitor/axi_monitor.sv(67) @ 3725000: uvm_test_top.env.agent.monitor [MON_RD] Deteced READ : Addr = 10000104, Data = 22222222
# UVM_INFO /home/khang/Documents/SystemVerilog/Soc_RV32I/SoC/VERIFICATION/Scoreboard/axi_scoreboard.sv(49) @ 3725000: uvm_test_top.env.scoreboard [SCB_PASS] [DRAM] PASS Addr=10000104 Expected=22222222 Got=22222222
# UVM_INFO /home/khang/Documents/SystemVerilog/Soc_RV32I/SoC/VERIFICATION/Monitor/axi_monitor.sv(67) @ 3775000: uvm_test_top.env.agent.monitor [MON_RD] Deteced READ : Addr = 10000108, Data = 33333333
# UVM_INFO /home/khang/Documents/SystemVerilog/Soc_RV32I/SoC/VERIFICATION/Scoreboard/axi_scoreboard.sv(49) @ 3775000: uvm_test_top.env.scoreboard [SCB_PASS] [DRAM] PASS Addr=10000108 Expected=33333333 Got=33333333
# UVM_INFO /home/khang/Documents/SystemVerilog/Soc_RV32I/SoC/VERIFICATION/Monitor/axi_monitor.sv(67) @ 3825000: uvm_test_top.env.agent.monitor [MON_RD] Deteced READ : Addr = 1000010c, Data = 44444444
# UVM_INFO /home/khang/Documents/SystemVerilog/Soc_RV32I/SoC/VERIFICATION/Scoreboard/axi_scoreboard.sv(49) @ 3825000: uvm_test_top.env.scoreboard [SCB_PASS] [DRAM] PASS Addr=1000010c Expected=44444444 Got=44444444
# UVM_INFO /home/khang/Documents/SystemVerilog/Soc_RV32I/SoC/VERIFICATION/Sequence/axi_multi_slaves_sequence.sv(167) @ 3835000: uvm_test_top.env.agent.sequencer@@seq [SEQ] === TEST 13: Timer Period Update ===
# UVM_INFO /home/khang/Documents/SystemVerilog/Soc_RV32I/SoC/VERIFICATION/Monitor/axi_monitor.sv(47) @ 3885000: uvm_test_top.env.agent.monitor [MON_WR] Detected WRITE : Addr = 20000004, Data = 00000010
# UVM_INFO /home/khang/Documents/SystemVerilog/Soc_RV32I/SoC/VERIFICATION/Scoreboard/axi_scoreboard.sv(66) @ 3885000: uvm_test_top.env.scoreboard [SCB_WR] [TIMER] WRITE Addr=20000004 Data=00000010
# UVM_INFO /home/khang/Documents/SystemVerilog/Soc_RV32I/SoC/VERIFICATION/Monitor/axi_monitor.sv(47) @ 3945000: uvm_test_top.env.agent.monitor [MON_WR] Detected WRITE : Addr = 20000000, Data = 00000001
# UVM_INFO /home/khang/Documents/SystemVerilog/Soc_RV32I/SoC/VERIFICATION/Scoreboard/axi_scoreboard.sv(66) @ 3945000: uvm_test_top.env.scoreboard [SCB_WR] [TIMER] WRITE Addr=20000000 Data=00000001
# UVM_INFO /home/khang/Documents/SystemVerilog/Soc_RV32I/SoC/VERIFICATION/Monitor/axi_monitor.sv(67) @ 3995000: uvm_test_top.env.agent.monitor [MON_RD] Deteced READ : Addr = 20000004, Data = 00000010
# UVM_INFO /home/khang/Documents/SystemVerilog/Soc_RV32I/SoC/VERIFICATION/Scoreboard/axi_scoreboard.sv(82) @ 3995000: uvm_test_top.env.scoreboard [SCB_PASS] [TIMER] PASS Addr=20000004 Expected=00000010 Got=00000010
# UVM_INFO /home/khang/Documents/SystemVerilog/Soc_RV32I/SoC/VERIFICATION/Monitor/axi_monitor.sv(47) @ 4055000: uvm_test_top.env.agent.monitor [MON_WR] Detected WRITE : Addr = 20000004, Data = 00000020
# UVM_INFO /home/khang/Documents/SystemVerilog/Soc_RV32I/SoC/VERIFICATION/Scoreboard/axi_scoreboard.sv(66) @ 4055000: uvm_test_top.env.scoreboard [SCB_WR] [TIMER] WRITE Addr=20000004 Data=00000020
# UVM_INFO /home/khang/Documents/SystemVerilog/Soc_RV32I/SoC/VERIFICATION/Monitor/axi_monitor.sv(67) @ 4105000: uvm_test_top.env.agent.monitor [MON_RD] Deteced READ : Addr = 20000004, Data = 00000020
# UVM_INFO /home/khang/Documents/SystemVerilog/Soc_RV32I/SoC/VERIFICATION/Scoreboard/axi_scoreboard.sv(82) @ 4105000: uvm_test_top.env.scoreboard [SCB_PASS] [TIMER] PASS Addr=20000004 Expected=00000020 Got=00000020
# UVM_INFO /home/khang/Documents/SystemVerilog/Soc_RV32I/SoC/VERIFICATION/Sequence/axi_multi_slaves_sequence.sv(177) @ 4115000: uvm_test_top.env.agent.sequencer@@seq [SEQ] === TEST 14: UART/SPI Baud Variations ===
# UVM_INFO /home/khang/Documents/SystemVerilog/Soc_RV32I/SoC/VERIFICATION/Monitor/axi_monitor.sv(47) @ 4155000: uvm_test_top.env.agent.monitor [MON_WR] Detected WRITE : Addr = 3000000c, Data = 00000064
# UVM_INFO /home/khang/Documents/SystemVerilog/Soc_RV32I/SoC/VERIFICATION/Scoreboard/axi_scoreboard.sv(66) @ 4155000: uvm_test_top.env.scoreboard [SCB_WR] [UART] WRITE Addr=3000000c Data=00000064
# UVM_INFO /home/khang/Documents/SystemVerilog/Soc_RV32I/SoC/VERIFICATION/Monitor/axi_monitor.sv(67) @ 4205000: uvm_test_top.env.agent.monitor [MON_RD] Deteced READ : Addr = 3000000c, Data = 00000064
# UVM_INFO /home/khang/Documents/SystemVerilog/Soc_RV32I/SoC/VERIFICATION/Scoreboard/axi_scoreboard.sv(82) @ 4205000: uvm_test_top.env.scoreboard [SCB_PASS] [UART] PASS Addr=3000000c Expected=00000064 Got=00000064
# UVM_INFO /home/khang/Documents/SystemVerilog/Soc_RV32I/SoC/VERIFICATION/Monitor/axi_monitor.sv(47) @ 4255000: uvm_test_top.env.agent.monitor [MON_WR] Detected WRITE : Addr = 3000000c, Data = 00000032
# UVM_INFO /home/khang/Documents/SystemVerilog/Soc_RV32I/SoC/VERIFICATION/Scoreboard/axi_scoreboard.sv(66) @ 4255000: uvm_test_top.env.scoreboard [SCB_WR] [UART] WRITE Addr=3000000c Data=00000032
# UVM_INFO /home/khang/Documents/SystemVerilog/Soc_RV32I/SoC/VERIFICATION/Monitor/axi_monitor.sv(67) @ 4305000: uvm_test_top.env.agent.monitor [MON_RD] Deteced READ : Addr = 3000000c, Data = 00000032
# UVM_INFO /home/khang/Documents/SystemVerilog/Soc_RV32I/SoC/VERIFICATION/Scoreboard/axi_scoreboard.sv(82) @ 4305000: uvm_test_top.env.scoreboard [SCB_PASS] [UART] PASS Addr=3000000c Expected=00000032 Got=00000032
# UVM_INFO /home/khang/Documents/SystemVerilog/Soc_RV32I/SoC/VERIFICATION/Monitor/axi_monitor.sv(47) @ 4355000: uvm_test_top.env.agent.monitor [MON_WR] Detected WRITE : Addr = 4000000c, Data = 00000002
# UVM_INFO /home/khang/Documents/SystemVerilog/Soc_RV32I/SoC/VERIFICATION/Scoreboard/axi_scoreboard.sv(66) @ 4355000: uvm_test_top.env.scoreboard [SCB_WR] [SPI] WRITE Addr=4000000c Data=00000002
# UVM_INFO /home/khang/Documents/SystemVerilog/Soc_RV32I/SoC/VERIFICATION/Monitor/axi_monitor.sv(67) @ 4405000: uvm_test_top.env.agent.monitor [MON_RD] Deteced READ : Addr = 4000000c, Data = 00000002
# UVM_INFO /home/khang/Documents/SystemVerilog/Soc_RV32I/SoC/VERIFICATION/Scoreboard/axi_scoreboard.sv(82) @ 4405000: uvm_test_top.env.scoreboard [SCB_PASS] [SPI] PASS Addr=4000000c Expected=00000002 Got=00000002
# UVM_INFO /home/khang/Documents/SystemVerilog/Soc_RV32I/SoC/VERIFICATION/Monitor/axi_monitor.sv(47) @ 4455000: uvm_test_top.env.agent.monitor [MON_WR] Detected WRITE : Addr = 4000000c, Data = 0000001e
# UVM_INFO /home/khang/Documents/SystemVerilog/Soc_RV32I/SoC/VERIFICATION/Scoreboard/axi_scoreboard.sv(66) @ 4455000: uvm_test_top.env.scoreboard [SCB_WR] [SPI] WRITE Addr=4000000c Data=0000001e
# UVM_INFO /home/khang/Documents/SystemVerilog/Soc_RV32I/SoC/VERIFICATION/Monitor/axi_monitor.sv(67) @ 4505000: uvm_test_top.env.agent.monitor [MON_RD] Deteced READ : Addr = 4000000c, Data = 0000001e
# UVM_INFO /home/khang/Documents/SystemVerilog/Soc_RV32I/SoC/VERIFICATION/Scoreboard/axi_scoreboard.sv(82) @ 4505000: uvm_test_top.env.scoreboard [SCB_PASS] [SPI] PASS Addr=4000000c Expected=0000001e Got=0000001e
# UVM_INFO /home/khang/Documents/SystemVerilog/Soc_RV32I/SoC/VERIFICATION/Sequence/axi_multi_slaves_sequence.sv(191) @ 4515000: uvm_test_top.env.agent.sequencer@@seq [SEQ] === TEST 15: Final Multi-Slave Integrity ===
# UVM_INFO /home/khang/Documents/SystemVerilog/Soc_RV32I/SoC/VERIFICATION/Monitor/axi_monitor.sv(47) @ 4555000: uvm_test_top.env.agent.monitor [MON_WR] Detected WRITE : Addr = 10000000, Data = cafebabe
# UVM_INFO /home/khang/Documents/SystemVerilog/Soc_RV32I/SoC/VERIFICATION/Monitor/axi_monitor.sv(47) @ 4615000: uvm_test_top.env.agent.monitor [MON_WR] Detected WRITE : Addr = 20000004, Data = 0000007f
# UVM_INFO /home/khang/Documents/SystemVerilog/Soc_RV32I/SoC/VERIFICATION/Scoreboard/axi_scoreboard.sv(66) @ 4615000: uvm_test_top.env.scoreboard [SCB_WR] [TIMER] WRITE Addr=20000004 Data=0000007f
# UVM_INFO /home/khang/Documents/SystemVerilog/Soc_RV32I/SoC/VERIFICATION/Monitor/axi_monitor.sv(47) @ 4665000: uvm_test_top.env.agent.monitor [MON_WR] Detected WRITE : Addr = 3000000c, Data = 00000200
# UVM_INFO /home/khang/Documents/SystemVerilog/Soc_RV32I/SoC/VERIFICATION/Scoreboard/axi_scoreboard.sv(66) @ 4665000: uvm_test_top.env.scoreboard [SCB_WR] [UART] WRITE Addr=3000000c Data=00000200
# UVM_INFO /home/khang/Documents/SystemVerilog/Soc_RV32I/SoC/VERIFICATION/Monitor/axi_monitor.sv(47) @ 4715000: uvm_test_top.env.agent.monitor [MON_WR] Detected WRITE : Addr = 4000000c, Data = 0000000f
# UVM_INFO /home/khang/Documents/SystemVerilog/Soc_RV32I/SoC/VERIFICATION/Scoreboard/axi_scoreboard.sv(66) @ 4715000: uvm_test_top.env.scoreboard [SCB_WR] [SPI] WRITE Addr=4000000c Data=0000000f
# UVM_INFO /home/khang/Documents/SystemVerilog/Soc_RV32I/SoC/VERIFICATION/Monitor/axi_monitor.sv(67) @ 4765000: uvm_test_top.env.agent.monitor [MON_RD] Deteced READ : Addr = 10000000, Data = cafebabe
# UVM_INFO /home/khang/Documents/SystemVerilog/Soc_RV32I/SoC/VERIFICATION/Scoreboard/axi_scoreboard.sv(49) @ 4765000: uvm_test_top.env.scoreboard [SCB_PASS] [DRAM] PASS Addr=10000000 Expected=cafebabe Got=cafebabe
# UVM_INFO /home/khang/Documents/SystemVerilog/Soc_RV32I/SoC/VERIFICATION/Monitor/axi_monitor.sv(67) @ 4815000: uvm_test_top.env.agent.monitor [MON_RD] Deteced READ : Addr = 20000004, Data = 0000007f
# UVM_INFO /home/khang/Documents/SystemVerilog/Soc_RV32I/SoC/VERIFICATION/Scoreboard/axi_scoreboard.sv(82) @ 4815000: uvm_test_top.env.scoreboard [SCB_PASS] [TIMER] PASS Addr=20000004 Expected=0000007f Got=0000007f
# UVM_INFO /home/khang/Documents/SystemVerilog/Soc_RV32I/SoC/VERIFICATION/Monitor/axi_monitor.sv(67) @ 4865000: uvm_test_top.env.agent.monitor [MON_RD] Deteced READ : Addr = 3000000c, Data = 00000200
# UVM_INFO /home/khang/Documents/SystemVerilog/Soc_RV32I/SoC/VERIFICATION/Scoreboard/axi_scoreboard.sv(82) @ 4865000: uvm_test_top.env.scoreboard [SCB_PASS] [UART] PASS Addr=3000000c Expected=00000200 Got=00000200
# UVM_INFO /home/khang/Documents/SystemVerilog/Soc_RV32I/SoC/VERIFICATION/Monitor/axi_monitor.sv(67) @ 4915000: uvm_test_top.env.agent.monitor [MON_RD] Deteced READ : Addr = 4000000c, Data = 0000000f
# UVM_INFO /home/khang/Documents/SystemVerilog/Soc_RV32I/SoC/VERIFICATION/Scoreboard/axi_scoreboard.sv(82) @ 4915000: uvm_test_top.env.scoreboard [SCB_PASS] [SPI] PASS Addr=4000000c Expected=0000000f Got=0000000f
# UVM_INFO /home/khang/Documents/SystemVerilog/Soc_RV32I/SoC/VERIFICATION/Sequence/axi_multi_slaves_sequence.sv(202) @ 4925000: uvm_test_top.env.agent.sequencer@@seq [SEQ] --- All Multi-Slave Tests Complete ---
# UVM_INFO verilog_src/uvm-1.1d/src/base/uvm_objection.svh(1267) @ 5025000: reporter [TEST_DONE] 'run' phase is ready to proceed to the 'extract' phase
# 
# --- UVM Report Summary ---
# 
# ** Report counts by severity
# UVM_INFO :  195
# UVM_WARNING :    0
# UVM_ERROR :    0
# UVM_FATAL :    0
# ** Report counts by id
# [MON_RD]    46
# [MON_WR]    50
# [Questa UVM]     2
# [RNTST]     1
# [SCB_PASS]    42
# [SCB_RD]     4
# [SCB_WR]    32
# [SEQ]    17
# [TEST_DONE]     1
# ** Note: $finish    : /tools/mq/2024.1/questasim/linux_x86_64/../verilog_src/uvm-1.1d/src/base/uvm_root.svh(430)
#    Time: 5025 ns  Iteration: 54  Instance: /top_tb
# Saving coverage database on exit...
# End time: 09:25:12 on May 05,2026, Elapsed time: 0:00:01
# Errors: 0, Warnings: 0
QuestaSim-64 vcover 2024.1 Coverage Utility 2024.02 Feb  1 2024
Start time: 09:25:12 on May 05,2026
vcover report -cvg -summary coverage_result.ucdb 
Coverage Report Totals BY INSTANCES: Number of Instances 28

    Enabled Coverage              Bins      Hits    Misses    Weight  Coverage
    ----------------              ----      ----    ------    ------  --------
    Covergroups                      1        na        na         1    68.33%
        Coverpoints/Crosses          6        na        na         1        na
            Covergroup Bins         25        18         7         1    72.00%
Total coverage (filtered view): 68.33%

End time: 09:25:12 on May 05,2026, Elapsed time: 0:00:00
Errors: 0, Warnings: 0
