--- Dang dung ROOT: /home/khang/Documents/SystemVerilog/SoC-RV32I/SoC ---
rm -rf work
vlib work
--- [1/4] Bien dich Interfaces ---
vlog -sv +acc -L uvm -cover bcst /home/khang/Documents/SystemVerilog/SoC-RV32I/SoC/INF/*.sv
QuestaSim-64 vlog 2024.1 Compiler 2024.02 Feb  1 2024
Start time: 12:37:55 on Apr 15,2026
vlog -sv "+acc" -L uvm -cover bcst /home/khang/Documents/SystemVerilog/SoC-RV32I/SoC/INF/clk_rst_inf.sv /home/khang/Documents/SystemVerilog/SoC-RV32I/SoC/INF/soc_inf.sv 
-- Compiling interface clk_rst_inf
-- Compiling interface soc_if

Top level modules:
	--none--
End time: 12:37:55 on Apr 15,2026, Elapsed time: 0:00:00
Errors: 0, Warnings: 0
--- [2/4] Bien dich DUT (SoC Logic) ---
vlog -sv +acc -L uvm -cover bcst +incdir+/home/khang/Documents/SystemVerilog/SoC-RV32I/SoC/DUT/CPU /home/khang/Documents/SystemVerilog/SoC-RV32I/SoC/DUT/Slaves/*.sv /home/khang/Documents/SystemVerilog/SoC-RV32I/SoC/DUT/CPU/*.sv /home/khang/Documents/SystemVerilog/SoC-RV32I/SoC/DUT/Master/*.sv /home/khang/Documents/SystemVerilog/SoC-RV32I/SoC/DUT/AXI_Master.sv /home/khang/Documents/SystemVerilog/SoC-RV32I/SoC/DUT/AXI4_Lite_Interconnect.sv /home/khang/Documents/SystemVerilog/SoC-RV32I/SoC/DUT/TOP.sv
QuestaSim-64 vlog 2024.1 Compiler 2024.02 Feb  1 2024
Start time: 12:37:55 on Apr 15,2026
vlog -sv "+acc" -L uvm -cover bcst "+incdir+/home/khang/Documents/SystemVerilog/SoC-RV32I/SoC/DUT/CPU" /home/khang/Documents/SystemVerilog/SoC-RV32I/SoC/DUT/Slaves/RAM.sv /home/khang/Documents/SystemVerilog/SoC-RV32I/SoC/DUT/Slaves/SPI.sv /home/khang/Documents/SystemVerilog/SoC-RV32I/SoC/DUT/Slaves/Timer.sv /home/khang/Documents/SystemVerilog/SoC-RV32I/SoC/DUT/Slaves/UART.sv /home/khang/Documents/SystemVerilog/SoC-RV32I/SoC/DUT/CPU/ALU.sv /home/khang/Documents/SystemVerilog/SoC-RV32I/SoC/DUT/CPU/ALUControl.sv /home/khang/Documents/SystemVerilog/SoC-RV32I/SoC/DUT/CPU/ControlUnit.sv /home/khang/Documents/SystemVerilog/SoC-RV32I/SoC/DUT/CPU/EX_MEM.sv /home/khang/Documents/SystemVerilog/SoC-RV32I/SoC/DUT/CPU/HazardUnit.sv /home/khang/Documents/SystemVerilog/SoC-RV32I/SoC/DUT/CPU/ID_EX.sv /home/khang/Documents/SystemVerilog/SoC-RV32I/SoC/DUT/CPU/IF_ID.sv /home/khang/Documents/SystemVerilog/SoC-RV32I/SoC/DUT/CPU/MEM_WB.sv /home/khang/Documents/SystemVerilog/SoC-RV32I/SoC/DUT/CPU/MainDecoder.sv /home/khang/Documents/SystemVerilog/SoC-RV32I/SoC/DUT/CPU/RegFile.sv /home/khang/Documents/SystemVerilog/SoC-RV32I/SoC/DUT/CPU/data_mem.sv /home/khang/Documents/SystemVerilog/SoC-RV32I/SoC/DUT/CPU/instr_mem.sv /home/khang/Documents/SystemVerilog/SoC-RV32I/SoC/DUT/CPU/pc.sv /home/khang/Documents/SystemVerilog/SoC-RV32I/SoC/DUT/CPU/signExtend.sv /home/khang/Documents/SystemVerilog/SoC-RV32I/SoC/DUT/Master/CPU.sv /home/khang/Documents/SystemVerilog/SoC-RV32I/SoC/DUT/Master/LSU.sv /home/khang/Documents/SystemVerilog/SoC-RV32I/SoC/DUT/AXI_Master.sv /home/khang/Documents/SystemVerilog/SoC-RV32I/SoC/DUT/AXI4_Lite_Interconnect.sv /home/khang/Documents/SystemVerilog/SoC-RV32I/SoC/DUT/TOP.sv 
-- Compiling module RAM
-- Compiling module SPI
-- Compiling module Timer
-- Compiling module UART
-- Compiling module ALU
-- Compiling module ALUControl
-- Compiling module ControlUnit
-- Compiling module EX_MEM
-- Compiling module HazardUnit
-- Compiling module ID_EX
-- Compiling module IF_ID
-- Compiling module MEM_WB
-- Compiling module MainDecoder
-- Compiling module RegFile
-- Compiling module data_mem
-- Compiling module instr_mem
-- Compiling module pc_reg
-- Compiling module signExtend
-- Compiling module CPU
-- Compiling module LSU
-- Compiling module AXI_Master
-- Compiling module AXI4_Lite_Interconnect
** Warning: /home/khang/Documents/SystemVerilog/SoC-RV32I/SoC/DUT/AXI4_Lite_Interconnect.sv(43): (vlog-13314) Defaulting port 's_axi_bresp' kind to 'var' rather than 'wire' due to default compile option setting of -svinputport=relaxed.
** Warning: /home/khang/Documents/SystemVerilog/SoC-RV32I/SoC/DUT/AXI4_Lite_Interconnect.sv(52): (vlog-13314) Defaulting port 's_axi_rdata' kind to 'var' rather than 'wire' due to default compile option setting of -svinputport=relaxed.
** Warning: /home/khang/Documents/SystemVerilog/SoC-RV32I/SoC/DUT/AXI4_Lite_Interconnect.sv(53): (vlog-13314) Defaulting port 's_axi_rresp' kind to 'var' rather than 'wire' due to default compile option setting of -svinputport=relaxed.
-- Compiling module TOP

Top level modules:
	TOP
End time: 12:37:55 on Apr 15,2026, Elapsed time: 0:00:00
Errors: 0, Warnings: 3
--- [3/4] Bien dich UVM Package ---
vlog -sv +acc -L uvm -cover bcst +incdir+/home/khang/Documents/SystemVerilog/SoC-RV32I/SoC/VERIFICATION/Transaction \
            +incdir+/home/khang/Documents/SystemVerilog/SoC-RV32I/SoC/VERIFICATION/Sequencer \
            +incdir+/home/khang/Documents/SystemVerilog/SoC-RV32I/SoC/VERIFICATION/Monitor \
            +incdir+/home/khang/Documents/SystemVerilog/SoC-RV32I/SoC/VERIFICATION/Driver \
            +incdir+/home/khang/Documents/SystemVerilog/SoC-RV32I/SoC/VERIFICATION/Agent \
	    	+incdir+/home/khang/Documents/SystemVerilog/SoC-RV32I/SoC/VERIFICATION/Coverage \
	    	+incdir+/home/khang/Documents/SystemVerilog/SoC-RV32I/SoC/VERIFICATION/Env \
	    	+incdir+/home/khang/Documents/SystemVerilog/SoC-RV32I/SoC/VERIFICATION/Scoreboard \
            +incdir+/home/khang/Documents/SystemVerilog/SoC-RV32I/SoC/VERIFICATION/Sequence \
            +incdir+/home/khang/Documents/SystemVerilog/SoC-RV32I/SoC/VERIFICATION/Test \
            /home/khang/Documents/SystemVerilog/SoC-RV32I/SoC/VERIFICATION/Package/soc_pkg.svh
QuestaSim-64 vlog 2024.1 Compiler 2024.02 Feb  1 2024
Start time: 12:37:55 on Apr 15,2026
vlog -sv "+acc" -L uvm -cover bcst "+incdir+/home/khang/Documents/SystemVerilog/SoC-RV32I/SoC/VERIFICATION/Transaction" "+incdir+/home/khang/Documents/SystemVerilog/SoC-RV32I/SoC/VERIFICATION/Sequencer" "+incdir+/home/khang/Documents/SystemVerilog/SoC-RV32I/SoC/VERIFICATION/Monitor" "+incdir+/home/khang/Documents/SystemVerilog/SoC-RV32I/SoC/VERIFICATION/Driver" "+incdir+/home/khang/Documents/SystemVerilog/SoC-RV32I/SoC/VERIFICATION/Agent" "+incdir+/home/khang/Documents/SystemVerilog/SoC-RV32I/SoC/VERIFICATION/Coverage" "+incdir+/home/khang/Documents/SystemVerilog/SoC-RV32I/SoC/VERIFICATION/Env" "+incdir+/home/khang/Documents/SystemVerilog/SoC-RV32I/SoC/VERIFICATION/Scoreboard" "+incdir+/home/khang/Documents/SystemVerilog/SoC-RV32I/SoC/VERIFICATION/Sequence" "+incdir+/home/khang/Documents/SystemVerilog/SoC-RV32I/SoC/VERIFICATION/Test" /home/khang/Documents/SystemVerilog/SoC-RV32I/SoC/VERIFICATION/Package/soc_pkg.svh 
-- Compiling package soc_pkg
-- Importing package mtiUvm.uvm_pkg (uvm-1.1d Built-in)
** Note: (vlog-2286) /home/khang/Documents/SystemVerilog/SoC-RV32I/SoC/VERIFICATION/Package/soc_pkg.svh(3): Using implicit +incdir+/tools/mq/2024.1/questasim/uvm-1.1d/../verilog_src/uvm-1.1d/src from import uvm_pkg

Top level modules:
	--none--
End time: 12:37:56 on Apr 15,2026, Elapsed time: 0:00:01
Errors: 0, Warnings: 0
--- [4/4] Bien dich Top Testbench ---
vlog -sv +acc -L uvm -cover bcst /home/khang/Documents/SystemVerilog/SoC-RV32I/SoC/VERIFICATION/top_tb.sv
QuestaSim-64 vlog 2024.1 Compiler 2024.02 Feb  1 2024
Start time: 12:37:56 on Apr 15,2026
vlog -sv "+acc" -L uvm -cover bcst /home/khang/Documents/SystemVerilog/SoC-RV32I/SoC/VERIFICATION/top_tb.sv 
-- Compiling module top_tb
-- Importing package mtiUvm.uvm_pkg (uvm-1.1d Built-in)
-- Importing package soc_pkg
** Note: (vlog-2286) /home/khang/Documents/SystemVerilog/SoC-RV32I/SoC/VERIFICATION/top_tb.sv(6): Using implicit +incdir+/tools/mq/2024.1/questasim/uvm-1.1d/../verilog_src/uvm-1.1d/src from import uvm_pkg

Top level modules:
	top_tb
End time: 12:37:56 on Apr 15,2026, Elapsed time: 0:00:00
Errors: 0, Warnings: 0
--- [Optimize] Chay vopt ---
vopt +acc +cover top_tb -o vopt_top
QuestaSim-64 vopt 2024.1 Compiler 2024.02 Feb  1 2024
** Warning: (vopt-10587) Some optimizations are turned off because the +acc switch is in effect. This will cause your simulation to run slowly. Please use -access/-debug to maintain needed visibility.
Start time: 12:37:56 on Apr 15,2026
vopt "+acc" "+cover" top_tb -o vopt_top 

Top level modules:
	top_tb

Analyzing design...
** Warning: (vopt-10016) Option '-L uvm' was detected by vlog for design-unit 'top_tb', but was not detected by vopt. The vlog option will be ignored.
-- Loading module top_tb
-- Importing package mtiUvm.uvm_pkg (uvm-1.1d Built-in)
** Warning: (vopt-10016) Option '-L uvm' was detected by vlog for design-unit 'soc_pkg', but was not detected by vopt. The vlog option will be ignored.
-- Importing package soc_pkg
-- Loading package mtiUvm.questa_uvm_pkg
** Warning: (vopt-10016) Option '-L uvm' was detected by vlog for design-unit 'soc_if', but was not detected by vopt. The vlog option will be ignored.
-- Loading interface soc_if
** Warning: (vopt-10016) Option '-L uvm' was detected by vlog for design-unit 'clk_rst_inf', but was not detected by vopt. The vlog option will be ignored.
-- Loading interface clk_rst_inf
** Warning: (vopt-10016) Option '-L uvm' was detected by vlog for design-unit 'TOP', but was not detected by vopt. The vlog option will be ignored.
-- Loading module TOP
** Warning: (vopt-10016) Option '-L uvm' was detected by vlog for design-unit 'AXI_Master', but was not detected by vopt. The vlog option will be ignored.
-- Loading module AXI_Master
** Warning: (vopt-10016) Option '-L uvm' was detected by vlog for design-unit 'CPU', but was not detected by vopt. The vlog option will be ignored.
-- Loading module CPU
** Warning: (vopt-10016) Option '-L uvm' was detected by vlog for design-unit 'pc_reg', but was not detected by vopt. The vlog option will be ignored.
-- Loading module pc_reg
** Warning: (vopt-10016) Option '-L uvm' was detected by vlog for design-unit 'instr_mem', but was not detected by vopt. The vlog option will be ignored.
-- Loading module instr_mem
** Warning: (vopt-10016) Option '-L uvm' was detected by vlog for design-unit 'IF_ID', but was not detected by vopt. The vlog option will be ignored.
-- Loading module IF_ID
** Warning: (vopt-10016) Option '-L uvm' was detected by vlog for design-unit 'ControlUnit', but was not detected by vopt. The vlog option will be ignored.
-- Loading module ControlUnit
** Warning: (vopt-10016) Option '-L uvm' was detected by vlog for design-unit 'MainDecoder', but was not detected by vopt. The vlog option will be ignored.
-- Loading module MainDecoder
** Warning: (vopt-10016) Option '-L uvm' was detected by vlog for design-unit 'ALUControl', but was not detected by vopt. The vlog option will be ignored.
-- Loading module ALUControl
** Warning: (vopt-10016) Option '-L uvm' was detected by vlog for design-unit 'RegFile', but was not detected by vopt. The vlog option will be ignored.
-- Loading module RegFile
** Warning: (vopt-10016) Option '-L uvm' was detected by vlog for design-unit 'signExtend', but was not detected by vopt. The vlog option will be ignored.
-- Loading module signExtend
** Warning: (vopt-10016) Option '-L uvm' was detected by vlog for design-unit 'ID_EX', but was not detected by vopt. The vlog option will be ignored.
-- Loading module ID_EX
** Warning: (vopt-10016) Option '-L uvm' was detected by vlog for design-unit 'ALU', but was not detected by vopt. The vlog option will be ignored.
-- Loading module ALU
** Warning: (vopt-10016) Option '-L uvm' was detected by vlog for design-unit 'EX_MEM', but was not detected by vopt. The vlog option will be ignored.
-- Loading module EX_MEM
** Warning: (vopt-10016) Option '-L uvm' was detected by vlog for design-unit 'data_mem', but was not detected by vopt. The vlog option will be ignored.
-- Loading module data_mem
** Warning: (vopt-10016) Option '-L uvm' was detected by vlog for design-unit 'MEM_WB', but was not detected by vopt. The vlog option will be ignored.
-- Loading module MEM_WB
** Warning: (vopt-10016) Option '-L uvm' was detected by vlog for design-unit 'HazardUnit', but was not detected by vopt. The vlog option will be ignored.
-- Loading module HazardUnit
** Warning: (vopt-10016) Option '-L uvm' was detected by vlog for design-unit 'LSU', but was not detected by vopt. The vlog option will be ignored.
-- Loading module LSU
** Warning: (vopt-10016) Option '-L uvm' was detected by vlog for design-unit 'AXI4_Lite_Interconnect', but was not detected by vopt. The vlog option will be ignored.
-- Loading module AXI4_Lite_Interconnect
** Warning: (vopt-10016) Option '-L uvm' was detected by vlog for design-unit 'RAM', but was not detected by vopt. The vlog option will be ignored.
-- Loading module RAM
** Warning: (vopt-10016) Option '-L uvm' was detected by vlog for design-unit 'Timer', but was not detected by vopt. The vlog option will be ignored.
-- Loading module Timer
** Warning: (vopt-10016) Option '-L uvm' was detected by vlog for design-unit 'UART', but was not detected by vopt. The vlog option will be ignored.
-- Loading module UART
** Warning: (vopt-10016) Option '-L uvm' was detected by vlog for design-unit 'SPI', but was not detected by vopt. The vlog option will be ignored.
-- Loading module SPI
** Warning: (vopt-13408) Code coverage will be disabled for some DUs/packages/classes and source files.
Optimizing 32 design-units (inlining 0/27 module instances):
-- Optimizing package mtiUvm.questa_uvm_pkg(fast)
-- Optimizing package soc_pkg(fast)
-- Optimizing interface soc_if(fast__2)
-- Optimizing module AXI4_Lite_Interconnect(fast)
** Warning: /home/khang/Documents/SystemVerilog/SoC-RV32I/SoC/DUT/AXI4_Lite_Interconnect.sv(43): (vopt-13314) Defaulting port 's_axi_bresp' kind to 'var' rather than 'wire' due to default compile option setting of -svinputport=relaxed.
** Warning: /home/khang/Documents/SystemVerilog/SoC-RV32I/SoC/DUT/AXI4_Lite_Interconnect.sv(52): (vopt-13314) Defaulting port 's_axi_rdata' kind to 'var' rather than 'wire' due to default compile option setting of -svinputport=relaxed.
** Warning: /home/khang/Documents/SystemVerilog/SoC-RV32I/SoC/DUT/AXI4_Lite_Interconnect.sv(53): (vopt-13314) Defaulting port 's_axi_rresp' kind to 'var' rather than 'wire' due to default compile option setting of -svinputport=relaxed.
-- Optimizing module LSU(fast)
** Note: (vopt-143) Recognized 1 FSM in module "LSU(fast)".
-- Optimizing module UART(fast)
** Note: (vopt-143) Recognized 2 FSMs in module "UART(fast)".
-- Optimizing module CPU(fast)
-- Optimizing module SPI(fast)
** Note: (vopt-143) Recognized 1 FSM in module "SPI(fast)".
-- Optimizing module Timer(fast)
-- Optimizing module TOP(fast)
-- Optimizing module RAM(fast)
-- Optimizing module RAM(fast__1)
-- Optimizing module ID_EX(fast)
-- Optimizing module top_tb(fast)
-- Optimizing module HazardUnit(fast)
-- Optimizing module MainDecoder(fast)
-- Optimizing module EX_MEM(fast)
-- Optimizing module AXI_Master(fast)
-- Optimizing module ALU(fast)
-- Optimizing module MEM_WB(fast)
-- Optimizing module RegFile(fast)
-- Optimizing module signExtend(fast)
-- Optimizing module IF_ID(fast)
-- Optimizing module ALUControl(fast)
-- Optimizing module data_mem(fast)
-- Optimizing module ControlUnit(fast)
-- Optimizing interface clk_rst_inf(fast__1)
-- Optimizing module pc_reg(fast)
-- Optimizing module instr_mem(fast)
-- Optimizing interface clk_rst_inf(fast)
-- Optimizing interface soc_if(fast)
-- Optimizing package mtiUvm.uvm_pkg (uvm-1.1d Built-in)(fast)
Optimized design name is vopt_top
End time: 12:37:57 on Apr 15,2026, Elapsed time: 0:00:01
Errors: 0, Warnings: 32
--- [SINGLE TEST MODE] Dang chay test: axi_random_wr_rd_test ---
Reading pref.tcl

# 2024.1

# vsim -c -L uvm -coverage -sv_seed random vopt_top "+UVM_TESTNAME=axi_random_wr_rd_test" -do "coverage save -onexit coverage_result.ucdb; run -all; quit" 
# Start time: 12:37:58 on Apr 15,2026
# //  Questa Sim-64
# //  Version 2024.1 linux_x86_64 Feb  1 2024
# //
# // Unpublished work. Copyright 2024 Siemens
# //
# // This material contains trade secrets or otherwise confidential information
# // owned by Siemens Industry Software Inc. or its affiliates (collectively,
# // "SISW"), or its licensors. Access to and use of this information is strictly
# // limited as set forth in the Customer's applicable agreements with SISW.
# //
# // This material may not be copied, distributed, or otherwise disclosed outside
# // of the Customer's facilities without the express written permission of SISW,
# // and may not be used in any way not expressly authorized by SISW.
# //
# Loading sv_std.std
# Loading work.soc_if(fast)
# Loading mtiUvm.uvm_pkg(fast)
# Loading work.soc_pkg(fast)
# Loading mtiUvm.questa_uvm_pkg(fast)
# Loading work.top_tb(fast)
# Loading work.clk_rst_inf(fast__1)
# Loading work.soc_if(fast__2)
# Loading work.TOP(fast)
# Loading work.AXI_Master(fast)
# Loading work.CPU(fast)
# Loading work.pc_reg(fast)
# Loading work.instr_mem(fast)
# Loading work.IF_ID(fast)
# Loading work.ControlUnit(fast)
# Loading work.MainDecoder(fast)
# Loading work.ALUControl(fast)
# Loading work.RegFile(fast)
# Loading work.signExtend(fast)
# Loading work.ID_EX(fast)
# Loading work.ALU(fast)
# Loading work.EX_MEM(fast)
# Loading work.data_mem(fast)
# Loading work.MEM_WB(fast)
# Loading work.HazardUnit(fast)
# Loading work.LSU(fast)
# Loading work.AXI4_Lite_Interconnect(fast)
# Loading work.RAM(fast)
# Loading work.RAM(fast__1)
# Loading work.Timer(fast)
# Loading work.UART(fast)
# Loading work.SPI(fast)
# ** Warning: (vsim-8386) Illegal assignment to type 'enum bit uvm_pkg::uvm_active_passive_enum' from type 'bit signed[31:0]': An enum variable may only be assigned the same enum typed variable or one of its values.
#    Time: 0 ps  Iteration: 0  Region: /soc_pkg File: /home/khang/Documents/SystemVerilog/SoC-RV32I/SoC/VERIFICATION/Env/axi_env.sv Line: 16
# Loading /tools/mq/2024.1/questasim/uvm-1.1d/linux_x86_64/uvm_dpi.so
# Sv_Seed = 2491135946
# coverage save -onexit coverage_result.ucdb
#  run -all
# ----------------------------------------------------------------
# UVM-1.1d
# (C) 2007-2013 Mentor Graphics Corporation
# (C) 2007-2013 Cadence Design Systems, Inc.
# (C) 2006-2013 Synopsys, Inc.
# (C) 2011-2013 Cypress Semiconductor Corp.
# ----------------------------------------------------------------
# 
#   ***********       IMPORTANT RELEASE NOTES         ************
# 
#   You are using a version of the UVM library that has been compiled
#   with `UVM_NO_DEPRECATED undefined.
#   See http://www.eda.org/svdb/view.php?id=3313 for more details.
# 
#   You are using a version of the UVM library that has been compiled
#   with `UVM_OBJECT_MUST_HAVE_CONSTRUCTOR undefined.
#   See http://www.eda.org/svdb/view.php?id=3770 for more details.
# 
#       (Specify +UVM_NO_RELNOTES to turn off this notice)
# 
# UVM_INFO verilog_src/questa_uvm_pkg-1.2/src/questa_uvm_pkg.sv(277) @ 0: reporter [Questa UVM] QUESTA_UVM-1.2.3
# UVM_INFO verilog_src/questa_uvm_pkg-1.2/src/questa_uvm_pkg.sv(278) @ 0: reporter [Questa UVM]  questa_uvm::init(+struct)
# --- SUCCESS: Da nap chuong trinh vao Instruction Memory ---
# UVM_INFO @ 0: reporter [RNTST] Running test axi_random_wr_rd_test...
# UVM_INFO /home/khang/Documents/SystemVerilog/SoC-RV32I/SoC/VERIFICATION/Sequence/axi_random_wr_rd.sv(22) @ 0: uvm_test_top.env.agent.sequencer@@seq [SEQ] --- STARTING SMART RANDOM TEST (ID 11, 12) ---
# UVM_INFO /home/khang/Documents/SystemVerilog/SoC-RV32I/SoC/VERIFICATION/Monitor/axi_monitor.sv(44) @ 75000: uvm_test_top.env.agent.monitor [MON_WR] Detected WRITE : Addr = 10000004, Data = 1d47e540
# UVM_INFO /home/khang/Documents/SystemVerilog/SoC-RV32I/SoC/VERIFICATION/Monitor/axi_monitor.sv(44) @ 135000: uvm_test_top.env.agent.monitor [MON_WR] Detected WRITE : Addr = 10000008, Data = 1ae65962
# UVM_INFO /home/khang/Documents/SystemVerilog/SoC-RV32I/SoC/VERIFICATION/Monitor/axi_monitor.sv(44) @ 185000: uvm_test_top.env.agent.monitor [MON_WR] Detected WRITE : Addr = 1000000c, Data = 39d3329e
# UVM_INFO /home/khang/Documents/SystemVerilog/SoC-RV32I/SoC/VERIFICATION/Monitor/axi_monitor.sv(44) @ 235000: uvm_test_top.env.agent.monitor [MON_WR] Detected WRITE : Addr = 10000010, Data = 10504358
# UVM_INFO /home/khang/Documents/SystemVerilog/SoC-RV32I/SoC/VERIFICATION/Monitor/axi_monitor.sv(44) @ 285000: uvm_test_top.env.agent.monitor [MON_WR] Detected WRITE : Addr = 10000014, Data = bd7a2546
# UVM_INFO /home/khang/Documents/SystemVerilog/SoC-RV32I/SoC/VERIFICATION/Monitor/axi_monitor.sv(44) @ 335000: uvm_test_top.env.agent.monitor [MON_WR] Detected WRITE : Addr = 10000018, Data = f087a12a
# UVM_INFO /home/khang/Documents/SystemVerilog/SoC-RV32I/SoC/VERIFICATION/Monitor/axi_monitor.sv(44) @ 385000: uvm_test_top.env.agent.monitor [MON_WR] Detected WRITE : Addr = 1000001c, Data = a6e797c3
# UVM_INFO /home/khang/Documents/SystemVerilog/SoC-RV32I/SoC/VERIFICATION/Monitor/axi_monitor.sv(44) @ 435000: uvm_test_top.env.agent.monitor [MON_WR] Detected WRITE : Addr = 10000020, Data = 25e019c5
# UVM_INFO /home/khang/Documents/SystemVerilog/SoC-RV32I/SoC/VERIFICATION/Monitor/axi_monitor.sv(44) @ 485000: uvm_test_top.env.agent.monitor [MON_WR] Detected WRITE : Addr = 10000024, Data = a208c38c
# UVM_INFO /home/khang/Documents/SystemVerilog/SoC-RV32I/SoC/VERIFICATION/Monitor/axi_monitor.sv(44) @ 535000: uvm_test_top.env.agent.monitor [MON_WR] Detected WRITE : Addr = 10000028, Data = 9f6438d2
# UVM_INFO /home/khang/Documents/SystemVerilog/SoC-RV32I/SoC/VERIFICATION/Monitor/axi_monitor.sv(44) @ 585000: uvm_test_top.env.agent.monitor [MON_WR] Detected WRITE : Addr = 1000002c, Data = fdcb9d62
# UVM_INFO /home/khang/Documents/SystemVerilog/SoC-RV32I/SoC/VERIFICATION/Monitor/axi_monitor.sv(44) @ 635000: uvm_test_top.env.agent.monitor [MON_WR] Detected WRITE : Addr = 10000030, Data = c1c2e4ec
# UVM_INFO /home/khang/Documents/SystemVerilog/SoC-RV32I/SoC/VERIFICATION/Monitor/axi_monitor.sv(44) @ 685000: uvm_test_top.env.agent.monitor [MON_WR] Detected WRITE : Addr = 10000034, Data = ab005825
# UVM_INFO /home/khang/Documents/SystemVerilog/SoC-RV32I/SoC/VERIFICATION/Monitor/axi_monitor.sv(44) @ 735000: uvm_test_top.env.agent.monitor [MON_WR] Detected WRITE : Addr = 10000038, Data = 5d2a0e93
# UVM_INFO /home/khang/Documents/SystemVerilog/SoC-RV32I/SoC/VERIFICATION/Monitor/axi_monitor.sv(44) @ 785000: uvm_test_top.env.agent.monitor [MON_WR] Detected WRITE : Addr = 1000003c, Data = 3c1b03dc
# UVM_INFO /home/khang/Documents/SystemVerilog/SoC-RV32I/SoC/VERIFICATION/Monitor/axi_monitor.sv(44) @ 835000: uvm_test_top.env.agent.monitor [MON_WR] Detected WRITE : Addr = 10000040, Data = 02081303
# UVM_INFO /home/khang/Documents/SystemVerilog/SoC-RV32I/SoC/VERIFICATION/Monitor/axi_monitor.sv(44) @ 885000: uvm_test_top.env.agent.monitor [MON_WR] Detected WRITE : Addr = 10000044, Data = a3f1a791
# UVM_INFO /home/khang/Documents/SystemVerilog/SoC-RV32I/SoC/VERIFICATION/Monitor/axi_monitor.sv(44) @ 935000: uvm_test_top.env.agent.monitor [MON_WR] Detected WRITE : Addr = 10000048, Data = f73fa6d0
# UVM_INFO /home/khang/Documents/SystemVerilog/SoC-RV32I/SoC/VERIFICATION/Monitor/axi_monitor.sv(44) @ 985000: uvm_test_top.env.agent.monitor [MON_WR] Detected WRITE : Addr = 1000004c, Data = 1affef5e
# UVM_INFO /home/khang/Documents/SystemVerilog/SoC-RV32I/SoC/VERIFICATION/Monitor/axi_monitor.sv(44) @ 1035000: uvm_test_top.env.agent.monitor [MON_WR] Detected WRITE : Addr = 10000050, Data = c770dfdc
# UVM_INFO /home/khang/Documents/SystemVerilog/SoC-RV32I/SoC/VERIFICATION/Monitor/axi_monitor.sv(44) @ 1085000: uvm_test_top.env.agent.monitor [MON_WR] Detected WRITE : Addr = 10000054, Data = 0a6caa61
# UVM_INFO /home/khang/Documents/SystemVerilog/SoC-RV32I/SoC/VERIFICATION/Monitor/axi_monitor.sv(44) @ 1135000: uvm_test_top.env.agent.monitor [MON_WR] Detected WRITE : Addr = 10000058, Data = acb3525b
# UVM_INFO /home/khang/Documents/SystemVerilog/SoC-RV32I/SoC/VERIFICATION/Monitor/axi_monitor.sv(44) @ 1185000: uvm_test_top.env.agent.monitor [MON_WR] Detected WRITE : Addr = 1000005c, Data = f3883bc8
# UVM_INFO /home/khang/Documents/SystemVerilog/SoC-RV32I/SoC/VERIFICATION/Monitor/axi_monitor.sv(44) @ 1235000: uvm_test_top.env.agent.monitor [MON_WR] Detected WRITE : Addr = 10000060, Data = f112a4ea
# UVM_INFO /home/khang/Documents/SystemVerilog/SoC-RV32I/SoC/VERIFICATION/Monitor/axi_monitor.sv(44) @ 1285000: uvm_test_top.env.agent.monitor [MON_WR] Detected WRITE : Addr = 10000064, Data = b98ef185
# UVM_INFO /home/khang/Documents/SystemVerilog/SoC-RV32I/SoC/VERIFICATION/Monitor/axi_monitor.sv(44) @ 1335000: uvm_test_top.env.agent.monitor [MON_WR] Detected WRITE : Addr = 10000068, Data = 732181e1
# UVM_INFO /home/khang/Documents/SystemVerilog/SoC-RV32I/SoC/VERIFICATION/Monitor/axi_monitor.sv(44) @ 1385000: uvm_test_top.env.agent.monitor [MON_WR] Detected WRITE : Addr = 1000006c, Data = cab6f761
# UVM_INFO /home/khang/Documents/SystemVerilog/SoC-RV32I/SoC/VERIFICATION/Monitor/axi_monitor.sv(44) @ 1435000: uvm_test_top.env.agent.monitor [MON_WR] Detected WRITE : Addr = 10000070, Data = 0df87a29
# UVM_INFO /home/khang/Documents/SystemVerilog/SoC-RV32I/SoC/VERIFICATION/Monitor/axi_monitor.sv(44) @ 1485000: uvm_test_top.env.agent.monitor [MON_WR] Detected WRITE : Addr = 10000074, Data = 935db862
# UVM_INFO /home/khang/Documents/SystemVerilog/SoC-RV32I/SoC/VERIFICATION/Monitor/axi_monitor.sv(44) @ 1535000: uvm_test_top.env.agent.monitor [MON_WR] Detected WRITE : Addr = 10000078, Data = 70d73691
# UVM_INFO /home/khang/Documents/SystemVerilog/SoC-RV32I/SoC/VERIFICATION/Monitor/axi_monitor.sv(44) @ 1585000: uvm_test_top.env.agent.monitor [MON_WR] Detected WRITE : Addr = 1000007c, Data = ff5ea685
# UVM_INFO /home/khang/Documents/SystemVerilog/SoC-RV32I/SoC/VERIFICATION/Monitor/axi_monitor.sv(44) @ 1635000: uvm_test_top.env.agent.monitor [MON_WR] Detected WRITE : Addr = 10000080, Data = 2ee21b9e
# UVM_INFO /home/khang/Documents/SystemVerilog/SoC-RV32I/SoC/VERIFICATION/Monitor/axi_monitor.sv(44) @ 1685000: uvm_test_top.env.agent.monitor [MON_WR] Detected WRITE : Addr = 10000084, Data = 55df3eba
# UVM_INFO /home/khang/Documents/SystemVerilog/SoC-RV32I/SoC/VERIFICATION/Monitor/axi_monitor.sv(44) @ 1735000: uvm_test_top.env.agent.monitor [MON_WR] Detected WRITE : Addr = 10000088, Data = b826dd61
# UVM_INFO /home/khang/Documents/SystemVerilog/SoC-RV32I/SoC/VERIFICATION/Monitor/axi_monitor.sv(44) @ 1785000: uvm_test_top.env.agent.monitor [MON_WR] Detected WRITE : Addr = 1000008c, Data = 5108f250
# UVM_INFO /home/khang/Documents/SystemVerilog/SoC-RV32I/SoC/VERIFICATION/Monitor/axi_monitor.sv(44) @ 1835000: uvm_test_top.env.agent.monitor [MON_WR] Detected WRITE : Addr = 10000090, Data = 08fe82d3
# UVM_INFO /home/khang/Documents/SystemVerilog/SoC-RV32I/SoC/VERIFICATION/Monitor/axi_monitor.sv(44) @ 1885000: uvm_test_top.env.agent.monitor [MON_WR] Detected WRITE : Addr = 10000094, Data = 4d11466d
# UVM_INFO /home/khang/Documents/SystemVerilog/SoC-RV32I/SoC/VERIFICATION/Monitor/axi_monitor.sv(44) @ 1935000: uvm_test_top.env.agent.monitor [MON_WR] Detected WRITE : Addr = 10000098, Data = fbf86eac
# UVM_INFO /home/khang/Documents/SystemVerilog/SoC-RV32I/SoC/VERIFICATION/Monitor/axi_monitor.sv(44) @ 1985000: uvm_test_top.env.agent.monitor [MON_WR] Detected WRITE : Addr = 1000009c, Data = 3710fe6c
# UVM_INFO /home/khang/Documents/SystemVerilog/SoC-RV32I/SoC/VERIFICATION/Monitor/axi_monitor.sv(44) @ 2035000: uvm_test_top.env.agent.monitor [MON_WR] Detected WRITE : Addr = 100000a0, Data = 52939bd6
# UVM_INFO /home/khang/Documents/SystemVerilog/SoC-RV32I/SoC/VERIFICATION/Monitor/axi_monitor.sv(44) @ 2085000: uvm_test_top.env.agent.monitor [MON_WR] Detected WRITE : Addr = 100000a4, Data = 80e0815c
# UVM_INFO /home/khang/Documents/SystemVerilog/SoC-RV32I/SoC/VERIFICATION/Monitor/axi_monitor.sv(44) @ 2135000: uvm_test_top.env.agent.monitor [MON_WR] Detected WRITE : Addr = 100000a8, Data = 12615182
# UVM_INFO /home/khang/Documents/SystemVerilog/SoC-RV32I/SoC/VERIFICATION/Monitor/axi_monitor.sv(44) @ 2185000: uvm_test_top.env.agent.monitor [MON_WR] Detected WRITE : Addr = 100000ac, Data = a7c8d830
# UVM_INFO /home/khang/Documents/SystemVerilog/SoC-RV32I/SoC/VERIFICATION/Monitor/axi_monitor.sv(44) @ 2235000: uvm_test_top.env.agent.monitor [MON_WR] Detected WRITE : Addr = 100000b0, Data = 2a6ee9ea
# UVM_INFO /home/khang/Documents/SystemVerilog/SoC-RV32I/SoC/VERIFICATION/Monitor/axi_monitor.sv(44) @ 2285000: uvm_test_top.env.agent.monitor [MON_WR] Detected WRITE : Addr = 100000b4, Data = 606498db
# UVM_INFO /home/khang/Documents/SystemVerilog/SoC-RV32I/SoC/VERIFICATION/Monitor/axi_monitor.sv(44) @ 2335000: uvm_test_top.env.agent.monitor [MON_WR] Detected WRITE : Addr = 100000b8, Data = 2c659614
# UVM_INFO /home/khang/Documents/SystemVerilog/SoC-RV32I/SoC/VERIFICATION/Monitor/axi_monitor.sv(44) @ 2385000: uvm_test_top.env.agent.monitor [MON_WR] Detected WRITE : Addr = 100000bc, Data = b76d1c28
# UVM_INFO /home/khang/Documents/SystemVerilog/SoC-RV32I/SoC/VERIFICATION/Monitor/axi_monitor.sv(44) @ 2435000: uvm_test_top.env.agent.monitor [MON_WR] Detected WRITE : Addr = 100000c0, Data = a2e1dca0
# UVM_INFO /home/khang/Documents/SystemVerilog/SoC-RV32I/SoC/VERIFICATION/Monitor/axi_monitor.sv(44) @ 2485000: uvm_test_top.env.agent.monitor [MON_WR] Detected WRITE : Addr = 100000c4, Data = ee34e387
# UVM_INFO /home/khang/Documents/SystemVerilog/SoC-RV32I/SoC/VERIFICATION/Monitor/axi_monitor.sv(44) @ 2535000: uvm_test_top.env.agent.monitor [MON_WR] Detected WRITE : Addr = 100000c8, Data = 2e30a8e7
# UVM_INFO /home/khang/Documents/SystemVerilog/SoC-RV32I/SoC/VERIFICATION/Monitor/axi_monitor.sv(44) @ 2585000: uvm_test_top.env.agent.monitor [MON_WR] Detected WRITE : Addr = 100000cc, Data = 42819b2c
# UVM_INFO /home/khang/Documents/SystemVerilog/SoC-RV32I/SoC/VERIFICATION/Monitor/axi_monitor.sv(44) @ 2635000: uvm_test_top.env.agent.monitor [MON_WR] Detected WRITE : Addr = 100000d0, Data = 2cbe193f
# UVM_INFO /home/khang/Documents/SystemVerilog/SoC-RV32I/SoC/VERIFICATION/Monitor/axi_monitor.sv(44) @ 2685000: uvm_test_top.env.agent.monitor [MON_WR] Detected WRITE : Addr = 100000d4, Data = cb6a5ab7
# UVM_INFO /home/khang/Documents/SystemVerilog/SoC-RV32I/SoC/VERIFICATION/Monitor/axi_monitor.sv(44) @ 2735000: uvm_test_top.env.agent.monitor [MON_WR] Detected WRITE : Addr = 100000d8, Data = 0ce16c5c
# UVM_INFO /home/khang/Documents/SystemVerilog/SoC-RV32I/SoC/VERIFICATION/Monitor/axi_monitor.sv(44) @ 2785000: uvm_test_top.env.agent.monitor [MON_WR] Detected WRITE : Addr = 100000dc, Data = bfbc15aa
# UVM_INFO /home/khang/Documents/SystemVerilog/SoC-RV32I/SoC/VERIFICATION/Monitor/axi_monitor.sv(44) @ 2835000: uvm_test_top.env.agent.monitor [MON_WR] Detected WRITE : Addr = 100000e0, Data = 65c926b5
# UVM_INFO /home/khang/Documents/SystemVerilog/SoC-RV32I/SoC/VERIFICATION/Monitor/axi_monitor.sv(44) @ 2885000: uvm_test_top.env.agent.monitor [MON_WR] Detected WRITE : Addr = 100000e4, Data = 536dd6c0
# UVM_INFO /home/khang/Documents/SystemVerilog/SoC-RV32I/SoC/VERIFICATION/Monitor/axi_monitor.sv(44) @ 2935000: uvm_test_top.env.agent.monitor [MON_WR] Detected WRITE : Addr = 100000e8, Data = 63781f11
# UVM_INFO /home/khang/Documents/SystemVerilog/SoC-RV32I/SoC/VERIFICATION/Monitor/axi_monitor.sv(44) @ 2985000: uvm_test_top.env.agent.monitor [MON_WR] Detected WRITE : Addr = 100000ec, Data = dcfd1cc8
# UVM_INFO /home/khang/Documents/SystemVerilog/SoC-RV32I/SoC/VERIFICATION/Monitor/axi_monitor.sv(44) @ 3035000: uvm_test_top.env.agent.monitor [MON_WR] Detected WRITE : Addr = 100000f0, Data = 5c32505b
# UVM_INFO /home/khang/Documents/SystemVerilog/SoC-RV32I/SoC/VERIFICATION/Monitor/axi_monitor.sv(44) @ 3085000: uvm_test_top.env.agent.monitor [MON_WR] Detected WRITE : Addr = 100000f4, Data = 5350944e
# UVM_INFO /home/khang/Documents/SystemVerilog/SoC-RV32I/SoC/VERIFICATION/Monitor/axi_monitor.sv(44) @ 3135000: uvm_test_top.env.agent.monitor [MON_WR] Detected WRITE : Addr = 100000f8, Data = 7e63600c
# UVM_INFO /home/khang/Documents/SystemVerilog/SoC-RV32I/SoC/VERIFICATION/Monitor/axi_monitor.sv(44) @ 3185000: uvm_test_top.env.agent.monitor [MON_WR] Detected WRITE : Addr = 100000fc, Data = 73797d7b
# UVM_INFO /home/khang/Documents/SystemVerilog/SoC-RV32I/SoC/VERIFICATION/Monitor/axi_monitor.sv(44) @ 3235000: uvm_test_top.env.agent.monitor [MON_WR] Detected WRITE : Addr = 10000100, Data = 793aae44
# UVM_INFO /home/khang/Documents/SystemVerilog/SoC-RV32I/SoC/VERIFICATION/Monitor/axi_monitor.sv(44) @ 3285000: uvm_test_top.env.agent.monitor [MON_WR] Detected WRITE : Addr = 10000104, Data = 863ac96c
# UVM_INFO /home/khang/Documents/SystemVerilog/SoC-RV32I/SoC/VERIFICATION/Monitor/axi_monitor.sv(44) @ 3335000: uvm_test_top.env.agent.monitor [MON_WR] Detected WRITE : Addr = 10000108, Data = c98f4997
# UVM_INFO /home/khang/Documents/SystemVerilog/SoC-RV32I/SoC/VERIFICATION/Monitor/axi_monitor.sv(44) @ 3385000: uvm_test_top.env.agent.monitor [MON_WR] Detected WRITE : Addr = 1000010c, Data = 32d9ac2c
# UVM_INFO /home/khang/Documents/SystemVerilog/SoC-RV32I/SoC/VERIFICATION/Monitor/axi_monitor.sv(44) @ 3435000: uvm_test_top.env.agent.monitor [MON_WR] Detected WRITE : Addr = 10000110, Data = 8231fde9
# UVM_INFO /home/khang/Documents/SystemVerilog/SoC-RV32I/SoC/VERIFICATION/Monitor/axi_monitor.sv(44) @ 3485000: uvm_test_top.env.agent.monitor [MON_WR] Detected WRITE : Addr = 10000114, Data = 70d42dbe
# UVM_INFO /home/khang/Documents/SystemVerilog/SoC-RV32I/SoC/VERIFICATION/Monitor/axi_monitor.sv(44) @ 3535000: uvm_test_top.env.agent.monitor [MON_WR] Detected WRITE : Addr = 10000118, Data = 05e2b2c5
# UVM_INFO /home/khang/Documents/SystemVerilog/SoC-RV32I/SoC/VERIFICATION/Monitor/axi_monitor.sv(44) @ 3585000: uvm_test_top.env.agent.monitor [MON_WR] Detected WRITE : Addr = 1000011c, Data = fd6fac41
# UVM_INFO /home/khang/Documents/SystemVerilog/SoC-RV32I/SoC/VERIFICATION/Monitor/axi_monitor.sv(44) @ 3635000: uvm_test_top.env.agent.monitor [MON_WR] Detected WRITE : Addr = 10000120, Data = 13ce4587
# UVM_INFO /home/khang/Documents/SystemVerilog/SoC-RV32I/SoC/VERIFICATION/Monitor/axi_monitor.sv(44) @ 3685000: uvm_test_top.env.agent.monitor [MON_WR] Detected WRITE : Addr = 10000124, Data = 8717540b
# UVM_INFO /home/khang/Documents/SystemVerilog/SoC-RV32I/SoC/VERIFICATION/Monitor/axi_monitor.sv(44) @ 3735000: uvm_test_top.env.agent.monitor [MON_WR] Detected WRITE : Addr = 10000128, Data = cd161cf2
# UVM_INFO /home/khang/Documents/SystemVerilog/SoC-RV32I/SoC/VERIFICATION/Monitor/axi_monitor.sv(44) @ 3785000: uvm_test_top.env.agent.monitor [MON_WR] Detected WRITE : Addr = 1000012c, Data = 1445da91
# UVM_INFO /home/khang/Documents/SystemVerilog/SoC-RV32I/SoC/VERIFICATION/Monitor/axi_monitor.sv(44) @ 3835000: uvm_test_top.env.agent.monitor [MON_WR] Detected WRITE : Addr = 10000130, Data = 9532d31a
# UVM_INFO /home/khang/Documents/SystemVerilog/SoC-RV32I/SoC/VERIFICATION/Monitor/axi_monitor.sv(44) @ 3885000: uvm_test_top.env.agent.monitor [MON_WR] Detected WRITE : Addr = 10000134, Data = 837d5716
# UVM_INFO /home/khang/Documents/SystemVerilog/SoC-RV32I/SoC/VERIFICATION/Monitor/axi_monitor.sv(44) @ 3935000: uvm_test_top.env.agent.monitor [MON_WR] Detected WRITE : Addr = 10000138, Data = 57571f5f
# UVM_INFO /home/khang/Documents/SystemVerilog/SoC-RV32I/SoC/VERIFICATION/Monitor/axi_monitor.sv(44) @ 3985000: uvm_test_top.env.agent.monitor [MON_WR] Detected WRITE : Addr = 1000013c, Data = 11b342e8
# UVM_INFO /home/khang/Documents/SystemVerilog/SoC-RV32I/SoC/VERIFICATION/Monitor/axi_monitor.sv(44) @ 4035000: uvm_test_top.env.agent.monitor [MON_WR] Detected WRITE : Addr = 10000140, Data = b2922c5a
# UVM_INFO /home/khang/Documents/SystemVerilog/SoC-RV32I/SoC/VERIFICATION/Monitor/axi_monitor.sv(44) @ 4085000: uvm_test_top.env.agent.monitor [MON_WR] Detected WRITE : Addr = 10000144, Data = ffba9700
# UVM_INFO /home/khang/Documents/SystemVerilog/SoC-RV32I/SoC/VERIFICATION/Monitor/axi_monitor.sv(44) @ 4135000: uvm_test_top.env.agent.monitor [MON_WR] Detected WRITE : Addr = 10000148, Data = 1f9a994a
# UVM_INFO /home/khang/Documents/SystemVerilog/SoC-RV32I/SoC/VERIFICATION/Monitor/axi_monitor.sv(44) @ 4185000: uvm_test_top.env.agent.monitor [MON_WR] Detected WRITE : Addr = 1000014c, Data = 3fcb6840
# UVM_INFO /home/khang/Documents/SystemVerilog/SoC-RV32I/SoC/VERIFICATION/Monitor/axi_monitor.sv(44) @ 4235000: uvm_test_top.env.agent.monitor [MON_WR] Detected WRITE : Addr = 10000150, Data = cf4a235d
# UVM_INFO /home/khang/Documents/SystemVerilog/SoC-RV32I/SoC/VERIFICATION/Monitor/axi_monitor.sv(44) @ 4285000: uvm_test_top.env.agent.monitor [MON_WR] Detected WRITE : Addr = 10000154, Data = 6916f8a2
# UVM_INFO /home/khang/Documents/SystemVerilog/SoC-RV32I/SoC/VERIFICATION/Monitor/axi_monitor.sv(44) @ 4335000: uvm_test_top.env.agent.monitor [MON_WR] Detected WRITE : Addr = 10000158, Data = d1885ab6
# UVM_INFO /home/khang/Documents/SystemVerilog/SoC-RV32I/SoC/VERIFICATION/Monitor/axi_monitor.sv(44) @ 4385000: uvm_test_top.env.agent.monitor [MON_WR] Detected WRITE : Addr = 1000015c, Data = e6bf3ad2
# UVM_INFO /home/khang/Documents/SystemVerilog/SoC-RV32I/SoC/VERIFICATION/Monitor/axi_monitor.sv(44) @ 4435000: uvm_test_top.env.agent.monitor [MON_WR] Detected WRITE : Addr = 10000160, Data = 848a9eb4
# UVM_INFO /home/khang/Documents/SystemVerilog/SoC-RV32I/SoC/VERIFICATION/Monitor/axi_monitor.sv(44) @ 4485000: uvm_test_top.env.agent.monitor [MON_WR] Detected WRITE : Addr = 10000164, Data = 940d4376
# UVM_INFO /home/khang/Documents/SystemVerilog/SoC-RV32I/SoC/VERIFICATION/Monitor/axi_monitor.sv(44) @ 4535000: uvm_test_top.env.agent.monitor [MON_WR] Detected WRITE : Addr = 10000168, Data = b691b1e4
# UVM_INFO /home/khang/Documents/SystemVerilog/SoC-RV32I/SoC/VERIFICATION/Monitor/axi_monitor.sv(44) @ 4585000: uvm_test_top.env.agent.monitor [MON_WR] Detected WRITE : Addr = 1000016c, Data = e2283fa8
# UVM_INFO /home/khang/Documents/SystemVerilog/SoC-RV32I/SoC/VERIFICATION/Monitor/axi_monitor.sv(44) @ 4635000: uvm_test_top.env.agent.monitor [MON_WR] Detected WRITE : Addr = 10000170, Data = 88fe5651
# UVM_INFO /home/khang/Documents/SystemVerilog/SoC-RV32I/SoC/VERIFICATION/Monitor/axi_monitor.sv(44) @ 4685000: uvm_test_top.env.agent.monitor [MON_WR] Detected WRITE : Addr = 10000174, Data = 64de7e8c
# UVM_INFO /home/khang/Documents/SystemVerilog/SoC-RV32I/SoC/VERIFICATION/Monitor/axi_monitor.sv(44) @ 4735000: uvm_test_top.env.agent.monitor [MON_WR] Detected WRITE : Addr = 10000178, Data = 94e306e7
# UVM_INFO /home/khang/Documents/SystemVerilog/SoC-RV32I/SoC/VERIFICATION/Monitor/axi_monitor.sv(44) @ 4785000: uvm_test_top.env.agent.monitor [MON_WR] Detected WRITE : Addr = 1000017c, Data = 469f7f6b
# UVM_INFO /home/khang/Documents/SystemVerilog/SoC-RV32I/SoC/VERIFICATION/Monitor/axi_monitor.sv(44) @ 4835000: uvm_test_top.env.agent.monitor [MON_WR] Detected WRITE : Addr = 10000180, Data = 90d37730
# UVM_INFO /home/khang/Documents/SystemVerilog/SoC-RV32I/SoC/VERIFICATION/Monitor/axi_monitor.sv(44) @ 4885000: uvm_test_top.env.agent.monitor [MON_WR] Detected WRITE : Addr = 10000184, Data = 569df0ab
# UVM_INFO /home/khang/Documents/SystemVerilog/SoC-RV32I/SoC/VERIFICATION/Monitor/axi_monitor.sv(44) @ 4935000: uvm_test_top.env.agent.monitor [MON_WR] Detected WRITE : Addr = 10000188, Data = f8e22ca0
# UVM_INFO /home/khang/Documents/SystemVerilog/SoC-RV32I/SoC/VERIFICATION/Monitor/axi_monitor.sv(44) @ 4985000: uvm_test_top.env.agent.monitor [MON_WR] Detected WRITE : Addr = 1000018c, Data = 42048b4a
# UVM_INFO /home/khang/Documents/SystemVerilog/SoC-RV32I/SoC/VERIFICATION/Monitor/axi_monitor.sv(44) @ 5035000: uvm_test_top.env.agent.monitor [MON_WR] Detected WRITE : Addr = 10000190, Data = 16b23d1b
# UVM_INFO /home/khang/Documents/SystemVerilog/SoC-RV32I/SoC/VERIFICATION/Monitor/axi_monitor.sv(44) @ 5085000: uvm_test_top.env.agent.monitor [MON_WR] Detected WRITE : Addr = 10000194, Data = 0a45472d
# UVM_INFO /home/khang/Documents/SystemVerilog/SoC-RV32I/SoC/VERIFICATION/Monitor/axi_monitor.sv(44) @ 5135000: uvm_test_top.env.agent.monitor [MON_WR] Detected WRITE : Addr = 10000198, Data = 93d855e5
# UVM_INFO /home/khang/Documents/SystemVerilog/SoC-RV32I/SoC/VERIFICATION/Monitor/axi_monitor.sv(44) @ 5185000: uvm_test_top.env.agent.monitor [MON_WR] Detected WRITE : Addr = 1000019c, Data = 45f3a57b
# UVM_INFO /home/khang/Documents/SystemVerilog/SoC-RV32I/SoC/VERIFICATION/Monitor/axi_monitor.sv(44) @ 5235000: uvm_test_top.env.agent.monitor [MON_WR] Detected WRITE : Addr = 100001a0, Data = 625d1152
# UVM_INFO /home/khang/Documents/SystemVerilog/SoC-RV32I/SoC/VERIFICATION/Monitor/axi_monitor.sv(44) @ 5285000: uvm_test_top.env.agent.monitor [MON_WR] Detected WRITE : Addr = 100001a4, Data = e228390e
# UVM_INFO /home/khang/Documents/SystemVerilog/SoC-RV32I/SoC/VERIFICATION/Monitor/axi_monitor.sv(44) @ 5335000: uvm_test_top.env.agent.monitor [MON_WR] Detected WRITE : Addr = 100001a8, Data = be3e291f
# UVM_INFO /home/khang/Documents/SystemVerilog/SoC-RV32I/SoC/VERIFICATION/Monitor/axi_monitor.sv(44) @ 5385000: uvm_test_top.env.agent.monitor [MON_WR] Detected WRITE : Addr = 100001ac, Data = b819a2b4
# UVM_INFO /home/khang/Documents/SystemVerilog/SoC-RV32I/SoC/VERIFICATION/Monitor/axi_monitor.sv(44) @ 5435000: uvm_test_top.env.agent.monitor [MON_WR] Detected WRITE : Addr = 100001b0, Data = 28ca9c6f
# UVM_INFO /home/khang/Documents/SystemVerilog/SoC-RV32I/SoC/VERIFICATION/Monitor/axi_monitor.sv(44) @ 5485000: uvm_test_top.env.agent.monitor [MON_WR] Detected WRITE : Addr = 100001b4, Data = c02d9ea3
# UVM_INFO /home/khang/Documents/SystemVerilog/SoC-RV32I/SoC/VERIFICATION/Monitor/axi_monitor.sv(44) @ 5535000: uvm_test_top.env.agent.monitor [MON_WR] Detected WRITE : Addr = 100001b8, Data = 2ad69c94
# UVM_INFO /home/khang/Documents/SystemVerilog/SoC-RV32I/SoC/VERIFICATION/Monitor/axi_monitor.sv(44) @ 5585000: uvm_test_top.env.agent.monitor [MON_WR] Detected WRITE : Addr = 100001bc, Data = 41088b5a
# UVM_INFO /home/khang/Documents/SystemVerilog/SoC-RV32I/SoC/VERIFICATION/Monitor/axi_monitor.sv(44) @ 5635000: uvm_test_top.env.agent.monitor [MON_WR] Detected WRITE : Addr = 100001c0, Data = 126fd11a
# UVM_INFO /home/khang/Documents/SystemVerilog/SoC-RV32I/SoC/VERIFICATION/Monitor/axi_monitor.sv(44) @ 5685000: uvm_test_top.env.agent.monitor [MON_WR] Detected WRITE : Addr = 100001c4, Data = fc90aab4
# UVM_INFO /home/khang/Documents/SystemVerilog/SoC-RV32I/SoC/VERIFICATION/Monitor/axi_monitor.sv(44) @ 5735000: uvm_test_top.env.agent.monitor [MON_WR] Detected WRITE : Addr = 100001c8, Data = f00adfff
# UVM_INFO /home/khang/Documents/SystemVerilog/SoC-RV32I/SoC/VERIFICATION/Monitor/axi_monitor.sv(44) @ 5785000: uvm_test_top.env.agent.monitor [MON_WR] Detected WRITE : Addr = 100001cc, Data = aa72b3b1
# UVM_INFO /home/khang/Documents/SystemVerilog/SoC-RV32I/SoC/VERIFICATION/Monitor/axi_monitor.sv(44) @ 5835000: uvm_test_top.env.agent.monitor [MON_WR] Detected WRITE : Addr = 100001d0, Data = 6c5444e9
# UVM_INFO /home/khang/Documents/SystemVerilog/SoC-RV32I/SoC/VERIFICATION/Monitor/axi_monitor.sv(44) @ 5885000: uvm_test_top.env.agent.monitor [MON_WR] Detected WRITE : Addr = 100001d4, Data = bb72542d
# UVM_INFO /home/khang/Documents/SystemVerilog/SoC-RV32I/SoC/VERIFICATION/Monitor/axi_monitor.sv(44) @ 5935000: uvm_test_top.env.agent.monitor [MON_WR] Detected WRITE : Addr = 100001d8, Data = d58b9cd2
# UVM_INFO /home/khang/Documents/SystemVerilog/SoC-RV32I/SoC/VERIFICATION/Monitor/axi_monitor.sv(44) @ 5985000: uvm_test_top.env.agent.monitor [MON_WR] Detected WRITE : Addr = 100001dc, Data = a4865b89
# UVM_INFO /home/khang/Documents/SystemVerilog/SoC-RV32I/SoC/VERIFICATION/Monitor/axi_monitor.sv(44) @ 6035000: uvm_test_top.env.agent.monitor [MON_WR] Detected WRITE : Addr = 100001e0, Data = 04a1e9bd
# UVM_INFO /home/khang/Documents/SystemVerilog/SoC-RV32I/SoC/VERIFICATION/Monitor/axi_monitor.sv(44) @ 6085000: uvm_test_top.env.agent.monitor [MON_WR] Detected WRITE : Addr = 100001e4, Data = 080609a4
# UVM_INFO /home/khang/Documents/SystemVerilog/SoC-RV32I/SoC/VERIFICATION/Monitor/axi_monitor.sv(44) @ 6135000: uvm_test_top.env.agent.monitor [MON_WR] Detected WRITE : Addr = 100001e8, Data = a976c0a7
# UVM_INFO /home/khang/Documents/SystemVerilog/SoC-RV32I/SoC/VERIFICATION/Monitor/axi_monitor.sv(44) @ 6185000: uvm_test_top.env.agent.monitor [MON_WR] Detected WRITE : Addr = 100001ec, Data = 2b597e36
# UVM_INFO /home/khang/Documents/SystemVerilog/SoC-RV32I/SoC/VERIFICATION/Monitor/axi_monitor.sv(44) @ 6235000: uvm_test_top.env.agent.monitor [MON_WR] Detected WRITE : Addr = 100001f0, Data = 90b283fb
# UVM_INFO /home/khang/Documents/SystemVerilog/SoC-RV32I/SoC/VERIFICATION/Monitor/axi_monitor.sv(44) @ 6285000: uvm_test_top.env.agent.monitor [MON_WR] Detected WRITE : Addr = 100001f4, Data = 1ff77db0
# UVM_INFO /home/khang/Documents/SystemVerilog/SoC-RV32I/SoC/VERIFICATION/Monitor/axi_monitor.sv(44) @ 6335000: uvm_test_top.env.agent.monitor [MON_WR] Detected WRITE : Addr = 100001f8, Data = 0191dab0
# UVM_INFO /home/khang/Documents/SystemVerilog/SoC-RV32I/SoC/VERIFICATION/Monitor/axi_monitor.sv(44) @ 6385000: uvm_test_top.env.agent.monitor [MON_WR] Detected WRITE : Addr = 100001fc, Data = 0e198f95
# UVM_INFO /home/khang/Documents/SystemVerilog/SoC-RV32I/SoC/VERIFICATION/Monitor/axi_monitor.sv(44) @ 6435000: uvm_test_top.env.agent.monitor [MON_WR] Detected WRITE : Addr = 10000200, Data = c38b1265
# UVM_INFO /home/khang/Documents/SystemVerilog/SoC-RV32I/SoC/VERIFICATION/Monitor/axi_monitor.sv(44) @ 6485000: uvm_test_top.env.agent.monitor [MON_WR] Detected WRITE : Addr = 10000204, Data = b2866258
# UVM_INFO /home/khang/Documents/SystemVerilog/SoC-RV32I/SoC/VERIFICATION/Monitor/axi_monitor.sv(44) @ 6535000: uvm_test_top.env.agent.monitor [MON_WR] Detected WRITE : Addr = 10000208, Data = fe0a556b
# UVM_INFO /home/khang/Documents/SystemVerilog/SoC-RV32I/SoC/VERIFICATION/Monitor/axi_monitor.sv(44) @ 6585000: uvm_test_top.env.agent.monitor [MON_WR] Detected WRITE : Addr = 1000020c, Data = 50e85c03
# UVM_INFO /home/khang/Documents/SystemVerilog/SoC-RV32I/SoC/VERIFICATION/Monitor/axi_monitor.sv(44) @ 6635000: uvm_test_top.env.agent.monitor [MON_WR] Detected WRITE : Addr = 10000210, Data = 2a65bd38
# UVM_INFO /home/khang/Documents/SystemVerilog/SoC-RV32I/SoC/VERIFICATION/Monitor/axi_monitor.sv(44) @ 6685000: uvm_test_top.env.agent.monitor [MON_WR] Detected WRITE : Addr = 10000214, Data = 0b9261a5
# UVM_INFO /home/khang/Documents/SystemVerilog/SoC-RV32I/SoC/VERIFICATION/Monitor/axi_monitor.sv(44) @ 6735000: uvm_test_top.env.agent.monitor [MON_WR] Detected WRITE : Addr = 10000218, Data = fbe12d50
# UVM_INFO /home/khang/Documents/SystemVerilog/SoC-RV32I/SoC/VERIFICATION/Monitor/axi_monitor.sv(44) @ 6785000: uvm_test_top.env.agent.monitor [MON_WR] Detected WRITE : Addr = 1000021c, Data = 20063e51
# UVM_INFO /home/khang/Documents/SystemVerilog/SoC-RV32I/SoC/VERIFICATION/Monitor/axi_monitor.sv(44) @ 6835000: uvm_test_top.env.agent.monitor [MON_WR] Detected WRITE : Addr = 10000220, Data = 818d9714
# UVM_INFO /home/khang/Documents/SystemVerilog/SoC-RV32I/SoC/VERIFICATION/Monitor/axi_monitor.sv(44) @ 6885000: uvm_test_top.env.agent.monitor [MON_WR] Detected WRITE : Addr = 10000224, Data = e787358b
# UVM_INFO /home/khang/Documents/SystemVerilog/SoC-RV32I/SoC/VERIFICATION/Monitor/axi_monitor.sv(44) @ 6935000: uvm_test_top.env.agent.monitor [MON_WR] Detected WRITE : Addr = 10000228, Data = 16fdb634
# UVM_INFO /home/khang/Documents/SystemVerilog/SoC-RV32I/SoC/VERIFICATION/Monitor/axi_monitor.sv(44) @ 6985000: uvm_test_top.env.agent.monitor [MON_WR] Detected WRITE : Addr = 1000022c, Data = b6647af6
# UVM_INFO /home/khang/Documents/SystemVerilog/SoC-RV32I/SoC/VERIFICATION/Monitor/axi_monitor.sv(44) @ 7035000: uvm_test_top.env.agent.monitor [MON_WR] Detected WRITE : Addr = 10000230, Data = d739e6db
# UVM_INFO /home/khang/Documents/SystemVerilog/SoC-RV32I/SoC/VERIFICATION/Monitor/axi_monitor.sv(44) @ 7085000: uvm_test_top.env.agent.monitor [MON_WR] Detected WRITE : Addr = 10000234, Data = 4f744451
# UVM_INFO /home/khang/Documents/SystemVerilog/SoC-RV32I/SoC/VERIFICATION/Monitor/axi_monitor.sv(44) @ 7135000: uvm_test_top.env.agent.monitor [MON_WR] Detected WRITE : Addr = 10000238, Data = 3b76eb64
# UVM_INFO /home/khang/Documents/SystemVerilog/SoC-RV32I/SoC/VERIFICATION/Monitor/axi_monitor.sv(44) @ 7185000: uvm_test_top.env.agent.monitor [MON_WR] Detected WRITE : Addr = 1000023c, Data = 8d489687
# UVM_INFO /home/khang/Documents/SystemVerilog/SoC-RV32I/SoC/VERIFICATION/Monitor/axi_monitor.sv(44) @ 7235000: uvm_test_top.env.agent.monitor [MON_WR] Detected WRITE : Addr = 10000240, Data = d68068e5
# UVM_INFO /home/khang/Documents/SystemVerilog/SoC-RV32I/SoC/VERIFICATION/Monitor/axi_monitor.sv(44) @ 7285000: uvm_test_top.env.agent.monitor [MON_WR] Detected WRITE : Addr = 10000244, Data = d7b8de7c
# UVM_INFO /home/khang/Documents/SystemVerilog/SoC-RV32I/SoC/VERIFICATION/Monitor/axi_monitor.sv(44) @ 7335000: uvm_test_top.env.agent.monitor [MON_WR] Detected WRITE : Addr = 10000248, Data = 8e80deba
# UVM_INFO /home/khang/Documents/SystemVerilog/SoC-RV32I/SoC/VERIFICATION/Monitor/axi_monitor.sv(44) @ 7385000: uvm_test_top.env.agent.monitor [MON_WR] Detected WRITE : Addr = 1000024c, Data = b05a9f24
# UVM_INFO /home/khang/Documents/SystemVerilog/SoC-RV32I/SoC/VERIFICATION/Monitor/axi_monitor.sv(44) @ 7435000: uvm_test_top.env.agent.monitor [MON_WR] Detected WRITE : Addr = 10000250, Data = b8623270
# UVM_INFO /home/khang/Documents/SystemVerilog/SoC-RV32I/SoC/VERIFICATION/Monitor/axi_monitor.sv(44) @ 7485000: uvm_test_top.env.agent.monitor [MON_WR] Detected WRITE : Addr = 10000254, Data = c755e560
# UVM_INFO /home/khang/Documents/SystemVerilog/SoC-RV32I/SoC/VERIFICATION/Monitor/axi_monitor.sv(44) @ 7535000: uvm_test_top.env.agent.monitor [MON_WR] Detected WRITE : Addr = 10000258, Data = c4ef624f
# UVM_INFO /home/khang/Documents/SystemVerilog/SoC-RV32I/SoC/VERIFICATION/Monitor/axi_monitor.sv(44) @ 7585000: uvm_test_top.env.agent.monitor [MON_WR] Detected WRITE : Addr = 1000025c, Data = 33b08c21
# UVM_INFO /home/khang/Documents/SystemVerilog/SoC-RV32I/SoC/VERIFICATION/Monitor/axi_monitor.sv(44) @ 7635000: uvm_test_top.env.agent.monitor [MON_WR] Detected WRITE : Addr = 10000260, Data = 4f7712f1
# UVM_INFO /home/khang/Documents/SystemVerilog/SoC-RV32I/SoC/VERIFICATION/Monitor/axi_monitor.sv(44) @ 7685000: uvm_test_top.env.agent.monitor [MON_WR] Detected WRITE : Addr = 10000264, Data = 7f970ea1
# UVM_INFO /home/khang/Documents/SystemVerilog/SoC-RV32I/SoC/VERIFICATION/Monitor/axi_monitor.sv(44) @ 7735000: uvm_test_top.env.agent.monitor [MON_WR] Detected WRITE : Addr = 10000268, Data = 49140ddd
# UVM_INFO /home/khang/Documents/SystemVerilog/SoC-RV32I/SoC/VERIFICATION/Monitor/axi_monitor.sv(44) @ 7785000: uvm_test_top.env.agent.monitor [MON_WR] Detected WRITE : Addr = 1000026c, Data = dd8298a4
# UVM_INFO /home/khang/Documents/SystemVerilog/SoC-RV32I/SoC/VERIFICATION/Monitor/axi_monitor.sv(44) @ 7835000: uvm_test_top.env.agent.monitor [MON_WR] Detected WRITE : Addr = 10000270, Data = 1a28ce6e
# UVM_INFO /home/khang/Documents/SystemVerilog/SoC-RV32I/SoC/VERIFICATION/Monitor/axi_monitor.sv(44) @ 7885000: uvm_test_top.env.agent.monitor [MON_WR] Detected WRITE : Addr = 10000274, Data = 8f68c124
# UVM_INFO /home/khang/Documents/SystemVerilog/SoC-RV32I/SoC/VERIFICATION/Monitor/axi_monitor.sv(44) @ 7935000: uvm_test_top.env.agent.monitor [MON_WR] Detected WRITE : Addr = 10000278, Data = 5eff12ef
# UVM_INFO /home/khang/Documents/SystemVerilog/SoC-RV32I/SoC/VERIFICATION/Monitor/axi_monitor.sv(44) @ 7985000: uvm_test_top.env.agent.monitor [MON_WR] Detected WRITE : Addr = 1000027c, Data = f4585a34
# UVM_INFO /home/khang/Documents/SystemVerilog/SoC-RV32I/SoC/VERIFICATION/Monitor/axi_monitor.sv(44) @ 8035000: uvm_test_top.env.agent.monitor [MON_WR] Detected WRITE : Addr = 10000280, Data = 8455fc7a
# UVM_INFO /home/khang/Documents/SystemVerilog/SoC-RV32I/SoC/VERIFICATION/Monitor/axi_monitor.sv(44) @ 8085000: uvm_test_top.env.agent.monitor [MON_WR] Detected WRITE : Addr = 10000284, Data = 18e5862d
# UVM_INFO /home/khang/Documents/SystemVerilog/SoC-RV32I/SoC/VERIFICATION/Monitor/axi_monitor.sv(44) @ 8135000: uvm_test_top.env.agent.monitor [MON_WR] Detected WRITE : Addr = 10000288, Data = fb6093d1
# UVM_INFO /home/khang/Documents/SystemVerilog/SoC-RV32I/SoC/VERIFICATION/Monitor/axi_monitor.sv(44) @ 8185000: uvm_test_top.env.agent.monitor [MON_WR] Detected WRITE : Addr = 1000028c, Data = cfbdc884
# UVM_INFO /home/khang/Documents/SystemVerilog/SoC-RV32I/SoC/VERIFICATION/Monitor/axi_monitor.sv(44) @ 8235000: uvm_test_top.env.agent.monitor [MON_WR] Detected WRITE : Addr = 10000290, Data = b0404c7a
# UVM_INFO /home/khang/Documents/SystemVerilog/SoC-RV32I/SoC/VERIFICATION/Monitor/axi_monitor.sv(44) @ 8285000: uvm_test_top.env.agent.monitor [MON_WR] Detected WRITE : Addr = 10000294, Data = 3c317635
# UVM_INFO /home/khang/Documents/SystemVerilog/SoC-RV32I/SoC/VERIFICATION/Monitor/axi_monitor.sv(44) @ 8335000: uvm_test_top.env.agent.monitor [MON_WR] Detected WRITE : Addr = 10000298, Data = c82bc42a
# UVM_INFO /home/khang/Documents/SystemVerilog/SoC-RV32I/SoC/VERIFICATION/Monitor/axi_monitor.sv(44) @ 8385000: uvm_test_top.env.agent.monitor [MON_WR] Detected WRITE : Addr = 1000029c, Data = cda53006
# UVM_INFO /home/khang/Documents/SystemVerilog/SoC-RV32I/SoC/VERIFICATION/Monitor/axi_monitor.sv(44) @ 8435000: uvm_test_top.env.agent.monitor [MON_WR] Detected WRITE : Addr = 100002a0, Data = 5ab42824
# UVM_INFO /home/khang/Documents/SystemVerilog/SoC-RV32I/SoC/VERIFICATION/Monitor/axi_monitor.sv(44) @ 8485000: uvm_test_top.env.agent.monitor [MON_WR] Detected WRITE : Addr = 100002a4, Data = 959e287d
# UVM_INFO /home/khang/Documents/SystemVerilog/SoC-RV32I/SoC/VERIFICATION/Monitor/axi_monitor.sv(44) @ 8535000: uvm_test_top.env.agent.monitor [MON_WR] Detected WRITE : Addr = 100002a8, Data = d134ebd9
# UVM_INFO /home/khang/Documents/SystemVerilog/SoC-RV32I/SoC/VERIFICATION/Monitor/axi_monitor.sv(44) @ 8585000: uvm_test_top.env.agent.monitor [MON_WR] Detected WRITE : Addr = 100002ac, Data = 4b22ba88
# UVM_INFO /home/khang/Documents/SystemVerilog/SoC-RV32I/SoC/VERIFICATION/Monitor/axi_monitor.sv(44) @ 8635000: uvm_test_top.env.agent.monitor [MON_WR] Detected WRITE : Addr = 100002b0, Data = 8dab0460
# UVM_INFO /home/khang/Documents/SystemVerilog/SoC-RV32I/SoC/VERIFICATION/Monitor/axi_monitor.sv(44) @ 8685000: uvm_test_top.env.agent.monitor [MON_WR] Detected WRITE : Addr = 100002b4, Data = 5a01035f
# UVM_INFO /home/khang/Documents/SystemVerilog/SoC-RV32I/SoC/VERIFICATION/Monitor/axi_monitor.sv(44) @ 8735000: uvm_test_top.env.agent.monitor [MON_WR] Detected WRITE : Addr = 100002b8, Data = 6ffdca6a
# UVM_INFO /home/khang/Documents/SystemVerilog/SoC-RV32I/SoC/VERIFICATION/Monitor/axi_monitor.sv(44) @ 8785000: uvm_test_top.env.agent.monitor [MON_WR] Detected WRITE : Addr = 100002bc, Data = 3deddd7a
# UVM_INFO /home/khang/Documents/SystemVerilog/SoC-RV32I/SoC/VERIFICATION/Monitor/axi_monitor.sv(44) @ 8835000: uvm_test_top.env.agent.monitor [MON_WR] Detected WRITE : Addr = 100002c0, Data = 06e67e48
# UVM_INFO /home/khang/Documents/SystemVerilog/SoC-RV32I/SoC/VERIFICATION/Monitor/axi_monitor.sv(44) @ 8885000: uvm_test_top.env.agent.monitor [MON_WR] Detected WRITE : Addr = 100002c4, Data = f4fef492
# UVM_INFO /home/khang/Documents/SystemVerilog/SoC-RV32I/SoC/VERIFICATION/Monitor/axi_monitor.sv(44) @ 8935000: uvm_test_top.env.agent.monitor [MON_WR] Detected WRITE : Addr = 100002c8, Data = 9ba681fb
# UVM_INFO /home/khang/Documents/SystemVerilog/SoC-RV32I/SoC/VERIFICATION/Monitor/axi_monitor.sv(44) @ 8985000: uvm_test_top.env.agent.monitor [MON_WR] Detected WRITE : Addr = 100002cc, Data = b354c85d
# UVM_INFO /home/khang/Documents/SystemVerilog/SoC-RV32I/SoC/VERIFICATION/Monitor/axi_monitor.sv(44) @ 9035000: uvm_test_top.env.agent.monitor [MON_WR] Detected WRITE : Addr = 100002d0, Data = 2dbf0e26
# UVM_INFO /home/khang/Documents/SystemVerilog/SoC-RV32I/SoC/VERIFICATION/Monitor/axi_monitor.sv(44) @ 9085000: uvm_test_top.env.agent.monitor [MON_WR] Detected WRITE : Addr = 100002d4, Data = 12686289
# UVM_INFO /home/khang/Documents/SystemVerilog/SoC-RV32I/SoC/VERIFICATION/Monitor/axi_monitor.sv(44) @ 9135000: uvm_test_top.env.agent.monitor [MON_WR] Detected WRITE : Addr = 100002d8, Data = d0ca4057
# UVM_INFO /home/khang/Documents/SystemVerilog/SoC-RV32I/SoC/VERIFICATION/Monitor/axi_monitor.sv(44) @ 9185000: uvm_test_top.env.agent.monitor [MON_WR] Detected WRITE : Addr = 100002dc, Data = 5fa675e4
# UVM_INFO /home/khang/Documents/SystemVerilog/SoC-RV32I/SoC/VERIFICATION/Monitor/axi_monitor.sv(44) @ 9235000: uvm_test_top.env.agent.monitor [MON_WR] Detected WRITE : Addr = 100002e0, Data = 0e12ad87
# UVM_INFO /home/khang/Documents/SystemVerilog/SoC-RV32I/SoC/VERIFICATION/Monitor/axi_monitor.sv(44) @ 9285000: uvm_test_top.env.agent.monitor [MON_WR] Detected WRITE : Addr = 100002e4, Data = f0bddcdc
# UVM_INFO /home/khang/Documents/SystemVerilog/SoC-RV32I/SoC/VERIFICATION/Monitor/axi_monitor.sv(44) @ 9335000: uvm_test_top.env.agent.monitor [MON_WR] Detected WRITE : Addr = 100002e8, Data = 134a7741
# UVM_INFO /home/khang/Documents/SystemVerilog/SoC-RV32I/SoC/VERIFICATION/Monitor/axi_monitor.sv(44) @ 9385000: uvm_test_top.env.agent.monitor [MON_WR] Detected WRITE : Addr = 100002ec, Data = fd1e0238
# UVM_INFO /home/khang/Documents/SystemVerilog/SoC-RV32I/SoC/VERIFICATION/Monitor/axi_monitor.sv(44) @ 9435000: uvm_test_top.env.agent.monitor [MON_WR] Detected WRITE : Addr = 100002f0, Data = b5bc88b3
# UVM_INFO /home/khang/Documents/SystemVerilog/SoC-RV32I/SoC/VERIFICATION/Monitor/axi_monitor.sv(44) @ 9485000: uvm_test_top.env.agent.monitor [MON_WR] Detected WRITE : Addr = 100002f4, Data = d578b697
# UVM_INFO /home/khang/Documents/SystemVerilog/SoC-RV32I/SoC/VERIFICATION/Monitor/axi_monitor.sv(44) @ 9535000: uvm_test_top.env.agent.monitor [MON_WR] Detected WRITE : Addr = 100002f8, Data = 4b87fc9a
# UVM_INFO /home/khang/Documents/SystemVerilog/SoC-RV32I/SoC/VERIFICATION/Monitor/axi_monitor.sv(44) @ 9585000: uvm_test_top.env.agent.monitor [MON_WR] Detected WRITE : Addr = 100002fc, Data = ebd53223
# UVM_INFO /home/khang/Documents/SystemVerilog/SoC-RV32I/SoC/VERIFICATION/Monitor/axi_monitor.sv(44) @ 9635000: uvm_test_top.env.agent.monitor [MON_WR] Detected WRITE : Addr = 10000300, Data = fb1a5c16
# UVM_INFO /home/khang/Documents/SystemVerilog/SoC-RV32I/SoC/VERIFICATION/Monitor/axi_monitor.sv(44) @ 9685000: uvm_test_top.env.agent.monitor [MON_WR] Detected WRITE : Addr = 10000304, Data = a7a2d7e6
# UVM_INFO /home/khang/Documents/SystemVerilog/SoC-RV32I/SoC/VERIFICATION/Monitor/axi_monitor.sv(44) @ 9735000: uvm_test_top.env.agent.monitor [MON_WR] Detected WRITE : Addr = 10000308, Data = 6bd5cd68
# UVM_INFO /home/khang/Documents/SystemVerilog/SoC-RV32I/SoC/VERIFICATION/Monitor/axi_monitor.sv(44) @ 9785000: uvm_test_top.env.agent.monitor [MON_WR] Detected WRITE : Addr = 1000030c, Data = a033b633
# UVM_INFO /home/khang/Documents/SystemVerilog/SoC-RV32I/SoC/VERIFICATION/Monitor/axi_monitor.sv(44) @ 9835000: uvm_test_top.env.agent.monitor [MON_WR] Detected WRITE : Addr = 10000310, Data = c5b20979
# UVM_INFO /home/khang/Documents/SystemVerilog/SoC-RV32I/SoC/VERIFICATION/Monitor/axi_monitor.sv(44) @ 9885000: uvm_test_top.env.agent.monitor [MON_WR] Detected WRITE : Addr = 10000314, Data = 497062c3
# UVM_INFO /home/khang/Documents/SystemVerilog/SoC-RV32I/SoC/VERIFICATION/Monitor/axi_monitor.sv(44) @ 9935000: uvm_test_top.env.agent.monitor [MON_WR] Detected WRITE : Addr = 10000318, Data = 41822da4
# UVM_INFO /home/khang/Documents/SystemVerilog/SoC-RV32I/SoC/VERIFICATION/Monitor/axi_monitor.sv(44) @ 9985000: uvm_test_top.env.agent.monitor [MON_WR] Detected WRITE : Addr = 1000031c, Data = 6d50976a
# UVM_INFO /home/khang/Documents/SystemVerilog/SoC-RV32I/SoC/VERIFICATION/Monitor/axi_monitor.sv(44) @ 10035000: uvm_test_top.env.agent.monitor [MON_WR] Detected WRITE : Addr = 10000320, Data = d4d6b871
# UVM_INFO /home/khang/Documents/SystemVerilog/SoC-RV32I/SoC/VERIFICATION/Monitor/axi_monitor.sv(44) @ 10085000: uvm_test_top.env.agent.monitor [MON_WR] Detected WRITE : Addr = 10000324, Data = d20c05ba
# UVM_INFO /home/khang/Documents/SystemVerilog/SoC-RV32I/SoC/VERIFICATION/Monitor/axi_monitor.sv(44) @ 10135000: uvm_test_top.env.agent.monitor [MON_WR] Detected WRITE : Addr = 10000328, Data = 0717cbcf
# UVM_INFO /home/khang/Documents/SystemVerilog/SoC-RV32I/SoC/VERIFICATION/Monitor/axi_monitor.sv(44) @ 10185000: uvm_test_top.env.agent.monitor [MON_WR] Detected WRITE : Addr = 1000032c, Data = 07f77cac
# UVM_INFO /home/khang/Documents/SystemVerilog/SoC-RV32I/SoC/VERIFICATION/Monitor/axi_monitor.sv(44) @ 10235000: uvm_test_top.env.agent.monitor [MON_WR] Detected WRITE : Addr = 10000330, Data = caa79317
# UVM_INFO /home/khang/Documents/SystemVerilog/SoC-RV32I/SoC/VERIFICATION/Monitor/axi_monitor.sv(44) @ 10285000: uvm_test_top.env.agent.monitor [MON_WR] Detected WRITE : Addr = 10000334, Data = a1c01500
# UVM_INFO /home/khang/Documents/SystemVerilog/SoC-RV32I/SoC/VERIFICATION/Monitor/axi_monitor.sv(44) @ 10335000: uvm_test_top.env.agent.monitor [MON_WR] Detected WRITE : Addr = 10000338, Data = 428710ca
# UVM_INFO /home/khang/Documents/SystemVerilog/SoC-RV32I/SoC/VERIFICATION/Monitor/axi_monitor.sv(44) @ 10385000: uvm_test_top.env.agent.monitor [MON_WR] Detected WRITE : Addr = 1000033c, Data = ecf17256
# UVM_INFO /home/khang/Documents/SystemVerilog/SoC-RV32I/SoC/VERIFICATION/Monitor/axi_monitor.sv(44) @ 10435000: uvm_test_top.env.agent.monitor [MON_WR] Detected WRITE : Addr = 10000340, Data = 381e9654
# UVM_INFO /home/khang/Documents/SystemVerilog/SoC-RV32I/SoC/VERIFICATION/Monitor/axi_monitor.sv(44) @ 10485000: uvm_test_top.env.agent.monitor [MON_WR] Detected WRITE : Addr = 10000344, Data = 0423a19a
# UVM_INFO /home/khang/Documents/SystemVerilog/SoC-RV32I/SoC/VERIFICATION/Monitor/axi_monitor.sv(44) @ 10535000: uvm_test_top.env.agent.monitor [MON_WR] Detected WRITE : Addr = 10000348, Data = 0da6df4f
# UVM_INFO /home/khang/Documents/SystemVerilog/SoC-RV32I/SoC/VERIFICATION/Monitor/axi_monitor.sv(44) @ 10585000: uvm_test_top.env.agent.monitor [MON_WR] Detected WRITE : Addr = 1000034c, Data = 5d431244
# UVM_INFO /home/khang/Documents/SystemVerilog/SoC-RV32I/SoC/VERIFICATION/Monitor/axi_monitor.sv(44) @ 10635000: uvm_test_top.env.agent.monitor [MON_WR] Detected WRITE : Addr = 10000350, Data = 0d890b6c
# UVM_INFO /home/khang/Documents/SystemVerilog/SoC-RV32I/SoC/VERIFICATION/Monitor/axi_monitor.sv(44) @ 10685000: uvm_test_top.env.agent.monitor [MON_WR] Detected WRITE : Addr = 10000354, Data = 1e9344f5
# UVM_INFO /home/khang/Documents/SystemVerilog/SoC-RV32I/SoC/VERIFICATION/Monitor/axi_monitor.sv(44) @ 10735000: uvm_test_top.env.agent.monitor [MON_WR] Detected WRITE : Addr = 10000358, Data = 5720e674
# UVM_INFO /home/khang/Documents/SystemVerilog/SoC-RV32I/SoC/VERIFICATION/Monitor/axi_monitor.sv(44) @ 10785000: uvm_test_top.env.agent.monitor [MON_WR] Detected WRITE : Addr = 1000035c, Data = 80ad8e5d
# UVM_INFO /home/khang/Documents/SystemVerilog/SoC-RV32I/SoC/VERIFICATION/Monitor/axi_monitor.sv(44) @ 10835000: uvm_test_top.env.agent.monitor [MON_WR] Detected WRITE : Addr = 10000360, Data = 696026f7
# UVM_INFO /home/khang/Documents/SystemVerilog/SoC-RV32I/SoC/VERIFICATION/Monitor/axi_monitor.sv(44) @ 10885000: uvm_test_top.env.agent.monitor [MON_WR] Detected WRITE : Addr = 10000364, Data = f0129fd4
# UVM_INFO /home/khang/Documents/SystemVerilog/SoC-RV32I/SoC/VERIFICATION/Monitor/axi_monitor.sv(44) @ 10935000: uvm_test_top.env.agent.monitor [MON_WR] Detected WRITE : Addr = 10000368, Data = 276d24b0
# UVM_INFO /home/khang/Documents/SystemVerilog/SoC-RV32I/SoC/VERIFICATION/Monitor/axi_monitor.sv(44) @ 10985000: uvm_test_top.env.agent.monitor [MON_WR] Detected WRITE : Addr = 1000036c, Data = ae62b262
# UVM_INFO /home/khang/Documents/SystemVerilog/SoC-RV32I/SoC/VERIFICATION/Monitor/axi_monitor.sv(44) @ 11035000: uvm_test_top.env.agent.monitor [MON_WR] Detected WRITE : Addr = 10000370, Data = 731765f5
# UVM_INFO /home/khang/Documents/SystemVerilog/SoC-RV32I/SoC/VERIFICATION/Monitor/axi_monitor.sv(44) @ 11085000: uvm_test_top.env.agent.monitor [MON_WR] Detected WRITE : Addr = 10000374, Data = 40fbe982
# UVM_INFO /home/khang/Documents/SystemVerilog/SoC-RV32I/SoC/VERIFICATION/Monitor/axi_monitor.sv(44) @ 11135000: uvm_test_top.env.agent.monitor [MON_WR] Detected WRITE : Addr = 10000378, Data = 8cd6a415
# UVM_INFO /home/khang/Documents/SystemVerilog/SoC-RV32I/SoC/VERIFICATION/Monitor/axi_monitor.sv(44) @ 11185000: uvm_test_top.env.agent.monitor [MON_WR] Detected WRITE : Addr = 1000037c, Data = 7037f51b
# UVM_INFO /home/khang/Documents/SystemVerilog/SoC-RV32I/SoC/VERIFICATION/Monitor/axi_monitor.sv(44) @ 11235000: uvm_test_top.env.agent.monitor [MON_WR] Detected WRITE : Addr = 10000380, Data = 6225bf45
# UVM_INFO /home/khang/Documents/SystemVerilog/SoC-RV32I/SoC/VERIFICATION/Monitor/axi_monitor.sv(44) @ 11285000: uvm_test_top.env.agent.monitor [MON_WR] Detected WRITE : Addr = 10000384, Data = 79d73e59
# UVM_INFO /home/khang/Documents/SystemVerilog/SoC-RV32I/SoC/VERIFICATION/Monitor/axi_monitor.sv(44) @ 11335000: uvm_test_top.env.agent.monitor [MON_WR] Detected WRITE : Addr = 10000388, Data = c64e7c22
# UVM_INFO /home/khang/Documents/SystemVerilog/SoC-RV32I/SoC/VERIFICATION/Monitor/axi_monitor.sv(44) @ 11385000: uvm_test_top.env.agent.monitor [MON_WR] Detected WRITE : Addr = 1000038c, Data = f5d85e65
# UVM_INFO /home/khang/Documents/SystemVerilog/SoC-RV32I/SoC/VERIFICATION/Monitor/axi_monitor.sv(44) @ 11435000: uvm_test_top.env.agent.monitor [MON_WR] Detected WRITE : Addr = 10000390, Data = bb1ce357
# UVM_INFO /home/khang/Documents/SystemVerilog/SoC-RV32I/SoC/VERIFICATION/Monitor/axi_monitor.sv(44) @ 11485000: uvm_test_top.env.agent.monitor [MON_WR] Detected WRITE : Addr = 10000394, Data = 5902391b
# UVM_INFO /home/khang/Documents/SystemVerilog/SoC-RV32I/SoC/VERIFICATION/Monitor/axi_monitor.sv(44) @ 11535000: uvm_test_top.env.agent.monitor [MON_WR] Detected WRITE : Addr = 10000398, Data = 6e562ab5
# UVM_INFO /home/khang/Documents/SystemVerilog/SoC-RV32I/SoC/VERIFICATION/Monitor/axi_monitor.sv(44) @ 11585000: uvm_test_top.env.agent.monitor [MON_WR] Detected WRITE : Addr = 1000039c, Data = bcd9f925
# UVM_INFO /home/khang/Documents/SystemVerilog/SoC-RV32I/SoC/VERIFICATION/Monitor/axi_monitor.sv(44) @ 11635000: uvm_test_top.env.agent.monitor [MON_WR] Detected WRITE : Addr = 100003a0, Data = 9f632a83
# UVM_INFO /home/khang/Documents/SystemVerilog/SoC-RV32I/SoC/VERIFICATION/Monitor/axi_monitor.sv(44) @ 11685000: uvm_test_top.env.agent.monitor [MON_WR] Detected WRITE : Addr = 100003a4, Data = a5819fe5
# UVM_INFO /home/khang/Documents/SystemVerilog/SoC-RV32I/SoC/VERIFICATION/Monitor/axi_monitor.sv(44) @ 11735000: uvm_test_top.env.agent.monitor [MON_WR] Detected WRITE : Addr = 100003a8, Data = 71ccd500
# UVM_INFO /home/khang/Documents/SystemVerilog/SoC-RV32I/SoC/VERIFICATION/Monitor/axi_monitor.sv(44) @ 11785000: uvm_test_top.env.agent.monitor [MON_WR] Detected WRITE : Addr = 100003ac, Data = 7a639abf
# UVM_INFO /home/khang/Documents/SystemVerilog/SoC-RV32I/SoC/VERIFICATION/Monitor/axi_monitor.sv(44) @ 11835000: uvm_test_top.env.agent.monitor [MON_WR] Detected WRITE : Addr = 100003b0, Data = 298996cc
# UVM_INFO /home/khang/Documents/SystemVerilog/SoC-RV32I/SoC/VERIFICATION/Monitor/axi_monitor.sv(44) @ 11885000: uvm_test_top.env.agent.monitor [MON_WR] Detected WRITE : Addr = 100003b4, Data = 06c8de00
# UVM_INFO /home/khang/Documents/SystemVerilog/SoC-RV32I/SoC/VERIFICATION/Monitor/axi_monitor.sv(44) @ 11935000: uvm_test_top.env.agent.monitor [MON_WR] Detected WRITE : Addr = 100003b8, Data = 1d1788c4
# UVM_INFO /home/khang/Documents/SystemVerilog/SoC-RV32I/SoC/VERIFICATION/Monitor/axi_monitor.sv(44) @ 11985000: uvm_test_top.env.agent.monitor [MON_WR] Detected WRITE : Addr = 100003bc, Data = 15cefd19
# UVM_INFO /home/khang/Documents/SystemVerilog/SoC-RV32I/SoC/VERIFICATION/Monitor/axi_monitor.sv(44) @ 12035000: uvm_test_top.env.agent.monitor [MON_WR] Detected WRITE : Addr = 100003c0, Data = 4bd0aadd
# UVM_INFO /home/khang/Documents/SystemVerilog/SoC-RV32I/SoC/VERIFICATION/Monitor/axi_monitor.sv(44) @ 12085000: uvm_test_top.env.agent.monitor [MON_WR] Detected WRITE : Addr = 100003c4, Data = dab52bfc
# UVM_INFO /home/khang/Documents/SystemVerilog/SoC-RV32I/SoC/VERIFICATION/Monitor/axi_monitor.sv(44) @ 12135000: uvm_test_top.env.agent.monitor [MON_WR] Detected WRITE : Addr = 100003c8, Data = 5cb43df0
# UVM_INFO /home/khang/Documents/SystemVerilog/SoC-RV32I/SoC/VERIFICATION/Monitor/axi_monitor.sv(44) @ 12185000: uvm_test_top.env.agent.monitor [MON_WR] Detected WRITE : Addr = 100003cc, Data = a0e6b517
# UVM_INFO /home/khang/Documents/SystemVerilog/SoC-RV32I/SoC/VERIFICATION/Monitor/axi_monitor.sv(44) @ 12235000: uvm_test_top.env.agent.monitor [MON_WR] Detected WRITE : Addr = 100003d0, Data = 497220ff
# UVM_INFO /home/khang/Documents/SystemVerilog/SoC-RV32I/SoC/VERIFICATION/Monitor/axi_monitor.sv(44) @ 12285000: uvm_test_top.env.agent.monitor [MON_WR] Detected WRITE : Addr = 100003d4, Data = 93254682
# UVM_INFO /home/khang/Documents/SystemVerilog/SoC-RV32I/SoC/VERIFICATION/Monitor/axi_monitor.sv(44) @ 12335000: uvm_test_top.env.agent.monitor [MON_WR] Detected WRITE : Addr = 100003d8, Data = b03eb25f
# UVM_INFO /home/khang/Documents/SystemVerilog/SoC-RV32I/SoC/VERIFICATION/Monitor/axi_monitor.sv(44) @ 12385000: uvm_test_top.env.agent.monitor [MON_WR] Detected WRITE : Addr = 100003dc, Data = e7a07fa4
# UVM_INFO /home/khang/Documents/SystemVerilog/SoC-RV32I/SoC/VERIFICATION/Monitor/axi_monitor.sv(44) @ 12435000: uvm_test_top.env.agent.monitor [MON_WR] Detected WRITE : Addr = 100003e0, Data = 7831c874
# UVM_INFO /home/khang/Documents/SystemVerilog/SoC-RV32I/SoC/VERIFICATION/Monitor/axi_monitor.sv(44) @ 12485000: uvm_test_top.env.agent.monitor [MON_WR] Detected WRITE : Addr = 100003e4, Data = 8a83993b
# UVM_INFO /home/khang/Documents/SystemVerilog/SoC-RV32I/SoC/VERIFICATION/Monitor/axi_monitor.sv(44) @ 12535000: uvm_test_top.env.agent.monitor [MON_WR] Detected WRITE : Addr = 100003e8, Data = 7e1ceb80
# UVM_INFO /home/khang/Documents/SystemVerilog/SoC-RV32I/SoC/VERIFICATION/Monitor/axi_monitor.sv(44) @ 12585000: uvm_test_top.env.agent.monitor [MON_WR] Detected WRITE : Addr = 100003ec, Data = cc0c77c5
# UVM_INFO /home/khang/Documents/SystemVerilog/SoC-RV32I/SoC/VERIFICATION/Monitor/axi_monitor.sv(44) @ 12635000: uvm_test_top.env.agent.monitor [MON_WR] Detected WRITE : Addr = 100003f0, Data = e0672a48
# UVM_INFO /home/khang/Documents/SystemVerilog/SoC-RV32I/SoC/VERIFICATION/Monitor/axi_monitor.sv(44) @ 12685000: uvm_test_top.env.agent.monitor [MON_WR] Detected WRITE : Addr = 100003f4, Data = 2b9e4b21
# UVM_INFO /home/khang/Documents/SystemVerilog/SoC-RV32I/SoC/VERIFICATION/Monitor/axi_monitor.sv(44) @ 12735000: uvm_test_top.env.agent.monitor [MON_WR] Detected WRITE : Addr = 100003f8, Data = dbaef8cc
# UVM_INFO /home/khang/Documents/SystemVerilog/SoC-RV32I/SoC/VERIFICATION/Monitor/axi_monitor.sv(44) @ 12785000: uvm_test_top.env.agent.monitor [MON_WR] Detected WRITE : Addr = 100003fc, Data = 88ff8315
# UVM_INFO /home/khang/Documents/SystemVerilog/SoC-RV32I/SoC/VERIFICATION/Monitor/axi_monitor.sv(64) @ 12855000: uvm_test_top.env.agent.monitor [MON_RD] Deteced READ : Addr = 10000004, Data = deadbeef
# UVM_ERROR /home/khang/Documents/SystemVerilog/SoC-RV32I/SoC/VERIFICATION/Scoreboard/axi_scoreboard.sv(26) @ 12855000: uvm_test_top.env.scoreboard [SCB_FAIL] DRAM THAT LOI! Addr=10000004, SCB_giu:1d47e540, DRAM_tra:deadbeef
# UVM_INFO /home/khang/Documents/SystemVerilog/SoC-RV32I/SoC/VERIFICATION/Monitor/axi_monitor.sv(64) @ 12915000: uvm_test_top.env.agent.monitor [MON_RD] Deteced READ : Addr = 10000008, Data = 1ae65962
# UVM_INFO /home/khang/Documents/SystemVerilog/SoC-RV32I/SoC/VERIFICATION/Scoreboard/axi_scoreboard.sv(23) @ 12915000: uvm_test_top.env.scoreboard [SCB_PASS] Match! Addr=10000008, Data=1ae65962
# UVM_INFO /home/khang/Documents/SystemVerilog/SoC-RV32I/SoC/VERIFICATION/Monitor/axi_monitor.sv(64) @ 12965000: uvm_test_top.env.agent.monitor [MON_RD] Deteced READ : Addr = 1000000c, Data = 39d3329e
# UVM_INFO /home/khang/Documents/SystemVerilog/SoC-RV32I/SoC/VERIFICATION/Scoreboard/axi_scoreboard.sv(23) @ 12965000: uvm_test_top.env.scoreboard [SCB_PASS] Match! Addr=1000000c, Data=39d3329e
# UVM_INFO /home/khang/Documents/SystemVerilog/SoC-RV32I/SoC/VERIFICATION/Monitor/axi_monitor.sv(64) @ 13015000: uvm_test_top.env.agent.monitor [MON_RD] Deteced READ : Addr = 10000010, Data = 10504358
# UVM_INFO /home/khang/Documents/SystemVerilog/SoC-RV32I/SoC/VERIFICATION/Scoreboard/axi_scoreboard.sv(23) @ 13015000: uvm_test_top.env.scoreboard [SCB_PASS] Match! Addr=10000010, Data=10504358
# UVM_INFO /home/khang/Documents/SystemVerilog/SoC-RV32I/SoC/VERIFICATION/Monitor/axi_monitor.sv(64) @ 13065000: uvm_test_top.env.agent.monitor [MON_RD] Deteced READ : Addr = 10000014, Data = bd7a2546
# UVM_INFO /home/khang/Documents/SystemVerilog/SoC-RV32I/SoC/VERIFICATION/Scoreboard/axi_scoreboard.sv(23) @ 13065000: uvm_test_top.env.scoreboard [SCB_PASS] Match! Addr=10000014, Data=bd7a2546
# UVM_INFO /home/khang/Documents/SystemVerilog/SoC-RV32I/SoC/VERIFICATION/Monitor/axi_monitor.sv(64) @ 13115000: uvm_test_top.env.agent.monitor [MON_RD] Deteced READ : Addr = 10000018, Data = f087a12a
# UVM_INFO /home/khang/Documents/SystemVerilog/SoC-RV32I/SoC/VERIFICATION/Scoreboard/axi_scoreboard.sv(23) @ 13115000: uvm_test_top.env.scoreboard [SCB_PASS] Match! Addr=10000018, Data=f087a12a
# UVM_INFO /home/khang/Documents/SystemVerilog/SoC-RV32I/SoC/VERIFICATION/Monitor/axi_monitor.sv(64) @ 13165000: uvm_test_top.env.agent.monitor [MON_RD] Deteced READ : Addr = 1000001c, Data = a6e797c3
# UVM_INFO /home/khang/Documents/SystemVerilog/SoC-RV32I/SoC/VERIFICATION/Scoreboard/axi_scoreboard.sv(23) @ 13165000: uvm_test_top.env.scoreboard [SCB_PASS] Match! Addr=1000001c, Data=a6e797c3
# UVM_INFO /home/khang/Documents/SystemVerilog/SoC-RV32I/SoC/VERIFICATION/Monitor/axi_monitor.sv(64) @ 13215000: uvm_test_top.env.agent.monitor [MON_RD] Deteced READ : Addr = 10000020, Data = 25e019c5
# UVM_INFO /home/khang/Documents/SystemVerilog/SoC-RV32I/SoC/VERIFICATION/Scoreboard/axi_scoreboard.sv(23) @ 13215000: uvm_test_top.env.scoreboard [SCB_PASS] Match! Addr=10000020, Data=25e019c5
# UVM_INFO /home/khang/Documents/SystemVerilog/SoC-RV32I/SoC/VERIFICATION/Monitor/axi_monitor.sv(64) @ 13265000: uvm_test_top.env.agent.monitor [MON_RD] Deteced READ : Addr = 10000024, Data = a208c38c
# UVM_INFO /home/khang/Documents/SystemVerilog/SoC-RV32I/SoC/VERIFICATION/Scoreboard/axi_scoreboard.sv(23) @ 13265000: uvm_test_top.env.scoreboard [SCB_PASS] Match! Addr=10000024, Data=a208c38c
# UVM_INFO /home/khang/Documents/SystemVerilog/SoC-RV32I/SoC/VERIFICATION/Monitor/axi_monitor.sv(64) @ 13315000: uvm_test_top.env.agent.monitor [MON_RD] Deteced READ : Addr = 10000028, Data = 9f6438d2
# UVM_INFO /home/khang/Documents/SystemVerilog/SoC-RV32I/SoC/VERIFICATION/Scoreboard/axi_scoreboard.sv(23) @ 13315000: uvm_test_top.env.scoreboard [SCB_PASS] Match! Addr=10000028, Data=9f6438d2
# UVM_INFO /home/khang/Documents/SystemVerilog/SoC-RV32I/SoC/VERIFICATION/Monitor/axi_monitor.sv(64) @ 13365000: uvm_test_top.env.agent.monitor [MON_RD] Deteced READ : Addr = 1000002c, Data = fdcb9d62
# UVM_INFO /home/khang/Documents/SystemVerilog/SoC-RV32I/SoC/VERIFICATION/Scoreboard/axi_scoreboard.sv(23) @ 13365000: uvm_test_top.env.scoreboard [SCB_PASS] Match! Addr=1000002c, Data=fdcb9d62
# UVM_INFO /home/khang/Documents/SystemVerilog/SoC-RV32I/SoC/VERIFICATION/Monitor/axi_monitor.sv(64) @ 13415000: uvm_test_top.env.agent.monitor [MON_RD] Deteced READ : Addr = 10000030, Data = c1c2e4ec
# UVM_INFO /home/khang/Documents/SystemVerilog/SoC-RV32I/SoC/VERIFICATION/Scoreboard/axi_scoreboard.sv(23) @ 13415000: uvm_test_top.env.scoreboard [SCB_PASS] Match! Addr=10000030, Data=c1c2e4ec
# UVM_INFO /home/khang/Documents/SystemVerilog/SoC-RV32I/SoC/VERIFICATION/Monitor/axi_monitor.sv(64) @ 13465000: uvm_test_top.env.agent.monitor [MON_RD] Deteced READ : Addr = 10000034, Data = ab005825
# UVM_INFO /home/khang/Documents/SystemVerilog/SoC-RV32I/SoC/VERIFICATION/Scoreboard/axi_scoreboard.sv(23) @ 13465000: uvm_test_top.env.scoreboard [SCB_PASS] Match! Addr=10000034, Data=ab005825
# UVM_INFO /home/khang/Documents/SystemVerilog/SoC-RV32I/SoC/VERIFICATION/Monitor/axi_monitor.sv(64) @ 13515000: uvm_test_top.env.agent.monitor [MON_RD] Deteced READ : Addr = 10000038, Data = 5d2a0e93
# UVM_INFO /home/khang/Documents/SystemVerilog/SoC-RV32I/SoC/VERIFICATION/Scoreboard/axi_scoreboard.sv(23) @ 13515000: uvm_test_top.env.scoreboard [SCB_PASS] Match! Addr=10000038, Data=5d2a0e93
# UVM_INFO /home/khang/Documents/SystemVerilog/SoC-RV32I/SoC/VERIFICATION/Monitor/axi_monitor.sv(64) @ 13565000: uvm_test_top.env.agent.monitor [MON_RD] Deteced READ : Addr = 1000003c, Data = 3c1b03dc
# UVM_INFO /home/khang/Documents/SystemVerilog/SoC-RV32I/SoC/VERIFICATION/Scoreboard/axi_scoreboard.sv(23) @ 13565000: uvm_test_top.env.scoreboard [SCB_PASS] Match! Addr=1000003c, Data=3c1b03dc
# UVM_INFO /home/khang/Documents/SystemVerilog/SoC-RV32I/SoC/VERIFICATION/Monitor/axi_monitor.sv(64) @ 13615000: uvm_test_top.env.agent.monitor [MON_RD] Deteced READ : Addr = 10000040, Data = 02081303
# UVM_INFO /home/khang/Documents/SystemVerilog/SoC-RV32I/SoC/VERIFICATION/Scoreboard/axi_scoreboard.sv(23) @ 13615000: uvm_test_top.env.scoreboard [SCB_PASS] Match! Addr=10000040, Data=02081303
# UVM_INFO /home/khang/Documents/SystemVerilog/SoC-RV32I/SoC/VERIFICATION/Monitor/axi_monitor.sv(64) @ 13665000: uvm_test_top.env.agent.monitor [MON_RD] Deteced READ : Addr = 10000044, Data = a3f1a791
# UVM_INFO /home/khang/Documents/SystemVerilog/SoC-RV32I/SoC/VERIFICATION/Scoreboard/axi_scoreboard.sv(23) @ 13665000: uvm_test_top.env.scoreboard [SCB_PASS] Match! Addr=10000044, Data=a3f1a791
# UVM_INFO /home/khang/Documents/SystemVerilog/SoC-RV32I/SoC/VERIFICATION/Monitor/axi_monitor.sv(64) @ 13715000: uvm_test_top.env.agent.monitor [MON_RD] Deteced READ : Addr = 10000048, Data = f73fa6d0
# UVM_INFO /home/khang/Documents/SystemVerilog/SoC-RV32I/SoC/VERIFICATION/Scoreboard/axi_scoreboard.sv(23) @ 13715000: uvm_test_top.env.scoreboard [SCB_PASS] Match! Addr=10000048, Data=f73fa6d0
# UVM_INFO /home/khang/Documents/SystemVerilog/SoC-RV32I/SoC/VERIFICATION/Monitor/axi_monitor.sv(64) @ 13765000: uvm_test_top.env.agent.monitor [MON_RD] Deteced READ : Addr = 1000004c, Data = 1affef5e
# UVM_INFO /home/khang/Documents/SystemVerilog/SoC-RV32I/SoC/VERIFICATION/Scoreboard/axi_scoreboard.sv(23) @ 13765000: uvm_test_top.env.scoreboard [SCB_PASS] Match! Addr=1000004c, Data=1affef5e
# UVM_INFO /home/khang/Documents/SystemVerilog/SoC-RV32I/SoC/VERIFICATION/Monitor/axi_monitor.sv(64) @ 13815000: uvm_test_top.env.agent.monitor [MON_RD] Deteced READ : Addr = 10000050, Data = c770dfdc
# UVM_INFO /home/khang/Documents/SystemVerilog/SoC-RV32I/SoC/VERIFICATION/Scoreboard/axi_scoreboard.sv(23) @ 13815000: uvm_test_top.env.scoreboard [SCB_PASS] Match! Addr=10000050, Data=c770dfdc
# UVM_INFO /home/khang/Documents/SystemVerilog/SoC-RV32I/SoC/VERIFICATION/Monitor/axi_monitor.sv(64) @ 13865000: uvm_test_top.env.agent.monitor [MON_RD] Deteced READ : Addr = 10000054, Data = 0a6caa61
# UVM_INFO /home/khang/Documents/SystemVerilog/SoC-RV32I/SoC/VERIFICATION/Scoreboard/axi_scoreboard.sv(23) @ 13865000: uvm_test_top.env.scoreboard [SCB_PASS] Match! Addr=10000054, Data=0a6caa61
# UVM_INFO /home/khang/Documents/SystemVerilog/SoC-RV32I/SoC/VERIFICATION/Monitor/axi_monitor.sv(64) @ 13915000: uvm_test_top.env.agent.monitor [MON_RD] Deteced READ : Addr = 10000058, Data = acb3525b
# UVM_INFO /home/khang/Documents/SystemVerilog/SoC-RV32I/SoC/VERIFICATION/Scoreboard/axi_scoreboard.sv(23) @ 13915000: uvm_test_top.env.scoreboard [SCB_PASS] Match! Addr=10000058, Data=acb3525b
# UVM_INFO /home/khang/Documents/SystemVerilog/SoC-RV32I/SoC/VERIFICATION/Monitor/axi_monitor.sv(64) @ 13965000: uvm_test_top.env.agent.monitor [MON_RD] Deteced READ : Addr = 1000005c, Data = f3883bc8
# UVM_INFO /home/khang/Documents/SystemVerilog/SoC-RV32I/SoC/VERIFICATION/Scoreboard/axi_scoreboard.sv(23) @ 13965000: uvm_test_top.env.scoreboard [SCB_PASS] Match! Addr=1000005c, Data=f3883bc8
# UVM_INFO /home/khang/Documents/SystemVerilog/SoC-RV32I/SoC/VERIFICATION/Monitor/axi_monitor.sv(64) @ 14015000: uvm_test_top.env.agent.monitor [MON_RD] Deteced READ : Addr = 10000060, Data = f112a4ea
# UVM_INFO /home/khang/Documents/SystemVerilog/SoC-RV32I/SoC/VERIFICATION/Scoreboard/axi_scoreboard.sv(23) @ 14015000: uvm_test_top.env.scoreboard [SCB_PASS] Match! Addr=10000060, Data=f112a4ea
# UVM_INFO /home/khang/Documents/SystemVerilog/SoC-RV32I/SoC/VERIFICATION/Monitor/axi_monitor.sv(64) @ 14065000: uvm_test_top.env.agent.monitor [MON_RD] Deteced READ : Addr = 10000064, Data = b98ef185
# UVM_INFO /home/khang/Documents/SystemVerilog/SoC-RV32I/SoC/VERIFICATION/Scoreboard/axi_scoreboard.sv(23) @ 14065000: uvm_test_top.env.scoreboard [SCB_PASS] Match! Addr=10000064, Data=b98ef185
# UVM_INFO /home/khang/Documents/SystemVerilog/SoC-RV32I/SoC/VERIFICATION/Monitor/axi_monitor.sv(64) @ 14115000: uvm_test_top.env.agent.monitor [MON_RD] Deteced READ : Addr = 10000068, Data = 732181e1
# UVM_INFO /home/khang/Documents/SystemVerilog/SoC-RV32I/SoC/VERIFICATION/Scoreboard/axi_scoreboard.sv(23) @ 14115000: uvm_test_top.env.scoreboard [SCB_PASS] Match! Addr=10000068, Data=732181e1
# UVM_INFO /home/khang/Documents/SystemVerilog/SoC-RV32I/SoC/VERIFICATION/Monitor/axi_monitor.sv(64) @ 14165000: uvm_test_top.env.agent.monitor [MON_RD] Deteced READ : Addr = 1000006c, Data = cab6f761
# UVM_INFO /home/khang/Documents/SystemVerilog/SoC-RV32I/SoC/VERIFICATION/Scoreboard/axi_scoreboard.sv(23) @ 14165000: uvm_test_top.env.scoreboard [SCB_PASS] Match! Addr=1000006c, Data=cab6f761
# UVM_INFO /home/khang/Documents/SystemVerilog/SoC-RV32I/SoC/VERIFICATION/Monitor/axi_monitor.sv(64) @ 14215000: uvm_test_top.env.agent.monitor [MON_RD] Deteced READ : Addr = 10000070, Data = 0df87a29
# UVM_INFO /home/khang/Documents/SystemVerilog/SoC-RV32I/SoC/VERIFICATION/Scoreboard/axi_scoreboard.sv(23) @ 14215000: uvm_test_top.env.scoreboard [SCB_PASS] Match! Addr=10000070, Data=0df87a29
# UVM_INFO /home/khang/Documents/SystemVerilog/SoC-RV32I/SoC/VERIFICATION/Monitor/axi_monitor.sv(64) @ 14265000: uvm_test_top.env.agent.monitor [MON_RD] Deteced READ : Addr = 10000074, Data = 935db862
# UVM_INFO /home/khang/Documents/SystemVerilog/SoC-RV32I/SoC/VERIFICATION/Scoreboard/axi_scoreboard.sv(23) @ 14265000: uvm_test_top.env.scoreboard [SCB_PASS] Match! Addr=10000074, Data=935db862
# UVM_INFO /home/khang/Documents/SystemVerilog/SoC-RV32I/SoC/VERIFICATION/Monitor/axi_monitor.sv(64) @ 14315000: uvm_test_top.env.agent.monitor [MON_RD] Deteced READ : Addr = 10000078, Data = 70d73691
# UVM_INFO /home/khang/Documents/SystemVerilog/SoC-RV32I/SoC/VERIFICATION/Scoreboard/axi_scoreboard.sv(23) @ 14315000: uvm_test_top.env.scoreboard [SCB_PASS] Match! Addr=10000078, Data=70d73691
# UVM_INFO /home/khang/Documents/SystemVerilog/SoC-RV32I/SoC/VERIFICATION/Monitor/axi_monitor.sv(64) @ 14365000: uvm_test_top.env.agent.monitor [MON_RD] Deteced READ : Addr = 1000007c, Data = ff5ea685
# UVM_INFO /home/khang/Documents/SystemVerilog/SoC-RV32I/SoC/VERIFICATION/Scoreboard/axi_scoreboard.sv(23) @ 14365000: uvm_test_top.env.scoreboard [SCB_PASS] Match! Addr=1000007c, Data=ff5ea685
# UVM_INFO /home/khang/Documents/SystemVerilog/SoC-RV32I/SoC/VERIFICATION/Monitor/axi_monitor.sv(64) @ 14415000: uvm_test_top.env.agent.monitor [MON_RD] Deteced READ : Addr = 10000080, Data = 2ee21b9e
# UVM_INFO /home/khang/Documents/SystemVerilog/SoC-RV32I/SoC/VERIFICATION/Scoreboard/axi_scoreboard.sv(23) @ 14415000: uvm_test_top.env.scoreboard [SCB_PASS] Match! Addr=10000080, Data=2ee21b9e
# UVM_INFO /home/khang/Documents/SystemVerilog/SoC-RV32I/SoC/VERIFICATION/Monitor/axi_monitor.sv(64) @ 14465000: uvm_test_top.env.agent.monitor [MON_RD] Deteced READ : Addr = 10000084, Data = 55df3eba
# UVM_INFO /home/khang/Documents/SystemVerilog/SoC-RV32I/SoC/VERIFICATION/Scoreboard/axi_scoreboard.sv(23) @ 14465000: uvm_test_top.env.scoreboard [SCB_PASS] Match! Addr=10000084, Data=55df3eba
# UVM_INFO /home/khang/Documents/SystemVerilog/SoC-RV32I/SoC/VERIFICATION/Monitor/axi_monitor.sv(64) @ 14515000: uvm_test_top.env.agent.monitor [MON_RD] Deteced READ : Addr = 10000088, Data = b826dd61
# UVM_INFO /home/khang/Documents/SystemVerilog/SoC-RV32I/SoC/VERIFICATION/Scoreboard/axi_scoreboard.sv(23) @ 14515000: uvm_test_top.env.scoreboard [SCB_PASS] Match! Addr=10000088, Data=b826dd61
# UVM_INFO /home/khang/Documents/SystemVerilog/SoC-RV32I/SoC/VERIFICATION/Monitor/axi_monitor.sv(64) @ 14565000: uvm_test_top.env.agent.monitor [MON_RD] Deteced READ : Addr = 1000008c, Data = 5108f250
# UVM_INFO /home/khang/Documents/SystemVerilog/SoC-RV32I/SoC/VERIFICATION/Scoreboard/axi_scoreboard.sv(23) @ 14565000: uvm_test_top.env.scoreboard [SCB_PASS] Match! Addr=1000008c, Data=5108f250
# UVM_INFO /home/khang/Documents/SystemVerilog/SoC-RV32I/SoC/VERIFICATION/Monitor/axi_monitor.sv(64) @ 14615000: uvm_test_top.env.agent.monitor [MON_RD] Deteced READ : Addr = 10000090, Data = 08fe82d3
# UVM_INFO /home/khang/Documents/SystemVerilog/SoC-RV32I/SoC/VERIFICATION/Scoreboard/axi_scoreboard.sv(23) @ 14615000: uvm_test_top.env.scoreboard [SCB_PASS] Match! Addr=10000090, Data=08fe82d3
# UVM_INFO /home/khang/Documents/SystemVerilog/SoC-RV32I/SoC/VERIFICATION/Monitor/axi_monitor.sv(64) @ 14665000: uvm_test_top.env.agent.monitor [MON_RD] Deteced READ : Addr = 10000094, Data = 4d11466d
# UVM_INFO /home/khang/Documents/SystemVerilog/SoC-RV32I/SoC/VERIFICATION/Scoreboard/axi_scoreboard.sv(23) @ 14665000: uvm_test_top.env.scoreboard [SCB_PASS] Match! Addr=10000094, Data=4d11466d
# UVM_INFO /home/khang/Documents/SystemVerilog/SoC-RV32I/SoC/VERIFICATION/Monitor/axi_monitor.sv(64) @ 14715000: uvm_test_top.env.agent.monitor [MON_RD] Deteced READ : Addr = 10000098, Data = fbf86eac
# UVM_INFO /home/khang/Documents/SystemVerilog/SoC-RV32I/SoC/VERIFICATION/Scoreboard/axi_scoreboard.sv(23) @ 14715000: uvm_test_top.env.scoreboard [SCB_PASS] Match! Addr=10000098, Data=fbf86eac
# UVM_INFO /home/khang/Documents/SystemVerilog/SoC-RV32I/SoC/VERIFICATION/Monitor/axi_monitor.sv(64) @ 14765000: uvm_test_top.env.agent.monitor [MON_RD] Deteced READ : Addr = 1000009c, Data = 3710fe6c
# UVM_INFO /home/khang/Documents/SystemVerilog/SoC-RV32I/SoC/VERIFICATION/Scoreboard/axi_scoreboard.sv(23) @ 14765000: uvm_test_top.env.scoreboard [SCB_PASS] Match! Addr=1000009c, Data=3710fe6c
# UVM_INFO /home/khang/Documents/SystemVerilog/SoC-RV32I/SoC/VERIFICATION/Monitor/axi_monitor.sv(64) @ 14815000: uvm_test_top.env.agent.monitor [MON_RD] Deteced READ : Addr = 100000a0, Data = 52939bd6
# UVM_INFO /home/khang/Documents/SystemVerilog/SoC-RV32I/SoC/VERIFICATION/Scoreboard/axi_scoreboard.sv(23) @ 14815000: uvm_test_top.env.scoreboard [SCB_PASS] Match! Addr=100000a0, Data=52939bd6
# UVM_INFO /home/khang/Documents/SystemVerilog/SoC-RV32I/SoC/VERIFICATION/Monitor/axi_monitor.sv(64) @ 14865000: uvm_test_top.env.agent.monitor [MON_RD] Deteced READ : Addr = 100000a4, Data = 80e0815c
# UVM_INFO /home/khang/Documents/SystemVerilog/SoC-RV32I/SoC/VERIFICATION/Scoreboard/axi_scoreboard.sv(23) @ 14865000: uvm_test_top.env.scoreboard [SCB_PASS] Match! Addr=100000a4, Data=80e0815c
# UVM_INFO /home/khang/Documents/SystemVerilog/SoC-RV32I/SoC/VERIFICATION/Monitor/axi_monitor.sv(64) @ 14915000: uvm_test_top.env.agent.monitor [MON_RD] Deteced READ : Addr = 100000a8, Data = 12615182
# UVM_INFO /home/khang/Documents/SystemVerilog/SoC-RV32I/SoC/VERIFICATION/Scoreboard/axi_scoreboard.sv(23) @ 14915000: uvm_test_top.env.scoreboard [SCB_PASS] Match! Addr=100000a8, Data=12615182
# UVM_INFO /home/khang/Documents/SystemVerilog/SoC-RV32I/SoC/VERIFICATION/Monitor/axi_monitor.sv(64) @ 14965000: uvm_test_top.env.agent.monitor [MON_RD] Deteced READ : Addr = 100000ac, Data = a7c8d830
# UVM_INFO /home/khang/Documents/SystemVerilog/SoC-RV32I/SoC/VERIFICATION/Scoreboard/axi_scoreboard.sv(23) @ 14965000: uvm_test_top.env.scoreboard [SCB_PASS] Match! Addr=100000ac, Data=a7c8d830
# UVM_INFO /home/khang/Documents/SystemVerilog/SoC-RV32I/SoC/VERIFICATION/Monitor/axi_monitor.sv(64) @ 15015000: uvm_test_top.env.agent.monitor [MON_RD] Deteced READ : Addr = 100000b0, Data = 2a6ee9ea
# UVM_INFO /home/khang/Documents/SystemVerilog/SoC-RV32I/SoC/VERIFICATION/Scoreboard/axi_scoreboard.sv(23) @ 15015000: uvm_test_top.env.scoreboard [SCB_PASS] Match! Addr=100000b0, Data=2a6ee9ea
# UVM_INFO /home/khang/Documents/SystemVerilog/SoC-RV32I/SoC/VERIFICATION/Monitor/axi_monitor.sv(64) @ 15065000: uvm_test_top.env.agent.monitor [MON_RD] Deteced READ : Addr = 100000b4, Data = 606498db
# UVM_INFO /home/khang/Documents/SystemVerilog/SoC-RV32I/SoC/VERIFICATION/Scoreboard/axi_scoreboard.sv(23) @ 15065000: uvm_test_top.env.scoreboard [SCB_PASS] Match! Addr=100000b4, Data=606498db
# UVM_INFO /home/khang/Documents/SystemVerilog/SoC-RV32I/SoC/VERIFICATION/Monitor/axi_monitor.sv(64) @ 15115000: uvm_test_top.env.agent.monitor [MON_RD] Deteced READ : Addr = 100000b8, Data = 2c659614
# UVM_INFO /home/khang/Documents/SystemVerilog/SoC-RV32I/SoC/VERIFICATION/Scoreboard/axi_scoreboard.sv(23) @ 15115000: uvm_test_top.env.scoreboard [SCB_PASS] Match! Addr=100000b8, Data=2c659614
# UVM_INFO /home/khang/Documents/SystemVerilog/SoC-RV32I/SoC/VERIFICATION/Monitor/axi_monitor.sv(64) @ 15165000: uvm_test_top.env.agent.monitor [MON_RD] Deteced READ : Addr = 100000bc, Data = b76d1c28
# UVM_INFO /home/khang/Documents/SystemVerilog/SoC-RV32I/SoC/VERIFICATION/Scoreboard/axi_scoreboard.sv(23) @ 15165000: uvm_test_top.env.scoreboard [SCB_PASS] Match! Addr=100000bc, Data=b76d1c28
# UVM_INFO /home/khang/Documents/SystemVerilog/SoC-RV32I/SoC/VERIFICATION/Monitor/axi_monitor.sv(64) @ 15215000: uvm_test_top.env.agent.monitor [MON_RD] Deteced READ : Addr = 100000c0, Data = a2e1dca0
# UVM_INFO /home/khang/Documents/SystemVerilog/SoC-RV32I/SoC/VERIFICATION/Scoreboard/axi_scoreboard.sv(23) @ 15215000: uvm_test_top.env.scoreboard [SCB_PASS] Match! Addr=100000c0, Data=a2e1dca0
# UVM_INFO /home/khang/Documents/SystemVerilog/SoC-RV32I/SoC/VERIFICATION/Monitor/axi_monitor.sv(64) @ 15265000: uvm_test_top.env.agent.monitor [MON_RD] Deteced READ : Addr = 100000c4, Data = ee34e387
# UVM_INFO /home/khang/Documents/SystemVerilog/SoC-RV32I/SoC/VERIFICATION/Scoreboard/axi_scoreboard.sv(23) @ 15265000: uvm_test_top.env.scoreboard [SCB_PASS] Match! Addr=100000c4, Data=ee34e387
# UVM_INFO /home/khang/Documents/SystemVerilog/SoC-RV32I/SoC/VERIFICATION/Monitor/axi_monitor.sv(64) @ 15315000: uvm_test_top.env.agent.monitor [MON_RD] Deteced READ : Addr = 100000c8, Data = 2e30a8e7
# UVM_INFO /home/khang/Documents/SystemVerilog/SoC-RV32I/SoC/VERIFICATION/Scoreboard/axi_scoreboard.sv(23) @ 15315000: uvm_test_top.env.scoreboard [SCB_PASS] Match! Addr=100000c8, Data=2e30a8e7
# UVM_INFO /home/khang/Documents/SystemVerilog/SoC-RV32I/SoC/VERIFICATION/Monitor/axi_monitor.sv(64) @ 15365000: uvm_test_top.env.agent.monitor [MON_RD] Deteced READ : Addr = 100000cc, Data = 42819b2c
# UVM_INFO /home/khang/Documents/SystemVerilog/SoC-RV32I/SoC/VERIFICATION/Scoreboard/axi_scoreboard.sv(23) @ 15365000: uvm_test_top.env.scoreboard [SCB_PASS] Match! Addr=100000cc, Data=42819b2c
# UVM_INFO /home/khang/Documents/SystemVerilog/SoC-RV32I/SoC/VERIFICATION/Monitor/axi_monitor.sv(64) @ 15415000: uvm_test_top.env.agent.monitor [MON_RD] Deteced READ : Addr = 100000d0, Data = 2cbe193f
# UVM_INFO /home/khang/Documents/SystemVerilog/SoC-RV32I/SoC/VERIFICATION/Scoreboard/axi_scoreboard.sv(23) @ 15415000: uvm_test_top.env.scoreboard [SCB_PASS] Match! Addr=100000d0, Data=2cbe193f
# UVM_INFO /home/khang/Documents/SystemVerilog/SoC-RV32I/SoC/VERIFICATION/Monitor/axi_monitor.sv(64) @ 15465000: uvm_test_top.env.agent.monitor [MON_RD] Deteced READ : Addr = 100000d4, Data = cb6a5ab7
# UVM_INFO /home/khang/Documents/SystemVerilog/SoC-RV32I/SoC/VERIFICATION/Scoreboard/axi_scoreboard.sv(23) @ 15465000: uvm_test_top.env.scoreboard [SCB_PASS] Match! Addr=100000d4, Data=cb6a5ab7
# UVM_INFO /home/khang/Documents/SystemVerilog/SoC-RV32I/SoC/VERIFICATION/Monitor/axi_monitor.sv(64) @ 15515000: uvm_test_top.env.agent.monitor [MON_RD] Deteced READ : Addr = 100000d8, Data = 0ce16c5c
# UVM_INFO /home/khang/Documents/SystemVerilog/SoC-RV32I/SoC/VERIFICATION/Scoreboard/axi_scoreboard.sv(23) @ 15515000: uvm_test_top.env.scoreboard [SCB_PASS] Match! Addr=100000d8, Data=0ce16c5c
# UVM_INFO /home/khang/Documents/SystemVerilog/SoC-RV32I/SoC/VERIFICATION/Monitor/axi_monitor.sv(64) @ 15565000: uvm_test_top.env.agent.monitor [MON_RD] Deteced READ : Addr = 100000dc, Data = bfbc15aa
# UVM_INFO /home/khang/Documents/SystemVerilog/SoC-RV32I/SoC/VERIFICATION/Scoreboard/axi_scoreboard.sv(23) @ 15565000: uvm_test_top.env.scoreboard [SCB_PASS] Match! Addr=100000dc, Data=bfbc15aa
# UVM_INFO /home/khang/Documents/SystemVerilog/SoC-RV32I/SoC/VERIFICATION/Monitor/axi_monitor.sv(64) @ 15615000: uvm_test_top.env.agent.monitor [MON_RD] Deteced READ : Addr = 100000e0, Data = 65c926b5
# UVM_INFO /home/khang/Documents/SystemVerilog/SoC-RV32I/SoC/VERIFICATION/Scoreboard/axi_scoreboard.sv(23) @ 15615000: uvm_test_top.env.scoreboard [SCB_PASS] Match! Addr=100000e0, Data=65c926b5
# UVM_INFO /home/khang/Documents/SystemVerilog/SoC-RV32I/SoC/VERIFICATION/Monitor/axi_monitor.sv(64) @ 15665000: uvm_test_top.env.agent.monitor [MON_RD] Deteced READ : Addr = 100000e4, Data = 536dd6c0
# UVM_INFO /home/khang/Documents/SystemVerilog/SoC-RV32I/SoC/VERIFICATION/Scoreboard/axi_scoreboard.sv(23) @ 15665000: uvm_test_top.env.scoreboard [SCB_PASS] Match! Addr=100000e4, Data=536dd6c0
# UVM_INFO /home/khang/Documents/SystemVerilog/SoC-RV32I/SoC/VERIFICATION/Monitor/axi_monitor.sv(64) @ 15715000: uvm_test_top.env.agent.monitor [MON_RD] Deteced READ : Addr = 100000e8, Data = 63781f11
# UVM_INFO /home/khang/Documents/SystemVerilog/SoC-RV32I/SoC/VERIFICATION/Scoreboard/axi_scoreboard.sv(23) @ 15715000: uvm_test_top.env.scoreboard [SCB_PASS] Match! Addr=100000e8, Data=63781f11
# UVM_INFO /home/khang/Documents/SystemVerilog/SoC-RV32I/SoC/VERIFICATION/Monitor/axi_monitor.sv(64) @ 15765000: uvm_test_top.env.agent.monitor [MON_RD] Deteced READ : Addr = 100000ec, Data = dcfd1cc8
# UVM_INFO /home/khang/Documents/SystemVerilog/SoC-RV32I/SoC/VERIFICATION/Scoreboard/axi_scoreboard.sv(23) @ 15765000: uvm_test_top.env.scoreboard [SCB_PASS] Match! Addr=100000ec, Data=dcfd1cc8
# UVM_INFO /home/khang/Documents/SystemVerilog/SoC-RV32I/SoC/VERIFICATION/Monitor/axi_monitor.sv(64) @ 15815000: uvm_test_top.env.agent.monitor [MON_RD] Deteced READ : Addr = 100000f0, Data = 5c32505b
# UVM_INFO /home/khang/Documents/SystemVerilog/SoC-RV32I/SoC/VERIFICATION/Scoreboard/axi_scoreboard.sv(23) @ 15815000: uvm_test_top.env.scoreboard [SCB_PASS] Match! Addr=100000f0, Data=5c32505b
# UVM_INFO /home/khang/Documents/SystemVerilog/SoC-RV32I/SoC/VERIFICATION/Monitor/axi_monitor.sv(64) @ 15865000: uvm_test_top.env.agent.monitor [MON_RD] Deteced READ : Addr = 100000f4, Data = 5350944e
# UVM_INFO /home/khang/Documents/SystemVerilog/SoC-RV32I/SoC/VERIFICATION/Scoreboard/axi_scoreboard.sv(23) @ 15865000: uvm_test_top.env.scoreboard [SCB_PASS] Match! Addr=100000f4, Data=5350944e
# UVM_INFO /home/khang/Documents/SystemVerilog/SoC-RV32I/SoC/VERIFICATION/Monitor/axi_monitor.sv(64) @ 15915000: uvm_test_top.env.agent.monitor [MON_RD] Deteced READ : Addr = 100000f8, Data = 7e63600c
# UVM_INFO /home/khang/Documents/SystemVerilog/SoC-RV32I/SoC/VERIFICATION/Scoreboard/axi_scoreboard.sv(23) @ 15915000: uvm_test_top.env.scoreboard [SCB_PASS] Match! Addr=100000f8, Data=7e63600c
# UVM_INFO /home/khang/Documents/SystemVerilog/SoC-RV32I/SoC/VERIFICATION/Monitor/axi_monitor.sv(64) @ 15965000: uvm_test_top.env.agent.monitor [MON_RD] Deteced READ : Addr = 100000fc, Data = 73797d7b
# UVM_INFO /home/khang/Documents/SystemVerilog/SoC-RV32I/SoC/VERIFICATION/Scoreboard/axi_scoreboard.sv(23) @ 15965000: uvm_test_top.env.scoreboard [SCB_PASS] Match! Addr=100000fc, Data=73797d7b
# UVM_INFO /home/khang/Documents/SystemVerilog/SoC-RV32I/SoC/VERIFICATION/Monitor/axi_monitor.sv(64) @ 16015000: uvm_test_top.env.agent.monitor [MON_RD] Deteced READ : Addr = 10000100, Data = 793aae44
# UVM_INFO /home/khang/Documents/SystemVerilog/SoC-RV32I/SoC/VERIFICATION/Scoreboard/axi_scoreboard.sv(23) @ 16015000: uvm_test_top.env.scoreboard [SCB_PASS] Match! Addr=10000100, Data=793aae44
# UVM_INFO /home/khang/Documents/SystemVerilog/SoC-RV32I/SoC/VERIFICATION/Monitor/axi_monitor.sv(64) @ 16065000: uvm_test_top.env.agent.monitor [MON_RD] Deteced READ : Addr = 10000104, Data = 863ac96c
# UVM_INFO /home/khang/Documents/SystemVerilog/SoC-RV32I/SoC/VERIFICATION/Scoreboard/axi_scoreboard.sv(23) @ 16065000: uvm_test_top.env.scoreboard [SCB_PASS] Match! Addr=10000104, Data=863ac96c
# UVM_INFO /home/khang/Documents/SystemVerilog/SoC-RV32I/SoC/VERIFICATION/Monitor/axi_monitor.sv(64) @ 16115000: uvm_test_top.env.agent.monitor [MON_RD] Deteced READ : Addr = 10000108, Data = c98f4997
# UVM_INFO /home/khang/Documents/SystemVerilog/SoC-RV32I/SoC/VERIFICATION/Scoreboard/axi_scoreboard.sv(23) @ 16115000: uvm_test_top.env.scoreboard [SCB_PASS] Match! Addr=10000108, Data=c98f4997
# UVM_INFO /home/khang/Documents/SystemVerilog/SoC-RV32I/SoC/VERIFICATION/Monitor/axi_monitor.sv(64) @ 16165000: uvm_test_top.env.agent.monitor [MON_RD] Deteced READ : Addr = 1000010c, Data = 32d9ac2c
# UVM_INFO /home/khang/Documents/SystemVerilog/SoC-RV32I/SoC/VERIFICATION/Scoreboard/axi_scoreboard.sv(23) @ 16165000: uvm_test_top.env.scoreboard [SCB_PASS] Match! Addr=1000010c, Data=32d9ac2c
# UVM_INFO /home/khang/Documents/SystemVerilog/SoC-RV32I/SoC/VERIFICATION/Monitor/axi_monitor.sv(64) @ 16215000: uvm_test_top.env.agent.monitor [MON_RD] Deteced READ : Addr = 10000110, Data = 8231fde9
# UVM_INFO /home/khang/Documents/SystemVerilog/SoC-RV32I/SoC/VERIFICATION/Scoreboard/axi_scoreboard.sv(23) @ 16215000: uvm_test_top.env.scoreboard [SCB_PASS] Match! Addr=10000110, Data=8231fde9
# UVM_INFO /home/khang/Documents/SystemVerilog/SoC-RV32I/SoC/VERIFICATION/Monitor/axi_monitor.sv(64) @ 16265000: uvm_test_top.env.agent.monitor [MON_RD] Deteced READ : Addr = 10000114, Data = 70d42dbe
# UVM_INFO /home/khang/Documents/SystemVerilog/SoC-RV32I/SoC/VERIFICATION/Scoreboard/axi_scoreboard.sv(23) @ 16265000: uvm_test_top.env.scoreboard [SCB_PASS] Match! Addr=10000114, Data=70d42dbe
# UVM_INFO /home/khang/Documents/SystemVerilog/SoC-RV32I/SoC/VERIFICATION/Monitor/axi_monitor.sv(64) @ 16315000: uvm_test_top.env.agent.monitor [MON_RD] Deteced READ : Addr = 10000118, Data = 05e2b2c5
# UVM_INFO /home/khang/Documents/SystemVerilog/SoC-RV32I/SoC/VERIFICATION/Scoreboard/axi_scoreboard.sv(23) @ 16315000: uvm_test_top.env.scoreboard [SCB_PASS] Match! Addr=10000118, Data=05e2b2c5
# UVM_INFO /home/khang/Documents/SystemVerilog/SoC-RV32I/SoC/VERIFICATION/Monitor/axi_monitor.sv(64) @ 16365000: uvm_test_top.env.agent.monitor [MON_RD] Deteced READ : Addr = 1000011c, Data = fd6fac41
# UVM_INFO /home/khang/Documents/SystemVerilog/SoC-RV32I/SoC/VERIFICATION/Scoreboard/axi_scoreboard.sv(23) @ 16365000: uvm_test_top.env.scoreboard [SCB_PASS] Match! Addr=1000011c, Data=fd6fac41
# UVM_INFO /home/khang/Documents/SystemVerilog/SoC-RV32I/SoC/VERIFICATION/Monitor/axi_monitor.sv(64) @ 16415000: uvm_test_top.env.agent.monitor [MON_RD] Deteced READ : Addr = 10000120, Data = 13ce4587
# UVM_INFO /home/khang/Documents/SystemVerilog/SoC-RV32I/SoC/VERIFICATION/Scoreboard/axi_scoreboard.sv(23) @ 16415000: uvm_test_top.env.scoreboard [SCB_PASS] Match! Addr=10000120, Data=13ce4587
# UVM_INFO /home/khang/Documents/SystemVerilog/SoC-RV32I/SoC/VERIFICATION/Monitor/axi_monitor.sv(64) @ 16465000: uvm_test_top.env.agent.monitor [MON_RD] Deteced READ : Addr = 10000124, Data = 8717540b
# UVM_INFO /home/khang/Documents/SystemVerilog/SoC-RV32I/SoC/VERIFICATION/Scoreboard/axi_scoreboard.sv(23) @ 16465000: uvm_test_top.env.scoreboard [SCB_PASS] Match! Addr=10000124, Data=8717540b
# UVM_INFO /home/khang/Documents/SystemVerilog/SoC-RV32I/SoC/VERIFICATION/Monitor/axi_monitor.sv(64) @ 16515000: uvm_test_top.env.agent.monitor [MON_RD] Deteced READ : Addr = 10000128, Data = cd161cf2
