--- Dang dung ROOT: /home/khang/Documents/SystemVerilog/Soc_RV32I/SoC ---
rm -rf work
vlib work
--- [1/4] Bien dich Interfaces ---
vlog -sv +acc -L uvm -cover bcst /home/khang/Documents/SystemVerilog/Soc_RV32I/SoC/INF/*.sv
QuestaSim-64 vlog 2024.1 Compiler 2024.02 Feb  1 2024
Start time: 10:24:31 on Apr 18,2026
vlog -sv "+acc" -L uvm -cover bcst /home/khang/Documents/SystemVerilog/Soc_RV32I/SoC/INF/clk_rst_inf.sv /home/khang/Documents/SystemVerilog/Soc_RV32I/SoC/INF/soc_inf.sv 
-- Compiling interface clk_rst_inf
-- Compiling interface soc_inf

Top level modules:
	--none--
End time: 10:24:31 on Apr 18,2026, Elapsed time: 0:00:00
Errors: 0, Warnings: 0
--- [2/4] Bien dich DUT (SoC Logic) ---
vlog -sv +acc -L uvm -cover bcst +incdir+/home/khang/Documents/SystemVerilog/Soc_RV32I/SoC/DUT/CPU /home/khang/Documents/SystemVerilog/Soc_RV32I/SoC/DUT/Slaves/*.sv /home/khang/Documents/SystemVerilog/Soc_RV32I/SoC/DUT/CPU/*.sv /home/khang/Documents/SystemVerilog/Soc_RV32I/SoC/DUT/Master/*.sv /home/khang/Documents/SystemVerilog/Soc_RV32I/SoC/DUT/AXI_Master.sv /home/khang/Documents/SystemVerilog/Soc_RV32I/SoC/DUT/AXI4_Lite_Interconnect.sv /home/khang/Documents/SystemVerilog/Soc_RV32I/SoC/DUT/TOP.sv
QuestaSim-64 vlog 2024.1 Compiler 2024.02 Feb  1 2024
Start time: 10:24:31 on Apr 18,2026
vlog -sv "+acc" -L uvm -cover bcst "+incdir+/home/khang/Documents/SystemVerilog/Soc_RV32I/SoC/DUT/CPU" /home/khang/Documents/SystemVerilog/Soc_RV32I/SoC/DUT/Slaves/RAM.sv /home/khang/Documents/SystemVerilog/Soc_RV32I/SoC/DUT/Slaves/SPI.sv /home/khang/Documents/SystemVerilog/Soc_RV32I/SoC/DUT/Slaves/Timer.sv /home/khang/Documents/SystemVerilog/Soc_RV32I/SoC/DUT/Slaves/UART.sv /home/khang/Documents/SystemVerilog/Soc_RV32I/SoC/DUT/CPU/ALU.sv /home/khang/Documents/SystemVerilog/Soc_RV32I/SoC/DUT/CPU/ALUControl.sv /home/khang/Documents/SystemVerilog/Soc_RV32I/SoC/DUT/CPU/ControlUnit.sv /home/khang/Documents/SystemVerilog/Soc_RV32I/SoC/DUT/CPU/EX_MEM.sv /home/khang/Documents/SystemVerilog/Soc_RV32I/SoC/DUT/CPU/HazardUnit.sv /home/khang/Documents/SystemVerilog/Soc_RV32I/SoC/DUT/CPU/ID_EX.sv /home/khang/Documents/SystemVerilog/Soc_RV32I/SoC/DUT/CPU/IF_ID.sv /home/khang/Documents/SystemVerilog/Soc_RV32I/SoC/DUT/CPU/MEM_WB.sv /home/khang/Documents/SystemVerilog/Soc_RV32I/SoC/DUT/CPU/MainDecoder.sv /home/khang/Documents/SystemVerilog/Soc_RV32I/SoC/DUT/CPU/RegFile.sv /home/khang/Documents/SystemVerilog/Soc_RV32I/SoC/DUT/CPU/data_mem.sv /home/khang/Documents/SystemVerilog/Soc_RV32I/SoC/DUT/CPU/instr_mem.sv /home/khang/Documents/SystemVerilog/Soc_RV32I/SoC/DUT/CPU/pc.sv /home/khang/Documents/SystemVerilog/Soc_RV32I/SoC/DUT/CPU/signExtend.sv /home/khang/Documents/SystemVerilog/Soc_RV32I/SoC/DUT/Master/CPU.sv /home/khang/Documents/SystemVerilog/Soc_RV32I/SoC/DUT/Master/LSU.sv /home/khang/Documents/SystemVerilog/Soc_RV32I/SoC/DUT/AXI_Master.sv /home/khang/Documents/SystemVerilog/Soc_RV32I/SoC/DUT/AXI4_Lite_Interconnect.sv /home/khang/Documents/SystemVerilog/Soc_RV32I/SoC/DUT/TOP.sv 
-- Compiling module RAM
-- Compiling module SPI
-- Compiling module Timer
-- Compiling module UART
-- Compiling module ALU
-- Compiling module ALUControl
-- Compiling module ControlUnit
-- Compiling module EX_MEM
-- Compiling module HazardUnit
-- Compiling module ID_EX
-- Compiling module IF_ID
-- Compiling module MEM_WB
-- Compiling module MainDecoder
-- Compiling module RegFile
-- Compiling module data_mem
-- Compiling module instr_mem
-- Compiling module pc_reg
-- Compiling module signExtend
-- Compiling module CPU
-- Compiling module LSU
-- Compiling module AXI_Master
-- Compiling module AXI4_Lite_Interconnect
** Warning: /home/khang/Documents/SystemVerilog/Soc_RV32I/SoC/DUT/AXI4_Lite_Interconnect.sv(43): (vlog-13314) Defaulting port 's_axi_bresp' kind to 'var' rather than 'wire' due to default compile option setting of -svinputport=relaxed.
** Warning: /home/khang/Documents/SystemVerilog/Soc_RV32I/SoC/DUT/AXI4_Lite_Interconnect.sv(52): (vlog-13314) Defaulting port 's_axi_rdata' kind to 'var' rather than 'wire' due to default compile option setting of -svinputport=relaxed.
** Warning: /home/khang/Documents/SystemVerilog/Soc_RV32I/SoC/DUT/AXI4_Lite_Interconnect.sv(53): (vlog-13314) Defaulting port 's_axi_rresp' kind to 'var' rather than 'wire' due to default compile option setting of -svinputport=relaxed.
-- Compiling module TOP

Top level modules:
	TOP
End time: 10:24:31 on Apr 18,2026, Elapsed time: 0:00:00
Errors: 0, Warnings: 3
--- [3/4] Bien dich UVM Package ---
vlog -sv +acc -L uvm -cover bcst +incdir+/home/khang/Documents/SystemVerilog/Soc_RV32I/SoC/VERIFICATION/Transaction \
            +incdir+/home/khang/Documents/SystemVerilog/Soc_RV32I/SoC/VERIFICATION/Sequencer \
            +incdir+/home/khang/Documents/SystemVerilog/Soc_RV32I/SoC/VERIFICATION/Monitor \
            +incdir+/home/khang/Documents/SystemVerilog/Soc_RV32I/SoC/VERIFICATION/Driver \
            +incdir+/home/khang/Documents/SystemVerilog/Soc_RV32I/SoC/VERIFICATION/Agent \
	    	+incdir+/home/khang/Documents/SystemVerilog/Soc_RV32I/SoC/VERIFICATION/Coverage \
	    	+incdir+/home/khang/Documents/SystemVerilog/Soc_RV32I/SoC/VERIFICATION/Env \
	    	+incdir+/home/khang/Documents/SystemVerilog/Soc_RV32I/SoC/VERIFICATION/Scoreboard \
            +incdir+/home/khang/Documents/SystemVerilog/Soc_RV32I/SoC/VERIFICATION/Sequence \
            +incdir+/home/khang/Documents/SystemVerilog/Soc_RV32I/SoC/VERIFICATION/Test \
            /home/khang/Documents/SystemVerilog/Soc_RV32I/SoC/VERIFICATION/Package/soc_pkg.svh
QuestaSim-64 vlog 2024.1 Compiler 2024.02 Feb  1 2024
Start time: 10:24:31 on Apr 18,2026
vlog -sv "+acc" -L uvm -cover bcst "+incdir+/home/khang/Documents/SystemVerilog/Soc_RV32I/SoC/VERIFICATION/Transaction" "+incdir+/home/khang/Documents/SystemVerilog/Soc_RV32I/SoC/VERIFICATION/Sequencer" "+incdir+/home/khang/Documents/SystemVerilog/Soc_RV32I/SoC/VERIFICATION/Monitor" "+incdir+/home/khang/Documents/SystemVerilog/Soc_RV32I/SoC/VERIFICATION/Driver" "+incdir+/home/khang/Documents/SystemVerilog/Soc_RV32I/SoC/VERIFICATION/Agent" "+incdir+/home/khang/Documents/SystemVerilog/Soc_RV32I/SoC/VERIFICATION/Coverage" "+incdir+/home/khang/Documents/SystemVerilog/Soc_RV32I/SoC/VERIFICATION/Env" "+incdir+/home/khang/Documents/SystemVerilog/Soc_RV32I/SoC/VERIFICATION/Scoreboard" "+incdir+/home/khang/Documents/SystemVerilog/Soc_RV32I/SoC/VERIFICATION/Sequence" "+incdir+/home/khang/Documents/SystemVerilog/Soc_RV32I/SoC/VERIFICATION/Test" /home/khang/Documents/SystemVerilog/Soc_RV32I/SoC/VERIFICATION/Package/soc_pkg.svh 
-- Compiling package soc_pkg
-- Importing package mtiUvm.uvm_pkg (uvm-1.1d Built-in)
** Note: (vlog-2286) /home/khang/Documents/SystemVerilog/Soc_RV32I/SoC/VERIFICATION/Package/soc_pkg.svh(3): Using implicit +incdir+/tools/mq/2024.1/questasim/uvm-1.1d/../verilog_src/uvm-1.1d/src from import uvm_pkg

Top level modules:
	--none--
End time: 10:24:31 on Apr 18,2026, Elapsed time: 0:00:00
Errors: 0, Warnings: 0
--- [4/4] Bien dich Top Testbench ---
vlog -sv +acc -L uvm -cover bcst /home/khang/Documents/SystemVerilog/Soc_RV32I/SoC/VERIFICATION/top_tb.sv
QuestaSim-64 vlog 2024.1 Compiler 2024.02 Feb  1 2024
Start time: 10:24:31 on Apr 18,2026
vlog -sv "+acc" -L uvm -cover bcst /home/khang/Documents/SystemVerilog/Soc_RV32I/SoC/VERIFICATION/top_tb.sv 
-- Compiling module top_tb
-- Importing package mtiUvm.uvm_pkg (uvm-1.1d Built-in)
-- Importing package soc_pkg
** Note: (vlog-2286) /home/khang/Documents/SystemVerilog/Soc_RV32I/SoC/VERIFICATION/top_tb.sv(6): Using implicit +incdir+/tools/mq/2024.1/questasim/uvm-1.1d/../verilog_src/uvm-1.1d/src from import uvm_pkg

Top level modules:
	top_tb
End time: 10:24:31 on Apr 18,2026, Elapsed time: 0:00:00
Errors: 0, Warnings: 0
--- [Optimize] Chay vopt ---
vopt +acc +cover top_tb -o vopt_top
QuestaSim-64 vopt 2024.1 Compiler 2024.02 Feb  1 2024
** Warning: (vopt-10587) Some optimizations are turned off because the +acc switch is in effect. This will cause your simulation to run slowly. Please use -access/-debug to maintain needed visibility.
Start time: 10:24:31 on Apr 18,2026
vopt "+acc" "+cover" top_tb -o vopt_top 

Top level modules:
	top_tb

Analyzing design...
** Warning: (vopt-10016) Option '-L uvm' was detected by vlog for design-unit 'top_tb', but was not detected by vopt. The vlog option will be ignored.
-- Loading module top_tb
-- Importing package mtiUvm.uvm_pkg (uvm-1.1d Built-in)
** Warning: (vopt-10016) Option '-L uvm' was detected by vlog for design-unit 'soc_pkg', but was not detected by vopt. The vlog option will be ignored.
-- Importing package soc_pkg
-- Loading package mtiUvm.questa_uvm_pkg
** Warning: (vopt-10016) Option '-L uvm' was detected by vlog for design-unit 'clk_rst_inf', but was not detected by vopt. The vlog option will be ignored.
-- Loading interface clk_rst_inf
** Warning: (vopt-10016) Option '-L uvm' was detected by vlog for design-unit 'soc_inf', but was not detected by vopt. The vlog option will be ignored.
-- Loading interface soc_inf
** Warning: (vopt-10016) Option '-L uvm' was detected by vlog for design-unit 'TOP', but was not detected by vopt. The vlog option will be ignored.
-- Loading module TOP
** Warning: (vopt-10016) Option '-L uvm' was detected by vlog for design-unit 'AXI_Master', but was not detected by vopt. The vlog option will be ignored.
-- Loading module AXI_Master
** Warning: (vopt-10016) Option '-L uvm' was detected by vlog for design-unit 'CPU', but was not detected by vopt. The vlog option will be ignored.
-- Loading module CPU
** Warning: (vopt-10016) Option '-L uvm' was detected by vlog for design-unit 'pc_reg', but was not detected by vopt. The vlog option will be ignored.
-- Loading module pc_reg
** Warning: (vopt-10016) Option '-L uvm' was detected by vlog for design-unit 'instr_mem', but was not detected by vopt. The vlog option will be ignored.
-- Loading module instr_mem
** Warning: (vopt-10016) Option '-L uvm' was detected by vlog for design-unit 'IF_ID', but was not detected by vopt. The vlog option will be ignored.
-- Loading module IF_ID
** Warning: (vopt-10016) Option '-L uvm' was detected by vlog for design-unit 'ControlUnit', but was not detected by vopt. The vlog option will be ignored.
-- Loading module ControlUnit
** Warning: (vopt-10016) Option '-L uvm' was detected by vlog for design-unit 'MainDecoder', but was not detected by vopt. The vlog option will be ignored.
-- Loading module MainDecoder
** Warning: (vopt-10016) Option '-L uvm' was detected by vlog for design-unit 'ALUControl', but was not detected by vopt. The vlog option will be ignored.
-- Loading module ALUControl
** Warning: (vopt-10016) Option '-L uvm' was detected by vlog for design-unit 'RegFile', but was not detected by vopt. The vlog option will be ignored.
-- Loading module RegFile
** Warning: (vopt-10016) Option '-L uvm' was detected by vlog for design-unit 'signExtend', but was not detected by vopt. The vlog option will be ignored.
-- Loading module signExtend
** Warning: (vopt-10016) Option '-L uvm' was detected by vlog for design-unit 'ID_EX', but was not detected by vopt. The vlog option will be ignored.
-- Loading module ID_EX
** Warning: (vopt-10016) Option '-L uvm' was detected by vlog for design-unit 'ALU', but was not detected by vopt. The vlog option will be ignored.
-- Loading module ALU
** Warning: (vopt-10016) Option '-L uvm' was detected by vlog for design-unit 'EX_MEM', but was not detected by vopt. The vlog option will be ignored.
-- Loading module EX_MEM
** Warning: (vopt-10016) Option '-L uvm' was detected by vlog for design-unit 'data_mem', but was not detected by vopt. The vlog option will be ignored.
-- Loading module data_mem
** Warning: (vopt-10016) Option '-L uvm' was detected by vlog for design-unit 'MEM_WB', but was not detected by vopt. The vlog option will be ignored.
-- Loading module MEM_WB
** Warning: (vopt-10016) Option '-L uvm' was detected by vlog for design-unit 'HazardUnit', but was not detected by vopt. The vlog option will be ignored.
-- Loading module HazardUnit
** Warning: (vopt-10016) Option '-L uvm' was detected by vlog for design-unit 'LSU', but was not detected by vopt. The vlog option will be ignored.
-- Loading module LSU
** Warning: (vopt-10016) Option '-L uvm' was detected by vlog for design-unit 'AXI4_Lite_Interconnect', but was not detected by vopt. The vlog option will be ignored.
-- Loading module AXI4_Lite_Interconnect
** Warning: (vopt-10016) Option '-L uvm' was detected by vlog for design-unit 'RAM', but was not detected by vopt. The vlog option will be ignored.
-- Loading module RAM
** Warning: (vopt-10016) Option '-L uvm' was detected by vlog for design-unit 'Timer', but was not detected by vopt. The vlog option will be ignored.
-- Loading module Timer
** Warning: (vopt-10016) Option '-L uvm' was detected by vlog for design-unit 'UART', but was not detected by vopt. The vlog option will be ignored.
-- Loading module UART
** Warning: (vopt-10016) Option '-L uvm' was detected by vlog for design-unit 'SPI', but was not detected by vopt. The vlog option will be ignored.
-- Loading module SPI
** Warning: (vopt-13408) Code coverage will be disabled for some DUs/packages/classes and source files.
Optimizing 32 design-units (inlining 0/27 module instances):
-- Optimizing package mtiUvm.questa_uvm_pkg(fast)
-- Optimizing package soc_pkg(fast)
-- Optimizing interface soc_inf(fast__2)
-- Optimizing module AXI4_Lite_Interconnect(fast)
** Warning: /home/khang/Documents/SystemVerilog/Soc_RV32I/SoC/DUT/AXI4_Lite_Interconnect.sv(43): (vopt-13314) Defaulting port 's_axi_bresp' kind to 'var' rather than 'wire' due to default compile option setting of -svinputport=relaxed.
** Warning: /home/khang/Documents/SystemVerilog/Soc_RV32I/SoC/DUT/AXI4_Lite_Interconnect.sv(52): (vopt-13314) Defaulting port 's_axi_rdata' kind to 'var' rather than 'wire' due to default compile option setting of -svinputport=relaxed.
** Warning: /home/khang/Documents/SystemVerilog/Soc_RV32I/SoC/DUT/AXI4_Lite_Interconnect.sv(53): (vopt-13314) Defaulting port 's_axi_rresp' kind to 'var' rather than 'wire' due to default compile option setting of -svinputport=relaxed.
-- Optimizing module LSU(fast)
** Note: (vopt-143) Recognized 1 FSM in module "LSU(fast)".
-- Optimizing module UART(fast)
** Note: (vopt-143) Recognized 2 FSMs in module "UART(fast)".
-- Optimizing module CPU(fast)
-- Optimizing module SPI(fast)
** Note: (vopt-143) Recognized 1 FSM in module "SPI(fast)".
-- Optimizing module top_tb(fast)
-- Optimizing module Timer(fast)
-- Optimizing module TOP(fast)
-- Optimizing module RAM(fast)
-- Optimizing module RAM(fast__1)
-- Optimizing module ID_EX(fast)
-- Optimizing module HazardUnit(fast)
-- Optimizing module MainDecoder(fast)
-- Optimizing module EX_MEM(fast)
-- Optimizing module AXI_Master(fast)
-- Optimizing module ALU(fast)
-- Optimizing module MEM_WB(fast)
-- Optimizing module RegFile(fast)
-- Optimizing module signExtend(fast)
-- Optimizing module IF_ID(fast)
-- Optimizing module ALUControl(fast)
-- Optimizing module data_mem(fast)
-- Optimizing module ControlUnit(fast)
-- Optimizing interface clk_rst_inf(fast__2)
-- Optimizing module pc_reg(fast)
-- Optimizing module instr_mem(fast)
-- Optimizing interface soc_inf(fast)
-- Optimizing interface clk_rst_inf(fast)
-- Optimizing package mtiUvm.uvm_pkg (uvm-1.1d Built-in)(fast)
Optimized design name is vopt_top
End time: 10:24:32 on Apr 18,2026, Elapsed time: 0:00:01
Errors: 0, Warnings: 32
--- [SINGLE TEST MODE] Dang chay test: axi_random_wr_rd_test ---
Reading pref.tcl

# 2024.1

# vsim -c -L uvm -coverage -sv_seed random vopt_top "+UVM_TESTNAME=axi_random_wr_rd_test" -do "coverage save -onexit coverage_result.ucdb; run -all; quit" 
# Start time: 10:24:34 on Apr 18,2026
# //  Questa Sim-64
# //  Version 2024.1 linux_x86_64 Feb  1 2024
# //
# // Unpublished work. Copyright 2024 Siemens
# //
# // This material contains trade secrets or otherwise confidential information
# // owned by Siemens Industry Software Inc. or its affiliates (collectively,
# // "SISW"), or its licensors. Access to and use of this information is strictly
# // limited as set forth in the Customer's applicable agreements with SISW.
# //
# // This material may not be copied, distributed, or otherwise disclosed outside
# // of the Customer's facilities without the express written permission of SISW,
# // and may not be used in any way not expressly authorized by SISW.
# //
# Loading sv_std.std
# Loading work.clk_rst_inf(fast)
# Loading work.soc_inf(fast)
# Loading mtiUvm.uvm_pkg(fast)
# Loading work.soc_pkg(fast)
# Loading mtiUvm.questa_uvm_pkg(fast)
# Loading work.top_tb(fast)
# Loading work.clk_rst_inf(fast__2)
# Loading work.soc_inf(fast__2)
# Loading work.TOP(fast)
# Loading work.AXI_Master(fast)
# Loading work.CPU(fast)
# Loading work.pc_reg(fast)
# Loading work.instr_mem(fast)
# Loading work.IF_ID(fast)
# Loading work.ControlUnit(fast)
# Loading work.MainDecoder(fast)
# Loading work.ALUControl(fast)
# Loading work.RegFile(fast)
# Loading work.signExtend(fast)
# Loading work.ID_EX(fast)
# Loading work.ALU(fast)
# Loading work.EX_MEM(fast)
# Loading work.data_mem(fast)
# Loading work.MEM_WB(fast)
# Loading work.HazardUnit(fast)
# Loading work.LSU(fast)
# Loading work.AXI4_Lite_Interconnect(fast)
# Loading work.RAM(fast)
# Loading work.RAM(fast__1)
# Loading work.Timer(fast)
# Loading work.UART(fast)
# Loading work.SPI(fast)
# Loading /tools/mq/2024.1/questasim/uvm-1.1d/linux_x86_64/uvm_dpi.so
# Sv_Seed = 85769943
# coverage save -onexit coverage_result.ucdb
#  run -all
# ----------------------------------------------------------------
# UVM-1.1d
# (C) 2007-2013 Mentor Graphics Corporation
# (C) 2007-2013 Cadence Design Systems, Inc.
# (C) 2006-2013 Synopsys, Inc.
# (C) 2011-2013 Cypress Semiconductor Corp.
# ----------------------------------------------------------------
# 
#   ***********       IMPORTANT RELEASE NOTES         ************
# 
#   You are using a version of the UVM library that has been compiled
#   with `UVM_NO_DEPRECATED undefined.
#   See http://www.eda.org/svdb/view.php?id=3313 for more details.
# 
#   You are using a version of the UVM library that has been compiled
#   with `UVM_OBJECT_MUST_HAVE_CONSTRUCTOR undefined.
#   See http://www.eda.org/svdb/view.php?id=3770 for more details.
# 
#       (Specify +UVM_NO_RELNOTES to turn off this notice)
# 
# UVM_INFO verilog_src/questa_uvm_pkg-1.2/src/questa_uvm_pkg.sv(277) @ 0: reporter [Questa UVM] QUESTA_UVM-1.2.3
# UVM_INFO verilog_src/questa_uvm_pkg-1.2/src/questa_uvm_pkg.sv(278) @ 0: reporter [Questa UVM]  questa_uvm::init(+struct)
# --- SUCCESS: Da nap chuong trinh vao Instruction Memory ---
# UVM_INFO @ 0: reporter [RNTST] Running test axi_random_wr_rd_test...
# Da nap instr.mem vao top tb
# UVM_INFO /home/khang/Documents/SystemVerilog/Soc_RV32I/SoC/VERIFICATION/Sequence/axi_random_wr_rd.sv(22) @ 0: uvm_test_top.env.agent.sequencer@@seq [SEQ] --- STARTING SMART RANDOM TEST (ID 11, 12) ---
# UVM_INFO /home/khang/Documents/SystemVerilog/Soc_RV32I/SoC/VERIFICATION/Monitor/axi_monitor.sv(47) @ 65000: uvm_test_top.env.agent.monitor [MON_WR] Detected WRITE : Addr = 10000000, Data = 7722e611
# UVM_INFO /home/khang/Documents/SystemVerilog/Soc_RV32I/SoC/VERIFICATION/Monitor/axi_monitor.sv(47) @ 115000: uvm_test_top.env.agent.monitor [MON_WR] Detected WRITE : Addr = 10000004, Data = 3ecccfb3
# UVM_INFO /home/khang/Documents/SystemVerilog/Soc_RV32I/SoC/VERIFICATION/Monitor/axi_monitor.sv(47) @ 165000: uvm_test_top.env.agent.monitor [MON_WR] Detected WRITE : Addr = 10000008, Data = 40a781cb
# UVM_INFO /home/khang/Documents/SystemVerilog/Soc_RV32I/SoC/VERIFICATION/Monitor/axi_monitor.sv(47) @ 215000: uvm_test_top.env.agent.monitor [MON_WR] Detected WRITE : Addr = 1000000c, Data = 01c93b61
# UVM_INFO /home/khang/Documents/SystemVerilog/Soc_RV32I/SoC/VERIFICATION/Monitor/axi_monitor.sv(47) @ 265000: uvm_test_top.env.agent.monitor [MON_WR] Detected WRITE : Addr = 10000010, Data = cf4e0c20
# UVM_INFO /home/khang/Documents/SystemVerilog/Soc_RV32I/SoC/VERIFICATION/Monitor/axi_monitor.sv(47) @ 315000: uvm_test_top.env.agent.monitor [MON_WR] Detected WRITE : Addr = 10000014, Data = 3179b3eb
# UVM_INFO /home/khang/Documents/SystemVerilog/Soc_RV32I/SoC/VERIFICATION/Monitor/axi_monitor.sv(47) @ 365000: uvm_test_top.env.agent.monitor [MON_WR] Detected WRITE : Addr = 10000018, Data = df1d58a6
# UVM_INFO /home/khang/Documents/SystemVerilog/Soc_RV32I/SoC/VERIFICATION/Monitor/axi_monitor.sv(47) @ 415000: uvm_test_top.env.agent.monitor [MON_WR] Detected WRITE : Addr = 1000001c, Data = b3ef4b0f
# UVM_INFO /home/khang/Documents/SystemVerilog/Soc_RV32I/SoC/VERIFICATION/Monitor/axi_monitor.sv(47) @ 465000: uvm_test_top.env.agent.monitor [MON_WR] Detected WRITE : Addr = 10000020, Data = 734c1446
# UVM_INFO /home/khang/Documents/SystemVerilog/Soc_RV32I/SoC/VERIFICATION/Monitor/axi_monitor.sv(47) @ 515000: uvm_test_top.env.agent.monitor [MON_WR] Detected WRITE : Addr = 10000024, Data = b74ef07b
# UVM_INFO /home/khang/Documents/SystemVerilog/Soc_RV32I/SoC/VERIFICATION/Monitor/axi_monitor.sv(47) @ 565000: uvm_test_top.env.agent.monitor [MON_WR] Detected WRITE : Addr = 10000028, Data = 4bde6f37
# UVM_INFO /home/khang/Documents/SystemVerilog/Soc_RV32I/SoC/VERIFICATION/Monitor/axi_monitor.sv(47) @ 615000: uvm_test_top.env.agent.monitor [MON_WR] Detected WRITE : Addr = 1000002c, Data = 7d361f93
# UVM_INFO /home/khang/Documents/SystemVerilog/Soc_RV32I/SoC/VERIFICATION/Monitor/axi_monitor.sv(47) @ 665000: uvm_test_top.env.agent.monitor [MON_WR] Detected WRITE : Addr = 10000030, Data = 99706742
# UVM_INFO /home/khang/Documents/SystemVerilog/Soc_RV32I/SoC/VERIFICATION/Monitor/axi_monitor.sv(47) @ 715000: uvm_test_top.env.agent.monitor [MON_WR] Detected WRITE : Addr = 10000034, Data = b5f9bd8c
# UVM_INFO /home/khang/Documents/SystemVerilog/Soc_RV32I/SoC/VERIFICATION/Monitor/axi_monitor.sv(47) @ 765000: uvm_test_top.env.agent.monitor [MON_WR] Detected WRITE : Addr = 10000038, Data = e4f8024e
# UVM_INFO /home/khang/Documents/SystemVerilog/Soc_RV32I/SoC/VERIFICATION/Monitor/axi_monitor.sv(47) @ 815000: uvm_test_top.env.agent.monitor [MON_WR] Detected WRITE : Addr = 1000003c, Data = 489496f3
# UVM_INFO /home/khang/Documents/SystemVerilog/Soc_RV32I/SoC/VERIFICATION/Monitor/axi_monitor.sv(47) @ 865000: uvm_test_top.env.agent.monitor [MON_WR] Detected WRITE : Addr = 10000040, Data = b48189a1
# UVM_INFO /home/khang/Documents/SystemVerilog/Soc_RV32I/SoC/VERIFICATION/Monitor/axi_monitor.sv(47) @ 915000: uvm_test_top.env.agent.monitor [MON_WR] Detected WRITE : Addr = 10000044, Data = 36925f69
# UVM_INFO /home/khang/Documents/SystemVerilog/Soc_RV32I/SoC/VERIFICATION/Monitor/axi_monitor.sv(47) @ 965000: uvm_test_top.env.agent.monitor [MON_WR] Detected WRITE : Addr = 10000048, Data = 98f907ee
# UVM_INFO /home/khang/Documents/SystemVerilog/Soc_RV32I/SoC/VERIFICATION/Monitor/axi_monitor.sv(47) @ 1015000: uvm_test_top.env.agent.monitor [MON_WR] Detected WRITE : Addr = 1000004c, Data = fe071c08
# UVM_INFO /home/khang/Documents/SystemVerilog/Soc_RV32I/SoC/VERIFICATION/Monitor/axi_monitor.sv(47) @ 1065000: uvm_test_top.env.agent.monitor [MON_WR] Detected WRITE : Addr = 10000050, Data = df6da86b
# UVM_INFO /home/khang/Documents/SystemVerilog/Soc_RV32I/SoC/VERIFICATION/Monitor/axi_monitor.sv(47) @ 1115000: uvm_test_top.env.agent.monitor [MON_WR] Detected WRITE : Addr = 10000054, Data = 9575bbdb
# UVM_INFO /home/khang/Documents/SystemVerilog/Soc_RV32I/SoC/VERIFICATION/Monitor/axi_monitor.sv(47) @ 1165000: uvm_test_top.env.agent.monitor [MON_WR] Detected WRITE : Addr = 10000058, Data = 59b69b0a
# UVM_INFO /home/khang/Documents/SystemVerilog/Soc_RV32I/SoC/VERIFICATION/Monitor/axi_monitor.sv(47) @ 1215000: uvm_test_top.env.agent.monitor [MON_WR] Detected WRITE : Addr = 1000005c, Data = b890a1d6
# UVM_INFO /home/khang/Documents/SystemVerilog/Soc_RV32I/SoC/VERIFICATION/Monitor/axi_monitor.sv(47) @ 1265000: uvm_test_top.env.agent.monitor [MON_WR] Detected WRITE : Addr = 10000060, Data = 2004fb28
# UVM_INFO /home/khang/Documents/SystemVerilog/Soc_RV32I/SoC/VERIFICATION/Monitor/axi_monitor.sv(47) @ 1315000: uvm_test_top.env.agent.monitor [MON_WR] Detected WRITE : Addr = 10000064, Data = 01f23d93
# UVM_INFO /home/khang/Documents/SystemVerilog/Soc_RV32I/SoC/VERIFICATION/Monitor/axi_monitor.sv(47) @ 1365000: uvm_test_top.env.agent.monitor [MON_WR] Detected WRITE : Addr = 10000068, Data = 65d73d6e
# UVM_INFO /home/khang/Documents/SystemVerilog/Soc_RV32I/SoC/VERIFICATION/Monitor/axi_monitor.sv(47) @ 1415000: uvm_test_top.env.agent.monitor [MON_WR] Detected WRITE : Addr = 1000006c, Data = ed0c3a64
# UVM_INFO /home/khang/Documents/SystemVerilog/Soc_RV32I/SoC/VERIFICATION/Monitor/axi_monitor.sv(47) @ 1465000: uvm_test_top.env.agent.monitor [MON_WR] Detected WRITE : Addr = 10000070, Data = 17c4da60
# UVM_INFO /home/khang/Documents/SystemVerilog/Soc_RV32I/SoC/VERIFICATION/Monitor/axi_monitor.sv(47) @ 1515000: uvm_test_top.env.agent.monitor [MON_WR] Detected WRITE : Addr = 10000074, Data = 94e7ffbe
# UVM_INFO /home/khang/Documents/SystemVerilog/Soc_RV32I/SoC/VERIFICATION/Monitor/axi_monitor.sv(47) @ 1565000: uvm_test_top.env.agent.monitor [MON_WR] Detected WRITE : Addr = 10000078, Data = 8ff2b591
# UVM_INFO /home/khang/Documents/SystemVerilog/Soc_RV32I/SoC/VERIFICATION/Monitor/axi_monitor.sv(47) @ 1615000: uvm_test_top.env.agent.monitor [MON_WR] Detected WRITE : Addr = 1000007c, Data = 3883b958
# UVM_INFO /home/khang/Documents/SystemVerilog/Soc_RV32I/SoC/VERIFICATION/Monitor/axi_monitor.sv(47) @ 1665000: uvm_test_top.env.agent.monitor [MON_WR] Detected WRITE : Addr = 10000080, Data = 70362124
# UVM_INFO /home/khang/Documents/SystemVerilog/Soc_RV32I/SoC/VERIFICATION/Monitor/axi_monitor.sv(47) @ 1715000: uvm_test_top.env.agent.monitor [MON_WR] Detected WRITE : Addr = 10000084, Data = a79d6707
# UVM_INFO /home/khang/Documents/SystemVerilog/Soc_RV32I/SoC/VERIFICATION/Monitor/axi_monitor.sv(47) @ 1765000: uvm_test_top.env.agent.monitor [MON_WR] Detected WRITE : Addr = 10000088, Data = 9c71f27b
# UVM_INFO /home/khang/Documents/SystemVerilog/Soc_RV32I/SoC/VERIFICATION/Monitor/axi_monitor.sv(47) @ 1815000: uvm_test_top.env.agent.monitor [MON_WR] Detected WRITE : Addr = 1000008c, Data = b3c8c1b8
# UVM_INFO /home/khang/Documents/SystemVerilog/Soc_RV32I/SoC/VERIFICATION/Monitor/axi_monitor.sv(47) @ 1865000: uvm_test_top.env.agent.monitor [MON_WR] Detected WRITE : Addr = 10000090, Data = 1bfda41b
# UVM_INFO /home/khang/Documents/SystemVerilog/Soc_RV32I/SoC/VERIFICATION/Monitor/axi_monitor.sv(47) @ 1915000: uvm_test_top.env.agent.monitor [MON_WR] Detected WRITE : Addr = 10000094, Data = 504153bd
# UVM_INFO /home/khang/Documents/SystemVerilog/Soc_RV32I/SoC/VERIFICATION/Monitor/axi_monitor.sv(47) @ 1965000: uvm_test_top.env.agent.monitor [MON_WR] Detected WRITE : Addr = 10000098, Data = e1ebfc39
# UVM_INFO /home/khang/Documents/SystemVerilog/Soc_RV32I/SoC/VERIFICATION/Monitor/axi_monitor.sv(47) @ 2015000: uvm_test_top.env.agent.monitor [MON_WR] Detected WRITE : Addr = 1000009c, Data = f328c8c8
# UVM_INFO /home/khang/Documents/SystemVerilog/Soc_RV32I/SoC/VERIFICATION/Monitor/axi_monitor.sv(47) @ 2065000: uvm_test_top.env.agent.monitor [MON_WR] Detected WRITE : Addr = 100000a0, Data = 050d8a36
# UVM_INFO /home/khang/Documents/SystemVerilog/Soc_RV32I/SoC/VERIFICATION/Monitor/axi_monitor.sv(47) @ 2115000: uvm_test_top.env.agent.monitor [MON_WR] Detected WRITE : Addr = 100000a4, Data = 0505c1d5
# UVM_INFO /home/khang/Documents/SystemVerilog/Soc_RV32I/SoC/VERIFICATION/Monitor/axi_monitor.sv(47) @ 2165000: uvm_test_top.env.agent.monitor [MON_WR] Detected WRITE : Addr = 100000a8, Data = 733a56be
# UVM_INFO /home/khang/Documents/SystemVerilog/Soc_RV32I/SoC/VERIFICATION/Monitor/axi_monitor.sv(47) @ 2215000: uvm_test_top.env.agent.monitor [MON_WR] Detected WRITE : Addr = 100000ac, Data = 3f6230c0
# UVM_INFO /home/khang/Documents/SystemVerilog/Soc_RV32I/SoC/VERIFICATION/Monitor/axi_monitor.sv(47) @ 2265000: uvm_test_top.env.agent.monitor [MON_WR] Detected WRITE : Addr = 100000b0, Data = 6b398cfb
# UVM_INFO /home/khang/Documents/SystemVerilog/Soc_RV32I/SoC/VERIFICATION/Monitor/axi_monitor.sv(47) @ 2315000: uvm_test_top.env.agent.monitor [MON_WR] Detected WRITE : Addr = 100000b4, Data = 238616ce
# UVM_INFO /home/khang/Documents/SystemVerilog/Soc_RV32I/SoC/VERIFICATION/Monitor/axi_monitor.sv(47) @ 2365000: uvm_test_top.env.agent.monitor [MON_WR] Detected WRITE : Addr = 100000b8, Data = a336c7b7
# UVM_INFO /home/khang/Documents/SystemVerilog/Soc_RV32I/SoC/VERIFICATION/Monitor/axi_monitor.sv(47) @ 2415000: uvm_test_top.env.agent.monitor [MON_WR] Detected WRITE : Addr = 100000bc, Data = d39e11f4
# UVM_INFO /home/khang/Documents/SystemVerilog/Soc_RV32I/SoC/VERIFICATION/Monitor/axi_monitor.sv(47) @ 2465000: uvm_test_top.env.agent.monitor [MON_WR] Detected WRITE : Addr = 100000c0, Data = 24034173
# UVM_INFO /home/khang/Documents/SystemVerilog/Soc_RV32I/SoC/VERIFICATION/Monitor/axi_monitor.sv(47) @ 2515000: uvm_test_top.env.agent.monitor [MON_WR] Detected WRITE : Addr = 100000c4, Data = 4ef66800
# UVM_INFO /home/khang/Documents/SystemVerilog/Soc_RV32I/SoC/VERIFICATION/Monitor/axi_monitor.sv(47) @ 2565000: uvm_test_top.env.agent.monitor [MON_WR] Detected WRITE : Addr = 100000c8, Data = 1fd5d726
# UVM_INFO /home/khang/Documents/SystemVerilog/Soc_RV32I/SoC/VERIFICATION/Monitor/axi_monitor.sv(47) @ 2615000: uvm_test_top.env.agent.monitor [MON_WR] Detected WRITE : Addr = 100000cc, Data = 7543dfb8
# UVM_INFO /home/khang/Documents/SystemVerilog/Soc_RV32I/SoC/VERIFICATION/Monitor/axi_monitor.sv(47) @ 2665000: uvm_test_top.env.agent.monitor [MON_WR] Detected WRITE : Addr = 100000d0, Data = aa7564af
# UVM_INFO /home/khang/Documents/SystemVerilog/Soc_RV32I/SoC/VERIFICATION/Monitor/axi_monitor.sv(47) @ 2715000: uvm_test_top.env.agent.monitor [MON_WR] Detected WRITE : Addr = 100000d4, Data = 079b5f2d
# UVM_INFO /home/khang/Documents/SystemVerilog/Soc_RV32I/SoC/VERIFICATION/Monitor/axi_monitor.sv(47) @ 2765000: uvm_test_top.env.agent.monitor [MON_WR] Detected WRITE : Addr = 100000d8, Data = 91900c62
# UVM_INFO /home/khang/Documents/SystemVerilog/Soc_RV32I/SoC/VERIFICATION/Monitor/axi_monitor.sv(47) @ 2815000: uvm_test_top.env.agent.monitor [MON_WR] Detected WRITE : Addr = 100000dc, Data = 9bb8c5de
# UVM_INFO /home/khang/Documents/SystemVerilog/Soc_RV32I/SoC/VERIFICATION/Monitor/axi_monitor.sv(47) @ 2865000: uvm_test_top.env.agent.monitor [MON_WR] Detected WRITE : Addr = 100000e0, Data = 9349898c
# UVM_INFO /home/khang/Documents/SystemVerilog/Soc_RV32I/SoC/VERIFICATION/Monitor/axi_monitor.sv(47) @ 2915000: uvm_test_top.env.agent.monitor [MON_WR] Detected WRITE : Addr = 100000e4, Data = 43eb287e
# UVM_INFO /home/khang/Documents/SystemVerilog/Soc_RV32I/SoC/VERIFICATION/Monitor/axi_monitor.sv(47) @ 2965000: uvm_test_top.env.agent.monitor [MON_WR] Detected WRITE : Addr = 100000e8, Data = 68b91989
# UVM_INFO /home/khang/Documents/SystemVerilog/Soc_RV32I/SoC/VERIFICATION/Monitor/axi_monitor.sv(47) @ 3015000: uvm_test_top.env.agent.monitor [MON_WR] Detected WRITE : Addr = 100000ec, Data = 4ab5fb13
# UVM_INFO /home/khang/Documents/SystemVerilog/Soc_RV32I/SoC/VERIFICATION/Monitor/axi_monitor.sv(47) @ 3065000: uvm_test_top.env.agent.monitor [MON_WR] Detected WRITE : Addr = 100000f0, Data = fdbc1a7d
# UVM_INFO /home/khang/Documents/SystemVerilog/Soc_RV32I/SoC/VERIFICATION/Monitor/axi_monitor.sv(47) @ 3115000: uvm_test_top.env.agent.monitor [MON_WR] Detected WRITE : Addr = 100000f4, Data = c851e276
# UVM_INFO /home/khang/Documents/SystemVerilog/Soc_RV32I/SoC/VERIFICATION/Monitor/axi_monitor.sv(47) @ 3165000: uvm_test_top.env.agent.monitor [MON_WR] Detected WRITE : Addr = 100000f8, Data = 4d175469
# UVM_INFO /home/khang/Documents/SystemVerilog/Soc_RV32I/SoC/VERIFICATION/Monitor/axi_monitor.sv(47) @ 3215000: uvm_test_top.env.agent.monitor [MON_WR] Detected WRITE : Addr = 100000fc, Data = 89485667
# UVM_INFO /home/khang/Documents/SystemVerilog/Soc_RV32I/SoC/VERIFICATION/Monitor/axi_monitor.sv(47) @ 3265000: uvm_test_top.env.agent.monitor [MON_WR] Detected WRITE : Addr = 10000100, Data = ec179452
# UVM_INFO /home/khang/Documents/SystemVerilog/Soc_RV32I/SoC/VERIFICATION/Monitor/axi_monitor.sv(47) @ 3315000: uvm_test_top.env.agent.monitor [MON_WR] Detected WRITE : Addr = 10000104, Data = 02bcb330
# UVM_INFO /home/khang/Documents/SystemVerilog/Soc_RV32I/SoC/VERIFICATION/Monitor/axi_monitor.sv(47) @ 3365000: uvm_test_top.env.agent.monitor [MON_WR] Detected WRITE : Addr = 10000108, Data = 3daccf59
# UVM_INFO /home/khang/Documents/SystemVerilog/Soc_RV32I/SoC/VERIFICATION/Monitor/axi_monitor.sv(47) @ 3415000: uvm_test_top.env.agent.monitor [MON_WR] Detected WRITE : Addr = 1000010c, Data = 82a935e4
# UVM_INFO /home/khang/Documents/SystemVerilog/Soc_RV32I/SoC/VERIFICATION/Monitor/axi_monitor.sv(47) @ 3465000: uvm_test_top.env.agent.monitor [MON_WR] Detected WRITE : Addr = 10000110, Data = 5b73b84b
# UVM_INFO /home/khang/Documents/SystemVerilog/Soc_RV32I/SoC/VERIFICATION/Monitor/axi_monitor.sv(47) @ 3515000: uvm_test_top.env.agent.monitor [MON_WR] Detected WRITE : Addr = 10000114, Data = e7aa2513
# UVM_INFO /home/khang/Documents/SystemVerilog/Soc_RV32I/SoC/VERIFICATION/Monitor/axi_monitor.sv(47) @ 3565000: uvm_test_top.env.agent.monitor [MON_WR] Detected WRITE : Addr = 10000118, Data = 03b53176
# UVM_INFO /home/khang/Documents/SystemVerilog/Soc_RV32I/SoC/VERIFICATION/Monitor/axi_monitor.sv(47) @ 3615000: uvm_test_top.env.agent.monitor [MON_WR] Detected WRITE : Addr = 1000011c, Data = e2401c97
# UVM_INFO /home/khang/Documents/SystemVerilog/Soc_RV32I/SoC/VERIFICATION/Monitor/axi_monitor.sv(47) @ 3665000: uvm_test_top.env.agent.monitor [MON_WR] Detected WRITE : Addr = 10000120, Data = cc3083ff
# UVM_INFO /home/khang/Documents/SystemVerilog/Soc_RV32I/SoC/VERIFICATION/Monitor/axi_monitor.sv(47) @ 3715000: uvm_test_top.env.agent.monitor [MON_WR] Detected WRITE : Addr = 10000124, Data = 87e518ce
# UVM_INFO /home/khang/Documents/SystemVerilog/Soc_RV32I/SoC/VERIFICATION/Monitor/axi_monitor.sv(47) @ 3765000: uvm_test_top.env.agent.monitor [MON_WR] Detected WRITE : Addr = 10000128, Data = 9e9eea7e
# UVM_INFO /home/khang/Documents/SystemVerilog/Soc_RV32I/SoC/VERIFICATION/Monitor/axi_monitor.sv(47) @ 3815000: uvm_test_top.env.agent.monitor [MON_WR] Detected WRITE : Addr = 1000012c, Data = d24930bb
# UVM_INFO /home/khang/Documents/SystemVerilog/Soc_RV32I/SoC/VERIFICATION/Monitor/axi_monitor.sv(47) @ 3865000: uvm_test_top.env.agent.monitor [MON_WR] Detected WRITE : Addr = 10000130, Data = dff97a62
# UVM_INFO /home/khang/Documents/SystemVerilog/Soc_RV32I/SoC/VERIFICATION/Monitor/axi_monitor.sv(47) @ 3915000: uvm_test_top.env.agent.monitor [MON_WR] Detected WRITE : Addr = 10000134, Data = 3dc08f7f
# UVM_INFO /home/khang/Documents/SystemVerilog/Soc_RV32I/SoC/VERIFICATION/Monitor/axi_monitor.sv(47) @ 3965000: uvm_test_top.env.agent.monitor [MON_WR] Detected WRITE : Addr = 10000138, Data = 351cf5c9
# UVM_INFO /home/khang/Documents/SystemVerilog/Soc_RV32I/SoC/VERIFICATION/Monitor/axi_monitor.sv(47) @ 4015000: uvm_test_top.env.agent.monitor [MON_WR] Detected WRITE : Addr = 1000013c, Data = 58f6043a
# UVM_INFO /home/khang/Documents/SystemVerilog/Soc_RV32I/SoC/VERIFICATION/Monitor/axi_monitor.sv(47) @ 4065000: uvm_test_top.env.agent.monitor [MON_WR] Detected WRITE : Addr = 10000140, Data = 56ce653d
# UVM_INFO /home/khang/Documents/SystemVerilog/Soc_RV32I/SoC/VERIFICATION/Monitor/axi_monitor.sv(47) @ 4115000: uvm_test_top.env.agent.monitor [MON_WR] Detected WRITE : Addr = 10000144, Data = 45e16828
# UVM_INFO /home/khang/Documents/SystemVerilog/Soc_RV32I/SoC/VERIFICATION/Monitor/axi_monitor.sv(47) @ 4165000: uvm_test_top.env.agent.monitor [MON_WR] Detected WRITE : Addr = 10000148, Data = 697e768a
# UVM_INFO /home/khang/Documents/SystemVerilog/Soc_RV32I/SoC/VERIFICATION/Monitor/axi_monitor.sv(47) @ 4215000: uvm_test_top.env.agent.monitor [MON_WR] Detected WRITE : Addr = 1000014c, Data = 77762ffd
# UVM_INFO /home/khang/Documents/SystemVerilog/Soc_RV32I/SoC/VERIFICATION/Monitor/axi_monitor.sv(47) @ 4265000: uvm_test_top.env.agent.monitor [MON_WR] Detected WRITE : Addr = 10000150, Data = 5536a3fd
# UVM_INFO /home/khang/Documents/SystemVerilog/Soc_RV32I/SoC/VERIFICATION/Monitor/axi_monitor.sv(47) @ 4315000: uvm_test_top.env.agent.monitor [MON_WR] Detected WRITE : Addr = 10000154, Data = 8c578bf1
# UVM_INFO /home/khang/Documents/SystemVerilog/Soc_RV32I/SoC/VERIFICATION/Monitor/axi_monitor.sv(47) @ 4365000: uvm_test_top.env.agent.monitor [MON_WR] Detected WRITE : Addr = 10000158, Data = 0c59166c
# UVM_INFO /home/khang/Documents/SystemVerilog/Soc_RV32I/SoC/VERIFICATION/Monitor/axi_monitor.sv(47) @ 4415000: uvm_test_top.env.agent.monitor [MON_WR] Detected WRITE : Addr = 1000015c, Data = 30efe27d
# UVM_INFO /home/khang/Documents/SystemVerilog/Soc_RV32I/SoC/VERIFICATION/Monitor/axi_monitor.sv(47) @ 4465000: uvm_test_top.env.agent.monitor [MON_WR] Detected WRITE : Addr = 10000160, Data = b6a8192d
# UVM_INFO /home/khang/Documents/SystemVerilog/Soc_RV32I/SoC/VERIFICATION/Monitor/axi_monitor.sv(47) @ 4515000: uvm_test_top.env.agent.monitor [MON_WR] Detected WRITE : Addr = 10000164, Data = 28ca1863
# UVM_INFO /home/khang/Documents/SystemVerilog/Soc_RV32I/SoC/VERIFICATION/Monitor/axi_monitor.sv(47) @ 4565000: uvm_test_top.env.agent.monitor [MON_WR] Detected WRITE : Addr = 10000168, Data = e7098e20
# UVM_INFO /home/khang/Documents/SystemVerilog/Soc_RV32I/SoC/VERIFICATION/Monitor/axi_monitor.sv(47) @ 4615000: uvm_test_top.env.agent.monitor [MON_WR] Detected WRITE : Addr = 1000016c, Data = 74a67f71
# UVM_INFO /home/khang/Documents/SystemVerilog/Soc_RV32I/SoC/VERIFICATION/Monitor/axi_monitor.sv(47) @ 4665000: uvm_test_top.env.agent.monitor [MON_WR] Detected WRITE : Addr = 10000170, Data = 9fbf7606
# UVM_INFO /home/khang/Documents/SystemVerilog/Soc_RV32I/SoC/VERIFICATION/Monitor/axi_monitor.sv(47) @ 4715000: uvm_test_top.env.agent.monitor [MON_WR] Detected WRITE : Addr = 10000174, Data = dc22cd1c
# UVM_INFO /home/khang/Documents/SystemVerilog/Soc_RV32I/SoC/VERIFICATION/Monitor/axi_monitor.sv(47) @ 4765000: uvm_test_top.env.agent.monitor [MON_WR] Detected WRITE : Addr = 10000178, Data = c28d4abd
# UVM_INFO /home/khang/Documents/SystemVerilog/Soc_RV32I/SoC/VERIFICATION/Monitor/axi_monitor.sv(47) @ 4815000: uvm_test_top.env.agent.monitor [MON_WR] Detected WRITE : Addr = 1000017c, Data = 7ee7c2cc
# UVM_INFO /home/khang/Documents/SystemVerilog/Soc_RV32I/SoC/VERIFICATION/Monitor/axi_monitor.sv(47) @ 4865000: uvm_test_top.env.agent.monitor [MON_WR] Detected WRITE : Addr = 10000180, Data = 4a7594be
# UVM_INFO /home/khang/Documents/SystemVerilog/Soc_RV32I/SoC/VERIFICATION/Monitor/axi_monitor.sv(47) @ 4915000: uvm_test_top.env.agent.monitor [MON_WR] Detected WRITE : Addr = 10000184, Data = a485bc3c
# UVM_INFO /home/khang/Documents/SystemVerilog/Soc_RV32I/SoC/VERIFICATION/Monitor/axi_monitor.sv(47) @ 4965000: uvm_test_top.env.agent.monitor [MON_WR] Detected WRITE : Addr = 10000188, Data = 00679afd
# UVM_INFO /home/khang/Documents/SystemVerilog/Soc_RV32I/SoC/VERIFICATION/Monitor/axi_monitor.sv(47) @ 5015000: uvm_test_top.env.agent.monitor [MON_WR] Detected WRITE : Addr = 1000018c, Data = 6671def1
# UVM_INFO /home/khang/Documents/SystemVerilog/Soc_RV32I/SoC/VERIFICATION/Monitor/axi_monitor.sv(47) @ 5065000: uvm_test_top.env.agent.monitor [MON_WR] Detected WRITE : Addr = 10000190, Data = ac1abb50
# UVM_INFO /home/khang/Documents/SystemVerilog/Soc_RV32I/SoC/VERIFICATION/Monitor/axi_monitor.sv(47) @ 5115000: uvm_test_top.env.agent.monitor [MON_WR] Detected WRITE : Addr = 10000194, Data = 766759c1
# UVM_INFO /home/khang/Documents/SystemVerilog/Soc_RV32I/SoC/VERIFICATION/Monitor/axi_monitor.sv(47) @ 5165000: uvm_test_top.env.agent.monitor [MON_WR] Detected WRITE : Addr = 10000198, Data = fac7a710
# UVM_INFO /home/khang/Documents/SystemVerilog/Soc_RV32I/SoC/VERIFICATION/Monitor/axi_monitor.sv(47) @ 5215000: uvm_test_top.env.agent.monitor [MON_WR] Detected WRITE : Addr = 1000019c, Data = 819a7efc
# UVM_INFO /home/khang/Documents/SystemVerilog/Soc_RV32I/SoC/VERIFICATION/Monitor/axi_monitor.sv(47) @ 5265000: uvm_test_top.env.agent.monitor [MON_WR] Detected WRITE : Addr = 100001a0, Data = 40bd8e7a
# UVM_INFO /home/khang/Documents/SystemVerilog/Soc_RV32I/SoC/VERIFICATION/Monitor/axi_monitor.sv(47) @ 5315000: uvm_test_top.env.agent.monitor [MON_WR] Detected WRITE : Addr = 100001a4, Data = f7b00c9c
# UVM_INFO /home/khang/Documents/SystemVerilog/Soc_RV32I/SoC/VERIFICATION/Monitor/axi_monitor.sv(47) @ 5365000: uvm_test_top.env.agent.monitor [MON_WR] Detected WRITE : Addr = 100001a8, Data = 045d54f3
# UVM_INFO /home/khang/Documents/SystemVerilog/Soc_RV32I/SoC/VERIFICATION/Monitor/axi_monitor.sv(47) @ 5415000: uvm_test_top.env.agent.monitor [MON_WR] Detected WRITE : Addr = 100001ac, Data = ed93c574
# UVM_INFO /home/khang/Documents/SystemVerilog/Soc_RV32I/SoC/VERIFICATION/Monitor/axi_monitor.sv(47) @ 5465000: uvm_test_top.env.agent.monitor [MON_WR] Detected WRITE : Addr = 100001b0, Data = e952836b
# UVM_INFO /home/khang/Documents/SystemVerilog/Soc_RV32I/SoC/VERIFICATION/Monitor/axi_monitor.sv(47) @ 5515000: uvm_test_top.env.agent.monitor [MON_WR] Detected WRITE : Addr = 100001b4, Data = 376d8782
# UVM_INFO /home/khang/Documents/SystemVerilog/Soc_RV32I/SoC/VERIFICATION/Monitor/axi_monitor.sv(47) @ 5565000: uvm_test_top.env.agent.monitor [MON_WR] Detected WRITE : Addr = 100001b8, Data = 2ecd6043
# UVM_INFO /home/khang/Documents/SystemVerilog/Soc_RV32I/SoC/VERIFICATION/Monitor/axi_monitor.sv(47) @ 5615000: uvm_test_top.env.agent.monitor [MON_WR] Detected WRITE : Addr = 100001bc, Data = 0e10492f
# UVM_INFO /home/khang/Documents/SystemVerilog/Soc_RV32I/SoC/VERIFICATION/Monitor/axi_monitor.sv(47) @ 5665000: uvm_test_top.env.agent.monitor [MON_WR] Detected WRITE : Addr = 100001c0, Data = 95547967
# UVM_INFO /home/khang/Documents/SystemVerilog/Soc_RV32I/SoC/VERIFICATION/Monitor/axi_monitor.sv(47) @ 5715000: uvm_test_top.env.agent.monitor [MON_WR] Detected WRITE : Addr = 100001c4, Data = 650d6c50
# UVM_INFO /home/khang/Documents/SystemVerilog/Soc_RV32I/SoC/VERIFICATION/Monitor/axi_monitor.sv(47) @ 5765000: uvm_test_top.env.agent.monitor [MON_WR] Detected WRITE : Addr = 100001c8, Data = 1801fce1
# UVM_INFO /home/khang/Documents/SystemVerilog/Soc_RV32I/SoC/VERIFICATION/Monitor/axi_monitor.sv(47) @ 5815000: uvm_test_top.env.agent.monitor [MON_WR] Detected WRITE : Addr = 100001cc, Data = fe6b3ec5
# UVM_INFO /home/khang/Documents/SystemVerilog/Soc_RV32I/SoC/VERIFICATION/Monitor/axi_monitor.sv(47) @ 5865000: uvm_test_top.env.agent.monitor [MON_WR] Detected WRITE : Addr = 100001d0, Data = 7397751d
# UVM_INFO /home/khang/Documents/SystemVerilog/Soc_RV32I/SoC/VERIFICATION/Monitor/axi_monitor.sv(47) @ 5915000: uvm_test_top.env.agent.monitor [MON_WR] Detected WRITE : Addr = 100001d4, Data = 9bc34beb
# UVM_INFO /home/khang/Documents/SystemVerilog/Soc_RV32I/SoC/VERIFICATION/Monitor/axi_monitor.sv(47) @ 5965000: uvm_test_top.env.agent.monitor [MON_WR] Detected WRITE : Addr = 100001d8, Data = 3f6365fb
# UVM_INFO /home/khang/Documents/SystemVerilog/Soc_RV32I/SoC/VERIFICATION/Monitor/axi_monitor.sv(47) @ 6015000: uvm_test_top.env.agent.monitor [MON_WR] Detected WRITE : Addr = 100001dc, Data = dcba877f
# UVM_INFO /home/khang/Documents/SystemVerilog/Soc_RV32I/SoC/VERIFICATION/Monitor/axi_monitor.sv(47) @ 6065000: uvm_test_top.env.agent.monitor [MON_WR] Detected WRITE : Addr = 100001e0, Data = ae0cf80f
# UVM_INFO /home/khang/Documents/SystemVerilog/Soc_RV32I/SoC/VERIFICATION/Monitor/axi_monitor.sv(47) @ 6115000: uvm_test_top.env.agent.monitor [MON_WR] Detected WRITE : Addr = 100001e4, Data = 04c75fd1
# UVM_INFO /home/khang/Documents/SystemVerilog/Soc_RV32I/SoC/VERIFICATION/Monitor/axi_monitor.sv(47) @ 6165000: uvm_test_top.env.agent.monitor [MON_WR] Detected WRITE : Addr = 100001e8, Data = 0fae62aa
# UVM_INFO /home/khang/Documents/SystemVerilog/Soc_RV32I/SoC/VERIFICATION/Monitor/axi_monitor.sv(47) @ 6215000: uvm_test_top.env.agent.monitor [MON_WR] Detected WRITE : Addr = 100001ec, Data = 46530334
# UVM_INFO /home/khang/Documents/SystemVerilog/Soc_RV32I/SoC/VERIFICATION/Monitor/axi_monitor.sv(47) @ 6265000: uvm_test_top.env.agent.monitor [MON_WR] Detected WRITE : Addr = 100001f0, Data = acc622ac
# UVM_INFO /home/khang/Documents/SystemVerilog/Soc_RV32I/SoC/VERIFICATION/Monitor/axi_monitor.sv(47) @ 6315000: uvm_test_top.env.agent.monitor [MON_WR] Detected WRITE : Addr = 100001f4, Data = c704b1ca
# UVM_INFO /home/khang/Documents/SystemVerilog/Soc_RV32I/SoC/VERIFICATION/Monitor/axi_monitor.sv(47) @ 6365000: uvm_test_top.env.agent.monitor [MON_WR] Detected WRITE : Addr = 100001f8, Data = 0d7a8230
# UVM_INFO /home/khang/Documents/SystemVerilog/Soc_RV32I/SoC/VERIFICATION/Monitor/axi_monitor.sv(47) @ 6415000: uvm_test_top.env.agent.monitor [MON_WR] Detected WRITE : Addr = 100001fc, Data = 9dac5a30
# UVM_INFO /home/khang/Documents/SystemVerilog/Soc_RV32I/SoC/VERIFICATION/Monitor/axi_monitor.sv(47) @ 6465000: uvm_test_top.env.agent.monitor [MON_WR] Detected WRITE : Addr = 10000200, Data = 52290eb1
# UVM_INFO /home/khang/Documents/SystemVerilog/Soc_RV32I/SoC/VERIFICATION/Monitor/axi_monitor.sv(47) @ 6515000: uvm_test_top.env.agent.monitor [MON_WR] Detected WRITE : Addr = 10000204, Data = ad62634f
# UVM_INFO /home/khang/Documents/SystemVerilog/Soc_RV32I/SoC/VERIFICATION/Monitor/axi_monitor.sv(47) @ 6565000: uvm_test_top.env.agent.monitor [MON_WR] Detected WRITE : Addr = 10000208, Data = 1fc328a0
# UVM_INFO /home/khang/Documents/SystemVerilog/Soc_RV32I/SoC/VERIFICATION/Monitor/axi_monitor.sv(47) @ 6615000: uvm_test_top.env.agent.monitor [MON_WR] Detected WRITE : Addr = 1000020c, Data = 6b892be3
# UVM_INFO /home/khang/Documents/SystemVerilog/Soc_RV32I/SoC/VERIFICATION/Monitor/axi_monitor.sv(47) @ 6665000: uvm_test_top.env.agent.monitor [MON_WR] Detected WRITE : Addr = 10000210, Data = 7e7e98ac
# UVM_INFO /home/khang/Documents/SystemVerilog/Soc_RV32I/SoC/VERIFICATION/Monitor/axi_monitor.sv(47) @ 6715000: uvm_test_top.env.agent.monitor [MON_WR] Detected WRITE : Addr = 10000214, Data = 9263cdc9
# UVM_INFO /home/khang/Documents/SystemVerilog/Soc_RV32I/SoC/VERIFICATION/Monitor/axi_monitor.sv(47) @ 6765000: uvm_test_top.env.agent.monitor [MON_WR] Detected WRITE : Addr = 10000218, Data = c702691d
# UVM_INFO /home/khang/Documents/SystemVerilog/Soc_RV32I/SoC/VERIFICATION/Monitor/axi_monitor.sv(47) @ 6815000: uvm_test_top.env.agent.monitor [MON_WR] Detected WRITE : Addr = 1000021c, Data = 187ba9f1
# UVM_INFO /home/khang/Documents/SystemVerilog/Soc_RV32I/SoC/VERIFICATION/Monitor/axi_monitor.sv(47) @ 6865000: uvm_test_top.env.agent.monitor [MON_WR] Detected WRITE : Addr = 10000220, Data = 5ae00626
# UVM_INFO /home/khang/Documents/SystemVerilog/Soc_RV32I/SoC/VERIFICATION/Monitor/axi_monitor.sv(47) @ 6915000: uvm_test_top.env.agent.monitor [MON_WR] Detected WRITE : Addr = 10000224, Data = a9770333
# UVM_INFO /home/khang/Documents/SystemVerilog/Soc_RV32I/SoC/VERIFICATION/Monitor/axi_monitor.sv(47) @ 6965000: uvm_test_top.env.agent.monitor [MON_WR] Detected WRITE : Addr = 10000228, Data = 8e66b58b
# UVM_INFO /home/khang/Documents/SystemVerilog/Soc_RV32I/SoC/VERIFICATION/Monitor/axi_monitor.sv(47) @ 7015000: uvm_test_top.env.agent.monitor [MON_WR] Detected WRITE : Addr = 1000022c, Data = fcca69f8
# UVM_INFO /home/khang/Documents/SystemVerilog/Soc_RV32I/SoC/VERIFICATION/Monitor/axi_monitor.sv(47) @ 7065000: uvm_test_top.env.agent.monitor [MON_WR] Detected WRITE : Addr = 10000230, Data = 7fa86c0a
# UVM_INFO /home/khang/Documents/SystemVerilog/Soc_RV32I/SoC/VERIFICATION/Monitor/axi_monitor.sv(47) @ 7115000: uvm_test_top.env.agent.monitor [MON_WR] Detected WRITE : Addr = 10000234, Data = 514914ba
# UVM_INFO /home/khang/Documents/SystemVerilog/Soc_RV32I/SoC/VERIFICATION/Monitor/axi_monitor.sv(47) @ 7165000: uvm_test_top.env.agent.monitor [MON_WR] Detected WRITE : Addr = 10000238, Data = 9d46b201
# UVM_INFO /home/khang/Documents/SystemVerilog/Soc_RV32I/SoC/VERIFICATION/Monitor/axi_monitor.sv(47) @ 7215000: uvm_test_top.env.agent.monitor [MON_WR] Detected WRITE : Addr = 1000023c, Data = 643128d6
# UVM_INFO /home/khang/Documents/SystemVerilog/Soc_RV32I/SoC/VERIFICATION/Monitor/axi_monitor.sv(47) @ 7265000: uvm_test_top.env.agent.monitor [MON_WR] Detected WRITE : Addr = 10000240, Data = d340aa25
# UVM_INFO /home/khang/Documents/SystemVerilog/Soc_RV32I/SoC/VERIFICATION/Monitor/axi_monitor.sv(47) @ 7315000: uvm_test_top.env.agent.monitor [MON_WR] Detected WRITE : Addr = 10000244, Data = 29fe91f2
# UVM_INFO /home/khang/Documents/SystemVerilog/Soc_RV32I/SoC/VERIFICATION/Monitor/axi_monitor.sv(47) @ 7365000: uvm_test_top.env.agent.monitor [MON_WR] Detected WRITE : Addr = 10000248, Data = addcdc47
# UVM_INFO /home/khang/Documents/SystemVerilog/Soc_RV32I/SoC/VERIFICATION/Monitor/axi_monitor.sv(47) @ 7415000: uvm_test_top.env.agent.monitor [MON_WR] Detected WRITE : Addr = 1000024c, Data = 619d8442
# UVM_INFO /home/khang/Documents/SystemVerilog/Soc_RV32I/SoC/VERIFICATION/Monitor/axi_monitor.sv(47) @ 7465000: uvm_test_top.env.agent.monitor [MON_WR] Detected WRITE : Addr = 10000250, Data = a4d305e0
# UVM_INFO /home/khang/Documents/SystemVerilog/Soc_RV32I/SoC/VERIFICATION/Monitor/axi_monitor.sv(47) @ 7515000: uvm_test_top.env.agent.monitor [MON_WR] Detected WRITE : Addr = 10000254, Data = f9b00ce5
# UVM_INFO /home/khang/Documents/SystemVerilog/Soc_RV32I/SoC/VERIFICATION/Monitor/axi_monitor.sv(47) @ 7565000: uvm_test_top.env.agent.monitor [MON_WR] Detected WRITE : Addr = 10000258, Data = fea93501
# UVM_INFO /home/khang/Documents/SystemVerilog/Soc_RV32I/SoC/VERIFICATION/Monitor/axi_monitor.sv(47) @ 7615000: uvm_test_top.env.agent.monitor [MON_WR] Detected WRITE : Addr = 1000025c, Data = 7100f172
# UVM_INFO /home/khang/Documents/SystemVerilog/Soc_RV32I/SoC/VERIFICATION/Monitor/axi_monitor.sv(47) @ 7665000: uvm_test_top.env.agent.monitor [MON_WR] Detected WRITE : Addr = 10000260, Data = 3bbdcc9a
# UVM_INFO /home/khang/Documents/SystemVerilog/Soc_RV32I/SoC/VERIFICATION/Monitor/axi_monitor.sv(47) @ 7715000: uvm_test_top.env.agent.monitor [MON_WR] Detected WRITE : Addr = 10000264, Data = 07b60108
# UVM_INFO /home/khang/Documents/SystemVerilog/Soc_RV32I/SoC/VERIFICATION/Monitor/axi_monitor.sv(47) @ 7765000: uvm_test_top.env.agent.monitor [MON_WR] Detected WRITE : Addr = 10000268, Data = c25ce76e
# UVM_INFO /home/khang/Documents/SystemVerilog/Soc_RV32I/SoC/VERIFICATION/Monitor/axi_monitor.sv(47) @ 7815000: uvm_test_top.env.agent.monitor [MON_WR] Detected WRITE : Addr = 1000026c, Data = e94f1e43
# UVM_INFO /home/khang/Documents/SystemVerilog/Soc_RV32I/SoC/VERIFICATION/Monitor/axi_monitor.sv(47) @ 7865000: uvm_test_top.env.agent.monitor [MON_WR] Detected WRITE : Addr = 10000270, Data = f811e9cf
# UVM_INFO /home/khang/Documents/SystemVerilog/Soc_RV32I/SoC/VERIFICATION/Monitor/axi_monitor.sv(47) @ 7915000: uvm_test_top.env.agent.monitor [MON_WR] Detected WRITE : Addr = 10000274, Data = 32a61b3a
# UVM_INFO /home/khang/Documents/SystemVerilog/Soc_RV32I/SoC/VERIFICATION/Monitor/axi_monitor.sv(47) @ 7965000: uvm_test_top.env.agent.monitor [MON_WR] Detected WRITE : Addr = 10000278, Data = 5318ae92
# UVM_INFO /home/khang/Documents/SystemVerilog/Soc_RV32I/SoC/VERIFICATION/Monitor/axi_monitor.sv(47) @ 8015000: uvm_test_top.env.agent.monitor [MON_WR] Detected WRITE : Addr = 1000027c, Data = 41e01e14
# UVM_INFO /home/khang/Documents/SystemVerilog/Soc_RV32I/SoC/VERIFICATION/Monitor/axi_monitor.sv(47) @ 8065000: uvm_test_top.env.agent.monitor [MON_WR] Detected WRITE : Addr = 10000280, Data = 2327d267
# UVM_INFO /home/khang/Documents/SystemVerilog/Soc_RV32I/SoC/VERIFICATION/Monitor/axi_monitor.sv(47) @ 8115000: uvm_test_top.env.agent.monitor [MON_WR] Detected WRITE : Addr = 10000284, Data = 4a226caa
# UVM_INFO /home/khang/Documents/SystemVerilog/Soc_RV32I/SoC/VERIFICATION/Monitor/axi_monitor.sv(47) @ 8165000: uvm_test_top.env.agent.monitor [MON_WR] Detected WRITE : Addr = 10000288, Data = 4e56211c
# UVM_INFO /home/khang/Documents/SystemVerilog/Soc_RV32I/SoC/VERIFICATION/Monitor/axi_monitor.sv(47) @ 8215000: uvm_test_top.env.agent.monitor [MON_WR] Detected WRITE : Addr = 1000028c, Data = befb0581
# UVM_INFO /home/khang/Documents/SystemVerilog/Soc_RV32I/SoC/VERIFICATION/Monitor/axi_monitor.sv(47) @ 8265000: uvm_test_top.env.agent.monitor [MON_WR] Detected WRITE : Addr = 10000290, Data = 7e8c1d78
# UVM_INFO /home/khang/Documents/SystemVerilog/Soc_RV32I/SoC/VERIFICATION/Monitor/axi_monitor.sv(47) @ 8315000: uvm_test_top.env.agent.monitor [MON_WR] Detected WRITE : Addr = 10000294, Data = d951a159
# UVM_INFO /home/khang/Documents/SystemVerilog/Soc_RV32I/SoC/VERIFICATION/Monitor/axi_monitor.sv(47) @ 8365000: uvm_test_top.env.agent.monitor [MON_WR] Detected WRITE : Addr = 10000298, Data = 1683267c
# UVM_INFO /home/khang/Documents/SystemVerilog/Soc_RV32I/SoC/VERIFICATION/Monitor/axi_monitor.sv(47) @ 8415000: uvm_test_top.env.agent.monitor [MON_WR] Detected WRITE : Addr = 1000029c, Data = 56c6b0f7
# UVM_INFO /home/khang/Documents/SystemVerilog/Soc_RV32I/SoC/VERIFICATION/Monitor/axi_monitor.sv(47) @ 8465000: uvm_test_top.env.agent.monitor [MON_WR] Detected WRITE : Addr = 100002a0, Data = a02b7dd2
# UVM_INFO /home/khang/Documents/SystemVerilog/Soc_RV32I/SoC/VERIFICATION/Monitor/axi_monitor.sv(47) @ 8515000: uvm_test_top.env.agent.monitor [MON_WR] Detected WRITE : Addr = 100002a4, Data = 4b332e1a
# UVM_INFO /home/khang/Documents/SystemVerilog/Soc_RV32I/SoC/VERIFICATION/Monitor/axi_monitor.sv(47) @ 8565000: uvm_test_top.env.agent.monitor [MON_WR] Detected WRITE : Addr = 100002a8, Data = e72c8cd9
# UVM_INFO /home/khang/Documents/SystemVerilog/Soc_RV32I/SoC/VERIFICATION/Monitor/axi_monitor.sv(47) @ 8615000: uvm_test_top.env.agent.monitor [MON_WR] Detected WRITE : Addr = 100002ac, Data = e72a4b86
# UVM_INFO /home/khang/Documents/SystemVerilog/Soc_RV32I/SoC/VERIFICATION/Monitor/axi_monitor.sv(47) @ 8665000: uvm_test_top.env.agent.monitor [MON_WR] Detected WRITE : Addr = 100002b0, Data = c40b835e
# UVM_INFO /home/khang/Documents/SystemVerilog/Soc_RV32I/SoC/VERIFICATION/Monitor/axi_monitor.sv(47) @ 8715000: uvm_test_top.env.agent.monitor [MON_WR] Detected WRITE : Addr = 100002b4, Data = 0127dc38
# UVM_INFO /home/khang/Documents/SystemVerilog/Soc_RV32I/SoC/VERIFICATION/Monitor/axi_monitor.sv(47) @ 8765000: uvm_test_top.env.agent.monitor [MON_WR] Detected WRITE : Addr = 100002b8, Data = c9641d64
# UVM_INFO /home/khang/Documents/SystemVerilog/Soc_RV32I/SoC/VERIFICATION/Monitor/axi_monitor.sv(47) @ 8815000: uvm_test_top.env.agent.monitor [MON_WR] Detected WRITE : Addr = 100002bc, Data = 7a30dae8
# UVM_INFO /home/khang/Documents/SystemVerilog/Soc_RV32I/SoC/VERIFICATION/Monitor/axi_monitor.sv(47) @ 8865000: uvm_test_top.env.agent.monitor [MON_WR] Detected WRITE : Addr = 100002c0, Data = b26225bf
# UVM_INFO /home/khang/Documents/SystemVerilog/Soc_RV32I/SoC/VERIFICATION/Monitor/axi_monitor.sv(47) @ 8915000: uvm_test_top.env.agent.monitor [MON_WR] Detected WRITE : Addr = 100002c4, Data = 2035679e
# UVM_INFO /home/khang/Documents/SystemVerilog/Soc_RV32I/SoC/VERIFICATION/Monitor/axi_monitor.sv(47) @ 8965000: uvm_test_top.env.agent.monitor [MON_WR] Detected WRITE : Addr = 100002c8, Data = ef76af98
# UVM_INFO /home/khang/Documents/SystemVerilog/Soc_RV32I/SoC/VERIFICATION/Monitor/axi_monitor.sv(47) @ 9015000: uvm_test_top.env.agent.monitor [MON_WR] Detected WRITE : Addr = 100002cc, Data = ee0a5af3
# UVM_INFO /home/khang/Documents/SystemVerilog/Soc_RV32I/SoC/VERIFICATION/Monitor/axi_monitor.sv(47) @ 9065000: uvm_test_top.env.agent.monitor [MON_WR] Detected WRITE : Addr = 100002d0, Data = fff1b240
# UVM_INFO /home/khang/Documents/SystemVerilog/Soc_RV32I/SoC/VERIFICATION/Monitor/axi_monitor.sv(47) @ 9115000: uvm_test_top.env.agent.monitor [MON_WR] Detected WRITE : Addr = 100002d4, Data = a5e58993
# UVM_INFO /home/khang/Documents/SystemVerilog/Soc_RV32I/SoC/VERIFICATION/Monitor/axi_monitor.sv(47) @ 9165000: uvm_test_top.env.agent.monitor [MON_WR] Detected WRITE : Addr = 100002d8, Data = e8a47e0c
# UVM_INFO /home/khang/Documents/SystemVerilog/Soc_RV32I/SoC/VERIFICATION/Monitor/axi_monitor.sv(47) @ 9215000: uvm_test_top.env.agent.monitor [MON_WR] Detected WRITE : Addr = 100002dc, Data = 2cf31bf0
# UVM_INFO /home/khang/Documents/SystemVerilog/Soc_RV32I/SoC/VERIFICATION/Monitor/axi_monitor.sv(47) @ 9265000: uvm_test_top.env.agent.monitor [MON_WR] Detected WRITE : Addr = 100002e0, Data = b2e27daf
# UVM_INFO /home/khang/Documents/SystemVerilog/Soc_RV32I/SoC/VERIFICATION/Monitor/axi_monitor.sv(47) @ 9315000: uvm_test_top.env.agent.monitor [MON_WR] Detected WRITE : Addr = 100002e4, Data = 420ff83a
# UVM_INFO /home/khang/Documents/SystemVerilog/Soc_RV32I/SoC/VERIFICATION/Monitor/axi_monitor.sv(47) @ 9365000: uvm_test_top.env.agent.monitor [MON_WR] Detected WRITE : Addr = 100002e8, Data = 1d7d0f73
# UVM_INFO /home/khang/Documents/SystemVerilog/Soc_RV32I/SoC/VERIFICATION/Monitor/axi_monitor.sv(47) @ 9415000: uvm_test_top.env.agent.monitor [MON_WR] Detected WRITE : Addr = 100002ec, Data = 7ee9bf90
# UVM_INFO /home/khang/Documents/SystemVerilog/Soc_RV32I/SoC/VERIFICATION/Monitor/axi_monitor.sv(47) @ 9465000: uvm_test_top.env.agent.monitor [MON_WR] Detected WRITE : Addr = 100002f0, Data = 98959933
# UVM_INFO /home/khang/Documents/SystemVerilog/Soc_RV32I/SoC/VERIFICATION/Monitor/axi_monitor.sv(47) @ 9515000: uvm_test_top.env.agent.monitor [MON_WR] Detected WRITE : Addr = 100002f4, Data = 7a08a1f7
# UVM_INFO /home/khang/Documents/SystemVerilog/Soc_RV32I/SoC/VERIFICATION/Monitor/axi_monitor.sv(47) @ 9565000: uvm_test_top.env.agent.monitor [MON_WR] Detected WRITE : Addr = 100002f8, Data = 995fca63
# UVM_INFO /home/khang/Documents/SystemVerilog/Soc_RV32I/SoC/VERIFICATION/Monitor/axi_monitor.sv(47) @ 9615000: uvm_test_top.env.agent.monitor [MON_WR] Detected WRITE : Addr = 100002fc, Data = 1c7c564b
# UVM_INFO /home/khang/Documents/SystemVerilog/Soc_RV32I/SoC/VERIFICATION/Monitor/axi_monitor.sv(47) @ 9665000: uvm_test_top.env.agent.monitor [MON_WR] Detected WRITE : Addr = 10000300, Data = e1ef8871
# UVM_INFO /home/khang/Documents/SystemVerilog/Soc_RV32I/SoC/VERIFICATION/Monitor/axi_monitor.sv(47) @ 9715000: uvm_test_top.env.agent.monitor [MON_WR] Detected WRITE : Addr = 10000304, Data = 24e32603
# UVM_INFO /home/khang/Documents/SystemVerilog/Soc_RV32I/SoC/VERIFICATION/Monitor/axi_monitor.sv(47) @ 9765000: uvm_test_top.env.agent.monitor [MON_WR] Detected WRITE : Addr = 10000308, Data = 6b1ecbe0
# UVM_INFO /home/khang/Documents/SystemVerilog/Soc_RV32I/SoC/VERIFICATION/Monitor/axi_monitor.sv(47) @ 9815000: uvm_test_top.env.agent.monitor [MON_WR] Detected WRITE : Addr = 1000030c, Data = 875b71e2
# UVM_INFO /home/khang/Documents/SystemVerilog/Soc_RV32I/SoC/VERIFICATION/Monitor/axi_monitor.sv(47) @ 9865000: uvm_test_top.env.agent.monitor [MON_WR] Detected WRITE : Addr = 10000310, Data = fdcca837
# UVM_INFO /home/khang/Documents/SystemVerilog/Soc_RV32I/SoC/VERIFICATION/Monitor/axi_monitor.sv(47) @ 9915000: uvm_test_top.env.agent.monitor [MON_WR] Detected WRITE : Addr = 10000314, Data = 7b32750c
# UVM_INFO /home/khang/Documents/SystemVerilog/Soc_RV32I/SoC/VERIFICATION/Monitor/axi_monitor.sv(47) @ 9965000: uvm_test_top.env.agent.monitor [MON_WR] Detected WRITE : Addr = 10000318, Data = ab4282d6
# UVM_INFO /home/khang/Documents/SystemVerilog/Soc_RV32I/SoC/VERIFICATION/Monitor/axi_monitor.sv(47) @ 10015000: uvm_test_top.env.agent.monitor [MON_WR] Detected WRITE : Addr = 1000031c, Data = 6dc8f3a2
# UVM_INFO /home/khang/Documents/SystemVerilog/Soc_RV32I/SoC/VERIFICATION/Monitor/axi_monitor.sv(47) @ 10065000: uvm_test_top.env.agent.monitor [MON_WR] Detected WRITE : Addr = 10000320, Data = a0945c7b
# UVM_INFO /home/khang/Documents/SystemVerilog/Soc_RV32I/SoC/VERIFICATION/Monitor/axi_monitor.sv(47) @ 10115000: uvm_test_top.env.agent.monitor [MON_WR] Detected WRITE : Addr = 10000324, Data = a27ebbbd
# UVM_INFO /home/khang/Documents/SystemVerilog/Soc_RV32I/SoC/VERIFICATION/Monitor/axi_monitor.sv(47) @ 10165000: uvm_test_top.env.agent.monitor [MON_WR] Detected WRITE : Addr = 10000328, Data = 2c193908
# UVM_INFO /home/khang/Documents/SystemVerilog/Soc_RV32I/SoC/VERIFICATION/Monitor/axi_monitor.sv(47) @ 10215000: uvm_test_top.env.agent.monitor [MON_WR] Detected WRITE : Addr = 1000032c, Data = ef544543
# UVM_INFO /home/khang/Documents/SystemVerilog/Soc_RV32I/SoC/VERIFICATION/Monitor/axi_monitor.sv(47) @ 10265000: uvm_test_top.env.agent.monitor [MON_WR] Detected WRITE : Addr = 10000330, Data = d706cb06
# UVM_INFO /home/khang/Documents/SystemVerilog/Soc_RV32I/SoC/VERIFICATION/Monitor/axi_monitor.sv(47) @ 10315000: uvm_test_top.env.agent.monitor [MON_WR] Detected WRITE : Addr = 10000334, Data = 8cec6a28
# UVM_INFO /home/khang/Documents/SystemVerilog/Soc_RV32I/SoC/VERIFICATION/Monitor/axi_monitor.sv(47) @ 10365000: uvm_test_top.env.agent.monitor [MON_WR] Detected WRITE : Addr = 10000338, Data = 7a2d5b54
# UVM_INFO /home/khang/Documents/SystemVerilog/Soc_RV32I/SoC/VERIFICATION/Monitor/axi_monitor.sv(47) @ 10415000: uvm_test_top.env.agent.monitor [MON_WR] Detected WRITE : Addr = 1000033c, Data = c5953441
# UVM_INFO /home/khang/Documents/SystemVerilog/Soc_RV32I/SoC/VERIFICATION/Monitor/axi_monitor.sv(47) @ 10465000: uvm_test_top.env.agent.monitor [MON_WR] Detected WRITE : Addr = 10000340, Data = 0e070296
# UVM_INFO /home/khang/Documents/SystemVerilog/Soc_RV32I/SoC/VERIFICATION/Monitor/axi_monitor.sv(47) @ 10515000: uvm_test_top.env.agent.monitor [MON_WR] Detected WRITE : Addr = 10000344, Data = e5410383
# UVM_INFO /home/khang/Documents/SystemVerilog/Soc_RV32I/SoC/VERIFICATION/Monitor/axi_monitor.sv(47) @ 10565000: uvm_test_top.env.agent.monitor [MON_WR] Detected WRITE : Addr = 10000348, Data = 47eb6847
# UVM_INFO /home/khang/Documents/SystemVerilog/Soc_RV32I/SoC/VERIFICATION/Monitor/axi_monitor.sv(47) @ 10615000: uvm_test_top.env.agent.monitor [MON_WR] Detected WRITE : Addr = 1000034c, Data = eeeda08f
# UVM_INFO /home/khang/Documents/SystemVerilog/Soc_RV32I/SoC/VERIFICATION/Monitor/axi_monitor.sv(47) @ 10665000: uvm_test_top.env.agent.monitor [MON_WR] Detected WRITE : Addr = 10000350, Data = c9436dbd
# UVM_INFO /home/khang/Documents/SystemVerilog/Soc_RV32I/SoC/VERIFICATION/Monitor/axi_monitor.sv(47) @ 10715000: uvm_test_top.env.agent.monitor [MON_WR] Detected WRITE : Addr = 10000354, Data = 8dccef77
# UVM_INFO /home/khang/Documents/SystemVerilog/Soc_RV32I/SoC/VERIFICATION/Monitor/axi_monitor.sv(47) @ 10765000: uvm_test_top.env.agent.monitor [MON_WR] Detected WRITE : Addr = 10000358, Data = c3b7da5e
# UVM_INFO /home/khang/Documents/SystemVerilog/Soc_RV32I/SoC/VERIFICATION/Monitor/axi_monitor.sv(47) @ 10815000: uvm_test_top.env.agent.monitor [MON_WR] Detected WRITE : Addr = 1000035c, Data = c51d7141
# UVM_INFO /home/khang/Documents/SystemVerilog/Soc_RV32I/SoC/VERIFICATION/Monitor/axi_monitor.sv(47) @ 10865000: uvm_test_top.env.agent.monitor [MON_WR] Detected WRITE : Addr = 10000360, Data = ef101281
# UVM_INFO /home/khang/Documents/SystemVerilog/Soc_RV32I/SoC/VERIFICATION/Monitor/axi_monitor.sv(47) @ 10915000: uvm_test_top.env.agent.monitor [MON_WR] Detected WRITE : Addr = 10000364, Data = e4ad546c
# UVM_INFO /home/khang/Documents/SystemVerilog/Soc_RV32I/SoC/VERIFICATION/Monitor/axi_monitor.sv(47) @ 10965000: uvm_test_top.env.agent.monitor [MON_WR] Detected WRITE : Addr = 10000368, Data = a2050120
# UVM_INFO /home/khang/Documents/SystemVerilog/Soc_RV32I/SoC/VERIFICATION/Monitor/axi_monitor.sv(47) @ 11015000: uvm_test_top.env.agent.monitor [MON_WR] Detected WRITE : Addr = 1000036c, Data = 3b565065
# UVM_INFO /home/khang/Documents/SystemVerilog/Soc_RV32I/SoC/VERIFICATION/Monitor/axi_monitor.sv(47) @ 11065000: uvm_test_top.env.agent.monitor [MON_WR] Detected WRITE : Addr = 10000370, Data = 32ce80b0
# UVM_INFO /home/khang/Documents/SystemVerilog/Soc_RV32I/SoC/VERIFICATION/Monitor/axi_monitor.sv(47) @ 11115000: uvm_test_top.env.agent.monitor [MON_WR] Detected WRITE : Addr = 10000374, Data = 55378e85
# UVM_INFO /home/khang/Documents/SystemVerilog/Soc_RV32I/SoC/VERIFICATION/Monitor/axi_monitor.sv(47) @ 11165000: uvm_test_top.env.agent.monitor [MON_WR] Detected WRITE : Addr = 10000378, Data = b03a1fcf
# UVM_INFO /home/khang/Documents/SystemVerilog/Soc_RV32I/SoC/VERIFICATION/Monitor/axi_monitor.sv(47) @ 11215000: uvm_test_top.env.agent.monitor [MON_WR] Detected WRITE : Addr = 1000037c, Data = 80ee2793
# UVM_INFO /home/khang/Documents/SystemVerilog/Soc_RV32I/SoC/VERIFICATION/Monitor/axi_monitor.sv(47) @ 11265000: uvm_test_top.env.agent.monitor [MON_WR] Detected WRITE : Addr = 10000380, Data = b670ef1b
# UVM_INFO /home/khang/Documents/SystemVerilog/Soc_RV32I/SoC/VERIFICATION/Monitor/axi_monitor.sv(47) @ 11315000: uvm_test_top.env.agent.monitor [MON_WR] Detected WRITE : Addr = 10000384, Data = 456e403f
# UVM_INFO /home/khang/Documents/SystemVerilog/Soc_RV32I/SoC/VERIFICATION/Monitor/axi_monitor.sv(47) @ 11365000: uvm_test_top.env.agent.monitor [MON_WR] Detected WRITE : Addr = 10000388, Data = ac31f1e3
# UVM_INFO /home/khang/Documents/SystemVerilog/Soc_RV32I/SoC/VERIFICATION/Monitor/axi_monitor.sv(47) @ 11415000: uvm_test_top.env.agent.monitor [MON_WR] Detected WRITE : Addr = 1000038c, Data = 23017ff7
# UVM_INFO /home/khang/Documents/SystemVerilog/Soc_RV32I/SoC/VERIFICATION/Monitor/axi_monitor.sv(47) @ 11465000: uvm_test_top.env.agent.monitor [MON_WR] Detected WRITE : Addr = 10000390, Data = 699622c4
# UVM_INFO /home/khang/Documents/SystemVerilog/Soc_RV32I/SoC/VERIFICATION/Monitor/axi_monitor.sv(47) @ 11515000: uvm_test_top.env.agent.monitor [MON_WR] Detected WRITE : Addr = 10000394, Data = 14a436d9
# UVM_INFO /home/khang/Documents/SystemVerilog/Soc_RV32I/SoC/VERIFICATION/Monitor/axi_monitor.sv(47) @ 11565000: uvm_test_top.env.agent.monitor [MON_WR] Detected WRITE : Addr = 10000398, Data = 15a0e197
# UVM_INFO /home/khang/Documents/SystemVerilog/Soc_RV32I/SoC/VERIFICATION/Monitor/axi_monitor.sv(47) @ 11615000: uvm_test_top.env.agent.monitor [MON_WR] Detected WRITE : Addr = 1000039c, Data = 72babf58
# UVM_INFO /home/khang/Documents/SystemVerilog/Soc_RV32I/SoC/VERIFICATION/Monitor/axi_monitor.sv(47) @ 11665000: uvm_test_top.env.agent.monitor [MON_WR] Detected WRITE : Addr = 100003a0, Data = cf4b9ce1
# UVM_INFO /home/khang/Documents/SystemVerilog/Soc_RV32I/SoC/VERIFICATION/Monitor/axi_monitor.sv(47) @ 11715000: uvm_test_top.env.agent.monitor [MON_WR] Detected WRITE : Addr = 100003a4, Data = c32db186
# UVM_INFO /home/khang/Documents/SystemVerilog/Soc_RV32I/SoC/VERIFICATION/Monitor/axi_monitor.sv(47) @ 11765000: uvm_test_top.env.agent.monitor [MON_WR] Detected WRITE : Addr = 100003a8, Data = 00db6bee
# UVM_INFO /home/khang/Documents/SystemVerilog/Soc_RV32I/SoC/VERIFICATION/Monitor/axi_monitor.sv(47) @ 11815000: uvm_test_top.env.agent.monitor [MON_WR] Detected WRITE : Addr = 100003ac, Data = f83d722b
# UVM_INFO /home/khang/Documents/SystemVerilog/Soc_RV32I/SoC/VERIFICATION/Monitor/axi_monitor.sv(47) @ 11865000: uvm_test_top.env.agent.monitor [MON_WR] Detected WRITE : Addr = 100003b0, Data = fd78f75e
# UVM_INFO /home/khang/Documents/SystemVerilog/Soc_RV32I/SoC/VERIFICATION/Monitor/axi_monitor.sv(47) @ 11915000: uvm_test_top.env.agent.monitor [MON_WR] Detected WRITE : Addr = 100003b4, Data = d36ea284
# UVM_INFO /home/khang/Documents/SystemVerilog/Soc_RV32I/SoC/VERIFICATION/Monitor/axi_monitor.sv(47) @ 11965000: uvm_test_top.env.agent.monitor [MON_WR] Detected WRITE : Addr = 100003b8, Data = f7df763c
# UVM_INFO /home/khang/Documents/SystemVerilog/Soc_RV32I/SoC/VERIFICATION/Monitor/axi_monitor.sv(47) @ 12015000: uvm_test_top.env.agent.monitor [MON_WR] Detected WRITE : Addr = 100003bc, Data = a9e2a4f6
# UVM_INFO /home/khang/Documents/SystemVerilog/Soc_RV32I/SoC/VERIFICATION/Monitor/axi_monitor.sv(47) @ 12065000: uvm_test_top.env.agent.monitor [MON_WR] Detected WRITE : Addr = 100003c0, Data = 69e27aa7
# UVM_INFO /home/khang/Documents/SystemVerilog/Soc_RV32I/SoC/VERIFICATION/Monitor/axi_monitor.sv(47) @ 12115000: uvm_test_top.env.agent.monitor [MON_WR] Detected WRITE : Addr = 100003c4, Data = 56ce2dc7
# UVM_INFO /home/khang/Documents/SystemVerilog/Soc_RV32I/SoC/VERIFICATION/Monitor/axi_monitor.sv(47) @ 12165000: uvm_test_top.env.agent.monitor [MON_WR] Detected WRITE : Addr = 100003c8, Data = 51c5e50a
# UVM_INFO /home/khang/Documents/SystemVerilog/Soc_RV32I/SoC/VERIFICATION/Monitor/axi_monitor.sv(47) @ 12215000: uvm_test_top.env.agent.monitor [MON_WR] Detected WRITE : Addr = 100003cc, Data = e4e7e2d3
# UVM_INFO /home/khang/Documents/SystemVerilog/Soc_RV32I/SoC/VERIFICATION/Monitor/axi_monitor.sv(47) @ 12265000: uvm_test_top.env.agent.monitor [MON_WR] Detected WRITE : Addr = 100003d0, Data = 11734479
# UVM_INFO /home/khang/Documents/SystemVerilog/Soc_RV32I/SoC/VERIFICATION/Monitor/axi_monitor.sv(47) @ 12315000: uvm_test_top.env.agent.monitor [MON_WR] Detected WRITE : Addr = 100003d4, Data = a82db731
# UVM_INFO /home/khang/Documents/SystemVerilog/Soc_RV32I/SoC/VERIFICATION/Monitor/axi_monitor.sv(47) @ 12365000: uvm_test_top.env.agent.monitor [MON_WR] Detected WRITE : Addr = 100003d8, Data = 208f8044
# UVM_INFO /home/khang/Documents/SystemVerilog/Soc_RV32I/SoC/VERIFICATION/Monitor/axi_monitor.sv(47) @ 12415000: uvm_test_top.env.agent.monitor [MON_WR] Detected WRITE : Addr = 100003dc, Data = d217e04f
# UVM_INFO /home/khang/Documents/SystemVerilog/Soc_RV32I/SoC/VERIFICATION/Monitor/axi_monitor.sv(47) @ 12465000: uvm_test_top.env.agent.monitor [MON_WR] Detected WRITE : Addr = 100003e0, Data = 52c53fe4
# UVM_INFO /home/khang/Documents/SystemVerilog/Soc_RV32I/SoC/VERIFICATION/Monitor/axi_monitor.sv(47) @ 12515000: uvm_test_top.env.agent.monitor [MON_WR] Detected WRITE : Addr = 100003e4, Data = 00ad3e65
# UVM_INFO /home/khang/Documents/SystemVerilog/Soc_RV32I/SoC/VERIFICATION/Monitor/axi_monitor.sv(47) @ 12565000: uvm_test_top.env.agent.monitor [MON_WR] Detected WRITE : Addr = 100003e8, Data = 9ca498d9
# UVM_INFO /home/khang/Documents/SystemVerilog/Soc_RV32I/SoC/VERIFICATION/Monitor/axi_monitor.sv(47) @ 12615000: uvm_test_top.env.agent.monitor [MON_WR] Detected WRITE : Addr = 100003ec, Data = b6e90084
# UVM_INFO /home/khang/Documents/SystemVerilog/Soc_RV32I/SoC/VERIFICATION/Monitor/axi_monitor.sv(47) @ 12665000: uvm_test_top.env.agent.monitor [MON_WR] Detected WRITE : Addr = 100003f0, Data = b8e3d012
# UVM_INFO /home/khang/Documents/SystemVerilog/Soc_RV32I/SoC/VERIFICATION/Monitor/axi_monitor.sv(47) @ 12715000: uvm_test_top.env.agent.monitor [MON_WR] Detected WRITE : Addr = 100003f4, Data = 1f5fd44d
# UVM_INFO /home/khang/Documents/SystemVerilog/Soc_RV32I/SoC/VERIFICATION/Monitor/axi_monitor.sv(47) @ 12765000: uvm_test_top.env.agent.monitor [MON_WR] Detected WRITE : Addr = 100003f8, Data = b91b5a72
# UVM_INFO /home/khang/Documents/SystemVerilog/Soc_RV32I/SoC/VERIFICATION/Monitor/axi_monitor.sv(47) @ 12815000: uvm_test_top.env.agent.monitor [MON_WR] Detected WRITE : Addr = 100003fc, Data = 1716ae2f
# UVM_INFO /home/khang/Documents/SystemVerilog/Soc_RV32I/SoC/VERIFICATION/Monitor/axi_monitor.sv(67) @ 12865000: uvm_test_top.env.agent.monitor [MON_RD] Deteced READ : Addr = 10000000, Data = 7722e611
# UVM_INFO /home/khang/Documents/SystemVerilog/Soc_RV32I/SoC/VERIFICATION/Scoreboard/axi_scoreboard.sv(23) @ 12865000: uvm_test_top.env.scoreboard [SCB_PASS] Match! Addr=10000000, Data=7722e611
# UVM_INFO /home/khang/Documents/SystemVerilog/Soc_RV32I/SoC/VERIFICATION/Monitor/axi_monitor.sv(67) @ 12915000: uvm_test_top.env.agent.monitor [MON_RD] Deteced READ : Addr = 10000004, Data = 3ecccfb3
# UVM_INFO /home/khang/Documents/SystemVerilog/Soc_RV32I/SoC/VERIFICATION/Scoreboard/axi_scoreboard.sv(23) @ 12915000: uvm_test_top.env.scoreboard [SCB_PASS] Match! Addr=10000004, Data=3ecccfb3
# UVM_INFO /home/khang/Documents/SystemVerilog/Soc_RV32I/SoC/VERIFICATION/Monitor/axi_monitor.sv(67) @ 12965000: uvm_test_top.env.agent.monitor [MON_RD] Deteced READ : Addr = 10000008, Data = 40a781cb
# UVM_INFO /home/khang/Documents/SystemVerilog/Soc_RV32I/SoC/VERIFICATION/Scoreboard/axi_scoreboard.sv(23) @ 12965000: uvm_test_top.env.scoreboard [SCB_PASS] Match! Addr=10000008, Data=40a781cb
# UVM_INFO /home/khang/Documents/SystemVerilog/Soc_RV32I/SoC/VERIFICATION/Monitor/axi_monitor.sv(67) @ 13015000: uvm_test_top.env.agent.monitor [MON_RD] Deteced READ : Addr = 1000000c, Data = 01c93b61
# UVM_INFO /home/khang/Documents/SystemVerilog/Soc_RV32I/SoC/VERIFICATION/Scoreboard/axi_scoreboard.sv(23) @ 13015000: uvm_test_top.env.scoreboard [SCB_PASS] Match! Addr=1000000c, Data=01c93b61
# UVM_INFO /home/khang/Documents/SystemVerilog/Soc_RV32I/SoC/VERIFICATION/Monitor/axi_monitor.sv(67) @ 13065000: uvm_test_top.env.agent.monitor [MON_RD] Deteced READ : Addr = 10000010, Data = cf4e0c20
# UVM_INFO /home/khang/Documents/SystemVerilog/Soc_RV32I/SoC/VERIFICATION/Scoreboard/axi_scoreboard.sv(23) @ 13065000: uvm_test_top.env.scoreboard [SCB_PASS] Match! Addr=10000010, Data=cf4e0c20
# UVM_INFO /home/khang/Documents/SystemVerilog/Soc_RV32I/SoC/VERIFICATION/Monitor/axi_monitor.sv(67) @ 13115000: uvm_test_top.env.agent.monitor [MON_RD] Deteced READ : Addr = 10000014, Data = 3179b3eb
# UVM_INFO /home/khang/Documents/SystemVerilog/Soc_RV32I/SoC/VERIFICATION/Scoreboard/axi_scoreboard.sv(23) @ 13115000: uvm_test_top.env.scoreboard [SCB_PASS] Match! Addr=10000014, Data=3179b3eb
# UVM_INFO /home/khang/Documents/SystemVerilog/Soc_RV32I/SoC/VERIFICATION/Monitor/axi_monitor.sv(67) @ 13165000: uvm_test_top.env.agent.monitor [MON_RD] Deteced READ : Addr = 10000018, Data = df1d58a6
# UVM_INFO /home/khang/Documents/SystemVerilog/Soc_RV32I/SoC/VERIFICATION/Scoreboard/axi_scoreboard.sv(23) @ 13165000: uvm_test_top.env.scoreboard [SCB_PASS] Match! Addr=10000018, Data=df1d58a6
# UVM_INFO /home/khang/Documents/SystemVerilog/Soc_RV32I/SoC/VERIFICATION/Monitor/axi_monitor.sv(67) @ 13215000: uvm_test_top.env.agent.monitor [MON_RD] Deteced READ : Addr = 1000001c, Data = b3ef4b0f
# UVM_INFO /home/khang/Documents/SystemVerilog/Soc_RV32I/SoC/VERIFICATION/Scoreboard/axi_scoreboard.sv(23) @ 13215000: uvm_test_top.env.scoreboard [SCB_PASS] Match! Addr=1000001c, Data=b3ef4b0f
# UVM_INFO /home/khang/Documents/SystemVerilog/Soc_RV32I/SoC/VERIFICATION/Monitor/axi_monitor.sv(67) @ 13265000: uvm_test_top.env.agent.monitor [MON_RD] Deteced READ : Addr = 10000020, Data = 734c1446
# UVM_INFO /home/khang/Documents/SystemVerilog/Soc_RV32I/SoC/VERIFICATION/Scoreboard/axi_scoreboard.sv(23) @ 13265000: uvm_test_top.env.scoreboard [SCB_PASS] Match! Addr=10000020, Data=734c1446
# UVM_INFO /home/khang/Documents/SystemVerilog/Soc_RV32I/SoC/VERIFICATION/Monitor/axi_monitor.sv(67) @ 13315000: uvm_test_top.env.agent.monitor [MON_RD] Deteced READ : Addr = 10000024, Data = b74ef07b
# UVM_INFO /home/khang/Documents/SystemVerilog/Soc_RV32I/SoC/VERIFICATION/Scoreboard/axi_scoreboard.sv(23) @ 13315000: uvm_test_top.env.scoreboard [SCB_PASS] Match! Addr=10000024, Data=b74ef07b
# UVM_INFO /home/khang/Documents/SystemVerilog/Soc_RV32I/SoC/VERIFICATION/Monitor/axi_monitor.sv(67) @ 13365000: uvm_test_top.env.agent.monitor [MON_RD] Deteced READ : Addr = 10000028, Data = 4bde6f37
# UVM_INFO /home/khang/Documents/SystemVerilog/Soc_RV32I/SoC/VERIFICATION/Scoreboard/axi_scoreboard.sv(23) @ 13365000: uvm_test_top.env.scoreboard [SCB_PASS] Match! Addr=10000028, Data=4bde6f37
# UVM_INFO /home/khang/Documents/SystemVerilog/Soc_RV32I/SoC/VERIFICATION/Monitor/axi_monitor.sv(67) @ 13415000: uvm_test_top.env.agent.monitor [MON_RD] Deteced READ : Addr = 1000002c, Data = 7d361f93
# UVM_INFO /home/khang/Documents/SystemVerilog/Soc_RV32I/SoC/VERIFICATION/Scoreboard/axi_scoreboard.sv(23) @ 13415000: uvm_test_top.env.scoreboard [SCB_PASS] Match! Addr=1000002c, Data=7d361f93
# UVM_INFO /home/khang/Documents/SystemVerilog/Soc_RV32I/SoC/VERIFICATION/Monitor/axi_monitor.sv(67) @ 13465000: uvm_test_top.env.agent.monitor [MON_RD] Deteced READ : Addr = 10000030, Data = 99706742
# UVM_INFO /home/khang/Documents/SystemVerilog/Soc_RV32I/SoC/VERIFICATION/Scoreboard/axi_scoreboard.sv(23) @ 13465000: uvm_test_top.env.scoreboard [SCB_PASS] Match! Addr=10000030, Data=99706742
# UVM_INFO /home/khang/Documents/SystemVerilog/Soc_RV32I/SoC/VERIFICATION/Monitor/axi_monitor.sv(67) @ 13515000: uvm_test_top.env.agent.monitor [MON_RD] Deteced READ : Addr = 10000034, Data = b5f9bd8c
# UVM_INFO /home/khang/Documents/SystemVerilog/Soc_RV32I/SoC/VERIFICATION/Scoreboard/axi_scoreboard.sv(23) @ 13515000: uvm_test_top.env.scoreboard [SCB_PASS] Match! Addr=10000034, Data=b5f9bd8c
# UVM_INFO /home/khang/Documents/SystemVerilog/Soc_RV32I/SoC/VERIFICATION/Monitor/axi_monitor.sv(67) @ 13565000: uvm_test_top.env.agent.monitor [MON_RD] Deteced READ : Addr = 10000038, Data = e4f8024e
# UVM_INFO /home/khang/Documents/SystemVerilog/Soc_RV32I/SoC/VERIFICATION/Scoreboard/axi_scoreboard.sv(23) @ 13565000: uvm_test_top.env.scoreboard [SCB_PASS] Match! Addr=10000038, Data=e4f8024e
# UVM_INFO /home/khang/Documents/SystemVerilog/Soc_RV32I/SoC/VERIFICATION/Monitor/axi_monitor.sv(67) @ 13615000: uvm_test_top.env.agent.monitor [MON_RD] Deteced READ : Addr = 1000003c, Data = 489496f3
# UVM_INFO /home/khang/Documents/SystemVerilog/Soc_RV32I/SoC/VERIFICATION/Scoreboard/axi_scoreboard.sv(23) @ 13615000: uvm_test_top.env.scoreboard [SCB_PASS] Match! Addr=1000003c, Data=489496f3
# UVM_INFO /home/khang/Documents/SystemVerilog/Soc_RV32I/SoC/VERIFICATION/Monitor/axi_monitor.sv(67) @ 13665000: uvm_test_top.env.agent.monitor [MON_RD] Deteced READ : Addr = 10000040, Data = b48189a1
# UVM_INFO /home/khang/Documents/SystemVerilog/Soc_RV32I/SoC/VERIFICATION/Scoreboard/axi_scoreboard.sv(23) @ 13665000: uvm_test_top.env.scoreboard [SCB_PASS] Match! Addr=10000040, Data=b48189a1
# UVM_INFO /home/khang/Documents/SystemVerilog/Soc_RV32I/SoC/VERIFICATION/Monitor/axi_monitor.sv(67) @ 13715000: uvm_test_top.env.agent.monitor [MON_RD] Deteced READ : Addr = 10000044, Data = 36925f69
# UVM_INFO /home/khang/Documents/SystemVerilog/Soc_RV32I/SoC/VERIFICATION/Scoreboard/axi_scoreboard.sv(23) @ 13715000: uvm_test_top.env.scoreboard [SCB_PASS] Match! Addr=10000044, Data=36925f69
# UVM_INFO /home/khang/Documents/SystemVerilog/Soc_RV32I/SoC/VERIFICATION/Monitor/axi_monitor.sv(67) @ 13765000: uvm_test_top.env.agent.monitor [MON_RD] Deteced READ : Addr = 10000048, Data = 98f907ee
# UVM_INFO /home/khang/Documents/SystemVerilog/Soc_RV32I/SoC/VERIFICATION/Scoreboard/axi_scoreboard.sv(23) @ 13765000: uvm_test_top.env.scoreboard [SCB_PASS] Match! Addr=10000048, Data=98f907ee
# UVM_INFO /home/khang/Documents/SystemVerilog/Soc_RV32I/SoC/VERIFICATION/Monitor/axi_monitor.sv(67) @ 13815000: uvm_test_top.env.agent.monitor [MON_RD] Deteced READ : Addr = 1000004c, Data = fe071c08
# UVM_INFO /home/khang/Documents/SystemVerilog/Soc_RV32I/SoC/VERIFICATION/Scoreboard/axi_scoreboard.sv(23) @ 13815000: uvm_test_top.env.scoreboard [SCB_PASS] Match! Addr=1000004c, Data=fe071c08
# UVM_INFO /home/khang/Documents/SystemVerilog/Soc_RV32I/SoC/VERIFICATION/Monitor/axi_monitor.sv(67) @ 13865000: uvm_test_top.env.agent.monitor [MON_RD] Deteced READ : Addr = 10000050, Data = df6da86b
# UVM_INFO /home/khang/Documents/SystemVerilog/Soc_RV32I/SoC/VERIFICATION/Scoreboard/axi_scoreboard.sv(23) @ 13865000: uvm_test_top.env.scoreboard [SCB_PASS] Match! Addr=10000050, Data=df6da86b
# UVM_INFO /home/khang/Documents/SystemVerilog/Soc_RV32I/SoC/VERIFICATION/Monitor/axi_monitor.sv(67) @ 13915000: uvm_test_top.env.agent.monitor [MON_RD] Deteced READ : Addr = 10000054, Data = 9575bbdb
# UVM_INFO /home/khang/Documents/SystemVerilog/Soc_RV32I/SoC/VERIFICATION/Scoreboard/axi_scoreboard.sv(23) @ 13915000: uvm_test_top.env.scoreboard [SCB_PASS] Match! Addr=10000054, Data=9575bbdb
# UVM_INFO /home/khang/Documents/SystemVerilog/Soc_RV32I/SoC/VERIFICATION/Monitor/axi_monitor.sv(67) @ 13965000: uvm_test_top.env.agent.monitor [MON_RD] Deteced READ : Addr = 10000058, Data = 59b69b0a
# UVM_INFO /home/khang/Documents/SystemVerilog/Soc_RV32I/SoC/VERIFICATION/Scoreboard/axi_scoreboard.sv(23) @ 13965000: uvm_test_top.env.scoreboard [SCB_PASS] Match! Addr=10000058, Data=59b69b0a
# UVM_INFO /home/khang/Documents/SystemVerilog/Soc_RV32I/SoC/VERIFICATION/Monitor/axi_monitor.sv(67) @ 14015000: uvm_test_top.env.agent.monitor [MON_RD] Deteced READ : Addr = 1000005c, Data = b890a1d6
# UVM_INFO /home/khang/Documents/SystemVerilog/Soc_RV32I/SoC/VERIFICATION/Scoreboard/axi_scoreboard.sv(23) @ 14015000: uvm_test_top.env.scoreboard [SCB_PASS] Match! Addr=1000005c, Data=b890a1d6
# UVM_INFO /home/khang/Documents/SystemVerilog/Soc_RV32I/SoC/VERIFICATION/Monitor/axi_monitor.sv(67) @ 14065000: uvm_test_top.env.agent.monitor [MON_RD] Deteced READ : Addr = 10000060, Data = 2004fb28
# UVM_INFO /home/khang/Documents/SystemVerilog/Soc_RV32I/SoC/VERIFICATION/Scoreboard/axi_scoreboard.sv(23) @ 14065000: uvm_test_top.env.scoreboard [SCB_PASS] Match! Addr=10000060, Data=2004fb28
# UVM_INFO /home/khang/Documents/SystemVerilog/Soc_RV32I/SoC/VERIFICATION/Monitor/axi_monitor.sv(67) @ 14115000: uvm_test_top.env.agent.monitor [MON_RD] Deteced READ : Addr = 10000064, Data = 01f23d93
# UVM_INFO /home/khang/Documents/SystemVerilog/Soc_RV32I/SoC/VERIFICATION/Scoreboard/axi_scoreboard.sv(23) @ 14115000: uvm_test_top.env.scoreboard [SCB_PASS] Match! Addr=10000064, Data=01f23d93
# UVM_INFO /home/khang/Documents/SystemVerilog/Soc_RV32I/SoC/VERIFICATION/Monitor/axi_monitor.sv(67) @ 14165000: uvm_test_top.env.agent.monitor [MON_RD] Deteced READ : Addr = 10000068, Data = 65d73d6e
# UVM_INFO /home/khang/Documents/SystemVerilog/Soc_RV32I/SoC/VERIFICATION/Scoreboard/axi_scoreboard.sv(23) @ 14165000: uvm_test_top.env.scoreboard [SCB_PASS] Match! Addr=10000068, Data=65d73d6e
# UVM_INFO /home/khang/Documents/SystemVerilog/Soc_RV32I/SoC/VERIFICATION/Monitor/axi_monitor.sv(67) @ 14215000: uvm_test_top.env.agent.monitor [MON_RD] Deteced READ : Addr = 1000006c, Data = ed0c3a64
# UVM_INFO /home/khang/Documents/SystemVerilog/Soc_RV32I/SoC/VERIFICATION/Scoreboard/axi_scoreboard.sv(23) @ 14215000: uvm_test_top.env.scoreboard [SCB_PASS] Match! Addr=1000006c, Data=ed0c3a64
# UVM_INFO /home/khang/Documents/SystemVerilog/Soc_RV32I/SoC/VERIFICATION/Monitor/axi_monitor.sv(67) @ 14265000: uvm_test_top.env.agent.monitor [MON_RD] Deteced READ : Addr = 10000070, Data = 17c4da60
# UVM_INFO /home/khang/Documents/SystemVerilog/Soc_RV32I/SoC/VERIFICATION/Scoreboard/axi_scoreboard.sv(23) @ 14265000: uvm_test_top.env.scoreboard [SCB_PASS] Match! Addr=10000070, Data=17c4da60
# UVM_INFO /home/khang/Documents/SystemVerilog/Soc_RV32I/SoC/VERIFICATION/Monitor/axi_monitor.sv(67) @ 14315000: uvm_test_top.env.agent.monitor [MON_RD] Deteced READ : Addr = 10000074, Data = 94e7ffbe
# UVM_INFO /home/khang/Documents/SystemVerilog/Soc_RV32I/SoC/VERIFICATION/Scoreboard/axi_scoreboard.sv(23) @ 14315000: uvm_test_top.env.scoreboard [SCB_PASS] Match! Addr=10000074, Data=94e7ffbe
# UVM_INFO /home/khang/Documents/SystemVerilog/Soc_RV32I/SoC/VERIFICATION/Monitor/axi_monitor.sv(67) @ 14365000: uvm_test_top.env.agent.monitor [MON_RD] Deteced READ : Addr = 10000078, Data = 8ff2b591
# UVM_INFO /home/khang/Documents/SystemVerilog/Soc_RV32I/SoC/VERIFICATION/Scoreboard/axi_scoreboard.sv(23) @ 14365000: uvm_test_top.env.scoreboard [SCB_PASS] Match! Addr=10000078, Data=8ff2b591
# UVM_INFO /home/khang/Documents/SystemVerilog/Soc_RV32I/SoC/VERIFICATION/Monitor/axi_monitor.sv(67) @ 14415000: uvm_test_top.env.agent.monitor [MON_RD] Deteced READ : Addr = 1000007c, Data = 3883b958
# UVM_INFO /home/khang/Documents/SystemVerilog/Soc_RV32I/SoC/VERIFICATION/Scoreboard/axi_scoreboard.sv(23) @ 14415000: uvm_test_top.env.scoreboard [SCB_PASS] Match! Addr=1000007c, Data=3883b958
# UVM_INFO /home/khang/Documents/SystemVerilog/Soc_RV32I/SoC/VERIFICATION/Monitor/axi_monitor.sv(67) @ 14465000: uvm_test_top.env.agent.monitor [MON_RD] Deteced READ : Addr = 10000080, Data = 70362124
# UVM_INFO /home/khang/Documents/SystemVerilog/Soc_RV32I/SoC/VERIFICATION/Scoreboard/axi_scoreboard.sv(23) @ 14465000: uvm_test_top.env.scoreboard [SCB_PASS] Match! Addr=10000080, Data=70362124
# UVM_INFO /home/khang/Documents/SystemVerilog/Soc_RV32I/SoC/VERIFICATION/Monitor/axi_monitor.sv(67) @ 14515000: uvm_test_top.env.agent.monitor [MON_RD] Deteced READ : Addr = 10000084, Data = a79d6707
# UVM_INFO /home/khang/Documents/SystemVerilog/Soc_RV32I/SoC/VERIFICATION/Scoreboard/axi_scoreboard.sv(23) @ 14515000: uvm_test_top.env.scoreboard [SCB_PASS] Match! Addr=10000084, Data=a79d6707
# UVM_INFO /home/khang/Documents/SystemVerilog/Soc_RV32I/SoC/VERIFICATION/Monitor/axi_monitor.sv(67) @ 14565000: uvm_test_top.env.agent.monitor [MON_RD] Deteced READ : Addr = 10000088, Data = 9c71f27b
# UVM_INFO /home/khang/Documents/SystemVerilog/Soc_RV32I/SoC/VERIFICATION/Scoreboard/axi_scoreboard.sv(23) @ 14565000: uvm_test_top.env.scoreboard [SCB_PASS] Match! Addr=10000088, Data=9c71f27b
# UVM_INFO /home/khang/Documents/SystemVerilog/Soc_RV32I/SoC/VERIFICATION/Monitor/axi_monitor.sv(67) @ 14615000: uvm_test_top.env.agent.monitor [MON_RD] Deteced READ : Addr = 1000008c, Data = b3c8c1b8
# UVM_INFO /home/khang/Documents/SystemVerilog/Soc_RV32I/SoC/VERIFICATION/Scoreboard/axi_scoreboard.sv(23) @ 14615000: uvm_test_top.env.scoreboard [SCB_PASS] Match! Addr=1000008c, Data=b3c8c1b8
# UVM_INFO /home/khang/Documents/SystemVerilog/Soc_RV32I/SoC/VERIFICATION/Monitor/axi_monitor.sv(67) @ 14665000: uvm_test_top.env.agent.monitor [MON_RD] Deteced READ : Addr = 10000090, Data = 1bfda41b
# UVM_INFO /home/khang/Documents/SystemVerilog/Soc_RV32I/SoC/VERIFICATION/Scoreboard/axi_scoreboard.sv(23) @ 14665000: uvm_test_top.env.scoreboard [SCB_PASS] Match! Addr=10000090, Data=1bfda41b
# UVM_INFO /home/khang/Documents/SystemVerilog/Soc_RV32I/SoC/VERIFICATION/Monitor/axi_monitor.sv(67) @ 14715000: uvm_test_top.env.agent.monitor [MON_RD] Deteced READ : Addr = 10000094, Data = 504153bd
# UVM_INFO /home/khang/Documents/SystemVerilog/Soc_RV32I/SoC/VERIFICATION/Scoreboard/axi_scoreboard.sv(23) @ 14715000: uvm_test_top.env.scoreboard [SCB_PASS] Match! Addr=10000094, Data=504153bd
# UVM_INFO /home/khang/Documents/SystemVerilog/Soc_RV32I/SoC/VERIFICATION/Monitor/axi_monitor.sv(67) @ 14765000: uvm_test_top.env.agent.monitor [MON_RD] Deteced READ : Addr = 10000098, Data = e1ebfc39
# UVM_INFO /home/khang/Documents/SystemVerilog/Soc_RV32I/SoC/VERIFICATION/Scoreboard/axi_scoreboard.sv(23) @ 14765000: uvm_test_top.env.scoreboard [SCB_PASS] Match! Addr=10000098, Data=e1ebfc39
# UVM_INFO /home/khang/Documents/SystemVerilog/Soc_RV32I/SoC/VERIFICATION/Monitor/axi_monitor.sv(67) @ 14815000: uvm_test_top.env.agent.monitor [MON_RD] Deteced READ : Addr = 1000009c, Data = f328c8c8
# UVM_INFO /home/khang/Documents/SystemVerilog/Soc_RV32I/SoC/VERIFICATION/Scoreboard/axi_scoreboard.sv(23) @ 14815000: uvm_test_top.env.scoreboard [SCB_PASS] Match! Addr=1000009c, Data=f328c8c8
# UVM_INFO /home/khang/Documents/SystemVerilog/Soc_RV32I/SoC/VERIFICATION/Monitor/axi_monitor.sv(67) @ 14865000: uvm_test_top.env.agent.monitor [MON_RD] Deteced READ : Addr = 100000a0, Data = 050d8a36
# UVM_INFO /home/khang/Documents/SystemVerilog/Soc_RV32I/SoC/VERIFICATION/Scoreboard/axi_scoreboard.sv(23) @ 14865000: uvm_test_top.env.scoreboard [SCB_PASS] Match! Addr=100000a0, Data=050d8a36
# UVM_INFO /home/khang/Documents/SystemVerilog/Soc_RV32I/SoC/VERIFICATION/Monitor/axi_monitor.sv(67) @ 14915000: uvm_test_top.env.agent.monitor [MON_RD] Deteced READ : Addr = 100000a4, Data = 0505c1d5
# UVM_INFO /home/khang/Documents/SystemVerilog/Soc_RV32I/SoC/VERIFICATION/Scoreboard/axi_scoreboard.sv(23) @ 14915000: uvm_test_top.env.scoreboard [SCB_PASS] Match! Addr=100000a4, Data=0505c1d5
# UVM_INFO /home/khang/Documents/SystemVerilog/Soc_RV32I/SoC/VERIFICATION/Monitor/axi_monitor.sv(67) @ 14965000: uvm_test_top.env.agent.monitor [MON_RD] Deteced READ : Addr = 100000a8, Data = 733a56be
# UVM_INFO /home/khang/Documents/SystemVerilog/Soc_RV32I/SoC/VERIFICATION/Scoreboard/axi_scoreboard.sv(23) @ 14965000: uvm_test_top.env.scoreboard [SCB_PASS] Match! Addr=100000a8, Data=733a56be
# UVM_INFO /home/khang/Documents/SystemVerilog/Soc_RV32I/SoC/VERIFICATION/Monitor/axi_monitor.sv(67) @ 15015000: uvm_test_top.env.agent.monitor [MON_RD] Deteced READ : Addr = 100000ac, Data = 3f6230c0
# UVM_INFO /home/khang/Documents/SystemVerilog/Soc_RV32I/SoC/VERIFICATION/Scoreboard/axi_scoreboard.sv(23) @ 15015000: uvm_test_top.env.scoreboard [SCB_PASS] Match! Addr=100000ac, Data=3f6230c0
# UVM_INFO /home/khang/Documents/SystemVerilog/Soc_RV32I/SoC/VERIFICATION/Monitor/axi_monitor.sv(67) @ 15065000: uvm_test_top.env.agent.monitor [MON_RD] Deteced READ : Addr = 100000b0, Data = 6b398cfb
# UVM_INFO /home/khang/Documents/SystemVerilog/Soc_RV32I/SoC/VERIFICATION/Scoreboard/axi_scoreboard.sv(23) @ 15065000: uvm_test_top.env.scoreboard [SCB_PASS] Match! Addr=100000b0, Data=6b398cfb
# UVM_INFO /home/khang/Documents/SystemVerilog/Soc_RV32I/SoC/VERIFICATION/Monitor/axi_monitor.sv(67) @ 15115000: uvm_test_top.env.agent.monitor [MON_RD] Deteced READ : Addr = 100000b4, Data = 238616ce
# UVM_INFO /home/khang/Documents/SystemVerilog/Soc_RV32I/SoC/VERIFICATION/Scoreboard/axi_scoreboard.sv(23) @ 15115000: uvm_test_top.env.scoreboard [SCB_PASS] Match! Addr=100000b4, Data=238616ce
# UVM_INFO /home/khang/Documents/SystemVerilog/Soc_RV32I/SoC/VERIFICATION/Monitor/axi_monitor.sv(67) @ 15165000: uvm_test_top.env.agent.monitor [MON_RD] Deteced READ : Addr = 100000b8, Data = a336c7b7
# UVM_INFO /home/khang/Documents/SystemVerilog/Soc_RV32I/SoC/VERIFICATION/Scoreboard/axi_scoreboard.sv(23) @ 15165000: uvm_test_top.env.scoreboard [SCB_PASS] Match! Addr=100000b8, Data=a336c7b7
# UVM_INFO /home/khang/Documents/SystemVerilog/Soc_RV32I/SoC/VERIFICATION/Monitor/axi_monitor.sv(67) @ 15215000: uvm_test_top.env.agent.monitor [MON_RD] Deteced READ : Addr = 100000bc, Data = d39e11f4
# UVM_INFO /home/khang/Documents/SystemVerilog/Soc_RV32I/SoC/VERIFICATION/Scoreboard/axi_scoreboard.sv(23) @ 15215000: uvm_test_top.env.scoreboard [SCB_PASS] Match! Addr=100000bc, Data=d39e11f4
# UVM_INFO /home/khang/Documents/SystemVerilog/Soc_RV32I/SoC/VERIFICATION/Monitor/axi_monitor.sv(67) @ 15265000: uvm_test_top.env.agent.monitor [MON_RD] Deteced READ : Addr = 100000c0, Data = 24034173
# UVM_INFO /home/khang/Documents/SystemVerilog/Soc_RV32I/SoC/VERIFICATION/Scoreboard/axi_scoreboard.sv(23) @ 15265000: uvm_test_top.env.scoreboard [SCB_PASS] Match! Addr=100000c0, Data=24034173
# UVM_INFO /home/khang/Documents/SystemVerilog/Soc_RV32I/SoC/VERIFICATION/Monitor/axi_monitor.sv(67) @ 15315000: uvm_test_top.env.agent.monitor [MON_RD] Deteced READ : Addr = 100000c4, Data = 4ef66800
# UVM_INFO /home/khang/Documents/SystemVerilog/Soc_RV32I/SoC/VERIFICATION/Scoreboard/axi_scoreboard.sv(23) @ 15315000: uvm_test_top.env.scoreboard [SCB_PASS] Match! Addr=100000c4, Data=4ef66800
# UVM_INFO /home/khang/Documents/SystemVerilog/Soc_RV32I/SoC/VERIFICATION/Monitor/axi_monitor.sv(67) @ 15365000: uvm_test_top.env.agent.monitor [MON_RD] Deteced READ : Addr = 100000c8, Data = 1fd5d726
# UVM_INFO /home/khang/Documents/SystemVerilog/Soc_RV32I/SoC/VERIFICATION/Scoreboard/axi_scoreboard.sv(23) @ 15365000: uvm_test_top.env.scoreboard [SCB_PASS] Match! Addr=100000c8, Data=1fd5d726
# UVM_INFO /home/khang/Documents/SystemVerilog/Soc_RV32I/SoC/VERIFICATION/Monitor/axi_monitor.sv(67) @ 15415000: uvm_test_top.env.agent.monitor [MON_RD] Deteced READ : Addr = 100000cc, Data = 7543dfb8
# UVM_INFO /home/khang/Documents/SystemVerilog/Soc_RV32I/SoC/VERIFICATION/Scoreboard/axi_scoreboard.sv(23) @ 15415000: uvm_test_top.env.scoreboard [SCB_PASS] Match! Addr=100000cc, Data=7543dfb8
# UVM_INFO /home/khang/Documents/SystemVerilog/Soc_RV32I/SoC/VERIFICATION/Monitor/axi_monitor.sv(67) @ 15465000: uvm_test_top.env.agent.monitor [MON_RD] Deteced READ : Addr = 100000d0, Data = aa7564af
# UVM_INFO /home/khang/Documents/SystemVerilog/Soc_RV32I/SoC/VERIFICATION/Scoreboard/axi_scoreboard.sv(23) @ 15465000: uvm_test_top.env.scoreboard [SCB_PASS] Match! Addr=100000d0, Data=aa7564af
# UVM_INFO /home/khang/Documents/SystemVerilog/Soc_RV32I/SoC/VERIFICATION/Monitor/axi_monitor.sv(67) @ 15515000: uvm_test_top.env.agent.monitor [MON_RD] Deteced READ : Addr = 100000d4, Data = 079b5f2d
# UVM_INFO /home/khang/Documents/SystemVerilog/Soc_RV32I/SoC/VERIFICATION/Scoreboard/axi_scoreboard.sv(23) @ 15515000: uvm_test_top.env.scoreboard [SCB_PASS] Match! Addr=100000d4, Data=079b5f2d
# UVM_INFO /home/khang/Documents/SystemVerilog/Soc_RV32I/SoC/VERIFICATION/Monitor/axi_monitor.sv(67) @ 15565000: uvm_test_top.env.agent.monitor [MON_RD] Deteced READ : Addr = 100000d8, Data = 91900c62
# UVM_INFO /home/khang/Documents/SystemVerilog/Soc_RV32I/SoC/VERIFICATION/Scoreboard/axi_scoreboard.sv(23) @ 15565000: uvm_test_top.env.scoreboard [SCB_PASS] Match! Addr=100000d8, Data=91900c62
# UVM_INFO /home/khang/Documents/SystemVerilog/Soc_RV32I/SoC/VERIFICATION/Monitor/axi_monitor.sv(67) @ 15615000: uvm_test_top.env.agent.monitor [MON_RD] Deteced READ : Addr = 100000dc, Data = 9bb8c5de
# UVM_INFO /home/khang/Documents/SystemVerilog/Soc_RV32I/SoC/VERIFICATION/Scoreboard/axi_scoreboard.sv(23) @ 15615000: uvm_test_top.env.scoreboard [SCB_PASS] Match! Addr=100000dc, Data=9bb8c5de
# UVM_INFO /home/khang/Documents/SystemVerilog/Soc_RV32I/SoC/VERIFICATION/Monitor/axi_monitor.sv(67) @ 15665000: uvm_test_top.env.agent.monitor [MON_RD] Deteced READ : Addr = 100000e0, Data = 9349898c
# UVM_INFO /home/khang/Documents/SystemVerilog/Soc_RV32I/SoC/VERIFICATION/Scoreboard/axi_scoreboard.sv(23) @ 15665000: uvm_test_top.env.scoreboard [SCB_PASS] Match! Addr=100000e0, Data=9349898c
# UVM_INFO /home/khang/Documents/SystemVerilog/Soc_RV32I/SoC/VERIFICATION/Monitor/axi_monitor.sv(67) @ 15715000: uvm_test_top.env.agent.monitor [MON_RD] Deteced READ : Addr = 100000e4, Data = 43eb287e
# UVM_INFO /home/khang/Documents/SystemVerilog/Soc_RV32I/SoC/VERIFICATION/Scoreboard/axi_scoreboard.sv(23) @ 15715000: uvm_test_top.env.scoreboard [SCB_PASS] Match! Addr=100000e4, Data=43eb287e
# UVM_INFO /home/khang/Documents/SystemVerilog/Soc_RV32I/SoC/VERIFICATION/Monitor/axi_monitor.sv(67) @ 15765000: uvm_test_top.env.agent.monitor [MON_RD] Deteced READ : Addr = 100000e8, Data = 68b91989
# UVM_INFO /home/khang/Documents/SystemVerilog/Soc_RV32I/SoC/VERIFICATION/Scoreboard/axi_scoreboard.sv(23) @ 15765000: uvm_test_top.env.scoreboard [SCB_PASS] Match! Addr=100000e8, Data=68b91989
# UVM_INFO /home/khang/Documents/SystemVerilog/Soc_RV32I/SoC/VERIFICATION/Monitor/axi_monitor.sv(67) @ 15815000: uvm_test_top.env.agent.monitor [MON_RD] Deteced READ : Addr = 100000ec, Data = 4ab5fb13
# UVM_INFO /home/khang/Documents/SystemVerilog/Soc_RV32I/SoC/VERIFICATION/Scoreboard/axi_scoreboard.sv(23) @ 15815000: uvm_test_top.env.scoreboard [SCB_PASS] Match! Addr=100000ec, Data=4ab5fb13
# UVM_INFO /home/khang/Documents/SystemVerilog/Soc_RV32I/SoC/VERIFICATION/Monitor/axi_monitor.sv(67) @ 15865000: uvm_test_top.env.agent.monitor [MON_RD] Deteced READ : Addr = 100000f0, Data = fdbc1a7d
# UVM_INFO /home/khang/Documents/SystemVerilog/Soc_RV32I/SoC/VERIFICATION/Scoreboard/axi_scoreboard.sv(23) @ 15865000: uvm_test_top.env.scoreboard [SCB_PASS] Match! Addr=100000f0, Data=fdbc1a7d
# UVM_INFO /home/khang/Documents/SystemVerilog/Soc_RV32I/SoC/VERIFICATION/Monitor/axi_monitor.sv(67) @ 15915000: uvm_test_top.env.agent.monitor [MON_RD] Deteced READ : Addr = 100000f4, Data = c851e276
# UVM_INFO /home/khang/Documents/SystemVerilog/Soc_RV32I/SoC/VERIFICATION/Scoreboard/axi_scoreboard.sv(23) @ 15915000: uvm_test_top.env.scoreboard [SCB_PASS] Match! Addr=100000f4, Data=c851e276
# UVM_INFO /home/khang/Documents/SystemVerilog/Soc_RV32I/SoC/VERIFICATION/Monitor/axi_monitor.sv(67) @ 15965000: uvm_test_top.env.agent.monitor [MON_RD] Deteced READ : Addr = 100000f8, Data = 4d175469
# UVM_INFO /home/khang/Documents/SystemVerilog/Soc_RV32I/SoC/VERIFICATION/Scoreboard/axi_scoreboard.sv(23) @ 15965000: uvm_test_top.env.scoreboard [SCB_PASS] Match! Addr=100000f8, Data=4d175469
# UVM_INFO /home/khang/Documents/SystemVerilog/Soc_RV32I/SoC/VERIFICATION/Monitor/axi_monitor.sv(67) @ 16015000: uvm_test_top.env.agent.monitor [MON_RD] Deteced READ : Addr = 100000fc, Data = 89485667
# UVM_INFO /home/khang/Documents/SystemVerilog/Soc_RV32I/SoC/VERIFICATION/Scoreboard/axi_scoreboard.sv(23) @ 16015000: uvm_test_top.env.scoreboard [SCB_PASS] Match! Addr=100000fc, Data=89485667
# UVM_INFO /home/khang/Documents/SystemVerilog/Soc_RV32I/SoC/VERIFICATION/Monitor/axi_monitor.sv(67) @ 16065000: uvm_test_top.env.agent.monitor [MON_RD] Deteced READ : Addr = 10000100, Data = ec179452
# UVM_INFO /home/khang/Documents/SystemVerilog/Soc_RV32I/SoC/VERIFICATION/Scoreboard/axi_scoreboard.sv(23) @ 16065000: uvm_test_top.env.scoreboard [SCB_PASS] Match! Addr=10000100, Data=ec179452
# UVM_INFO /home/khang/Documents/SystemVerilog/Soc_RV32I/SoC/VERIFICATION/Monitor/axi_monitor.sv(67) @ 16115000: uvm_test_top.env.agent.monitor [MON_RD] Deteced READ : Addr = 10000104, Data = 02bcb330
# UVM_INFO /home/khang/Documents/SystemVerilog/Soc_RV32I/SoC/VERIFICATION/Scoreboard/axi_scoreboard.sv(23) @ 16115000: uvm_test_top.env.scoreboard [SCB_PASS] Match! Addr=10000104, Data=02bcb330
# UVM_INFO /home/khang/Documents/SystemVerilog/Soc_RV32I/SoC/VERIFICATION/Monitor/axi_monitor.sv(67) @ 16165000: uvm_test_top.env.agent.monitor [MON_RD] Deteced READ : Addr = 10000108, Data = 3daccf59
# UVM_INFO /home/khang/Documents/SystemVerilog/Soc_RV32I/SoC/VERIFICATION/Scoreboard/axi_scoreboard.sv(23) @ 16165000: uvm_test_top.env.scoreboard [SCB_PASS] Match! Addr=10000108, Data=3daccf59
# UVM_INFO /home/khang/Documents/SystemVerilog/Soc_RV32I/SoC/VERIFICATION/Monitor/axi_monitor.sv(67) @ 16215000: uvm_test_top.env.agent.monitor [MON_RD] Deteced READ : Addr = 1000010c, Data = 82a935e4
# UVM_INFO /home/khang/Documents/SystemVerilog/Soc_RV32I/SoC/VERIFICATION/Scoreboard/axi_scoreboard.sv(23) @ 16215000: uvm_test_top.env.scoreboard [SCB_PASS] Match! Addr=1000010c, Data=82a935e4
# UVM_INFO /home/khang/Documents/SystemVerilog/Soc_RV32I/SoC/VERIFICATION/Monitor/axi_monitor.sv(67) @ 16265000: uvm_test_top.env.agent.monitor [MON_RD] Deteced READ : Addr = 10000110, Data = 5b73b84b
# UVM_INFO /home/khang/Documents/SystemVerilog/Soc_RV32I/SoC/VERIFICATION/Scoreboard/axi_scoreboard.sv(23) @ 16265000: uvm_test_top.env.scoreboard [SCB_PASS] Match! Addr=10000110, Data=5b73b84b
# UVM_INFO /home/khang/Documents/SystemVerilog/Soc_RV32I/SoC/VERIFICATION/Monitor/axi_monitor.sv(67) @ 16315000: uvm_test_top.env.agent.monitor [MON_RD] Deteced READ : Addr = 10000114, Data = e7aa2513
# UVM_INFO /home/khang/Documents/SystemVerilog/Soc_RV32I/SoC/VERIFICATION/Scoreboard/axi_scoreboard.sv(23) @ 16315000: uvm_test_top.env.scoreboard [SCB_PASS] Match! Addr=10000114, Data=e7aa2513
# UVM_INFO /home/khang/Documents/SystemVerilog/Soc_RV32I/SoC/VERIFICATION/Monitor/axi_monitor.sv(67) @ 16365000: uvm_test_top.env.agent.monitor [MON_RD] Deteced READ : Addr = 10000118, Data = 03b53176
# UVM_INFO /home/khang/Documents/SystemVerilog/Soc_RV32I/SoC/VERIFICATION/Scoreboard/axi_scoreboard.sv(23) @ 16365000: uvm_test_top.env.scoreboard [SCB_PASS] Match! Addr=10000118, Data=03b53176
# UVM_INFO /home/khang/Documents/SystemVerilog/Soc_RV32I/SoC/VERIFICATION/Monitor/axi_monitor.sv(67) @ 16415000: uvm_test_top.env.agent.monitor [MON_RD] Deteced READ : Addr = 1000011c, Data = e2401c97
# UVM_INFO /home/khang/Documents/SystemVerilog/Soc_RV32I/SoC/VERIFICATION/Scoreboard/axi_scoreboard.sv(23) @ 16415000: uvm_test_top.env.scoreboard [SCB_PASS] Match! Addr=1000011c, Data=e2401c97
# UVM_INFO /home/khang/Documents/SystemVerilog/Soc_RV32I/SoC/VERIFICATION/Monitor/axi_monitor.sv(67) @ 16465000: uvm_test_top.env.agent.monitor [MON_RD] Deteced READ : Addr = 10000120, Data = cc3083ff
# UVM_INFO /home/khang/Documents/SystemVerilog/Soc_RV32I/SoC/VERIFICATION/Scoreboard/axi_scoreboard.sv(23) @ 16465000: uvm_test_top.env.scoreboard [SCB_PASS] Match! Addr=10000120, Data=cc3083ff
# UVM_INFO /home/khang/Documents/SystemVerilog/Soc_RV32I/SoC/VERIFICATION/Monitor/axi_monitor.sv(67) @ 16515000: uvm_test_top.env.agent.monitor [MON_RD] Deteced READ : Addr = 10000124, Data = 87e518ce
# UVM_INFO /home/khang/Documents/SystemVerilog/Soc_RV32I/SoC/VERIFICATION/Scoreboard/axi_scoreboard.sv(23) @ 16515000: uvm_test_top.env.scoreboard [SCB_PASS] Match! Addr=10000124, Data=87e518ce
