--- [GEN_MEM] Generate new instruction memory ---
python3 gen_mem.py
Generated /home/khang/Documents/SystemVerilog/Soc_RV32I/SoC/SIM/cpu_instr.mem  (seed=None)
Generated /home/khang/Documents/SystemVerilog/Soc_RV32I/SoC/SIM/instr.mem  (seed=None)
--- ROOT: /home/khang/Documents/SystemVerilog/Soc_RV32I/SoC ---
rm -rf work
vlib work
--- [1/4] Compile Interfaces ---
vlog -sv +acc -L uvm -cover bcst /home/khang/Documents/SystemVerilog/Soc_RV32I/SoC/INF/*.sv
QuestaSim-64 vlog 2024.1 Compiler 2024.02 Feb  1 2024
Start time: 19:38:18 on May 06,2026
vlog -sv "+acc" -L uvm -cover bcst /home/khang/Documents/SystemVerilog/Soc_RV32I/SoC/INF/clk_rst_inf.sv /home/khang/Documents/SystemVerilog/Soc_RV32I/SoC/INF/soc_inf.sv 
-- Compiling interface clk_rst_inf
-- Compiling interface soc_inf

Top level modules:
	--none--
End time: 19:38:18 on May 06,2026, Elapsed time: 0:00:00
Errors: 0, Warnings: 0
--- [2/4] Compile DUT ---
vlog -sv +acc -L uvm -cover bcst +incdir+/home/khang/Documents/SystemVerilog/Soc_RV32I/SoC/DUT/CPU /home/khang/Documents/SystemVerilog/Soc_RV32I/SoC/DUT/Slaves/*.sv /home/khang/Documents/SystemVerilog/Soc_RV32I/SoC/DUT/CPU/*.sv /home/khang/Documents/SystemVerilog/Soc_RV32I/SoC/DUT/Master/*.sv /home/khang/Documents/SystemVerilog/Soc_RV32I/SoC/DUT/AXI_Master.sv /home/khang/Documents/SystemVerilog/Soc_RV32I/SoC/DUT/AXI4_Lite_Interconnect.sv /home/khang/Documents/SystemVerilog/Soc_RV32I/SoC/DUT/TOP.sv
QuestaSim-64 vlog 2024.1 Compiler 2024.02 Feb  1 2024
Start time: 19:38:18 on May 06,2026
vlog -sv "+acc" -L uvm -cover bcst "+incdir+/home/khang/Documents/SystemVerilog/Soc_RV32I/SoC/DUT/CPU" /home/khang/Documents/SystemVerilog/Soc_RV32I/SoC/DUT/Slaves/RAM.sv /home/khang/Documents/SystemVerilog/Soc_RV32I/SoC/DUT/Slaves/SPI.sv /home/khang/Documents/SystemVerilog/Soc_RV32I/SoC/DUT/Slaves/Timer.sv /home/khang/Documents/SystemVerilog/Soc_RV32I/SoC/DUT/Slaves/UART.sv /home/khang/Documents/SystemVerilog/Soc_RV32I/SoC/DUT/CPU/ALU.sv /home/khang/Documents/SystemVerilog/Soc_RV32I/SoC/DUT/CPU/ALUControl.sv /home/khang/Documents/SystemVerilog/Soc_RV32I/SoC/DUT/CPU/ControlUnit.sv /home/khang/Documents/SystemVerilog/Soc_RV32I/SoC/DUT/CPU/EX_MEM.sv /home/khang/Documents/SystemVerilog/Soc_RV32I/SoC/DUT/CPU/HazardUnit.sv /home/khang/Documents/SystemVerilog/Soc_RV32I/SoC/DUT/CPU/ID_EX.sv /home/khang/Documents/SystemVerilog/Soc_RV32I/SoC/DUT/CPU/IF_ID.sv /home/khang/Documents/SystemVerilog/Soc_RV32I/SoC/DUT/CPU/MEM_WB.sv /home/khang/Documents/SystemVerilog/Soc_RV32I/SoC/DUT/CPU/MainDecoder.sv /home/khang/Documents/SystemVerilog/Soc_RV32I/SoC/DUT/CPU/RegFile.sv /home/khang/Documents/SystemVerilog/Soc_RV32I/SoC/DUT/CPU/data_mem.sv /home/khang/Documents/SystemVerilog/Soc_RV32I/SoC/DUT/CPU/instr_mem.sv /home/khang/Documents/SystemVerilog/Soc_RV32I/SoC/DUT/CPU/pc.sv /home/khang/Documents/SystemVerilog/Soc_RV32I/SoC/DUT/CPU/signExtend.sv /home/khang/Documents/SystemVerilog/Soc_RV32I/SoC/DUT/Master/CPU.sv /home/khang/Documents/SystemVerilog/Soc_RV32I/SoC/DUT/Master/LSU.sv /home/khang/Documents/SystemVerilog/Soc_RV32I/SoC/DUT/AXI_Master.sv /home/khang/Documents/SystemVerilog/Soc_RV32I/SoC/DUT/AXI4_Lite_Interconnect.sv /home/khang/Documents/SystemVerilog/Soc_RV32I/SoC/DUT/TOP.sv 
-- Compiling module RAM
-- Compiling module SPI
-- Compiling module Timer
-- Compiling module UART
-- Compiling module ALU
-- Compiling module ALUControl
-- Compiling module ControlUnit
-- Compiling module EX_MEM
-- Compiling module HazardUnit
-- Compiling module ID_EX
-- Compiling module IF_ID
-- Compiling module MEM_WB
-- Compiling module MainDecoder
-- Compiling module RegFile
-- Compiling module data_mem
-- Compiling module instr_mem
-- Compiling module pc_reg
-- Compiling module signExtend
-- Compiling module CPU
-- Compiling module LSU
-- Compiling module AXI_Master
-- Compiling module AXI4_Lite_Interconnect
** Warning: /home/khang/Documents/SystemVerilog/Soc_RV32I/SoC/DUT/AXI4_Lite_Interconnect.sv(43): (vlog-13314) Defaulting port 's_axi_bresp' kind to 'var' rather than 'wire' due to default compile option setting of -svinputport=relaxed.
** Warning: /home/khang/Documents/SystemVerilog/Soc_RV32I/SoC/DUT/AXI4_Lite_Interconnect.sv(52): (vlog-13314) Defaulting port 's_axi_rdata' kind to 'var' rather than 'wire' due to default compile option setting of -svinputport=relaxed.
** Warning: /home/khang/Documents/SystemVerilog/Soc_RV32I/SoC/DUT/AXI4_Lite_Interconnect.sv(53): (vlog-13314) Defaulting port 's_axi_rresp' kind to 'var' rather than 'wire' due to default compile option setting of -svinputport=relaxed.
-- Compiling module TOP

Top level modules:
	data_mem
	instr_mem
	TOP
End time: 19:38:18 on May 06,2026, Elapsed time: 0:00:00
Errors: 0, Warnings: 3
--- [3/4] Compile UVM ---
vlog -sv +acc -L uvm -cover bcst +incdir+/home/khang/Documents/SystemVerilog/Soc_RV32I/SoC/VERIFICATION/Transaction \
            +incdir+/home/khang/Documents/SystemVerilog/Soc_RV32I/SoC/VERIFICATION/Sequencer \
            +incdir+/home/khang/Documents/SystemVerilog/Soc_RV32I/SoC/VERIFICATION/Monitor \
            +incdir+/home/khang/Documents/SystemVerilog/Soc_RV32I/SoC/VERIFICATION/Driver \
            +incdir+/home/khang/Documents/SystemVerilog/Soc_RV32I/SoC/VERIFICATION/Agent \
            +incdir+/home/khang/Documents/SystemVerilog/Soc_RV32I/SoC/VERIFICATION/Coverage \
            +incdir+/home/khang/Documents/SystemVerilog/Soc_RV32I/SoC/VERIFICATION/Env \
            +incdir+/home/khang/Documents/SystemVerilog/Soc_RV32I/SoC/VERIFICATION/Scoreboard \
            +incdir+/home/khang/Documents/SystemVerilog/Soc_RV32I/SoC/VERIFICATION/Sequence \
            +incdir+/home/khang/Documents/SystemVerilog/Soc_RV32I/SoC/VERIFICATION/Test \
            /home/khang/Documents/SystemVerilog/Soc_RV32I/SoC/VERIFICATION/Package/soc_pkg.svh
QuestaSim-64 vlog 2024.1 Compiler 2024.02 Feb  1 2024
Start time: 19:38:18 on May 06,2026
vlog -sv "+acc" -L uvm -cover bcst "+incdir+/home/khang/Documents/SystemVerilog/Soc_RV32I/SoC/VERIFICATION/Transaction" "+incdir+/home/khang/Documents/SystemVerilog/Soc_RV32I/SoC/VERIFICATION/Sequencer" "+incdir+/home/khang/Documents/SystemVerilog/Soc_RV32I/SoC/VERIFICATION/Monitor" "+incdir+/home/khang/Documents/SystemVerilog/Soc_RV32I/SoC/VERIFICATION/Driver" "+incdir+/home/khang/Documents/SystemVerilog/Soc_RV32I/SoC/VERIFICATION/Agent" "+incdir+/home/khang/Documents/SystemVerilog/Soc_RV32I/SoC/VERIFICATION/Coverage" "+incdir+/home/khang/Documents/SystemVerilog/Soc_RV32I/SoC/VERIFICATION/Env" "+incdir+/home/khang/Documents/SystemVerilog/Soc_RV32I/SoC/VERIFICATION/Scoreboard" "+incdir+/home/khang/Documents/SystemVerilog/Soc_RV32I/SoC/VERIFICATION/Sequence" "+incdir+/home/khang/Documents/SystemVerilog/Soc_RV32I/SoC/VERIFICATION/Test" /home/khang/Documents/SystemVerilog/Soc_RV32I/SoC/VERIFICATION/Package/soc_pkg.svh 
-- Compiling package soc_pkg
-- Importing package mtiUvm.uvm_pkg (uvm-1.1d Built-in)
** Note: (vlog-2286) /home/khang/Documents/SystemVerilog/Soc_RV32I/SoC/VERIFICATION/Package/soc_pkg.svh(3): Using implicit +incdir+/tools/mq/2024.1/questasim/uvm-1.1d/../verilog_src/uvm-1.1d/src from import uvm_pkg

Top level modules:
	--none--
End time: 19:38:18 on May 06,2026, Elapsed time: 0:00:00
Errors: 0, Warnings: 0
--- [4/4] Compile Top TB ---
vlog -sv +acc -L uvm -cover bcst /home/khang/Documents/SystemVerilog/Soc_RV32I/SoC/VERIFICATION/top_tb.sv
QuestaSim-64 vlog 2024.1 Compiler 2024.02 Feb  1 2024
Start time: 19:38:18 on May 06,2026
vlog -sv "+acc" -L uvm -cover bcst /home/khang/Documents/SystemVerilog/Soc_RV32I/SoC/VERIFICATION/top_tb.sv 
-- Compiling module top_tb
-- Importing package mtiUvm.uvm_pkg (uvm-1.1d Built-in)
-- Importing package soc_pkg
** Note: (vlog-2286) /home/khang/Documents/SystemVerilog/Soc_RV32I/SoC/VERIFICATION/top_tb.sv(6): Using implicit +incdir+/tools/mq/2024.1/questasim/uvm-1.1d/../verilog_src/uvm-1.1d/src from import uvm_pkg

Top level modules:
	top_tb
End time: 19:38:18 on May 06,2026, Elapsed time: 0:00:00
Errors: 0, Warnings: 0
--- [OPTIMIZE] ---
vopt +acc +cover top_tb -o vopt_top
QuestaSim-64 vopt 2024.1 Compiler 2024.02 Feb  1 2024
** Warning: (vopt-10587) Some optimizations are turned off because the +acc switch is in effect. This will cause your simulation to run slowly. Please use -access/-debug to maintain needed visibility.
Start time: 19:38:18 on May 06,2026
vopt "+acc" "+cover" top_tb -o vopt_top 

Top level modules:
	top_tb

Analyzing design...
** Warning: (vopt-10016) Option '-L uvm' was detected by vlog for design-unit 'top_tb', but was not detected by vopt. The vlog option will be ignored.
-- Loading module top_tb
-- Importing package mtiUvm.uvm_pkg (uvm-1.1d Built-in)
** Warning: (vopt-10016) Option '-L uvm' was detected by vlog for design-unit 'soc_pkg', but was not detected by vopt. The vlog option will be ignored.
-- Importing package soc_pkg
-- Loading package mtiUvm.questa_uvm_pkg
** Warning: (vopt-10016) Option '-L uvm' was detected by vlog for design-unit 'clk_rst_inf', but was not detected by vopt. The vlog option will be ignored.
-- Loading interface clk_rst_inf
** Warning: (vopt-10016) Option '-L uvm' was detected by vlog for design-unit 'soc_inf', but was not detected by vopt. The vlog option will be ignored.
-- Loading interface soc_inf
** Warning: (vopt-10016) Option '-L uvm' was detected by vlog for design-unit 'TOP', but was not detected by vopt. The vlog option will be ignored.
-- Loading module TOP
** Warning: (vopt-10016) Option '-L uvm' was detected by vlog for design-unit 'AXI_Master', but was not detected by vopt. The vlog option will be ignored.
-- Loading module AXI_Master
** Warning: (vopt-10016) Option '-L uvm' was detected by vlog for design-unit 'CPU', but was not detected by vopt. The vlog option will be ignored.
-- Loading module CPU
** Warning: (vopt-10016) Option '-L uvm' was detected by vlog for design-unit 'pc_reg', but was not detected by vopt. The vlog option will be ignored.
-- Loading module pc_reg
** Warning: (vopt-10016) Option '-L uvm' was detected by vlog for design-unit 'IF_ID', but was not detected by vopt. The vlog option will be ignored.
-- Loading module IF_ID
** Warning: (vopt-10016) Option '-L uvm' was detected by vlog for design-unit 'ControlUnit', but was not detected by vopt. The vlog option will be ignored.
-- Loading module ControlUnit
** Warning: (vopt-10016) Option '-L uvm' was detected by vlog for design-unit 'MainDecoder', but was not detected by vopt. The vlog option will be ignored.
-- Loading module MainDecoder
** Warning: (vopt-10016) Option '-L uvm' was detected by vlog for design-unit 'ALUControl', but was not detected by vopt. The vlog option will be ignored.
-- Loading module ALUControl
** Warning: (vopt-10016) Option '-L uvm' was detected by vlog for design-unit 'RegFile', but was not detected by vopt. The vlog option will be ignored.
-- Loading module RegFile
** Warning: (vopt-10016) Option '-L uvm' was detected by vlog for design-unit 'signExtend', but was not detected by vopt. The vlog option will be ignored.
-- Loading module signExtend
** Warning: (vopt-10016) Option '-L uvm' was detected by vlog for design-unit 'ID_EX', but was not detected by vopt. The vlog option will be ignored.
-- Loading module ID_EX
** Warning: (vopt-10016) Option '-L uvm' was detected by vlog for design-unit 'ALU', but was not detected by vopt. The vlog option will be ignored.
-- Loading module ALU
** Warning: (vopt-10016) Option '-L uvm' was detected by vlog for design-unit 'EX_MEM', but was not detected by vopt. The vlog option will be ignored.
-- Loading module EX_MEM
** Warning: (vopt-10016) Option '-L uvm' was detected by vlog for design-unit 'MEM_WB', but was not detected by vopt. The vlog option will be ignored.
-- Loading module MEM_WB
** Warning: (vopt-10016) Option '-L uvm' was detected by vlog for design-unit 'HazardUnit', but was not detected by vopt. The vlog option will be ignored.
-- Loading module HazardUnit
** Warning: (vopt-10016) Option '-L uvm' was detected by vlog for design-unit 'LSU', but was not detected by vopt. The vlog option will be ignored.
-- Loading module LSU
** Warning: (vopt-10016) Option '-L uvm' was detected by vlog for design-unit 'AXI4_Lite_Interconnect', but was not detected by vopt. The vlog option will be ignored.
-- Loading module AXI4_Lite_Interconnect
** Warning: (vopt-10016) Option '-L uvm' was detected by vlog for design-unit 'RAM', but was not detected by vopt. The vlog option will be ignored.
-- Loading module RAM
** Warning: (vopt-10016) Option '-L uvm' was detected by vlog for design-unit 'Timer', but was not detected by vopt. The vlog option will be ignored.
-- Loading module Timer
** Warning: (vopt-10016) Option '-L uvm' was detected by vlog for design-unit 'UART', but was not detected by vopt. The vlog option will be ignored.
-- Loading module UART
** Warning: (vopt-10016) Option '-L uvm' was detected by vlog for design-unit 'SPI', but was not detected by vopt. The vlog option will be ignored.
-- Loading module SPI
** Warning: (vopt-13408) Code coverage will be disabled for some DUs/packages/classes and source files.
Optimizing 30 design-units (inlining 0/25 module instances):
-- Optimizing package mtiUvm.questa_uvm_pkg(fast)
-- Optimizing package soc_pkg(fast)
-- Optimizing interface soc_inf(fast__2)
-- Optimizing module LSU(fast)
** Note: (vopt-143) Recognized 1 FSM in module "LSU(fast)".
-- Optimizing module AXI4_Lite_Interconnect(fast)
** Warning: /home/khang/Documents/SystemVerilog/Soc_RV32I/SoC/DUT/AXI4_Lite_Interconnect.sv(43): (vopt-13314) Defaulting port 's_axi_bresp' kind to 'var' rather than 'wire' due to default compile option setting of -svinputport=relaxed.
** Warning: /home/khang/Documents/SystemVerilog/Soc_RV32I/SoC/DUT/AXI4_Lite_Interconnect.sv(52): (vopt-13314) Defaulting port 's_axi_rdata' kind to 'var' rather than 'wire' due to default compile option setting of -svinputport=relaxed.
** Warning: /home/khang/Documents/SystemVerilog/Soc_RV32I/SoC/DUT/AXI4_Lite_Interconnect.sv(53): (vopt-13314) Defaulting port 's_axi_rresp' kind to 'var' rather than 'wire' due to default compile option setting of -svinputport=relaxed.
-- Optimizing module UART(fast)
** Note: (vopt-143) Recognized 2 FSMs in module "UART(fast)".
-- Optimizing module CPU(fast)
-- Optimizing module SPI(fast)
** Note: (vopt-143) Recognized 1 FSM in module "SPI(fast)".
-- Optimizing module top_tb(fast)
-- Optimizing module Timer(fast)
-- Optimizing module TOP(fast)
-- Optimizing module RAM(fast)
-- Optimizing module RAM(fast__1)
-- Optimizing module ID_EX(fast)
-- Optimizing module HazardUnit(fast)
-- Optimizing module AXI_Master(fast)
-- Optimizing module MainDecoder(fast)
-- Optimizing module EX_MEM(fast)
-- Optimizing module ALU(fast)
-- Optimizing module MEM_WB(fast)
-- Optimizing module RegFile(fast)
-- Optimizing module signExtend(fast)
-- Optimizing module IF_ID(fast)
-- Optimizing module ALUControl(fast)
-- Optimizing module ControlUnit(fast)
-- Optimizing interface clk_rst_inf(fast__2)
-- Optimizing module pc_reg(fast)
-- Optimizing interface soc_inf(fast)
-- Optimizing interface clk_rst_inf(fast)
-- Optimizing package mtiUvm.uvm_pkg (uvm-1.1d Built-in)(fast)
Optimized design name is vopt_top
End time: 19:38:19 on May 06,2026, Elapsed time: 0:00:01
Errors: 0, Warnings: 30
=======================================================
>>> RUN TEST: axi_random_wr_rd_test
=======================================================
>>> MODE = UVM_MASTER
Reading pref.tcl

# 2024.1

# vsim -c -L uvm -coverage -sv_seed random vopt_top "+UVM_TESTNAME=axi_random_wr_rd_test" "+UVM_MASTER" -do "coverage save -onexit coverage_result.ucdb; run -all; quit" 
# Start time: 19:38:21 on May 06,2026
# //  Questa Sim-64
# //  Version 2024.1 linux_x86_64 Feb  1 2024
# //
# // Unpublished work. Copyright 2024 Siemens
# //
# // This material contains trade secrets or otherwise confidential information
# // owned by Siemens Industry Software Inc. or its affiliates (collectively,
# // "SISW"), or its licensors. Access to and use of this information is strictly
# // limited as set forth in the Customer's applicable agreements with SISW.
# //
# // This material may not be copied, distributed, or otherwise disclosed outside
# // of the Customer's facilities without the express written permission of SISW,
# // and may not be used in any way not expressly authorized by SISW.
# //
# Loading sv_std.std
# Loading work.clk_rst_inf(fast)
# Loading work.soc_inf(fast)
# Loading mtiUvm.uvm_pkg(fast)
# Loading work.soc_pkg(fast)
# Loading mtiUvm.questa_uvm_pkg(fast)
# Loading work.top_tb(fast)
# Loading work.clk_rst_inf(fast__2)
# Loading work.soc_inf(fast__2)
# Loading work.TOP(fast)
# Loading work.AXI_Master(fast)
# Loading work.CPU(fast)
# Loading work.pc_reg(fast)
# Loading work.IF_ID(fast)
# Loading work.ControlUnit(fast)
# Loading work.MainDecoder(fast)
# Loading work.ALUControl(fast)
# Loading work.RegFile(fast)
# Loading work.signExtend(fast)
# Loading work.ID_EX(fast)
# Loading work.ALU(fast)
# Loading work.EX_MEM(fast)
# Loading work.MEM_WB(fast)
# Loading work.HazardUnit(fast)
# Loading work.LSU(fast)
# Loading work.AXI4_Lite_Interconnect(fast)
# Loading work.RAM(fast)
# Loading work.RAM(fast__1)
# Loading work.Timer(fast)
# Loading work.UART(fast)
# Loading work.SPI(fast)
# Loading /tools/mq/2024.1/questasim/uvm-1.1d/linux_x86_64/uvm_dpi.so
# Sv_Seed = 1475201478
# coverage save -onexit coverage_result.ucdb
#  run -all
# ----------------------------------------------------------------
# UVM-1.1d
# (C) 2007-2013 Mentor Graphics Corporation
# (C) 2007-2013 Cadence Design Systems, Inc.
# (C) 2006-2013 Synopsys, Inc.
# (C) 2011-2013 Cypress Semiconductor Corp.
# ----------------------------------------------------------------
# 
#   ***********       IMPORTANT RELEASE NOTES         ************
# 
#   You are using a version of the UVM library that has been compiled
#   with `UVM_NO_DEPRECATED undefined.
#   See http://www.eda.org/svdb/view.php?id=3313 for more details.
# 
#   You are using a version of the UVM library that has been compiled
#   with `UVM_OBJECT_MUST_HAVE_CONSTRUCTOR undefined.
#   See http://www.eda.org/svdb/view.php?id=3770 for more details.
# 
#       (Specify +UVM_NO_RELNOTES to turn off this notice)
# 
# UVM_INFO verilog_src/questa_uvm_pkg-1.2/src/questa_uvm_pkg.sv(277) @ 0: reporter [Questa UVM] QUESTA_UVM-1.2.3
# UVM_INFO verilog_src/questa_uvm_pkg-1.2/src/questa_uvm_pkg.sv(278) @ 0: reporter [Questa UVM]  questa_uvm::init(+struct)
# [RAM] Loading file: instr.mem
# [RAM] mem[0] = 4e4f2583
# [RAM] mem[1] = 5b530e93
# [RAM] mem[2] = 071d0163
# [RAM] mem[3] = 3faaaf03
# [RAM] mem[4] = d31ff293
# [RAM] mem[5] = 3f572783
# [RAM] mem[6] = fb3ff56f
# [RAM] mem[7] = 08b0aa23
# [RAM] mem[8] = fdf60fe3
# [RAM] mem[9] = f6960be3
# [RAM] mem[10] = 007b2ab3
# [RAM] mem[11] = 65360a93
# [RAM] mem[12] = f82827a3
# [RAM] mem[13] = 1dce21a3
# [RAM] mem[14] = 2f52e813
# [RAM] mem[15] = f5988fe3
# [RAM] mem[16] = 41be8733
# [RAM] mem[17] = 2584aaa3
# [RAM] mem[18] = 00a9f2b3
# [RAM] mem[19] = 01b0d533
# [RAM] mem[20] = 00ef9bb3
# [RAM] mem[21] = 006f7633
# [RAM] mem[22] = f1de03e3
# [RAM] mem[23] = 25ef2403
# [RAM] mem[24] = 0152deb3
# [RAM] mem[25] = 06ff0c63
# [RAM] mem[26] = 005176b3
# [RAM] mem[27] = f11e8de3
# [RAM] mem[28] = 8d28a723
# [RAM] mem[29] = 5d362283
# [RAM] mem[30] = ac49ee13
# [RAM] mem[31] = 00c2d233
# [RAM] mem[32] = ca9ffc6f
# [RAM] mem[33] = 00e78333
# [RAM] mem[34] = 01881a33
# [RAM] mem[35] = 016710b3
# [RAM] mem[36] = 012273b3
# [RAM] mem[37] = f72803e3
# [RAM] mem[38] = 1c600def
# [RAM] mem[39] = 981b0a93
# [RAM] mem[40] = c482f613
# [RAM] mem[41] = 0052e533
# [RAM] mem[42] = 8c7ea303
# [RAM] mem[43] = c29ca203
# [RAM] mem[44] = fc516a93
# [RAM] mem[45] = 8edff4ef
# [RAM] mem[46] = 02f50e63
# [RAM] mem[47] = 5ba72383
# [RAM] mem[48] = 99892d03
# [RAM] mem[49] = c77f2323
# [RAM] mem[50] = 0124ccb3
# [RAM] mem[51] = 07920763
# [RAM] mem[52] = 00ac8733
# [RAM] mem[53] = 583b2903
# [RAM] mem[54] = 3ba0016f
# [RAM] mem[55] = 5e8d0693
# [RAM] mem[56] = 048d0f63
# [RAM] mem[57] = f7e808e3
# [RAM] mem[58] = 0eef8963
# [RAM] mem[59] = 006aadb3
# [RAM] mem[60] = 19aecc93
# [RAM] mem[61] = 0ba98c63
# [RAM] mem[62] = 0d7aa883
# [RAM] mem[63] = f8eb0de3
# [RAM] mem[64] = 16e1a6a3
# [RAM] mem[65] = 01ab7233
# [RAM] mem[66] = 06e60913
# [RAM] mem[67] = 415106b3
# [RAM] mem[68] = 249aac83
# [RAM] mem[69] = c0638213
# [RAM] mem[70] = 7d74a583
# [RAM] mem[71] = b9e56193
# [RAM] mem[72] = 008a5fb3
# [RAM] mem[73] = b535fe13
# [RAM] mem[74] = 78da6293
# [RAM] mem[75] = 6f00046f
# [RAM] mem[76] = b87ff96f
# [RAM] mem[77] = 32f1a203
# [RAM] mem[78] = cb312c23
# [RAM] mem[79] = 00208d63
# [RAM] mem[80] = f4fffaef
# [RAM] mem[81] = cb3ff2ef
# [RAM] mem[82] = f9460fe3
# [RAM] mem[83] = 02eb8d63
# [RAM] mem[84] = 009784b3
# [RAM] mem[85] = 7b24f993
# [RAM] mem[86] = 01e7f933
# [RAM] mem[87] = 568008ef
# [RAM] mem[88] = f956a223
# [RAM] mem[89] = d01ff0ef
# [RAM] mem[90] = 3472a8a3
# [RAM] mem[91] = 32200a6f
# [RAM] mem[92] = fbf5a423
# [RAM] mem[93] = d37ff16f
# [RAM] mem[94] = fc950be3
# [RAM] mem[95] = 78f66b13
# [RAM] mem[96] = 126d0b13
# [RAM] mem[97] = ed3ffcef
# [RAM] mem[98] = fbe183e3
# [RAM] mem[99] = 87122fa3
# [RAM] No INIT_FILE specified
# [TB] Running in UVM MASTER mode
# UVM_INFO @ 0: reporter [RNTST] Running test axi_random_wr_rd_test...
# ** Warning: (vsim-PLI-8707) No address specified on line 2 of file "instr.mem" 
# while loading into associative array using readmem command.    : /home/khang/Documents/SystemVerilog/Soc_RV32I/SoC/VERIFICATION/Scoreboard/axi_scoreboard.sv(31)
#    Time: 0 ps  Iteration: 8  Region: /uvm_pkg::uvm_phase::m_run_phases
# UVM_INFO /home/khang/Documents/SystemVerilog/Soc_RV32I/SoC/VERIFICATION/Sequence/axi_random_wr_rd.sv(23) @ 0: uvm_test_top.env.agent.sequencer@@seq [SEQ] --- STARTING SMART RANDOM TEST (ID 11, 12) ---
# UVM_INFO /home/khang/Documents/SystemVerilog/Soc_RV32I/SoC/VERIFICATION/Monitor/axi_monitor.sv(47) @ 65000: uvm_test_top.env.agent.monitor [MON_WR] Detected WRITE : Addr = 10000000, Data = 9be55477
# UVM_INFO /home/khang/Documents/SystemVerilog/Soc_RV32I/SoC/VERIFICATION/Driver/axi_driver.sv(67) @ 75000: uvm_test_top.env.agent.driver [DRV] Write Done: Addr=10000000, Data=9be55477
# UVM_INFO /home/khang/Documents/SystemVerilog/Soc_RV32I/SoC/VERIFICATION/Monitor/axi_monitor.sv(47) @ 115000: uvm_test_top.env.agent.monitor [MON_WR] Detected WRITE : Addr = 10000004, Data = bb2ebce7
# UVM_INFO /home/khang/Documents/SystemVerilog/Soc_RV32I/SoC/VERIFICATION/Driver/axi_driver.sv(67) @ 125000: uvm_test_top.env.agent.driver [DRV] Write Done: Addr=10000004, Data=bb2ebce7
# UVM_INFO /home/khang/Documents/SystemVerilog/Soc_RV32I/SoC/VERIFICATION/Monitor/axi_monitor.sv(47) @ 165000: uvm_test_top.env.agent.monitor [MON_WR] Detected WRITE : Addr = 10000008, Data = 7e23403e
# UVM_INFO /home/khang/Documents/SystemVerilog/Soc_RV32I/SoC/VERIFICATION/Driver/axi_driver.sv(67) @ 175000: uvm_test_top.env.agent.driver [DRV] Write Done: Addr=10000008, Data=7e23403e
# UVM_INFO /home/khang/Documents/SystemVerilog/Soc_RV32I/SoC/VERIFICATION/Monitor/axi_monitor.sv(47) @ 215000: uvm_test_top.env.agent.monitor [MON_WR] Detected WRITE : Addr = 1000000c, Data = 35d451e5
# UVM_INFO /home/khang/Documents/SystemVerilog/Soc_RV32I/SoC/VERIFICATION/Driver/axi_driver.sv(67) @ 225000: uvm_test_top.env.agent.driver [DRV] Write Done: Addr=1000000c, Data=35d451e5
# UVM_INFO /home/khang/Documents/SystemVerilog/Soc_RV32I/SoC/VERIFICATION/Monitor/axi_monitor.sv(47) @ 265000: uvm_test_top.env.agent.monitor [MON_WR] Detected WRITE : Addr = 10000010, Data = 1af15eff
# UVM_INFO /home/khang/Documents/SystemVerilog/Soc_RV32I/SoC/VERIFICATION/Driver/axi_driver.sv(67) @ 275000: uvm_test_top.env.agent.driver [DRV] Write Done: Addr=10000010, Data=1af15eff
# UVM_INFO /home/khang/Documents/SystemVerilog/Soc_RV32I/SoC/VERIFICATION/Monitor/axi_monitor.sv(47) @ 315000: uvm_test_top.env.agent.monitor [MON_WR] Detected WRITE : Addr = 10000014, Data = c259c693
# UVM_INFO /home/khang/Documents/SystemVerilog/Soc_RV32I/SoC/VERIFICATION/Driver/axi_driver.sv(67) @ 325000: uvm_test_top.env.agent.driver [DRV] Write Done: Addr=10000014, Data=c259c693
# UVM_INFO /home/khang/Documents/SystemVerilog/Soc_RV32I/SoC/VERIFICATION/Monitor/axi_monitor.sv(47) @ 365000: uvm_test_top.env.agent.monitor [MON_WR] Detected WRITE : Addr = 10000018, Data = c6afad74
# UVM_INFO /home/khang/Documents/SystemVerilog/Soc_RV32I/SoC/VERIFICATION/Driver/axi_driver.sv(67) @ 375000: uvm_test_top.env.agent.driver [DRV] Write Done: Addr=10000018, Data=c6afad74
# UVM_INFO /home/khang/Documents/SystemVerilog/Soc_RV32I/SoC/VERIFICATION/Monitor/axi_monitor.sv(47) @ 415000: uvm_test_top.env.agent.monitor [MON_WR] Detected WRITE : Addr = 1000001c, Data = e9445999
# UVM_INFO /home/khang/Documents/SystemVerilog/Soc_RV32I/SoC/VERIFICATION/Driver/axi_driver.sv(67) @ 425000: uvm_test_top.env.agent.driver [DRV] Write Done: Addr=1000001c, Data=e9445999
# UVM_INFO /home/khang/Documents/SystemVerilog/Soc_RV32I/SoC/VERIFICATION/Monitor/axi_monitor.sv(47) @ 465000: uvm_test_top.env.agent.monitor [MON_WR] Detected WRITE : Addr = 10000020, Data = e0fdb5d6
# UVM_INFO /home/khang/Documents/SystemVerilog/Soc_RV32I/SoC/VERIFICATION/Driver/axi_driver.sv(67) @ 475000: uvm_test_top.env.agent.driver [DRV] Write Done: Addr=10000020, Data=e0fdb5d6
# UVM_INFO /home/khang/Documents/SystemVerilog/Soc_RV32I/SoC/VERIFICATION/Monitor/axi_monitor.sv(47) @ 515000: uvm_test_top.env.agent.monitor [MON_WR] Detected WRITE : Addr = 10000024, Data = 52e17948
# UVM_INFO /home/khang/Documents/SystemVerilog/Soc_RV32I/SoC/VERIFICATION/Driver/axi_driver.sv(67) @ 525000: uvm_test_top.env.agent.driver [DRV] Write Done: Addr=10000024, Data=52e17948
# UVM_INFO /home/khang/Documents/SystemVerilog/Soc_RV32I/SoC/VERIFICATION/Monitor/axi_monitor.sv(47) @ 565000: uvm_test_top.env.agent.monitor [MON_WR] Detected WRITE : Addr = 10000028, Data = bc00eb83
# UVM_INFO /home/khang/Documents/SystemVerilog/Soc_RV32I/SoC/VERIFICATION/Driver/axi_driver.sv(67) @ 575000: uvm_test_top.env.agent.driver [DRV] Write Done: Addr=10000028, Data=bc00eb83
# UVM_INFO /home/khang/Documents/SystemVerilog/Soc_RV32I/SoC/VERIFICATION/Monitor/axi_monitor.sv(47) @ 615000: uvm_test_top.env.agent.monitor [MON_WR] Detected WRITE : Addr = 1000002c, Data = 7581f47e
# UVM_INFO /home/khang/Documents/SystemVerilog/Soc_RV32I/SoC/VERIFICATION/Driver/axi_driver.sv(67) @ 625000: uvm_test_top.env.agent.driver [DRV] Write Done: Addr=1000002c, Data=7581f47e
# UVM_INFO /home/khang/Documents/SystemVerilog/Soc_RV32I/SoC/VERIFICATION/Monitor/axi_monitor.sv(47) @ 665000: uvm_test_top.env.agent.monitor [MON_WR] Detected WRITE : Addr = 10000030, Data = 21745405
# UVM_INFO /home/khang/Documents/SystemVerilog/Soc_RV32I/SoC/VERIFICATION/Driver/axi_driver.sv(67) @ 675000: uvm_test_top.env.agent.driver [DRV] Write Done: Addr=10000030, Data=21745405
# UVM_INFO /home/khang/Documents/SystemVerilog/Soc_RV32I/SoC/VERIFICATION/Monitor/axi_monitor.sv(47) @ 715000: uvm_test_top.env.agent.monitor [MON_WR] Detected WRITE : Addr = 10000034, Data = e6d10bea
# UVM_INFO /home/khang/Documents/SystemVerilog/Soc_RV32I/SoC/VERIFICATION/Driver/axi_driver.sv(67) @ 725000: uvm_test_top.env.agent.driver [DRV] Write Done: Addr=10000034, Data=e6d10bea
# UVM_INFO /home/khang/Documents/SystemVerilog/Soc_RV32I/SoC/VERIFICATION/Monitor/axi_monitor.sv(47) @ 765000: uvm_test_top.env.agent.monitor [MON_WR] Detected WRITE : Addr = 10000038, Data = d1b13210
# UVM_INFO /home/khang/Documents/SystemVerilog/Soc_RV32I/SoC/VERIFICATION/Driver/axi_driver.sv(67) @ 775000: uvm_test_top.env.agent.driver [DRV] Write Done: Addr=10000038, Data=d1b13210
# UVM_INFO /home/khang/Documents/SystemVerilog/Soc_RV32I/SoC/VERIFICATION/Monitor/axi_monitor.sv(47) @ 815000: uvm_test_top.env.agent.monitor [MON_WR] Detected WRITE : Addr = 1000003c, Data = e7645078
# UVM_INFO /home/khang/Documents/SystemVerilog/Soc_RV32I/SoC/VERIFICATION/Driver/axi_driver.sv(67) @ 825000: uvm_test_top.env.agent.driver [DRV] Write Done: Addr=1000003c, Data=e7645078
# UVM_INFO /home/khang/Documents/SystemVerilog/Soc_RV32I/SoC/VERIFICATION/Monitor/axi_monitor.sv(47) @ 865000: uvm_test_top.env.agent.monitor [MON_WR] Detected WRITE : Addr = 10000040, Data = 4acb3bf1
# UVM_INFO /home/khang/Documents/SystemVerilog/Soc_RV32I/SoC/VERIFICATION/Driver/axi_driver.sv(67) @ 875000: uvm_test_top.env.agent.driver [DRV] Write Done: Addr=10000040, Data=4acb3bf1
# UVM_INFO /home/khang/Documents/SystemVerilog/Soc_RV32I/SoC/VERIFICATION/Monitor/axi_monitor.sv(47) @ 915000: uvm_test_top.env.agent.monitor [MON_WR] Detected WRITE : Addr = 10000044, Data = 3c9ba8be
# UVM_INFO /home/khang/Documents/SystemVerilog/Soc_RV32I/SoC/VERIFICATION/Driver/axi_driver.sv(67) @ 925000: uvm_test_top.env.agent.driver [DRV] Write Done: Addr=10000044, Data=3c9ba8be
# UVM_INFO /home/khang/Documents/SystemVerilog/Soc_RV32I/SoC/VERIFICATION/Monitor/axi_monitor.sv(47) @ 965000: uvm_test_top.env.agent.monitor [MON_WR] Detected WRITE : Addr = 10000048, Data = 14cc3b6c
# UVM_INFO /home/khang/Documents/SystemVerilog/Soc_RV32I/SoC/VERIFICATION/Driver/axi_driver.sv(67) @ 975000: uvm_test_top.env.agent.driver [DRV] Write Done: Addr=10000048, Data=14cc3b6c
# UVM_INFO /home/khang/Documents/SystemVerilog/Soc_RV32I/SoC/VERIFICATION/Monitor/axi_monitor.sv(47) @ 1015000: uvm_test_top.env.agent.monitor [MON_WR] Detected WRITE : Addr = 1000004c, Data = f1ea9622
# UVM_INFO /home/khang/Documents/SystemVerilog/Soc_RV32I/SoC/VERIFICATION/Driver/axi_driver.sv(67) @ 1025000: uvm_test_top.env.agent.driver [DRV] Write Done: Addr=1000004c, Data=f1ea9622
# UVM_INFO /home/khang/Documents/SystemVerilog/Soc_RV32I/SoC/VERIFICATION/Monitor/axi_monitor.sv(47) @ 1065000: uvm_test_top.env.agent.monitor [MON_WR] Detected WRITE : Addr = 10000050, Data = 19121d52
# UVM_INFO /home/khang/Documents/SystemVerilog/Soc_RV32I/SoC/VERIFICATION/Driver/axi_driver.sv(67) @ 1075000: uvm_test_top.env.agent.driver [DRV] Write Done: Addr=10000050, Data=19121d52
# UVM_INFO /home/khang/Documents/SystemVerilog/Soc_RV32I/SoC/VERIFICATION/Monitor/axi_monitor.sv(47) @ 1115000: uvm_test_top.env.agent.monitor [MON_WR] Detected WRITE : Addr = 10000054, Data = 9d640c47
# UVM_INFO /home/khang/Documents/SystemVerilog/Soc_RV32I/SoC/VERIFICATION/Driver/axi_driver.sv(67) @ 1125000: uvm_test_top.env.agent.driver [DRV] Write Done: Addr=10000054, Data=9d640c47
# UVM_INFO /home/khang/Documents/SystemVerilog/Soc_RV32I/SoC/VERIFICATION/Monitor/axi_monitor.sv(47) @ 1165000: uvm_test_top.env.agent.monitor [MON_WR] Detected WRITE : Addr = 10000058, Data = 18fa3c06
# UVM_INFO /home/khang/Documents/SystemVerilog/Soc_RV32I/SoC/VERIFICATION/Driver/axi_driver.sv(67) @ 1175000: uvm_test_top.env.agent.driver [DRV] Write Done: Addr=10000058, Data=18fa3c06
# UVM_INFO /home/khang/Documents/SystemVerilog/Soc_RV32I/SoC/VERIFICATION/Monitor/axi_monitor.sv(47) @ 1215000: uvm_test_top.env.agent.monitor [MON_WR] Detected WRITE : Addr = 1000005c, Data = bb67fdb2
# UVM_INFO /home/khang/Documents/SystemVerilog/Soc_RV32I/SoC/VERIFICATION/Driver/axi_driver.sv(67) @ 1225000: uvm_test_top.env.agent.driver [DRV] Write Done: Addr=1000005c, Data=bb67fdb2
# UVM_INFO /home/khang/Documents/SystemVerilog/Soc_RV32I/SoC/VERIFICATION/Monitor/axi_monitor.sv(47) @ 1265000: uvm_test_top.env.agent.monitor [MON_WR] Detected WRITE : Addr = 10000060, Data = 7f6f61e2
# UVM_INFO /home/khang/Documents/SystemVerilog/Soc_RV32I/SoC/VERIFICATION/Driver/axi_driver.sv(67) @ 1275000: uvm_test_top.env.agent.driver [DRV] Write Done: Addr=10000060, Data=7f6f61e2
# UVM_INFO /home/khang/Documents/SystemVerilog/Soc_RV32I/SoC/VERIFICATION/Monitor/axi_monitor.sv(47) @ 1315000: uvm_test_top.env.agent.monitor [MON_WR] Detected WRITE : Addr = 10000064, Data = 04c3feca
# UVM_INFO /home/khang/Documents/SystemVerilog/Soc_RV32I/SoC/VERIFICATION/Driver/axi_driver.sv(67) @ 1325000: uvm_test_top.env.agent.driver [DRV] Write Done: Addr=10000064, Data=04c3feca
# UVM_INFO /home/khang/Documents/SystemVerilog/Soc_RV32I/SoC/VERIFICATION/Monitor/axi_monitor.sv(47) @ 1365000: uvm_test_top.env.agent.monitor [MON_WR] Detected WRITE : Addr = 10000068, Data = e462ede8
# UVM_INFO /home/khang/Documents/SystemVerilog/Soc_RV32I/SoC/VERIFICATION/Driver/axi_driver.sv(67) @ 1375000: uvm_test_top.env.agent.driver [DRV] Write Done: Addr=10000068, Data=e462ede8
# UVM_INFO /home/khang/Documents/SystemVerilog/Soc_RV32I/SoC/VERIFICATION/Monitor/axi_monitor.sv(47) @ 1415000: uvm_test_top.env.agent.monitor [MON_WR] Detected WRITE : Addr = 1000006c, Data = e683c8d4
# UVM_INFO /home/khang/Documents/SystemVerilog/Soc_RV32I/SoC/VERIFICATION/Driver/axi_driver.sv(67) @ 1425000: uvm_test_top.env.agent.driver [DRV] Write Done: Addr=1000006c, Data=e683c8d4
# UVM_INFO /home/khang/Documents/SystemVerilog/Soc_RV32I/SoC/VERIFICATION/Monitor/axi_monitor.sv(47) @ 1465000: uvm_test_top.env.agent.monitor [MON_WR] Detected WRITE : Addr = 10000070, Data = 040c6816
# UVM_INFO /home/khang/Documents/SystemVerilog/Soc_RV32I/SoC/VERIFICATION/Driver/axi_driver.sv(67) @ 1475000: uvm_test_top.env.agent.driver [DRV] Write Done: Addr=10000070, Data=040c6816
# UVM_INFO /home/khang/Documents/SystemVerilog/Soc_RV32I/SoC/VERIFICATION/Monitor/axi_monitor.sv(47) @ 1515000: uvm_test_top.env.agent.monitor [MON_WR] Detected WRITE : Addr = 10000074, Data = e50445ae
# UVM_INFO /home/khang/Documents/SystemVerilog/Soc_RV32I/SoC/VERIFICATION/Driver/axi_driver.sv(67) @ 1525000: uvm_test_top.env.agent.driver [DRV] Write Done: Addr=10000074, Data=e50445ae
# UVM_INFO /home/khang/Documents/SystemVerilog/Soc_RV32I/SoC/VERIFICATION/Monitor/axi_monitor.sv(47) @ 1565000: uvm_test_top.env.agent.monitor [MON_WR] Detected WRITE : Addr = 10000078, Data = fefa5b1a
# UVM_INFO /home/khang/Documents/SystemVerilog/Soc_RV32I/SoC/VERIFICATION/Driver/axi_driver.sv(67) @ 1575000: uvm_test_top.env.agent.driver [DRV] Write Done: Addr=10000078, Data=fefa5b1a
# UVM_INFO /home/khang/Documents/SystemVerilog/Soc_RV32I/SoC/VERIFICATION/Monitor/axi_monitor.sv(47) @ 1615000: uvm_test_top.env.agent.monitor [MON_WR] Detected WRITE : Addr = 1000007c, Data = bda192af
# UVM_INFO /home/khang/Documents/SystemVerilog/Soc_RV32I/SoC/VERIFICATION/Driver/axi_driver.sv(67) @ 1625000: uvm_test_top.env.agent.driver [DRV] Write Done: Addr=1000007c, Data=bda192af
# UVM_INFO /home/khang/Documents/SystemVerilog/Soc_RV32I/SoC/VERIFICATION/Monitor/axi_monitor.sv(47) @ 1665000: uvm_test_top.env.agent.monitor [MON_WR] Detected WRITE : Addr = 10000080, Data = bc9bef62
# UVM_INFO /home/khang/Documents/SystemVerilog/Soc_RV32I/SoC/VERIFICATION/Driver/axi_driver.sv(67) @ 1675000: uvm_test_top.env.agent.driver [DRV] Write Done: Addr=10000080, Data=bc9bef62
# UVM_INFO /home/khang/Documents/SystemVerilog/Soc_RV32I/SoC/VERIFICATION/Monitor/axi_monitor.sv(47) @ 1715000: uvm_test_top.env.agent.monitor [MON_WR] Detected WRITE : Addr = 10000084, Data = 12150375
# UVM_INFO /home/khang/Documents/SystemVerilog/Soc_RV32I/SoC/VERIFICATION/Driver/axi_driver.sv(67) @ 1725000: uvm_test_top.env.agent.driver [DRV] Write Done: Addr=10000084, Data=12150375
# UVM_INFO /home/khang/Documents/SystemVerilog/Soc_RV32I/SoC/VERIFICATION/Monitor/axi_monitor.sv(47) @ 1765000: uvm_test_top.env.agent.monitor [MON_WR] Detected WRITE : Addr = 10000088, Data = 22553800
# UVM_INFO /home/khang/Documents/SystemVerilog/Soc_RV32I/SoC/VERIFICATION/Driver/axi_driver.sv(67) @ 1775000: uvm_test_top.env.agent.driver [DRV] Write Done: Addr=10000088, Data=22553800
# UVM_INFO /home/khang/Documents/SystemVerilog/Soc_RV32I/SoC/VERIFICATION/Monitor/axi_monitor.sv(47) @ 1815000: uvm_test_top.env.agent.monitor [MON_WR] Detected WRITE : Addr = 1000008c, Data = 5681b501
# UVM_INFO /home/khang/Documents/SystemVerilog/Soc_RV32I/SoC/VERIFICATION/Driver/axi_driver.sv(67) @ 1825000: uvm_test_top.env.agent.driver [DRV] Write Done: Addr=1000008c, Data=5681b501
# UVM_INFO /home/khang/Documents/SystemVerilog/Soc_RV32I/SoC/VERIFICATION/Monitor/axi_monitor.sv(47) @ 1865000: uvm_test_top.env.agent.monitor [MON_WR] Detected WRITE : Addr = 10000090, Data = 8437fe35
# UVM_INFO /home/khang/Documents/SystemVerilog/Soc_RV32I/SoC/VERIFICATION/Driver/axi_driver.sv(67) @ 1875000: uvm_test_top.env.agent.driver [DRV] Write Done: Addr=10000090, Data=8437fe35
# UVM_INFO /home/khang/Documents/SystemVerilog/Soc_RV32I/SoC/VERIFICATION/Monitor/axi_monitor.sv(47) @ 1915000: uvm_test_top.env.agent.monitor [MON_WR] Detected WRITE : Addr = 10000094, Data = 65e287db
# UVM_INFO /home/khang/Documents/SystemVerilog/Soc_RV32I/SoC/VERIFICATION/Driver/axi_driver.sv(67) @ 1925000: uvm_test_top.env.agent.driver [DRV] Write Done: Addr=10000094, Data=65e287db
# UVM_INFO /home/khang/Documents/SystemVerilog/Soc_RV32I/SoC/VERIFICATION/Monitor/axi_monitor.sv(47) @ 1965000: uvm_test_top.env.agent.monitor [MON_WR] Detected WRITE : Addr = 10000098, Data = 79c22708
# UVM_INFO /home/khang/Documents/SystemVerilog/Soc_RV32I/SoC/VERIFICATION/Driver/axi_driver.sv(67) @ 1975000: uvm_test_top.env.agent.driver [DRV] Write Done: Addr=10000098, Data=79c22708
# UVM_INFO /home/khang/Documents/SystemVerilog/Soc_RV32I/SoC/VERIFICATION/Monitor/axi_monitor.sv(47) @ 2015000: uvm_test_top.env.agent.monitor [MON_WR] Detected WRITE : Addr = 1000009c, Data = 6cdc3180
# UVM_INFO /home/khang/Documents/SystemVerilog/Soc_RV32I/SoC/VERIFICATION/Driver/axi_driver.sv(67) @ 2025000: uvm_test_top.env.agent.driver [DRV] Write Done: Addr=1000009c, Data=6cdc3180
# UVM_INFO /home/khang/Documents/SystemVerilog/Soc_RV32I/SoC/VERIFICATION/Monitor/axi_monitor.sv(47) @ 2065000: uvm_test_top.env.agent.monitor [MON_WR] Detected WRITE : Addr = 100000a0, Data = 53b23f2d
# UVM_INFO /home/khang/Documents/SystemVerilog/Soc_RV32I/SoC/VERIFICATION/Driver/axi_driver.sv(67) @ 2075000: uvm_test_top.env.agent.driver [DRV] Write Done: Addr=100000a0, Data=53b23f2d
# UVM_INFO /home/khang/Documents/SystemVerilog/Soc_RV32I/SoC/VERIFICATION/Monitor/axi_monitor.sv(47) @ 2115000: uvm_test_top.env.agent.monitor [MON_WR] Detected WRITE : Addr = 100000a4, Data = e8e04b48
# UVM_INFO /home/khang/Documents/SystemVerilog/Soc_RV32I/SoC/VERIFICATION/Driver/axi_driver.sv(67) @ 2125000: uvm_test_top.env.agent.driver [DRV] Write Done: Addr=100000a4, Data=e8e04b48
# UVM_INFO /home/khang/Documents/SystemVerilog/Soc_RV32I/SoC/VERIFICATION/Monitor/axi_monitor.sv(47) @ 2165000: uvm_test_top.env.agent.monitor [MON_WR] Detected WRITE : Addr = 100000a8, Data = 1cb9a89b
# UVM_INFO /home/khang/Documents/SystemVerilog/Soc_RV32I/SoC/VERIFICATION/Driver/axi_driver.sv(67) @ 2175000: uvm_test_top.env.agent.driver [DRV] Write Done: Addr=100000a8, Data=1cb9a89b
# UVM_INFO /home/khang/Documents/SystemVerilog/Soc_RV32I/SoC/VERIFICATION/Monitor/axi_monitor.sv(47) @ 2215000: uvm_test_top.env.agent.monitor [MON_WR] Detected WRITE : Addr = 100000ac, Data = a09042d9
# UVM_INFO /home/khang/Documents/SystemVerilog/Soc_RV32I/SoC/VERIFICATION/Driver/axi_driver.sv(67) @ 2225000: uvm_test_top.env.agent.driver [DRV] Write Done: Addr=100000ac, Data=a09042d9
# UVM_INFO /home/khang/Documents/SystemVerilog/Soc_RV32I/SoC/VERIFICATION/Monitor/axi_monitor.sv(47) @ 2265000: uvm_test_top.env.agent.monitor [MON_WR] Detected WRITE : Addr = 100000b0, Data = d92f92f6
# UVM_INFO /home/khang/Documents/SystemVerilog/Soc_RV32I/SoC/VERIFICATION/Driver/axi_driver.sv(67) @ 2275000: uvm_test_top.env.agent.driver [DRV] Write Done: Addr=100000b0, Data=d92f92f6
# UVM_INFO /home/khang/Documents/SystemVerilog/Soc_RV32I/SoC/VERIFICATION/Monitor/axi_monitor.sv(47) @ 2315000: uvm_test_top.env.agent.monitor [MON_WR] Detected WRITE : Addr = 100000b4, Data = 69c3103e
# UVM_INFO /home/khang/Documents/SystemVerilog/Soc_RV32I/SoC/VERIFICATION/Driver/axi_driver.sv(67) @ 2325000: uvm_test_top.env.agent.driver [DRV] Write Done: Addr=100000b4, Data=69c3103e
# UVM_INFO /home/khang/Documents/SystemVerilog/Soc_RV32I/SoC/VERIFICATION/Monitor/axi_monitor.sv(47) @ 2365000: uvm_test_top.env.agent.monitor [MON_WR] Detected WRITE : Addr = 100000b8, Data = 5cb9363d
# UVM_INFO /home/khang/Documents/SystemVerilog/Soc_RV32I/SoC/VERIFICATION/Driver/axi_driver.sv(67) @ 2375000: uvm_test_top.env.agent.driver [DRV] Write Done: Addr=100000b8, Data=5cb9363d
# UVM_INFO /home/khang/Documents/SystemVerilog/Soc_RV32I/SoC/VERIFICATION/Monitor/axi_monitor.sv(47) @ 2415000: uvm_test_top.env.agent.monitor [MON_WR] Detected WRITE : Addr = 100000bc, Data = d28d4e22
# UVM_INFO /home/khang/Documents/SystemVerilog/Soc_RV32I/SoC/VERIFICATION/Driver/axi_driver.sv(67) @ 2425000: uvm_test_top.env.agent.driver [DRV] Write Done: Addr=100000bc, Data=d28d4e22
# UVM_INFO /home/khang/Documents/SystemVerilog/Soc_RV32I/SoC/VERIFICATION/Monitor/axi_monitor.sv(47) @ 2465000: uvm_test_top.env.agent.monitor [MON_WR] Detected WRITE : Addr = 100000c0, Data = 1527e641
# UVM_INFO /home/khang/Documents/SystemVerilog/Soc_RV32I/SoC/VERIFICATION/Driver/axi_driver.sv(67) @ 2475000: uvm_test_top.env.agent.driver [DRV] Write Done: Addr=100000c0, Data=1527e641
# UVM_INFO /home/khang/Documents/SystemVerilog/Soc_RV32I/SoC/VERIFICATION/Monitor/axi_monitor.sv(47) @ 2515000: uvm_test_top.env.agent.monitor [MON_WR] Detected WRITE : Addr = 100000c4, Data = 3ea614e6
# UVM_INFO /home/khang/Documents/SystemVerilog/Soc_RV32I/SoC/VERIFICATION/Driver/axi_driver.sv(67) @ 2525000: uvm_test_top.env.agent.driver [DRV] Write Done: Addr=100000c4, Data=3ea614e6
# UVM_INFO /home/khang/Documents/SystemVerilog/Soc_RV32I/SoC/VERIFICATION/Monitor/axi_monitor.sv(47) @ 2565000: uvm_test_top.env.agent.monitor [MON_WR] Detected WRITE : Addr = 100000c8, Data = 1fb89a63
# UVM_INFO /home/khang/Documents/SystemVerilog/Soc_RV32I/SoC/VERIFICATION/Driver/axi_driver.sv(67) @ 2575000: uvm_test_top.env.agent.driver [DRV] Write Done: Addr=100000c8, Data=1fb89a63
# UVM_INFO /home/khang/Documents/SystemVerilog/Soc_RV32I/SoC/VERIFICATION/Monitor/axi_monitor.sv(47) @ 2615000: uvm_test_top.env.agent.monitor [MON_WR] Detected WRITE : Addr = 100000cc, Data = e9d7b41f
# UVM_INFO /home/khang/Documents/SystemVerilog/Soc_RV32I/SoC/VERIFICATION/Driver/axi_driver.sv(67) @ 2625000: uvm_test_top.env.agent.driver [DRV] Write Done: Addr=100000cc, Data=e9d7b41f
# UVM_INFO /home/khang/Documents/SystemVerilog/Soc_RV32I/SoC/VERIFICATION/Monitor/axi_monitor.sv(47) @ 2665000: uvm_test_top.env.agent.monitor [MON_WR] Detected WRITE : Addr = 100000d0, Data = 7a7c7c58
# UVM_INFO /home/khang/Documents/SystemVerilog/Soc_RV32I/SoC/VERIFICATION/Driver/axi_driver.sv(67) @ 2675000: uvm_test_top.env.agent.driver [DRV] Write Done: Addr=100000d0, Data=7a7c7c58
# UVM_INFO /home/khang/Documents/SystemVerilog/Soc_RV32I/SoC/VERIFICATION/Monitor/axi_monitor.sv(47) @ 2715000: uvm_test_top.env.agent.monitor [MON_WR] Detected WRITE : Addr = 100000d4, Data = 2a1d0b84
# UVM_INFO /home/khang/Documents/SystemVerilog/Soc_RV32I/SoC/VERIFICATION/Driver/axi_driver.sv(67) @ 2725000: uvm_test_top.env.agent.driver [DRV] Write Done: Addr=100000d4, Data=2a1d0b84
# UVM_INFO /home/khang/Documents/SystemVerilog/Soc_RV32I/SoC/VERIFICATION/Monitor/axi_monitor.sv(47) @ 2765000: uvm_test_top.env.agent.monitor [MON_WR] Detected WRITE : Addr = 100000d8, Data = 4ad6511f
# UVM_INFO /home/khang/Documents/SystemVerilog/Soc_RV32I/SoC/VERIFICATION/Driver/axi_driver.sv(67) @ 2775000: uvm_test_top.env.agent.driver [DRV] Write Done: Addr=100000d8, Data=4ad6511f
# UVM_INFO /home/khang/Documents/SystemVerilog/Soc_RV32I/SoC/VERIFICATION/Monitor/axi_monitor.sv(47) @ 2815000: uvm_test_top.env.agent.monitor [MON_WR] Detected WRITE : Addr = 100000dc, Data = 08a73d83
# UVM_INFO /home/khang/Documents/SystemVerilog/Soc_RV32I/SoC/VERIFICATION/Driver/axi_driver.sv(67) @ 2825000: uvm_test_top.env.agent.driver [DRV] Write Done: Addr=100000dc, Data=08a73d83
# UVM_INFO /home/khang/Documents/SystemVerilog/Soc_RV32I/SoC/VERIFICATION/Monitor/axi_monitor.sv(47) @ 2865000: uvm_test_top.env.agent.monitor [MON_WR] Detected WRITE : Addr = 100000e0, Data = 481993ce
# UVM_INFO /home/khang/Documents/SystemVerilog/Soc_RV32I/SoC/VERIFICATION/Driver/axi_driver.sv(67) @ 2875000: uvm_test_top.env.agent.driver [DRV] Write Done: Addr=100000e0, Data=481993ce
# UVM_INFO /home/khang/Documents/SystemVerilog/Soc_RV32I/SoC/VERIFICATION/Monitor/axi_monitor.sv(47) @ 2915000: uvm_test_top.env.agent.monitor [MON_WR] Detected WRITE : Addr = 100000e4, Data = 40e8fb69
# UVM_INFO /home/khang/Documents/SystemVerilog/Soc_RV32I/SoC/VERIFICATION/Driver/axi_driver.sv(67) @ 2925000: uvm_test_top.env.agent.driver [DRV] Write Done: Addr=100000e4, Data=40e8fb69
# UVM_INFO /home/khang/Documents/SystemVerilog/Soc_RV32I/SoC/VERIFICATION/Monitor/axi_monitor.sv(47) @ 2965000: uvm_test_top.env.agent.monitor [MON_WR] Detected WRITE : Addr = 100000e8, Data = 1455a406
# UVM_INFO /home/khang/Documents/SystemVerilog/Soc_RV32I/SoC/VERIFICATION/Driver/axi_driver.sv(67) @ 2975000: uvm_test_top.env.agent.driver [DRV] Write Done: Addr=100000e8, Data=1455a406
# UVM_INFO /home/khang/Documents/SystemVerilog/Soc_RV32I/SoC/VERIFICATION/Monitor/axi_monitor.sv(47) @ 3015000: uvm_test_top.env.agent.monitor [MON_WR] Detected WRITE : Addr = 100000ec, Data = 9a78d7c5
# UVM_INFO /home/khang/Documents/SystemVerilog/Soc_RV32I/SoC/VERIFICATION/Driver/axi_driver.sv(67) @ 3025000: uvm_test_top.env.agent.driver [DRV] Write Done: Addr=100000ec, Data=9a78d7c5
# UVM_INFO /home/khang/Documents/SystemVerilog/Soc_RV32I/SoC/VERIFICATION/Monitor/axi_monitor.sv(47) @ 3065000: uvm_test_top.env.agent.monitor [MON_WR] Detected WRITE : Addr = 100000f0, Data = 91868fb7
# UVM_INFO /home/khang/Documents/SystemVerilog/Soc_RV32I/SoC/VERIFICATION/Driver/axi_driver.sv(67) @ 3075000: uvm_test_top.env.agent.driver [DRV] Write Done: Addr=100000f0, Data=91868fb7
# UVM_INFO /home/khang/Documents/SystemVerilog/Soc_RV32I/SoC/VERIFICATION/Monitor/axi_monitor.sv(47) @ 3115000: uvm_test_top.env.agent.monitor [MON_WR] Detected WRITE : Addr = 100000f4, Data = 826bf6ff
# UVM_INFO /home/khang/Documents/SystemVerilog/Soc_RV32I/SoC/VERIFICATION/Driver/axi_driver.sv(67) @ 3125000: uvm_test_top.env.agent.driver [DRV] Write Done: Addr=100000f4, Data=826bf6ff
# UVM_INFO /home/khang/Documents/SystemVerilog/Soc_RV32I/SoC/VERIFICATION/Monitor/axi_monitor.sv(47) @ 3165000: uvm_test_top.env.agent.monitor [MON_WR] Detected WRITE : Addr = 100000f8, Data = 8f558d1f
# UVM_INFO /home/khang/Documents/SystemVerilog/Soc_RV32I/SoC/VERIFICATION/Driver/axi_driver.sv(67) @ 3175000: uvm_test_top.env.agent.driver [DRV] Write Done: Addr=100000f8, Data=8f558d1f
# UVM_INFO /home/khang/Documents/SystemVerilog/Soc_RV32I/SoC/VERIFICATION/Monitor/axi_monitor.sv(47) @ 3215000: uvm_test_top.env.agent.monitor [MON_WR] Detected WRITE : Addr = 100000fc, Data = 97f6ec82
# UVM_INFO /home/khang/Documents/SystemVerilog/Soc_RV32I/SoC/VERIFICATION/Driver/axi_driver.sv(67) @ 3225000: uvm_test_top.env.agent.driver [DRV] Write Done: Addr=100000fc, Data=97f6ec82
# UVM_INFO /home/khang/Documents/SystemVerilog/Soc_RV32I/SoC/VERIFICATION/Monitor/axi_monitor.sv(47) @ 3265000: uvm_test_top.env.agent.monitor [MON_WR] Detected WRITE : Addr = 10000100, Data = fde991b8
# UVM_INFO /home/khang/Documents/SystemVerilog/Soc_RV32I/SoC/VERIFICATION/Driver/axi_driver.sv(67) @ 3275000: uvm_test_top.env.agent.driver [DRV] Write Done: Addr=10000100, Data=fde991b8
# UVM_INFO /home/khang/Documents/SystemVerilog/Soc_RV32I/SoC/VERIFICATION/Monitor/axi_monitor.sv(47) @ 3315000: uvm_test_top.env.agent.monitor [MON_WR] Detected WRITE : Addr = 10000104, Data = 0508cd5e
# UVM_INFO /home/khang/Documents/SystemVerilog/Soc_RV32I/SoC/VERIFICATION/Driver/axi_driver.sv(67) @ 3325000: uvm_test_top.env.agent.driver [DRV] Write Done: Addr=10000104, Data=0508cd5e
# UVM_INFO /home/khang/Documents/SystemVerilog/Soc_RV32I/SoC/VERIFICATION/Monitor/axi_monitor.sv(47) @ 3365000: uvm_test_top.env.agent.monitor [MON_WR] Detected WRITE : Addr = 10000108, Data = 8aef8c36
# UVM_INFO /home/khang/Documents/SystemVerilog/Soc_RV32I/SoC/VERIFICATION/Driver/axi_driver.sv(67) @ 3375000: uvm_test_top.env.agent.driver [DRV] Write Done: Addr=10000108, Data=8aef8c36
# UVM_INFO /home/khang/Documents/SystemVerilog/Soc_RV32I/SoC/VERIFICATION/Monitor/axi_monitor.sv(47) @ 3415000: uvm_test_top.env.agent.monitor [MON_WR] Detected WRITE : Addr = 1000010c, Data = 97779061
# UVM_INFO /home/khang/Documents/SystemVerilog/Soc_RV32I/SoC/VERIFICATION/Driver/axi_driver.sv(67) @ 3425000: uvm_test_top.env.agent.driver [DRV] Write Done: Addr=1000010c, Data=97779061
# UVM_INFO /home/khang/Documents/SystemVerilog/Soc_RV32I/SoC/VERIFICATION/Monitor/axi_monitor.sv(47) @ 3465000: uvm_test_top.env.agent.monitor [MON_WR] Detected WRITE : Addr = 10000110, Data = ce128c30
# UVM_INFO /home/khang/Documents/SystemVerilog/Soc_RV32I/SoC/VERIFICATION/Driver/axi_driver.sv(67) @ 3475000: uvm_test_top.env.agent.driver [DRV] Write Done: Addr=10000110, Data=ce128c30
# UVM_INFO /home/khang/Documents/SystemVerilog/Soc_RV32I/SoC/VERIFICATION/Monitor/axi_monitor.sv(47) @ 3515000: uvm_test_top.env.agent.monitor [MON_WR] Detected WRITE : Addr = 10000114, Data = 763e7fcc
# UVM_INFO /home/khang/Documents/SystemVerilog/Soc_RV32I/SoC/VERIFICATION/Driver/axi_driver.sv(67) @ 3525000: uvm_test_top.env.agent.driver [DRV] Write Done: Addr=10000114, Data=763e7fcc
# UVM_INFO /home/khang/Documents/SystemVerilog/Soc_RV32I/SoC/VERIFICATION/Monitor/axi_monitor.sv(47) @ 3565000: uvm_test_top.env.agent.monitor [MON_WR] Detected WRITE : Addr = 10000118, Data = 8acaa028
# UVM_INFO /home/khang/Documents/SystemVerilog/Soc_RV32I/SoC/VERIFICATION/Driver/axi_driver.sv(67) @ 3575000: uvm_test_top.env.agent.driver [DRV] Write Done: Addr=10000118, Data=8acaa028
# UVM_INFO /home/khang/Documents/SystemVerilog/Soc_RV32I/SoC/VERIFICATION/Monitor/axi_monitor.sv(47) @ 3615000: uvm_test_top.env.agent.monitor [MON_WR] Detected WRITE : Addr = 1000011c, Data = e2da3df8
# UVM_INFO /home/khang/Documents/SystemVerilog/Soc_RV32I/SoC/VERIFICATION/Driver/axi_driver.sv(67) @ 3625000: uvm_test_top.env.agent.driver [DRV] Write Done: Addr=1000011c, Data=e2da3df8
# UVM_INFO /home/khang/Documents/SystemVerilog/Soc_RV32I/SoC/VERIFICATION/Monitor/axi_monitor.sv(47) @ 3665000: uvm_test_top.env.agent.monitor [MON_WR] Detected WRITE : Addr = 10000120, Data = a12af5b6
# UVM_INFO /home/khang/Documents/SystemVerilog/Soc_RV32I/SoC/VERIFICATION/Driver/axi_driver.sv(67) @ 3675000: uvm_test_top.env.agent.driver [DRV] Write Done: Addr=10000120, Data=a12af5b6
# UVM_INFO /home/khang/Documents/SystemVerilog/Soc_RV32I/SoC/VERIFICATION/Monitor/axi_monitor.sv(47) @ 3715000: uvm_test_top.env.agent.monitor [MON_WR] Detected WRITE : Addr = 10000124, Data = 26d8cb8d
# UVM_INFO /home/khang/Documents/SystemVerilog/Soc_RV32I/SoC/VERIFICATION/Driver/axi_driver.sv(67) @ 3725000: uvm_test_top.env.agent.driver [DRV] Write Done: Addr=10000124, Data=26d8cb8d
# UVM_INFO /home/khang/Documents/SystemVerilog/Soc_RV32I/SoC/VERIFICATION/Monitor/axi_monitor.sv(47) @ 3765000: uvm_test_top.env.agent.monitor [MON_WR] Detected WRITE : Addr = 10000128, Data = 514a12ae
# UVM_INFO /home/khang/Documents/SystemVerilog/Soc_RV32I/SoC/VERIFICATION/Driver/axi_driver.sv(67) @ 3775000: uvm_test_top.env.agent.driver [DRV] Write Done: Addr=10000128, Data=514a12ae
# UVM_INFO /home/khang/Documents/SystemVerilog/Soc_RV32I/SoC/VERIFICATION/Monitor/axi_monitor.sv(47) @ 3815000: uvm_test_top.env.agent.monitor [MON_WR] Detected WRITE : Addr = 1000012c, Data = dfb3ba96
# UVM_INFO /home/khang/Documents/SystemVerilog/Soc_RV32I/SoC/VERIFICATION/Driver/axi_driver.sv(67) @ 3825000: uvm_test_top.env.agent.driver [DRV] Write Done: Addr=1000012c, Data=dfb3ba96
# UVM_INFO /home/khang/Documents/SystemVerilog/Soc_RV32I/SoC/VERIFICATION/Monitor/axi_monitor.sv(47) @ 3865000: uvm_test_top.env.agent.monitor [MON_WR] Detected WRITE : Addr = 10000130, Data = 9b758c44
# UVM_INFO /home/khang/Documents/SystemVerilog/Soc_RV32I/SoC/VERIFICATION/Driver/axi_driver.sv(67) @ 3875000: uvm_test_top.env.agent.driver [DRV] Write Done: Addr=10000130, Data=9b758c44
# UVM_INFO /home/khang/Documents/SystemVerilog/Soc_RV32I/SoC/VERIFICATION/Monitor/axi_monitor.sv(47) @ 3915000: uvm_test_top.env.agent.monitor [MON_WR] Detected WRITE : Addr = 10000134, Data = ddb3669d
# UVM_INFO /home/khang/Documents/SystemVerilog/Soc_RV32I/SoC/VERIFICATION/Driver/axi_driver.sv(67) @ 3925000: uvm_test_top.env.agent.driver [DRV] Write Done: Addr=10000134, Data=ddb3669d
# UVM_INFO /home/khang/Documents/SystemVerilog/Soc_RV32I/SoC/VERIFICATION/Monitor/axi_monitor.sv(47) @ 3965000: uvm_test_top.env.agent.monitor [MON_WR] Detected WRITE : Addr = 10000138, Data = 2a97f13f
# UVM_INFO /home/khang/Documents/SystemVerilog/Soc_RV32I/SoC/VERIFICATION/Driver/axi_driver.sv(67) @ 3975000: uvm_test_top.env.agent.driver [DRV] Write Done: Addr=10000138, Data=2a97f13f
# UVM_INFO /home/khang/Documents/SystemVerilog/Soc_RV32I/SoC/VERIFICATION/Monitor/axi_monitor.sv(47) @ 4015000: uvm_test_top.env.agent.monitor [MON_WR] Detected WRITE : Addr = 1000013c, Data = c884d487
# UVM_INFO /home/khang/Documents/SystemVerilog/Soc_RV32I/SoC/VERIFICATION/Driver/axi_driver.sv(67) @ 4025000: uvm_test_top.env.agent.driver [DRV] Write Done: Addr=1000013c, Data=c884d487
# UVM_INFO /home/khang/Documents/SystemVerilog/Soc_RV32I/SoC/VERIFICATION/Monitor/axi_monitor.sv(47) @ 4065000: uvm_test_top.env.agent.monitor [MON_WR] Detected WRITE : Addr = 10000140, Data = eb63ba57
# UVM_INFO /home/khang/Documents/SystemVerilog/Soc_RV32I/SoC/VERIFICATION/Driver/axi_driver.sv(67) @ 4075000: uvm_test_top.env.agent.driver [DRV] Write Done: Addr=10000140, Data=eb63ba57
# UVM_INFO /home/khang/Documents/SystemVerilog/Soc_RV32I/SoC/VERIFICATION/Monitor/axi_monitor.sv(47) @ 4115000: uvm_test_top.env.agent.monitor [MON_WR] Detected WRITE : Addr = 10000144, Data = 4c1597d3
# UVM_INFO /home/khang/Documents/SystemVerilog/Soc_RV32I/SoC/VERIFICATION/Driver/axi_driver.sv(67) @ 4125000: uvm_test_top.env.agent.driver [DRV] Write Done: Addr=10000144, Data=4c1597d3
# UVM_INFO /home/khang/Documents/SystemVerilog/Soc_RV32I/SoC/VERIFICATION/Monitor/axi_monitor.sv(47) @ 4165000: uvm_test_top.env.agent.monitor [MON_WR] Detected WRITE : Addr = 10000148, Data = 3aee992d
# UVM_INFO /home/khang/Documents/SystemVerilog/Soc_RV32I/SoC/VERIFICATION/Driver/axi_driver.sv(67) @ 4175000: uvm_test_top.env.agent.driver [DRV] Write Done: Addr=10000148, Data=3aee992d
# UVM_INFO /home/khang/Documents/SystemVerilog/Soc_RV32I/SoC/VERIFICATION/Monitor/axi_monitor.sv(47) @ 4215000: uvm_test_top.env.agent.monitor [MON_WR] Detected WRITE : Addr = 1000014c, Data = 7c72a0e5
# UVM_INFO /home/khang/Documents/SystemVerilog/Soc_RV32I/SoC/VERIFICATION/Driver/axi_driver.sv(67) @ 4225000: uvm_test_top.env.agent.driver [DRV] Write Done: Addr=1000014c, Data=7c72a0e5
# UVM_INFO /home/khang/Documents/SystemVerilog/Soc_RV32I/SoC/VERIFICATION/Monitor/axi_monitor.sv(47) @ 4265000: uvm_test_top.env.agent.monitor [MON_WR] Detected WRITE : Addr = 10000150, Data = a20b04f4
# UVM_INFO /home/khang/Documents/SystemVerilog/Soc_RV32I/SoC/VERIFICATION/Driver/axi_driver.sv(67) @ 4275000: uvm_test_top.env.agent.driver [DRV] Write Done: Addr=10000150, Data=a20b04f4
# UVM_INFO /home/khang/Documents/SystemVerilog/Soc_RV32I/SoC/VERIFICATION/Monitor/axi_monitor.sv(47) @ 4315000: uvm_test_top.env.agent.monitor [MON_WR] Detected WRITE : Addr = 10000154, Data = 8bc178fa
# UVM_INFO /home/khang/Documents/SystemVerilog/Soc_RV32I/SoC/VERIFICATION/Driver/axi_driver.sv(67) @ 4325000: uvm_test_top.env.agent.driver [DRV] Write Done: Addr=10000154, Data=8bc178fa
# UVM_INFO /home/khang/Documents/SystemVerilog/Soc_RV32I/SoC/VERIFICATION/Monitor/axi_monitor.sv(47) @ 4365000: uvm_test_top.env.agent.monitor [MON_WR] Detected WRITE : Addr = 10000158, Data = 502af4eb
# UVM_INFO /home/khang/Documents/SystemVerilog/Soc_RV32I/SoC/VERIFICATION/Driver/axi_driver.sv(67) @ 4375000: uvm_test_top.env.agent.driver [DRV] Write Done: Addr=10000158, Data=502af4eb
# UVM_INFO /home/khang/Documents/SystemVerilog/Soc_RV32I/SoC/VERIFICATION/Monitor/axi_monitor.sv(47) @ 4415000: uvm_test_top.env.agent.monitor [MON_WR] Detected WRITE : Addr = 1000015c, Data = 5b4ea5b8
# UVM_INFO /home/khang/Documents/SystemVerilog/Soc_RV32I/SoC/VERIFICATION/Driver/axi_driver.sv(67) @ 4425000: uvm_test_top.env.agent.driver [DRV] Write Done: Addr=1000015c, Data=5b4ea5b8
# UVM_INFO /home/khang/Documents/SystemVerilog/Soc_RV32I/SoC/VERIFICATION/Monitor/axi_monitor.sv(47) @ 4465000: uvm_test_top.env.agent.monitor [MON_WR] Detected WRITE : Addr = 10000160, Data = a0b0dcfc
# UVM_INFO /home/khang/Documents/SystemVerilog/Soc_RV32I/SoC/VERIFICATION/Driver/axi_driver.sv(67) @ 4475000: uvm_test_top.env.agent.driver [DRV] Write Done: Addr=10000160, Data=a0b0dcfc
# UVM_INFO /home/khang/Documents/SystemVerilog/Soc_RV32I/SoC/VERIFICATION/Monitor/axi_monitor.sv(47) @ 4515000: uvm_test_top.env.agent.monitor [MON_WR] Detected WRITE : Addr = 10000164, Data = a2ce6c22
# UVM_INFO /home/khang/Documents/SystemVerilog/Soc_RV32I/SoC/VERIFICATION/Driver/axi_driver.sv(67) @ 4525000: uvm_test_top.env.agent.driver [DRV] Write Done: Addr=10000164, Data=a2ce6c22
# UVM_INFO /home/khang/Documents/SystemVerilog/Soc_RV32I/SoC/VERIFICATION/Monitor/axi_monitor.sv(47) @ 4565000: uvm_test_top.env.agent.monitor [MON_WR] Detected WRITE : Addr = 10000168, Data = d49f276c
# UVM_INFO /home/khang/Documents/SystemVerilog/Soc_RV32I/SoC/VERIFICATION/Driver/axi_driver.sv(67) @ 4575000: uvm_test_top.env.agent.driver [DRV] Write Done: Addr=10000168, Data=d49f276c
# UVM_INFO /home/khang/Documents/SystemVerilog/Soc_RV32I/SoC/VERIFICATION/Monitor/axi_monitor.sv(47) @ 4615000: uvm_test_top.env.agent.monitor [MON_WR] Detected WRITE : Addr = 1000016c, Data = 94758408
# UVM_INFO /home/khang/Documents/SystemVerilog/Soc_RV32I/SoC/VERIFICATION/Driver/axi_driver.sv(67) @ 4625000: uvm_test_top.env.agent.driver [DRV] Write Done: Addr=1000016c, Data=94758408
# UVM_INFO /home/khang/Documents/SystemVerilog/Soc_RV32I/SoC/VERIFICATION/Monitor/axi_monitor.sv(47) @ 4665000: uvm_test_top.env.agent.monitor [MON_WR] Detected WRITE : Addr = 10000170, Data = 4c4ba06b
# UVM_INFO /home/khang/Documents/SystemVerilog/Soc_RV32I/SoC/VERIFICATION/Driver/axi_driver.sv(67) @ 4675000: uvm_test_top.env.agent.driver [DRV] Write Done: Addr=10000170, Data=4c4ba06b
# UVM_INFO /home/khang/Documents/SystemVerilog/Soc_RV32I/SoC/VERIFICATION/Monitor/axi_monitor.sv(47) @ 4715000: uvm_test_top.env.agent.monitor [MON_WR] Detected WRITE : Addr = 10000174, Data = 1e4fc05b
# UVM_INFO /home/khang/Documents/SystemVerilog/Soc_RV32I/SoC/VERIFICATION/Driver/axi_driver.sv(67) @ 4725000: uvm_test_top.env.agent.driver [DRV] Write Done: Addr=10000174, Data=1e4fc05b
# UVM_INFO /home/khang/Documents/SystemVerilog/Soc_RV32I/SoC/VERIFICATION/Monitor/axi_monitor.sv(47) @ 4765000: uvm_test_top.env.agent.monitor [MON_WR] Detected WRITE : Addr = 10000178, Data = 38e5cac8
# UVM_INFO /home/khang/Documents/SystemVerilog/Soc_RV32I/SoC/VERIFICATION/Driver/axi_driver.sv(67) @ 4775000: uvm_test_top.env.agent.driver [DRV] Write Done: Addr=10000178, Data=38e5cac8
# UVM_INFO /home/khang/Documents/SystemVerilog/Soc_RV32I/SoC/VERIFICATION/Monitor/axi_monitor.sv(47) @ 4815000: uvm_test_top.env.agent.monitor [MON_WR] Detected WRITE : Addr = 1000017c, Data = dce8ac48
# UVM_INFO /home/khang/Documents/SystemVerilog/Soc_RV32I/SoC/VERIFICATION/Driver/axi_driver.sv(67) @ 4825000: uvm_test_top.env.agent.driver [DRV] Write Done: Addr=1000017c, Data=dce8ac48
# UVM_INFO /home/khang/Documents/SystemVerilog/Soc_RV32I/SoC/VERIFICATION/Monitor/axi_monitor.sv(47) @ 4865000: uvm_test_top.env.agent.monitor [MON_WR] Detected WRITE : Addr = 10000180, Data = 95ede031
# UVM_INFO /home/khang/Documents/SystemVerilog/Soc_RV32I/SoC/VERIFICATION/Driver/axi_driver.sv(67) @ 4875000: uvm_test_top.env.agent.driver [DRV] Write Done: Addr=10000180, Data=95ede031
# UVM_INFO /home/khang/Documents/SystemVerilog/Soc_RV32I/SoC/VERIFICATION/Monitor/axi_monitor.sv(47) @ 4915000: uvm_test_top.env.agent.monitor [MON_WR] Detected WRITE : Addr = 10000184, Data = a86c2a05
# UVM_INFO /home/khang/Documents/SystemVerilog/Soc_RV32I/SoC/VERIFICATION/Driver/axi_driver.sv(67) @ 4925000: uvm_test_top.env.agent.driver [DRV] Write Done: Addr=10000184, Data=a86c2a05
# UVM_INFO /home/khang/Documents/SystemVerilog/Soc_RV32I/SoC/VERIFICATION/Monitor/axi_monitor.sv(47) @ 4965000: uvm_test_top.env.agent.monitor [MON_WR] Detected WRITE : Addr = 10000188, Data = 2f8eb23a
# UVM_INFO /home/khang/Documents/SystemVerilog/Soc_RV32I/SoC/VERIFICATION/Driver/axi_driver.sv(67) @ 4975000: uvm_test_top.env.agent.driver [DRV] Write Done: Addr=10000188, Data=2f8eb23a
# UVM_INFO /home/khang/Documents/SystemVerilog/Soc_RV32I/SoC/VERIFICATION/Monitor/axi_monitor.sv(47) @ 5015000: uvm_test_top.env.agent.monitor [MON_WR] Detected WRITE : Addr = 1000018c, Data = 38057c5f
# UVM_INFO /home/khang/Documents/SystemVerilog/Soc_RV32I/SoC/VERIFICATION/Driver/axi_driver.sv(67) @ 5025000: uvm_test_top.env.agent.driver [DRV] Write Done: Addr=1000018c, Data=38057c5f
# UVM_INFO /home/khang/Documents/SystemVerilog/Soc_RV32I/SoC/VERIFICATION/Monitor/axi_monitor.sv(47) @ 5065000: uvm_test_top.env.agent.monitor [MON_WR] Detected WRITE : Addr = 10000190, Data = 4f0d7ac0
# UVM_INFO /home/khang/Documents/SystemVerilog/Soc_RV32I/SoC/VERIFICATION/Driver/axi_driver.sv(67) @ 5075000: uvm_test_top.env.agent.driver [DRV] Write Done: Addr=10000190, Data=4f0d7ac0
# UVM_INFO /home/khang/Documents/SystemVerilog/Soc_RV32I/SoC/VERIFICATION/Monitor/axi_monitor.sv(47) @ 5115000: uvm_test_top.env.agent.monitor [MON_WR] Detected WRITE : Addr = 10000194, Data = c9c0014f
# UVM_INFO /home/khang/Documents/SystemVerilog/Soc_RV32I/SoC/VERIFICATION/Driver/axi_driver.sv(67) @ 5125000: uvm_test_top.env.agent.driver [DRV] Write Done: Addr=10000194, Data=c9c0014f
# UVM_INFO /home/khang/Documents/SystemVerilog/Soc_RV32I/SoC/VERIFICATION/Monitor/axi_monitor.sv(47) @ 5165000: uvm_test_top.env.agent.monitor [MON_WR] Detected WRITE : Addr = 10000198, Data = 8803d485
# UVM_INFO /home/khang/Documents/SystemVerilog/Soc_RV32I/SoC/VERIFICATION/Driver/axi_driver.sv(67) @ 5175000: uvm_test_top.env.agent.driver [DRV] Write Done: Addr=10000198, Data=8803d485
# UVM_INFO /home/khang/Documents/SystemVerilog/Soc_RV32I/SoC/VERIFICATION/Monitor/axi_monitor.sv(47) @ 5215000: uvm_test_top.env.agent.monitor [MON_WR] Detected WRITE : Addr = 1000019c, Data = 80a17578
# UVM_INFO /home/khang/Documents/SystemVerilog/Soc_RV32I/SoC/VERIFICATION/Driver/axi_driver.sv(67) @ 5225000: uvm_test_top.env.agent.driver [DRV] Write Done: Addr=1000019c, Data=80a17578
# UVM_INFO /home/khang/Documents/SystemVerilog/Soc_RV32I/SoC/VERIFICATION/Monitor/axi_monitor.sv(47) @ 5265000: uvm_test_top.env.agent.monitor [MON_WR] Detected WRITE : Addr = 100001a0, Data = 1ab28ce7
# UVM_INFO /home/khang/Documents/SystemVerilog/Soc_RV32I/SoC/VERIFICATION/Driver/axi_driver.sv(67) @ 5275000: uvm_test_top.env.agent.driver [DRV] Write Done: Addr=100001a0, Data=1ab28ce7
# UVM_INFO /home/khang/Documents/SystemVerilog/Soc_RV32I/SoC/VERIFICATION/Monitor/axi_monitor.sv(47) @ 5315000: uvm_test_top.env.agent.monitor [MON_WR] Detected WRITE : Addr = 100001a4, Data = d32fe75a
# UVM_INFO /home/khang/Documents/SystemVerilog/Soc_RV32I/SoC/VERIFICATION/Driver/axi_driver.sv(67) @ 5325000: uvm_test_top.env.agent.driver [DRV] Write Done: Addr=100001a4, Data=d32fe75a
# UVM_INFO /home/khang/Documents/SystemVerilog/Soc_RV32I/SoC/VERIFICATION/Monitor/axi_monitor.sv(47) @ 5365000: uvm_test_top.env.agent.monitor [MON_WR] Detected WRITE : Addr = 100001a8, Data = 65900d0d
# UVM_INFO /home/khang/Documents/SystemVerilog/Soc_RV32I/SoC/VERIFICATION/Driver/axi_driver.sv(67) @ 5375000: uvm_test_top.env.agent.driver [DRV] Write Done: Addr=100001a8, Data=65900d0d
# UVM_INFO /home/khang/Documents/SystemVerilog/Soc_RV32I/SoC/VERIFICATION/Monitor/axi_monitor.sv(47) @ 5415000: uvm_test_top.env.agent.monitor [MON_WR] Detected WRITE : Addr = 100001ac, Data = bd59728f
# UVM_INFO /home/khang/Documents/SystemVerilog/Soc_RV32I/SoC/VERIFICATION/Driver/axi_driver.sv(67) @ 5425000: uvm_test_top.env.agent.driver [DRV] Write Done: Addr=100001ac, Data=bd59728f
# UVM_INFO /home/khang/Documents/SystemVerilog/Soc_RV32I/SoC/VERIFICATION/Monitor/axi_monitor.sv(47) @ 5465000: uvm_test_top.env.agent.monitor [MON_WR] Detected WRITE : Addr = 100001b0, Data = 4c6fa389
# UVM_INFO /home/khang/Documents/SystemVerilog/Soc_RV32I/SoC/VERIFICATION/Driver/axi_driver.sv(67) @ 5475000: uvm_test_top.env.agent.driver [DRV] Write Done: Addr=100001b0, Data=4c6fa389
# UVM_INFO /home/khang/Documents/SystemVerilog/Soc_RV32I/SoC/VERIFICATION/Monitor/axi_monitor.sv(47) @ 5515000: uvm_test_top.env.agent.monitor [MON_WR] Detected WRITE : Addr = 100001b4, Data = c1fce25b
# UVM_INFO /home/khang/Documents/SystemVerilog/Soc_RV32I/SoC/VERIFICATION/Driver/axi_driver.sv(67) @ 5525000: uvm_test_top.env.agent.driver [DRV] Write Done: Addr=100001b4, Data=c1fce25b
# UVM_INFO /home/khang/Documents/SystemVerilog/Soc_RV32I/SoC/VERIFICATION/Monitor/axi_monitor.sv(47) @ 5565000: uvm_test_top.env.agent.monitor [MON_WR] Detected WRITE : Addr = 100001b8, Data = 890e2b6d
# UVM_INFO /home/khang/Documents/SystemVerilog/Soc_RV32I/SoC/VERIFICATION/Driver/axi_driver.sv(67) @ 5575000: uvm_test_top.env.agent.driver [DRV] Write Done: Addr=100001b8, Data=890e2b6d
# UVM_INFO /home/khang/Documents/SystemVerilog/Soc_RV32I/SoC/VERIFICATION/Monitor/axi_monitor.sv(47) @ 5615000: uvm_test_top.env.agent.monitor [MON_WR] Detected WRITE : Addr = 100001bc, Data = 136e05a1
# UVM_INFO /home/khang/Documents/SystemVerilog/Soc_RV32I/SoC/VERIFICATION/Driver/axi_driver.sv(67) @ 5625000: uvm_test_top.env.agent.driver [DRV] Write Done: Addr=100001bc, Data=136e05a1
# UVM_INFO /home/khang/Documents/SystemVerilog/Soc_RV32I/SoC/VERIFICATION/Monitor/axi_monitor.sv(47) @ 5665000: uvm_test_top.env.agent.monitor [MON_WR] Detected WRITE : Addr = 100001c0, Data = 60e0c082
# UVM_INFO /home/khang/Documents/SystemVerilog/Soc_RV32I/SoC/VERIFICATION/Driver/axi_driver.sv(67) @ 5675000: uvm_test_top.env.agent.driver [DRV] Write Done: Addr=100001c0, Data=60e0c082
# UVM_INFO /home/khang/Documents/SystemVerilog/Soc_RV32I/SoC/VERIFICATION/Monitor/axi_monitor.sv(47) @ 5715000: uvm_test_top.env.agent.monitor [MON_WR] Detected WRITE : Addr = 100001c4, Data = 99550be3
# UVM_INFO /home/khang/Documents/SystemVerilog/Soc_RV32I/SoC/VERIFICATION/Driver/axi_driver.sv(67) @ 5725000: uvm_test_top.env.agent.driver [DRV] Write Done: Addr=100001c4, Data=99550be3
# UVM_INFO /home/khang/Documents/SystemVerilog/Soc_RV32I/SoC/VERIFICATION/Monitor/axi_monitor.sv(47) @ 5765000: uvm_test_top.env.agent.monitor [MON_WR] Detected WRITE : Addr = 100001c8, Data = 7722fe7b
# UVM_INFO /home/khang/Documents/SystemVerilog/Soc_RV32I/SoC/VERIFICATION/Driver/axi_driver.sv(67) @ 5775000: uvm_test_top.env.agent.driver [DRV] Write Done: Addr=100001c8, Data=7722fe7b
# UVM_INFO /home/khang/Documents/SystemVerilog/Soc_RV32I/SoC/VERIFICATION/Monitor/axi_monitor.sv(47) @ 5815000: uvm_test_top.env.agent.monitor [MON_WR] Detected WRITE : Addr = 100001cc, Data = 4538363e
# UVM_INFO /home/khang/Documents/SystemVerilog/Soc_RV32I/SoC/VERIFICATION/Driver/axi_driver.sv(67) @ 5825000: uvm_test_top.env.agent.driver [DRV] Write Done: Addr=100001cc, Data=4538363e
# UVM_INFO /home/khang/Documents/SystemVerilog/Soc_RV32I/SoC/VERIFICATION/Monitor/axi_monitor.sv(47) @ 5865000: uvm_test_top.env.agent.monitor [MON_WR] Detected WRITE : Addr = 100001d0, Data = d96c8cd0
# UVM_INFO /home/khang/Documents/SystemVerilog/Soc_RV32I/SoC/VERIFICATION/Driver/axi_driver.sv(67) @ 5875000: uvm_test_top.env.agent.driver [DRV] Write Done: Addr=100001d0, Data=d96c8cd0
# UVM_INFO /home/khang/Documents/SystemVerilog/Soc_RV32I/SoC/VERIFICATION/Monitor/axi_monitor.sv(47) @ 5915000: uvm_test_top.env.agent.monitor [MON_WR] Detected WRITE : Addr = 100001d4, Data = d7640257
# UVM_INFO /home/khang/Documents/SystemVerilog/Soc_RV32I/SoC/VERIFICATION/Driver/axi_driver.sv(67) @ 5925000: uvm_test_top.env.agent.driver [DRV] Write Done: Addr=100001d4, Data=d7640257
# UVM_INFO /home/khang/Documents/SystemVerilog/Soc_RV32I/SoC/VERIFICATION/Monitor/axi_monitor.sv(47) @ 5965000: uvm_test_top.env.agent.monitor [MON_WR] Detected WRITE : Addr = 100001d8, Data = da951134
# UVM_INFO /home/khang/Documents/SystemVerilog/Soc_RV32I/SoC/VERIFICATION/Driver/axi_driver.sv(67) @ 5975000: uvm_test_top.env.agent.driver [DRV] Write Done: Addr=100001d8, Data=da951134
# UVM_INFO /home/khang/Documents/SystemVerilog/Soc_RV32I/SoC/VERIFICATION/Monitor/axi_monitor.sv(47) @ 6015000: uvm_test_top.env.agent.monitor [MON_WR] Detected WRITE : Addr = 100001dc, Data = 3ca9373b
# UVM_INFO /home/khang/Documents/SystemVerilog/Soc_RV32I/SoC/VERIFICATION/Driver/axi_driver.sv(67) @ 6025000: uvm_test_top.env.agent.driver [DRV] Write Done: Addr=100001dc, Data=3ca9373b
# UVM_INFO /home/khang/Documents/SystemVerilog/Soc_RV32I/SoC/VERIFICATION/Monitor/axi_monitor.sv(47) @ 6065000: uvm_test_top.env.agent.monitor [MON_WR] Detected WRITE : Addr = 100001e0, Data = 54652374
# UVM_INFO /home/khang/Documents/SystemVerilog/Soc_RV32I/SoC/VERIFICATION/Driver/axi_driver.sv(67) @ 6075000: uvm_test_top.env.agent.driver [DRV] Write Done: Addr=100001e0, Data=54652374
# UVM_INFO /home/khang/Documents/SystemVerilog/Soc_RV32I/SoC/VERIFICATION/Monitor/axi_monitor.sv(47) @ 6115000: uvm_test_top.env.agent.monitor [MON_WR] Detected WRITE : Addr = 100001e4, Data = a491183a
# UVM_INFO /home/khang/Documents/SystemVerilog/Soc_RV32I/SoC/VERIFICATION/Driver/axi_driver.sv(67) @ 6125000: uvm_test_top.env.agent.driver [DRV] Write Done: Addr=100001e4, Data=a491183a
# UVM_INFO /home/khang/Documents/SystemVerilog/Soc_RV32I/SoC/VERIFICATION/Monitor/axi_monitor.sv(47) @ 6165000: uvm_test_top.env.agent.monitor [MON_WR] Detected WRITE : Addr = 100001e8, Data = 36af7304
# UVM_INFO /home/khang/Documents/SystemVerilog/Soc_RV32I/SoC/VERIFICATION/Driver/axi_driver.sv(67) @ 6175000: uvm_test_top.env.agent.driver [DRV] Write Done: Addr=100001e8, Data=36af7304
# UVM_INFO /home/khang/Documents/SystemVerilog/Soc_RV32I/SoC/VERIFICATION/Monitor/axi_monitor.sv(47) @ 6215000: uvm_test_top.env.agent.monitor [MON_WR] Detected WRITE : Addr = 100001ec, Data = b4fc95de
# UVM_INFO /home/khang/Documents/SystemVerilog/Soc_RV32I/SoC/VERIFICATION/Driver/axi_driver.sv(67) @ 6225000: uvm_test_top.env.agent.driver [DRV] Write Done: Addr=100001ec, Data=b4fc95de
# UVM_INFO /home/khang/Documents/SystemVerilog/Soc_RV32I/SoC/VERIFICATION/Monitor/axi_monitor.sv(47) @ 6265000: uvm_test_top.env.agent.monitor [MON_WR] Detected WRITE : Addr = 100001f0, Data = 20cfeaff
# UVM_INFO /home/khang/Documents/SystemVerilog/Soc_RV32I/SoC/VERIFICATION/Driver/axi_driver.sv(67) @ 6275000: uvm_test_top.env.agent.driver [DRV] Write Done: Addr=100001f0, Data=20cfeaff
# UVM_INFO /home/khang/Documents/SystemVerilog/Soc_RV32I/SoC/VERIFICATION/Monitor/axi_monitor.sv(47) @ 6315000: uvm_test_top.env.agent.monitor [MON_WR] Detected WRITE : Addr = 100001f4, Data = eded914a
# UVM_INFO /home/khang/Documents/SystemVerilog/Soc_RV32I/SoC/VERIFICATION/Driver/axi_driver.sv(67) @ 6325000: uvm_test_top.env.agent.driver [DRV] Write Done: Addr=100001f4, Data=eded914a
# UVM_INFO /home/khang/Documents/SystemVerilog/Soc_RV32I/SoC/VERIFICATION/Monitor/axi_monitor.sv(47) @ 6365000: uvm_test_top.env.agent.monitor [MON_WR] Detected WRITE : Addr = 100001f8, Data = d4edd898
# UVM_INFO /home/khang/Documents/SystemVerilog/Soc_RV32I/SoC/VERIFICATION/Driver/axi_driver.sv(67) @ 6375000: uvm_test_top.env.agent.driver [DRV] Write Done: Addr=100001f8, Data=d4edd898
# UVM_INFO /home/khang/Documents/SystemVerilog/Soc_RV32I/SoC/VERIFICATION/Monitor/axi_monitor.sv(47) @ 6415000: uvm_test_top.env.agent.monitor [MON_WR] Detected WRITE : Addr = 100001fc, Data = 0f4be13b
# UVM_INFO /home/khang/Documents/SystemVerilog/Soc_RV32I/SoC/VERIFICATION/Driver/axi_driver.sv(67) @ 6425000: uvm_test_top.env.agent.driver [DRV] Write Done: Addr=100001fc, Data=0f4be13b
# UVM_INFO /home/khang/Documents/SystemVerilog/Soc_RV32I/SoC/VERIFICATION/Monitor/axi_monitor.sv(47) @ 6465000: uvm_test_top.env.agent.monitor [MON_WR] Detected WRITE : Addr = 10000200, Data = 4b9692ea
# UVM_INFO /home/khang/Documents/SystemVerilog/Soc_RV32I/SoC/VERIFICATION/Driver/axi_driver.sv(67) @ 6475000: uvm_test_top.env.agent.driver [DRV] Write Done: Addr=10000200, Data=4b9692ea
# UVM_INFO /home/khang/Documents/SystemVerilog/Soc_RV32I/SoC/VERIFICATION/Monitor/axi_monitor.sv(47) @ 6515000: uvm_test_top.env.agent.monitor [MON_WR] Detected WRITE : Addr = 10000204, Data = 519a4c07
# UVM_INFO /home/khang/Documents/SystemVerilog/Soc_RV32I/SoC/VERIFICATION/Driver/axi_driver.sv(67) @ 6525000: uvm_test_top.env.agent.driver [DRV] Write Done: Addr=10000204, Data=519a4c07
# UVM_INFO /home/khang/Documents/SystemVerilog/Soc_RV32I/SoC/VERIFICATION/Monitor/axi_monitor.sv(47) @ 6565000: uvm_test_top.env.agent.monitor [MON_WR] Detected WRITE : Addr = 10000208, Data = 3d6f3958
# UVM_INFO /home/khang/Documents/SystemVerilog/Soc_RV32I/SoC/VERIFICATION/Driver/axi_driver.sv(67) @ 6575000: uvm_test_top.env.agent.driver [DRV] Write Done: Addr=10000208, Data=3d6f3958
# UVM_INFO /home/khang/Documents/SystemVerilog/Soc_RV32I/SoC/VERIFICATION/Monitor/axi_monitor.sv(47) @ 6615000: uvm_test_top.env.agent.monitor [MON_WR] Detected WRITE : Addr = 1000020c, Data = 6ceaed28
# UVM_INFO /home/khang/Documents/SystemVerilog/Soc_RV32I/SoC/VERIFICATION/Driver/axi_driver.sv(67) @ 6625000: uvm_test_top.env.agent.driver [DRV] Write Done: Addr=1000020c, Data=6ceaed28
# UVM_INFO /home/khang/Documents/SystemVerilog/Soc_RV32I/SoC/VERIFICATION/Monitor/axi_monitor.sv(47) @ 6665000: uvm_test_top.env.agent.monitor [MON_WR] Detected WRITE : Addr = 10000210, Data = f6e5d7e6
# UVM_INFO /home/khang/Documents/SystemVerilog/Soc_RV32I/SoC/VERIFICATION/Driver/axi_driver.sv(67) @ 6675000: uvm_test_top.env.agent.driver [DRV] Write Done: Addr=10000210, Data=f6e5d7e6
# UVM_INFO /home/khang/Documents/SystemVerilog/Soc_RV32I/SoC/VERIFICATION/Monitor/axi_monitor.sv(47) @ 6715000: uvm_test_top.env.agent.monitor [MON_WR] Detected WRITE : Addr = 10000214, Data = 973f4f23
# UVM_INFO /home/khang/Documents/SystemVerilog/Soc_RV32I/SoC/VERIFICATION/Driver/axi_driver.sv(67) @ 6725000: uvm_test_top.env.agent.driver [DRV] Write Done: Addr=10000214, Data=973f4f23
# UVM_INFO /home/khang/Documents/SystemVerilog/Soc_RV32I/SoC/VERIFICATION/Monitor/axi_monitor.sv(47) @ 6765000: uvm_test_top.env.agent.monitor [MON_WR] Detected WRITE : Addr = 10000218, Data = 6633d4e0
# UVM_INFO /home/khang/Documents/SystemVerilog/Soc_RV32I/SoC/VERIFICATION/Driver/axi_driver.sv(67) @ 6775000: uvm_test_top.env.agent.driver [DRV] Write Done: Addr=10000218, Data=6633d4e0
# UVM_INFO /home/khang/Documents/SystemVerilog/Soc_RV32I/SoC/VERIFICATION/Monitor/axi_monitor.sv(47) @ 6815000: uvm_test_top.env.agent.monitor [MON_WR] Detected WRITE : Addr = 1000021c, Data = 8b899bce
# UVM_INFO /home/khang/Documents/SystemVerilog/Soc_RV32I/SoC/VERIFICATION/Driver/axi_driver.sv(67) @ 6825000: uvm_test_top.env.agent.driver [DRV] Write Done: Addr=1000021c, Data=8b899bce
# UVM_INFO /home/khang/Documents/SystemVerilog/Soc_RV32I/SoC/VERIFICATION/Monitor/axi_monitor.sv(47) @ 6865000: uvm_test_top.env.agent.monitor [MON_WR] Detected WRITE : Addr = 10000220, Data = c987aea5
# UVM_INFO /home/khang/Documents/SystemVerilog/Soc_RV32I/SoC/VERIFICATION/Driver/axi_driver.sv(67) @ 6875000: uvm_test_top.env.agent.driver [DRV] Write Done: Addr=10000220, Data=c987aea5
# UVM_INFO /home/khang/Documents/SystemVerilog/Soc_RV32I/SoC/VERIFICATION/Monitor/axi_monitor.sv(47) @ 6915000: uvm_test_top.env.agent.monitor [MON_WR] Detected WRITE : Addr = 10000224, Data = c12677ba
# UVM_INFO /home/khang/Documents/SystemVerilog/Soc_RV32I/SoC/VERIFICATION/Driver/axi_driver.sv(67) @ 6925000: uvm_test_top.env.agent.driver [DRV] Write Done: Addr=10000224, Data=c12677ba
# UVM_INFO /home/khang/Documents/SystemVerilog/Soc_RV32I/SoC/VERIFICATION/Monitor/axi_monitor.sv(47) @ 6965000: uvm_test_top.env.agent.monitor [MON_WR] Detected WRITE : Addr = 10000228, Data = 551f33be
# UVM_INFO /home/khang/Documents/SystemVerilog/Soc_RV32I/SoC/VERIFICATION/Driver/axi_driver.sv(67) @ 6975000: uvm_test_top.env.agent.driver [DRV] Write Done: Addr=10000228, Data=551f33be
# UVM_INFO /home/khang/Documents/SystemVerilog/Soc_RV32I/SoC/VERIFICATION/Monitor/axi_monitor.sv(47) @ 7015000: uvm_test_top.env.agent.monitor [MON_WR] Detected WRITE : Addr = 1000022c, Data = f6b69fc3
# UVM_INFO /home/khang/Documents/SystemVerilog/Soc_RV32I/SoC/VERIFICATION/Driver/axi_driver.sv(67) @ 7025000: uvm_test_top.env.agent.driver [DRV] Write Done: Addr=1000022c, Data=f6b69fc3
# UVM_INFO /home/khang/Documents/SystemVerilog/Soc_RV32I/SoC/VERIFICATION/Monitor/axi_monitor.sv(47) @ 7065000: uvm_test_top.env.agent.monitor [MON_WR] Detected WRITE : Addr = 10000230, Data = a9abf913
# UVM_INFO /home/khang/Documents/SystemVerilog/Soc_RV32I/SoC/VERIFICATION/Driver/axi_driver.sv(67) @ 7075000: uvm_test_top.env.agent.driver [DRV] Write Done: Addr=10000230, Data=a9abf913
# UVM_INFO /home/khang/Documents/SystemVerilog/Soc_RV32I/SoC/VERIFICATION/Monitor/axi_monitor.sv(47) @ 7115000: uvm_test_top.env.agent.monitor [MON_WR] Detected WRITE : Addr = 10000234, Data = d9e2bb6c
# UVM_INFO /home/khang/Documents/SystemVerilog/Soc_RV32I/SoC/VERIFICATION/Driver/axi_driver.sv(67) @ 7125000: uvm_test_top.env.agent.driver [DRV] Write Done: Addr=10000234, Data=d9e2bb6c
# UVM_INFO /home/khang/Documents/SystemVerilog/Soc_RV32I/SoC/VERIFICATION/Monitor/axi_monitor.sv(47) @ 7165000: uvm_test_top.env.agent.monitor [MON_WR] Detected WRITE : Addr = 10000238, Data = bd9e4e4b
# UVM_INFO /home/khang/Documents/SystemVerilog/Soc_RV32I/SoC/VERIFICATION/Driver/axi_driver.sv(67) @ 7175000: uvm_test_top.env.agent.driver [DRV] Write Done: Addr=10000238, Data=bd9e4e4b
# UVM_INFO /home/khang/Documents/SystemVerilog/Soc_RV32I/SoC/VERIFICATION/Monitor/axi_monitor.sv(47) @ 7215000: uvm_test_top.env.agent.monitor [MON_WR] Detected WRITE : Addr = 1000023c, Data = 77a6ecfd
# UVM_INFO /home/khang/Documents/SystemVerilog/Soc_RV32I/SoC/VERIFICATION/Driver/axi_driver.sv(67) @ 7225000: uvm_test_top.env.agent.driver [DRV] Write Done: Addr=1000023c, Data=77a6ecfd
# UVM_INFO /home/khang/Documents/SystemVerilog/Soc_RV32I/SoC/VERIFICATION/Monitor/axi_monitor.sv(47) @ 7265000: uvm_test_top.env.agent.monitor [MON_WR] Detected WRITE : Addr = 10000240, Data = d3a23728
# UVM_INFO /home/khang/Documents/SystemVerilog/Soc_RV32I/SoC/VERIFICATION/Driver/axi_driver.sv(67) @ 7275000: uvm_test_top.env.agent.driver [DRV] Write Done: Addr=10000240, Data=d3a23728
# UVM_INFO /home/khang/Documents/SystemVerilog/Soc_RV32I/SoC/VERIFICATION/Monitor/axi_monitor.sv(47) @ 7315000: uvm_test_top.env.agent.monitor [MON_WR] Detected WRITE : Addr = 10000244, Data = cc388362
# UVM_INFO /home/khang/Documents/SystemVerilog/Soc_RV32I/SoC/VERIFICATION/Driver/axi_driver.sv(67) @ 7325000: uvm_test_top.env.agent.driver [DRV] Write Done: Addr=10000244, Data=cc388362
# UVM_INFO /home/khang/Documents/SystemVerilog/Soc_RV32I/SoC/VERIFICATION/Monitor/axi_monitor.sv(47) @ 7365000: uvm_test_top.env.agent.monitor [MON_WR] Detected WRITE : Addr = 10000248, Data = 7e462729
# UVM_INFO /home/khang/Documents/SystemVerilog/Soc_RV32I/SoC/VERIFICATION/Driver/axi_driver.sv(67) @ 7375000: uvm_test_top.env.agent.driver [DRV] Write Done: Addr=10000248, Data=7e462729
# UVM_INFO /home/khang/Documents/SystemVerilog/Soc_RV32I/SoC/VERIFICATION/Monitor/axi_monitor.sv(47) @ 7415000: uvm_test_top.env.agent.monitor [MON_WR] Detected WRITE : Addr = 1000024c, Data = e059db0c
# UVM_INFO /home/khang/Documents/SystemVerilog/Soc_RV32I/SoC/VERIFICATION/Driver/axi_driver.sv(67) @ 7425000: uvm_test_top.env.agent.driver [DRV] Write Done: Addr=1000024c, Data=e059db0c
# UVM_INFO /home/khang/Documents/SystemVerilog/Soc_RV32I/SoC/VERIFICATION/Monitor/axi_monitor.sv(47) @ 7465000: uvm_test_top.env.agent.monitor [MON_WR] Detected WRITE : Addr = 10000250, Data = 8d5a3e1c
# UVM_INFO /home/khang/Documents/SystemVerilog/Soc_RV32I/SoC/VERIFICATION/Driver/axi_driver.sv(67) @ 7475000: uvm_test_top.env.agent.driver [DRV] Write Done: Addr=10000250, Data=8d5a3e1c
# UVM_INFO /home/khang/Documents/SystemVerilog/Soc_RV32I/SoC/VERIFICATION/Monitor/axi_monitor.sv(47) @ 7515000: uvm_test_top.env.agent.monitor [MON_WR] Detected WRITE : Addr = 10000254, Data = 449b435c
# UVM_INFO /home/khang/Documents/SystemVerilog/Soc_RV32I/SoC/VERIFICATION/Driver/axi_driver.sv(67) @ 7525000: uvm_test_top.env.agent.driver [DRV] Write Done: Addr=10000254, Data=449b435c
# UVM_INFO /home/khang/Documents/SystemVerilog/Soc_RV32I/SoC/VERIFICATION/Monitor/axi_monitor.sv(47) @ 7565000: uvm_test_top.env.agent.monitor [MON_WR] Detected WRITE : Addr = 10000258, Data = 521d9f3c
# UVM_INFO /home/khang/Documents/SystemVerilog/Soc_RV32I/SoC/VERIFICATION/Driver/axi_driver.sv(67) @ 7575000: uvm_test_top.env.agent.driver [DRV] Write Done: Addr=10000258, Data=521d9f3c
# UVM_INFO /home/khang/Documents/SystemVerilog/Soc_RV32I/SoC/VERIFICATION/Monitor/axi_monitor.sv(47) @ 7615000: uvm_test_top.env.agent.monitor [MON_WR] Detected WRITE : Addr = 1000025c, Data = 7cece724
# UVM_INFO /home/khang/Documents/SystemVerilog/Soc_RV32I/SoC/VERIFICATION/Driver/axi_driver.sv(67) @ 7625000: uvm_test_top.env.agent.driver [DRV] Write Done: Addr=1000025c, Data=7cece724
# UVM_INFO /home/khang/Documents/SystemVerilog/Soc_RV32I/SoC/VERIFICATION/Monitor/axi_monitor.sv(47) @ 7665000: uvm_test_top.env.agent.monitor [MON_WR] Detected WRITE : Addr = 10000260, Data = 3c8dd350
# UVM_INFO /home/khang/Documents/SystemVerilog/Soc_RV32I/SoC/VERIFICATION/Driver/axi_driver.sv(67) @ 7675000: uvm_test_top.env.agent.driver [DRV] Write Done: Addr=10000260, Data=3c8dd350
# UVM_INFO /home/khang/Documents/SystemVerilog/Soc_RV32I/SoC/VERIFICATION/Monitor/axi_monitor.sv(47) @ 7715000: uvm_test_top.env.agent.monitor [MON_WR] Detected WRITE : Addr = 10000264, Data = 6ab430dd
# UVM_INFO /home/khang/Documents/SystemVerilog/Soc_RV32I/SoC/VERIFICATION/Driver/axi_driver.sv(67) @ 7725000: uvm_test_top.env.agent.driver [DRV] Write Done: Addr=10000264, Data=6ab430dd
# UVM_INFO /home/khang/Documents/SystemVerilog/Soc_RV32I/SoC/VERIFICATION/Monitor/axi_monitor.sv(47) @ 7765000: uvm_test_top.env.agent.monitor [MON_WR] Detected WRITE : Addr = 10000268, Data = 1fc9d7ff
# UVM_INFO /home/khang/Documents/SystemVerilog/Soc_RV32I/SoC/VERIFICATION/Driver/axi_driver.sv(67) @ 7775000: uvm_test_top.env.agent.driver [DRV] Write Done: Addr=10000268, Data=1fc9d7ff
# UVM_INFO /home/khang/Documents/SystemVerilog/Soc_RV32I/SoC/VERIFICATION/Monitor/axi_monitor.sv(47) @ 7815000: uvm_test_top.env.agent.monitor [MON_WR] Detected WRITE : Addr = 1000026c, Data = c9be5a6e
# UVM_INFO /home/khang/Documents/SystemVerilog/Soc_RV32I/SoC/VERIFICATION/Driver/axi_driver.sv(67) @ 7825000: uvm_test_top.env.agent.driver [DRV] Write Done: Addr=1000026c, Data=c9be5a6e
# UVM_INFO /home/khang/Documents/SystemVerilog/Soc_RV32I/SoC/VERIFICATION/Monitor/axi_monitor.sv(47) @ 7865000: uvm_test_top.env.agent.monitor [MON_WR] Detected WRITE : Addr = 10000270, Data = 4c09e845
# UVM_INFO /home/khang/Documents/SystemVerilog/Soc_RV32I/SoC/VERIFICATION/Driver/axi_driver.sv(67) @ 7875000: uvm_test_top.env.agent.driver [DRV] Write Done: Addr=10000270, Data=4c09e845
# UVM_INFO /home/khang/Documents/SystemVerilog/Soc_RV32I/SoC/VERIFICATION/Monitor/axi_monitor.sv(47) @ 7915000: uvm_test_top.env.agent.monitor [MON_WR] Detected WRITE : Addr = 10000274, Data = 99f537d9
# UVM_INFO /home/khang/Documents/SystemVerilog/Soc_RV32I/SoC/VERIFICATION/Driver/axi_driver.sv(67) @ 7925000: uvm_test_top.env.agent.driver [DRV] Write Done: Addr=10000274, Data=99f537d9
# UVM_INFO /home/khang/Documents/SystemVerilog/Soc_RV32I/SoC/VERIFICATION/Monitor/axi_monitor.sv(47) @ 7965000: uvm_test_top.env.agent.monitor [MON_WR] Detected WRITE : Addr = 10000278, Data = 1d172dca
# UVM_INFO /home/khang/Documents/SystemVerilog/Soc_RV32I/SoC/VERIFICATION/Driver/axi_driver.sv(67) @ 7975000: uvm_test_top.env.agent.driver [DRV] Write Done: Addr=10000278, Data=1d172dca
# UVM_INFO /home/khang/Documents/SystemVerilog/Soc_RV32I/SoC/VERIFICATION/Monitor/axi_monitor.sv(47) @ 8015000: uvm_test_top.env.agent.monitor [MON_WR] Detected WRITE : Addr = 1000027c, Data = ce70fb51
# UVM_INFO /home/khang/Documents/SystemVerilog/Soc_RV32I/SoC/VERIFICATION/Driver/axi_driver.sv(67) @ 8025000: uvm_test_top.env.agent.driver [DRV] Write Done: Addr=1000027c, Data=ce70fb51
# UVM_INFO /home/khang/Documents/SystemVerilog/Soc_RV32I/SoC/VERIFICATION/Monitor/axi_monitor.sv(47) @ 8065000: uvm_test_top.env.agent.monitor [MON_WR] Detected WRITE : Addr = 10000280, Data = 5f5d6f6c
# UVM_INFO /home/khang/Documents/SystemVerilog/Soc_RV32I/SoC/VERIFICATION/Driver/axi_driver.sv(67) @ 8075000: uvm_test_top.env.agent.driver [DRV] Write Done: Addr=10000280, Data=5f5d6f6c
# UVM_INFO /home/khang/Documents/SystemVerilog/Soc_RV32I/SoC/VERIFICATION/Monitor/axi_monitor.sv(47) @ 8115000: uvm_test_top.env.agent.monitor [MON_WR] Detected WRITE : Addr = 10000284, Data = 425dba2e
# UVM_INFO /home/khang/Documents/SystemVerilog/Soc_RV32I/SoC/VERIFICATION/Driver/axi_driver.sv(67) @ 8125000: uvm_test_top.env.agent.driver [DRV] Write Done: Addr=10000284, Data=425dba2e
# UVM_INFO /home/khang/Documents/SystemVerilog/Soc_RV32I/SoC/VERIFICATION/Monitor/axi_monitor.sv(47) @ 8165000: uvm_test_top.env.agent.monitor [MON_WR] Detected WRITE : Addr = 10000288, Data = 6cb2ef64
# UVM_INFO /home/khang/Documents/SystemVerilog/Soc_RV32I/SoC/VERIFICATION/Driver/axi_driver.sv(67) @ 8175000: uvm_test_top.env.agent.driver [DRV] Write Done: Addr=10000288, Data=6cb2ef64
# UVM_INFO /home/khang/Documents/SystemVerilog/Soc_RV32I/SoC/VERIFICATION/Monitor/axi_monitor.sv(47) @ 8215000: uvm_test_top.env.agent.monitor [MON_WR] Detected WRITE : Addr = 1000028c, Data = e32607ab
# UVM_INFO /home/khang/Documents/SystemVerilog/Soc_RV32I/SoC/VERIFICATION/Driver/axi_driver.sv(67) @ 8225000: uvm_test_top.env.agent.driver [DRV] Write Done: Addr=1000028c, Data=e32607ab
# UVM_INFO /home/khang/Documents/SystemVerilog/Soc_RV32I/SoC/VERIFICATION/Monitor/axi_monitor.sv(47) @ 8265000: uvm_test_top.env.agent.monitor [MON_WR] Detected WRITE : Addr = 10000290, Data = 33bc8649
# UVM_INFO /home/khang/Documents/SystemVerilog/Soc_RV32I/SoC/VERIFICATION/Driver/axi_driver.sv(67) @ 8275000: uvm_test_top.env.agent.driver [DRV] Write Done: Addr=10000290, Data=33bc8649
# UVM_INFO /home/khang/Documents/SystemVerilog/Soc_RV32I/SoC/VERIFICATION/Monitor/axi_monitor.sv(47) @ 8315000: uvm_test_top.env.agent.monitor [MON_WR] Detected WRITE : Addr = 10000294, Data = 1f7c42d9
# UVM_INFO /home/khang/Documents/SystemVerilog/Soc_RV32I/SoC/VERIFICATION/Driver/axi_driver.sv(67) @ 8325000: uvm_test_top.env.agent.driver [DRV] Write Done: Addr=10000294, Data=1f7c42d9
# UVM_INFO /home/khang/Documents/SystemVerilog/Soc_RV32I/SoC/VERIFICATION/Monitor/axi_monitor.sv(47) @ 8365000: uvm_test_top.env.agent.monitor [MON_WR] Detected WRITE : Addr = 10000298, Data = 44708c34
# UVM_INFO /home/khang/Documents/SystemVerilog/Soc_RV32I/SoC/VERIFICATION/Driver/axi_driver.sv(67) @ 8375000: uvm_test_top.env.agent.driver [DRV] Write Done: Addr=10000298, Data=44708c34
# UVM_INFO /home/khang/Documents/SystemVerilog/Soc_RV32I/SoC/VERIFICATION/Monitor/axi_monitor.sv(47) @ 8415000: uvm_test_top.env.agent.monitor [MON_WR] Detected WRITE : Addr = 1000029c, Data = a551ac9c
# UVM_INFO /home/khang/Documents/SystemVerilog/Soc_RV32I/SoC/VERIFICATION/Driver/axi_driver.sv(67) @ 8425000: uvm_test_top.env.agent.driver [DRV] Write Done: Addr=1000029c, Data=a551ac9c
# UVM_INFO /home/khang/Documents/SystemVerilog/Soc_RV32I/SoC/VERIFICATION/Monitor/axi_monitor.sv(47) @ 8465000: uvm_test_top.env.agent.monitor [MON_WR] Detected WRITE : Addr = 100002a0, Data = ca5f4030
# UVM_INFO /home/khang/Documents/SystemVerilog/Soc_RV32I/SoC/VERIFICATION/Driver/axi_driver.sv(67) @ 8475000: uvm_test_top.env.agent.driver [DRV] Write Done: Addr=100002a0, Data=ca5f4030
# UVM_INFO /home/khang/Documents/SystemVerilog/Soc_RV32I/SoC/VERIFICATION/Monitor/axi_monitor.sv(47) @ 8515000: uvm_test_top.env.agent.monitor [MON_WR] Detected WRITE : Addr = 100002a4, Data = 561717dd
# UVM_INFO /home/khang/Documents/SystemVerilog/Soc_RV32I/SoC/VERIFICATION/Driver/axi_driver.sv(67) @ 8525000: uvm_test_top.env.agent.driver [DRV] Write Done: Addr=100002a4, Data=561717dd
# UVM_INFO /home/khang/Documents/SystemVerilog/Soc_RV32I/SoC/VERIFICATION/Monitor/axi_monitor.sv(47) @ 8565000: uvm_test_top.env.agent.monitor [MON_WR] Detected WRITE : Addr = 100002a8, Data = feb2e445
# UVM_INFO /home/khang/Documents/SystemVerilog/Soc_RV32I/SoC/VERIFICATION/Driver/axi_driver.sv(67) @ 8575000: uvm_test_top.env.agent.driver [DRV] Write Done: Addr=100002a8, Data=feb2e445
# UVM_INFO /home/khang/Documents/SystemVerilog/Soc_RV32I/SoC/VERIFICATION/Monitor/axi_monitor.sv(47) @ 8615000: uvm_test_top.env.agent.monitor [MON_WR] Detected WRITE : Addr = 100002ac, Data = 44fc1fe5
# UVM_INFO /home/khang/Documents/SystemVerilog/Soc_RV32I/SoC/VERIFICATION/Driver/axi_driver.sv(67) @ 8625000: uvm_test_top.env.agent.driver [DRV] Write Done: Addr=100002ac, Data=44fc1fe5
# UVM_INFO /home/khang/Documents/SystemVerilog/Soc_RV32I/SoC/VERIFICATION/Monitor/axi_monitor.sv(47) @ 8665000: uvm_test_top.env.agent.monitor [MON_WR] Detected WRITE : Addr = 100002b0, Data = 954c6c2f
# UVM_INFO /home/khang/Documents/SystemVerilog/Soc_RV32I/SoC/VERIFICATION/Driver/axi_driver.sv(67) @ 8675000: uvm_test_top.env.agent.driver [DRV] Write Done: Addr=100002b0, Data=954c6c2f
# UVM_INFO /home/khang/Documents/SystemVerilog/Soc_RV32I/SoC/VERIFICATION/Monitor/axi_monitor.sv(47) @ 8715000: uvm_test_top.env.agent.monitor [MON_WR] Detected WRITE : Addr = 100002b4, Data = 7c0a0512
# UVM_INFO /home/khang/Documents/SystemVerilog/Soc_RV32I/SoC/VERIFICATION/Driver/axi_driver.sv(67) @ 8725000: uvm_test_top.env.agent.driver [DRV] Write Done: Addr=100002b4, Data=7c0a0512
# UVM_INFO /home/khang/Documents/SystemVerilog/Soc_RV32I/SoC/VERIFICATION/Monitor/axi_monitor.sv(47) @ 8765000: uvm_test_top.env.agent.monitor [MON_WR] Detected WRITE : Addr = 100002b8, Data = b6ed70e0
# UVM_INFO /home/khang/Documents/SystemVerilog/Soc_RV32I/SoC/VERIFICATION/Driver/axi_driver.sv(67) @ 8775000: uvm_test_top.env.agent.driver [DRV] Write Done: Addr=100002b8, Data=b6ed70e0
# UVM_INFO /home/khang/Documents/SystemVerilog/Soc_RV32I/SoC/VERIFICATION/Monitor/axi_monitor.sv(47) @ 8815000: uvm_test_top.env.agent.monitor [MON_WR] Detected WRITE : Addr = 100002bc, Data = 6f873749
# UVM_INFO /home/khang/Documents/SystemVerilog/Soc_RV32I/SoC/VERIFICATION/Driver/axi_driver.sv(67) @ 8825000: uvm_test_top.env.agent.driver [DRV] Write Done: Addr=100002bc, Data=6f873749
# UVM_INFO /home/khang/Documents/SystemVerilog/Soc_RV32I/SoC/VERIFICATION/Monitor/axi_monitor.sv(47) @ 8865000: uvm_test_top.env.agent.monitor [MON_WR] Detected WRITE : Addr = 100002c0, Data = 57e78c27
# UVM_INFO /home/khang/Documents/SystemVerilog/Soc_RV32I/SoC/VERIFICATION/Driver/axi_driver.sv(67) @ 8875000: uvm_test_top.env.agent.driver [DRV] Write Done: Addr=100002c0, Data=57e78c27
# UVM_INFO /home/khang/Documents/SystemVerilog/Soc_RV32I/SoC/VERIFICATION/Monitor/axi_monitor.sv(47) @ 8915000: uvm_test_top.env.agent.monitor [MON_WR] Detected WRITE : Addr = 100002c4, Data = 06b5dc61
# UVM_INFO /home/khang/Documents/SystemVerilog/Soc_RV32I/SoC/VERIFICATION/Driver/axi_driver.sv(67) @ 8925000: uvm_test_top.env.agent.driver [DRV] Write Done: Addr=100002c4, Data=06b5dc61
# UVM_INFO /home/khang/Documents/SystemVerilog/Soc_RV32I/SoC/VERIFICATION/Monitor/axi_monitor.sv(47) @ 8965000: uvm_test_top.env.agent.monitor [MON_WR] Detected WRITE : Addr = 100002c8, Data = a64dd8bd
# UVM_INFO /home/khang/Documents/SystemVerilog/Soc_RV32I/SoC/VERIFICATION/Driver/axi_driver.sv(67) @ 8975000: uvm_test_top.env.agent.driver [DRV] Write Done: Addr=100002c8, Data=a64dd8bd
# UVM_INFO /home/khang/Documents/SystemVerilog/Soc_RV32I/SoC/VERIFICATION/Monitor/axi_monitor.sv(47) @ 9015000: uvm_test_top.env.agent.monitor [MON_WR] Detected WRITE : Addr = 100002cc, Data = 6d1fbdc5
# UVM_INFO /home/khang/Documents/SystemVerilog/Soc_RV32I/SoC/VERIFICATION/Driver/axi_driver.sv(67) @ 9025000: uvm_test_top.env.agent.driver [DRV] Write Done: Addr=100002cc, Data=6d1fbdc5
# UVM_INFO /home/khang/Documents/SystemVerilog/Soc_RV32I/SoC/VERIFICATION/Monitor/axi_monitor.sv(47) @ 9065000: uvm_test_top.env.agent.monitor [MON_WR] Detected WRITE : Addr = 100002d0, Data = e4c1ed01
# UVM_INFO /home/khang/Documents/SystemVerilog/Soc_RV32I/SoC/VERIFICATION/Driver/axi_driver.sv(67) @ 9075000: uvm_test_top.env.agent.driver [DRV] Write Done: Addr=100002d0, Data=e4c1ed01
# UVM_INFO /home/khang/Documents/SystemVerilog/Soc_RV32I/SoC/VERIFICATION/Monitor/axi_monitor.sv(47) @ 9115000: uvm_test_top.env.agent.monitor [MON_WR] Detected WRITE : Addr = 100002d4, Data = 1feea27f
# UVM_INFO /home/khang/Documents/SystemVerilog/Soc_RV32I/SoC/VERIFICATION/Driver/axi_driver.sv(67) @ 9125000: uvm_test_top.env.agent.driver [DRV] Write Done: Addr=100002d4, Data=1feea27f
# UVM_INFO /home/khang/Documents/SystemVerilog/Soc_RV32I/SoC/VERIFICATION/Monitor/axi_monitor.sv(47) @ 9165000: uvm_test_top.env.agent.monitor [MON_WR] Detected WRITE : Addr = 100002d8, Data = fc35f467
# UVM_INFO /home/khang/Documents/SystemVerilog/Soc_RV32I/SoC/VERIFICATION/Driver/axi_driver.sv(67) @ 9175000: uvm_test_top.env.agent.driver [DRV] Write Done: Addr=100002d8, Data=fc35f467
# UVM_INFO /home/khang/Documents/SystemVerilog/Soc_RV32I/SoC/VERIFICATION/Monitor/axi_monitor.sv(47) @ 9215000: uvm_test_top.env.agent.monitor [MON_WR] Detected WRITE : Addr = 100002dc, Data = 1984c35f
# UVM_INFO /home/khang/Documents/SystemVerilog/Soc_RV32I/SoC/VERIFICATION/Driver/axi_driver.sv(67) @ 9225000: uvm_test_top.env.agent.driver [DRV] Write Done: Addr=100002dc, Data=1984c35f
# UVM_INFO /home/khang/Documents/SystemVerilog/Soc_RV32I/SoC/VERIFICATION/Monitor/axi_monitor.sv(47) @ 9265000: uvm_test_top.env.agent.monitor [MON_WR] Detected WRITE : Addr = 100002e0, Data = 31fd475d
# UVM_INFO /home/khang/Documents/SystemVerilog/Soc_RV32I/SoC/VERIFICATION/Driver/axi_driver.sv(67) @ 9275000: uvm_test_top.env.agent.driver [DRV] Write Done: Addr=100002e0, Data=31fd475d
# UVM_INFO /home/khang/Documents/SystemVerilog/Soc_RV32I/SoC/VERIFICATION/Monitor/axi_monitor.sv(47) @ 9315000: uvm_test_top.env.agent.monitor [MON_WR] Detected WRITE : Addr = 100002e4, Data = 66d773fa
# UVM_INFO /home/khang/Documents/SystemVerilog/Soc_RV32I/SoC/VERIFICATION/Driver/axi_driver.sv(67) @ 9325000: uvm_test_top.env.agent.driver [DRV] Write Done: Addr=100002e4, Data=66d773fa
# UVM_INFO /home/khang/Documents/SystemVerilog/Soc_RV32I/SoC/VERIFICATION/Monitor/axi_monitor.sv(47) @ 9365000: uvm_test_top.env.agent.monitor [MON_WR] Detected WRITE : Addr = 100002e8, Data = 667614aa
# UVM_INFO /home/khang/Documents/SystemVerilog/Soc_RV32I/SoC/VERIFICATION/Driver/axi_driver.sv(67) @ 9375000: uvm_test_top.env.agent.driver [DRV] Write Done: Addr=100002e8, Data=667614aa
# UVM_INFO /home/khang/Documents/SystemVerilog/Soc_RV32I/SoC/VERIFICATION/Monitor/axi_monitor.sv(47) @ 9415000: uvm_test_top.env.agent.monitor [MON_WR] Detected WRITE : Addr = 100002ec, Data = 6fdcbc5c
# UVM_INFO /home/khang/Documents/SystemVerilog/Soc_RV32I/SoC/VERIFICATION/Driver/axi_driver.sv(67) @ 9425000: uvm_test_top.env.agent.driver [DRV] Write Done: Addr=100002ec, Data=6fdcbc5c
# UVM_INFO /home/khang/Documents/SystemVerilog/Soc_RV32I/SoC/VERIFICATION/Monitor/axi_monitor.sv(47) @ 9465000: uvm_test_top.env.agent.monitor [MON_WR] Detected WRITE : Addr = 100002f0, Data = af796372
# UVM_INFO /home/khang/Documents/SystemVerilog/Soc_RV32I/SoC/VERIFICATION/Driver/axi_driver.sv(67) @ 9475000: uvm_test_top.env.agent.driver [DRV] Write Done: Addr=100002f0, Data=af796372
# UVM_INFO /home/khang/Documents/SystemVerilog/Soc_RV32I/SoC/VERIFICATION/Monitor/axi_monitor.sv(47) @ 9515000: uvm_test_top.env.agent.monitor [MON_WR] Detected WRITE : Addr = 100002f4, Data = 05dc279c
# UVM_INFO /home/khang/Documents/SystemVerilog/Soc_RV32I/SoC/VERIFICATION/Driver/axi_driver.sv(67) @ 9525000: uvm_test_top.env.agent.driver [DRV] Write Done: Addr=100002f4, Data=05dc279c
# UVM_INFO /home/khang/Documents/SystemVerilog/Soc_RV32I/SoC/VERIFICATION/Monitor/axi_monitor.sv(47) @ 9565000: uvm_test_top.env.agent.monitor [MON_WR] Detected WRITE : Addr = 100002f8, Data = ccfe0179
# UVM_INFO /home/khang/Documents/SystemVerilog/Soc_RV32I/SoC/VERIFICATION/Driver/axi_driver.sv(67) @ 9575000: uvm_test_top.env.agent.driver [DRV] Write Done: Addr=100002f8, Data=ccfe0179
# UVM_INFO /home/khang/Documents/SystemVerilog/Soc_RV32I/SoC/VERIFICATION/Monitor/axi_monitor.sv(47) @ 9615000: uvm_test_top.env.agent.monitor [MON_WR] Detected WRITE : Addr = 100002fc, Data = 16f209ee
# UVM_INFO /home/khang/Documents/SystemVerilog/Soc_RV32I/SoC/VERIFICATION/Driver/axi_driver.sv(67) @ 9625000: uvm_test_top.env.agent.driver [DRV] Write Done: Addr=100002fc, Data=16f209ee
# UVM_INFO /home/khang/Documents/SystemVerilog/Soc_RV32I/SoC/VERIFICATION/Monitor/axi_monitor.sv(47) @ 9665000: uvm_test_top.env.agent.monitor [MON_WR] Detected WRITE : Addr = 10000300, Data = 19412c54
# UVM_INFO /home/khang/Documents/SystemVerilog/Soc_RV32I/SoC/VERIFICATION/Driver/axi_driver.sv(67) @ 9675000: uvm_test_top.env.agent.driver [DRV] Write Done: Addr=10000300, Data=19412c54
# UVM_INFO /home/khang/Documents/SystemVerilog/Soc_RV32I/SoC/VERIFICATION/Monitor/axi_monitor.sv(47) @ 9715000: uvm_test_top.env.agent.monitor [MON_WR] Detected WRITE : Addr = 10000304, Data = 61204f34
# UVM_INFO /home/khang/Documents/SystemVerilog/Soc_RV32I/SoC/VERIFICATION/Driver/axi_driver.sv(67) @ 9725000: uvm_test_top.env.agent.driver [DRV] Write Done: Addr=10000304, Data=61204f34
# UVM_INFO /home/khang/Documents/SystemVerilog/Soc_RV32I/SoC/VERIFICATION/Monitor/axi_monitor.sv(47) @ 9765000: uvm_test_top.env.agent.monitor [MON_WR] Detected WRITE : Addr = 10000308, Data = c0b3aa44
# UVM_INFO /home/khang/Documents/SystemVerilog/Soc_RV32I/SoC/VERIFICATION/Driver/axi_driver.sv(67) @ 9775000: uvm_test_top.env.agent.driver [DRV] Write Done: Addr=10000308, Data=c0b3aa44
# UVM_INFO /home/khang/Documents/SystemVerilog/Soc_RV32I/SoC/VERIFICATION/Monitor/axi_monitor.sv(47) @ 9815000: uvm_test_top.env.agent.monitor [MON_WR] Detected WRITE : Addr = 1000030c, Data = 21c7e04a
# UVM_INFO /home/khang/Documents/SystemVerilog/Soc_RV32I/SoC/VERIFICATION/Driver/axi_driver.sv(67) @ 9825000: uvm_test_top.env.agent.driver [DRV] Write Done: Addr=1000030c, Data=21c7e04a
# UVM_INFO /home/khang/Documents/SystemVerilog/Soc_RV32I/SoC/VERIFICATION/Monitor/axi_monitor.sv(47) @ 9865000: uvm_test_top.env.agent.monitor [MON_WR] Detected WRITE : Addr = 10000310, Data = 422446d1
# UVM_INFO /home/khang/Documents/SystemVerilog/Soc_RV32I/SoC/VERIFICATION/Driver/axi_driver.sv(67) @ 9875000: uvm_test_top.env.agent.driver [DRV] Write Done: Addr=10000310, Data=422446d1
# UVM_INFO /home/khang/Documents/SystemVerilog/Soc_RV32I/SoC/VERIFICATION/Monitor/axi_monitor.sv(47) @ 9915000: uvm_test_top.env.agent.monitor [MON_WR] Detected WRITE : Addr = 10000314, Data = dcca611b
# UVM_INFO /home/khang/Documents/SystemVerilog/Soc_RV32I/SoC/VERIFICATION/Driver/axi_driver.sv(67) @ 9925000: uvm_test_top.env.agent.driver [DRV] Write Done: Addr=10000314, Data=dcca611b
# UVM_INFO /home/khang/Documents/SystemVerilog/Soc_RV32I/SoC/VERIFICATION/Monitor/axi_monitor.sv(47) @ 9965000: uvm_test_top.env.agent.monitor [MON_WR] Detected WRITE : Addr = 10000318, Data = 7a50c3d4
# UVM_INFO /home/khang/Documents/SystemVerilog/Soc_RV32I/SoC/VERIFICATION/Driver/axi_driver.sv(67) @ 9975000: uvm_test_top.env.agent.driver [DRV] Write Done: Addr=10000318, Data=7a50c3d4
# UVM_INFO /home/khang/Documents/SystemVerilog/Soc_RV32I/SoC/VERIFICATION/Monitor/axi_monitor.sv(47) @ 10015000: uvm_test_top.env.agent.monitor [MON_WR] Detected WRITE : Addr = 1000031c, Data = a1326088
# UVM_INFO /home/khang/Documents/SystemVerilog/Soc_RV32I/SoC/VERIFICATION/Driver/axi_driver.sv(67) @ 10025000: uvm_test_top.env.agent.driver [DRV] Write Done: Addr=1000031c, Data=a1326088
# UVM_INFO /home/khang/Documents/SystemVerilog/Soc_RV32I/SoC/VERIFICATION/Monitor/axi_monitor.sv(47) @ 10065000: uvm_test_top.env.agent.monitor [MON_WR] Detected WRITE : Addr = 10000320, Data = cd2786e8
# UVM_INFO /home/khang/Documents/SystemVerilog/Soc_RV32I/SoC/VERIFICATION/Driver/axi_driver.sv(67) @ 10075000: uvm_test_top.env.agent.driver [DRV] Write Done: Addr=10000320, Data=cd2786e8
