--- [SIM ONLY] cpu_test ---
MODE = CPU_MASTER
Reading pref.tcl

# 2024.1

# vsim -c -L uvm -coverage -sv_seed 3106318915 vopt_top "+UVM_TESTNAME=cpu_test" "+CPU_MASTER" "+MEM_SEED=3106318915" -do "run -all; quit" 
# Start time: 11:08:21 on May 13,2026
# //  Questa Sim-64
# //  Version 2024.1 linux_x86_64 Feb  1 2024
# //
# // Unpublished work. Copyright 2024 Siemens
# //
# // This material contains trade secrets or otherwise confidential information
# // owned by Siemens Industry Software Inc. or its affiliates (collectively,
# // "SISW"), or its licensors. Access to and use of this information is strictly
# // limited as set forth in the Customer's applicable agreements with SISW.
# //
# // This material may not be copied, distributed, or otherwise disclosed outside
# // of the Customer's facilities without the express written permission of SISW,
# // and may not be used in any way not expressly authorized by SISW.
# //
# Loading sv_std.std
# Loading work.clk_rst_inf(fast)
# Loading work.soc_inf(fast)
# Loading work.cpu_monitor_inf(fast)
# Loading mtiUvm.uvm_pkg(fast)
# Loading work.soc_pkg(fast)
# Loading mtiUvm.questa_uvm_pkg(fast)
# Loading work.top_tb(fast)
# Loading work.clk_rst_inf(fast__2)
# Loading work.soc_inf(fast__2)
# Loading work.cpu_monitor_inf(fast__2)
# Loading work.TOP(fast)
# Loading work.AXI_Master(fast)
# Loading work.CPU(fast)
# Loading work.pc_reg(fast)
# Loading work.IF_ID(fast)
# Loading work.ControlUnit(fast)
# Loading work.MainDecoder(fast)
# Loading work.ALUControl(fast)
# Loading work.RegFile(fast)
# Loading work.signExtend(fast)
# Loading work.ID_EX(fast)
# Loading work.ALU(fast)
# Loading work.EX_MEM(fast)
# Loading work.MEM_WB(fast)
# Loading work.HazardUnit(fast)
# Loading work.LSU(fast)
# Loading work.AXI4_Lite_Interconnect(fast)
# Loading work.RAM(fast)
# Loading work.RAM(fast__1)
# Loading work.Timer(fast)
# Loading work.UART(fast)
# Loading work.SPI(fast)
# ** Warning: (vsim-2685) [TFMPC] - Too few port connections for 'cr_if'.  Expected 2, found 0.
#    Time: 0 ps  Iteration: 0  Instance: /top_tb/cr_if File: /home/khang/Documents/SystemVerilog/Soc_RV32I/SoC/VERIFICATION/top_tb.sv Line: 13
# ** Warning: (vsim-3722) /home/khang/Documents/SystemVerilog/Soc_RV32I/SoC/VERIFICATION/top_tb.sv(13): [TFMPC] - Missing connection for port 'clk'.
# ** Warning: (vsim-3722) /home/khang/Documents/SystemVerilog/Soc_RV32I/SoC/VERIFICATION/top_tb.sv(13): [TFMPC] - Missing connection for port 'rstn'.
# Loading /tools/mq/2024.1/questasim/uvm-1.1d/linux_x86_64/uvm_dpi.so
# run -all
# ----------------------------------------------------------------
# UVM-1.1d
# (C) 2007-2013 Mentor Graphics Corporation
# (C) 2007-2013 Cadence Design Systems, Inc.
# (C) 2006-2013 Synopsys, Inc.
# (C) 2011-2013 Cypress Semiconductor Corp.
# ----------------------------------------------------------------
# 
#   ***********       IMPORTANT RELEASE NOTES         ************
# 
#   You are using a version of the UVM library that has been compiled
#   with `UVM_NO_DEPRECATED undefined.
#   See http://www.eda.org/svdb/view.php?id=3313 for more details.
# 
#   You are using a version of the UVM library that has been compiled
#   with `UVM_OBJECT_MUST_HAVE_CONSTRUCTOR undefined.
#   See http://www.eda.org/svdb/view.php?id=3770 for more details.
# 
#       (Specify +UVM_NO_RELNOTES to turn off this notice)
# 
# UVM_INFO verilog_src/questa_uvm_pkg-1.2/src/questa_uvm_pkg.sv(277) @ 0: reporter [Questa UVM] QUESTA_UVM-1.2.3
# UVM_INFO verilog_src/questa_uvm_pkg-1.2/src/questa_uvm_pkg.sv(278) @ 0: reporter [Questa UVM]  questa_uvm::init(+struct)
# [RAM] Loading file: instr.mem
# [RAM] mem[0] = 100000b7
# [RAM] mem[1] = f96de213
# [RAM] mem[2] = 01f222b3
# [RAM] mem[3] = 0680a903
# [RAM] mem[4] = 2030a423
# [RAM] mem[5] = 00c0016f
# [RAM] mem[6] = 00dfd133
# [RAM] mem[7] = 0045aa33
# [RAM] mem[8] = 008d0eb3
# [RAM] mem[9] = 016491b3
# [RAM] mem[10] = 02988263
# [RAM] mem[11] = f5a1e313
# [RAM] mem[12] = 01ed6133
# [RAM] mem[13] = e05a6e93
# [RAM] mem[14] = 4b10ae23
# [RAM] mem[15] = 00d86c33
# [RAM] mem[16] = 017b67b3
# [RAM] mem[17] = 7dc0ae03
# [RAM] mem[18] = 4840aa23
# [RAM] mem[19] = cc3afc93
# [RAM] mem[20] = 3d60a023
# [RAM] mem[21] = 2140a603
# [RAM] mem[22] = 5be0ac23
# [RAM] mem[23] = 3290a823
# [RAM] mem[24] = 0196ddb3
# [RAM] mem[25] = 6580af83
# [RAM] mem[26] = 031c8463
# [RAM] mem[27] = 01edf833
# [RAM] mem[28] = 0b24f693
# [RAM] mem[29] = 03e0ac23
# [RAM] mem[30] = 75d0a023
# [RAM] mem[31] = fda1c413
# [RAM] mem[32] = 00a3ebb3
# [RAM] mem[33] = 00c8a7b3
# [RAM] mem[34] = 06c0a023
# [RAM] mem[35] = c34dfc13
# [RAM] mem[36] = 40835bb3
# [RAM] mem[37] = 3a70a423
# [RAM] mem[38] = 5f40af03
# [RAM] mem[39] = 2d20a623
# [RAM] mem[40] = 01880433
# [RAM] mem[41] = a4737d93
# [RAM] mem[42] = 1f00ac83
# [RAM] mem[43] = 019bdbb3
# [RAM] mem[44] = 7600a203
# [RAM] mem[45] = 95267213
# [RAM] mem[46] = 00f24d33
# [RAM] mem[47] = 09c0ad03
# [RAM] mem[48] = 483c0393
# [RAM] mem[49] = 5280af83
# [RAM] mem[50] = 4a40a683
# [RAM] mem[51] = 10f0a623
# [RAM] mem[52] = 0fdc0813
# [RAM] mem[53] = 79c0a883
# [RAM] mem[54] = 1140ad03
# [RAM] mem[55] = 410c59b3
# [RAM] mem[56] = fe9ffaef
# [RAM] mem[57] = 03a0a423
# [RAM] mem[58] = 2c878293
# [RAM] mem[59] = 6f80a423
# [RAM] mem[60] = 410c51b3
# [RAM] mem[61] = 00278433
# [RAM] mem[62] = 01b3feb3
# [RAM] mem[63] = 00e44ab3
# [RAM] mem[64] = 41d55c33
# [RAM] mem[65] = ff1ff2ef
# [RAM] mem[66] = 7380aa83
# [RAM] mem[67] = 1c80ae03
# [RAM] mem[68] = fd0d0ce3
# [RAM] mem[69] = 2480ae23
# [RAM] mem[70] = 5a50a623
# [RAM] mem[71] = 0690a623
# [RAM] mem[72] = ffe480e3
# [RAM] mem[73] = 4580ac03
# [RAM] mem[74] = 008184b3
# [RAM] mem[75] = 7d40ac83
# [RAM] mem[76] = 01cd8663
# [RAM] mem[77] = 010383b3
# [RAM] mem[78] = 0029d3b3
# [RAM] mem[79] = 43c30213
# [RAM] mem[80] = 00efa833
# [RAM] mem[81] = 3c50a623
# [RAM] mem[82] = 00567933
# [RAM] mem[83] = 48c0aa23
# [RAM] mem[84] = 2f7bce13
# [RAM] mem[85] = 0137fab3
# [RAM] mem[86] = 01fa2633
# [RAM] mem[87] = 3b40a783
# [RAM] mem[88] = 00b5c1b3
# [RAM] mem[89] = 409387b3
# [RAM] mem[90] = 4940ad03
# [RAM] mem[91] = 405f0bb3
# [RAM] mem[92] = 0100016f
# [RAM] mem[93] = f3d7cb13
# [RAM] mem[94] = ffdff76f
# [RAM] mem[95] = 3380a783
# [RAM] mem[96] = 3700a603
# [RAM] mem[97] = 00c58bb3
# [RAM] mem[98] = 00bbf1b3
# [RAM] mem[99] = 01570733
# [RAM] No INIT_FILE specified
# [TB] Mode: CPU MASTER — CPU drives AXI, UVM observes
# UVM_INFO @ 0: reporter [RNTST] Running test cpu_test...
# UVM_INFO /home/khang/Documents/SystemVerilog/Soc_RV32I/SoC/VERIFICATION/Scoreboard/cpu_scoreboard.sv(97) @ 0: uvm_test_top.env.scoreboard [SCB] Loaded expected registers from: expected.mem
# UVM_INFO /home/khang/Documents/SystemVerilog/Soc_RV32I/SoC/VERIFICATION/Monitor/cpu_monitor.sv(105) @ 35000: uvm_test_top.env.agent.monitor [CPU_MON] === CPU Monitor started — watching pipeline ===
# UVM_INFO /home/khang/Documents/SystemVerilog/Soc_RV32I/SoC/VERIFICATION/Monitor/cpu_monitor.sv(106) @ 35000: uvm_test_top.env.agent.monitor [CPU_MON] ─────────────────────────────────────────────────────────
# UVM_INFO /home/khang/Documents/SystemVerilog/Soc_RV32I/SoC/VERIFICATION/Test/cpu_test.sv(40) @ 55000: uvm_test_top [TEST] Reset released — CPU executing from IRAM
# UVM_INFO /home/khang/Documents/SystemVerilog/Soc_RV32I/SoC/VERIFICATION/Monitor/cpu_monitor.sv(260) @ 55000: uvm_test_top.env.agent.monitor [AXI_RD] CPU←DRAM  Addr=00000000 Data=100000b7 RRESP=00
# UVM_INFO /home/khang/Documents/SystemVerilog/Soc_RV32I/SoC/VERIFICATION/Monitor/cpu_monitor.sv(127) @ 95000: uvm_test_top.env.agent.monitor [IF] PC=00000004  INSTR=100000b7  [LUI  x1, 0x10000]            
# UVM_INFO /home/khang/Documents/SystemVerilog/Soc_RV32I/SoC/VERIFICATION/Monitor/cpu_monitor.sv(260) @ 95000: uvm_test_top.env.agent.monitor [AXI_RD] CPU←DRAM  Addr=00000004 Data=f96de213 RRESP=00
# UVM_INFO /home/khang/Documents/SystemVerilog/Soc_RV32I/SoC/VERIFICATION/Monitor/cpu_monitor.sv(127) @ 135000: uvm_test_top.env.agent.monitor [IF] PC=00000008  INSTR=f96de213  [ORI  x4, x27, -106]            
# UVM_INFO /home/khang/Documents/SystemVerilog/Soc_RV32I/SoC/VERIFICATION/Monitor/cpu_monitor.sv(260) @ 135000: uvm_test_top.env.agent.monitor [AXI_RD] CPU←DRAM  Addr=00000008 Data=01f222b3 RRESP=00
# UVM_INFO /home/khang/Documents/SystemVerilog/Soc_RV32I/SoC/VERIFICATION/Monitor/cpu_monitor.sv(192) @ 165000: uvm_test_top.env.agent.monitor [WB] x 1 <= 10000000  (PC~00000008)
# UVM_INFO /home/khang/Documents/SystemVerilog/Soc_RV32I/SoC/VERIFICATION/Monitor/cpu_monitor.sv(127) @ 175000: uvm_test_top.env.agent.monitor [IF] PC=0000000c  INSTR=01f222b3  [SLT  x5, x4, x31]            
# UVM_INFO /home/khang/Documents/SystemVerilog/Soc_RV32I/SoC/VERIFICATION/Monitor/cpu_monitor.sv(192) @ 175000: uvm_test_top.env.agent.monitor [WB] x 1 <= 10000000  (PC~0000000c)
# UVM_INFO /home/khang/Documents/SystemVerilog/Soc_RV32I/SoC/VERIFICATION/Monitor/cpu_monitor.sv(260) @ 175000: uvm_test_top.env.agent.monitor [AXI_RD] CPU←DRAM  Addr=0000000c Data=0680a903 RRESP=00
# UVM_INFO /home/khang/Documents/SystemVerilog/Soc_RV32I/SoC/VERIFICATION/Monitor/cpu_monitor.sv(192) @ 185000: uvm_test_top.env.agent.monitor [WB] x 1 <= 10000000  (PC~0000000c)
# UVM_INFO /home/khang/Documents/SystemVerilog/Soc_RV32I/SoC/VERIFICATION/Monitor/cpu_monitor.sv(192) @ 195000: uvm_test_top.env.agent.monitor [WB] x 1 <= 10000000  (PC~0000000c)
# UVM_INFO /home/khang/Documents/SystemVerilog/Soc_RV32I/SoC/VERIFICATION/Monitor/cpu_monitor.sv(192) @ 205000: uvm_test_top.env.agent.monitor [WB] x 4 <= ffffff96  (PC~0000000c)
# UVM_INFO /home/khang/Documents/SystemVerilog/Soc_RV32I/SoC/VERIFICATION/Monitor/cpu_monitor.sv(127) @ 215000: uvm_test_top.env.agent.monitor [IF] PC=00000010  INSTR=0680a903  [LW   x18, 104(x1)]            
# UVM_INFO /home/khang/Documents/SystemVerilog/Soc_RV32I/SoC/VERIFICATION/Monitor/cpu_monitor.sv(192) @ 215000: uvm_test_top.env.agent.monitor [WB] x 4 <= ffffff96  (PC~00000010)
# UVM_INFO /home/khang/Documents/SystemVerilog/Soc_RV32I/SoC/VERIFICATION/Monitor/cpu_monitor.sv(260) @ 215000: uvm_test_top.env.agent.monitor [AXI_RD] CPU←DRAM  Addr=00000010 Data=2030a423 RRESP=00
# UVM_INFO /home/khang/Documents/SystemVerilog/Soc_RV32I/SoC/VERIFICATION/Monitor/cpu_monitor.sv(192) @ 225000: uvm_test_top.env.agent.monitor [WB] x 4 <= ffffff96  (PC~00000010)
# UVM_INFO /home/khang/Documents/SystemVerilog/Soc_RV32I/SoC/VERIFICATION/Monitor/cpu_monitor.sv(192) @ 235000: uvm_test_top.env.agent.monitor [WB] x 4 <= ffffff96  (PC~00000010)
# UVM_INFO /home/khang/Documents/SystemVerilog/Soc_RV32I/SoC/VERIFICATION/Monitor/cpu_monitor.sv(192) @ 245000: uvm_test_top.env.agent.monitor [WB] x 5 <= 00000001  (PC~00000010)
# UVM_INFO /home/khang/Documents/SystemVerilog/Soc_RV32I/SoC/VERIFICATION/Monitor/cpu_monitor.sv(127) @ 255000: uvm_test_top.env.agent.monitor [IF] PC=00000014  INSTR=2030a423  [SW   x3, 515(x1)]            
# UVM_INFO /home/khang/Documents/SystemVerilog/Soc_RV32I/SoC/VERIFICATION/Monitor/cpu_monitor.sv(192) @ 255000: uvm_test_top.env.agent.monitor [WB] x 5 <= 00000001  (PC~00000014)
# UVM_INFO /home/khang/Documents/SystemVerilog/Soc_RV32I/SoC/VERIFICATION/Monitor/cpu_monitor.sv(260) @ 255000: uvm_test_top.env.agent.monitor [AXI_RD] CPU←DRAM  Addr=00000014 Data=00c0016f RRESP=00
# UVM_INFO /home/khang/Documents/SystemVerilog/Soc_RV32I/SoC/VERIFICATION/Monitor/cpu_monitor.sv(192) @ 265000: uvm_test_top.env.agent.monitor [WB] x 5 <= 00000001  (PC~00000014)
# UVM_INFO /home/khang/Documents/SystemVerilog/Soc_RV32I/SoC/VERIFICATION/Monitor/cpu_monitor.sv(260) @ 305000: uvm_test_top.env.agent.monitor [AXI_RD] CPU←DRAM  Addr=00000000 Data=100000b7 RRESP=00
# UVM_INFO /home/khang/Documents/SystemVerilog/Soc_RV32I/SoC/VERIFICATION/Monitor/cpu_monitor.sv(260) @ 345000: uvm_test_top.env.agent.monitor [AXI_RD] CPU←DRAM  Addr=10000068 Data=xxxxxxxx RRESP=00
# UVM_INFO /home/khang/Documents/SystemVerilog/Soc_RV32I/SoC/VERIFICATION/Monitor/cpu_monitor.sv(260) @ 385000: uvm_test_top.env.agent.monitor [AXI_RD] CPU←DRAM  Addr=10000068 Data=xxxxxxxx RRESP=00
# UVM_INFO /home/khang/Documents/SystemVerilog/Soc_RV32I/SoC/VERIFICATION/Monitor/cpu_monitor.sv(260) @ 425000: uvm_test_top.env.agent.monitor [AXI_RD] CPU←DRAM  Addr=10000068 Data=xxxxxxxx RRESP=00
# UVM_INFO /home/khang/Documents/SystemVerilog/Soc_RV32I/SoC/VERIFICATION/Monitor/cpu_monitor.sv(260) @ 465000: uvm_test_top.env.agent.monitor [AXI_RD] CPU←DRAM  Addr=10000068 Data=xxxxxxxx RRESP=00
# UVM_INFO /home/khang/Documents/SystemVerilog/Soc_RV32I/SoC/VERIFICATION/Monitor/cpu_monitor.sv(260) @ 505000: uvm_test_top.env.agent.monitor [AXI_RD] CPU←DRAM  Addr=10000068 Data=xxxxxxxx RRESP=00
# UVM_INFO /home/khang/Documents/SystemVerilog/Soc_RV32I/SoC/VERIFICATION/Monitor/cpu_monitor.sv(260) @ 545000: uvm_test_top.env.agent.monitor [AXI_RD] CPU←DRAM  Addr=10000068 Data=xxxxxxxx RRESP=00
# UVM_INFO /home/khang/Documents/SystemVerilog/Soc_RV32I/SoC/VERIFICATION/Monitor/cpu_monitor.sv(260) @ 585000: uvm_test_top.env.agent.monitor [AXI_RD] CPU←DRAM  Addr=10000068 Data=xxxxxxxx RRESP=00
# UVM_INFO /home/khang/Documents/SystemVerilog/Soc_RV32I/SoC/VERIFICATION/Monitor/cpu_monitor.sv(260) @ 625000: uvm_test_top.env.agent.monitor [AXI_RD] CPU←DRAM  Addr=10000068 Data=xxxxxxxx RRESP=00
# UVM_INFO /home/khang/Documents/SystemVerilog/Soc_RV32I/SoC/VERIFICATION/Monitor/cpu_monitor.sv(260) @ 665000: uvm_test_top.env.agent.monitor [AXI_RD] CPU←DRAM  Addr=10000068 Data=xxxxxxxx RRESP=00
# UVM_INFO /home/khang/Documents/SystemVerilog/Soc_RV32I/SoC/VERIFICATION/Monitor/cpu_monitor.sv(260) @ 705000: uvm_test_top.env.agent.monitor [AXI_RD] CPU←DRAM  Addr=10000068 Data=xxxxxxxx RRESP=00
# UVM_INFO /home/khang/Documents/SystemVerilog/Soc_RV32I/SoC/VERIFICATION/Monitor/cpu_monitor.sv(260) @ 745000: uvm_test_top.env.agent.monitor [AXI_RD] CPU←DRAM  Addr=10000068 Data=xxxxxxxx RRESP=00
# UVM_INFO /home/khang/Documents/SystemVerilog/Soc_RV32I/SoC/VERIFICATION/Monitor/cpu_monitor.sv(260) @ 785000: uvm_test_top.env.agent.monitor [AXI_RD] CPU←DRAM  Addr=10000068 Data=xxxxxxxx RRESP=00
# UVM_INFO /home/khang/Documents/SystemVerilog/Soc_RV32I/SoC/VERIFICATION/Monitor/cpu_monitor.sv(260) @ 825000: uvm_test_top.env.agent.monitor [AXI_RD] CPU←DRAM  Addr=10000068 Data=xxxxxxxx RRESP=00
# UVM_INFO /home/khang/Documents/SystemVerilog/Soc_RV32I/SoC/VERIFICATION/Monitor/cpu_monitor.sv(260) @ 865000: uvm_test_top.env.agent.monitor [AXI_RD] CPU←DRAM  Addr=10000068 Data=xxxxxxxx RRESP=00
# UVM_INFO /home/khang/Documents/SystemVerilog/Soc_RV32I/SoC/VERIFICATION/Monitor/cpu_monitor.sv(260) @ 905000: uvm_test_top.env.agent.monitor [AXI_RD] CPU←DRAM  Addr=10000068 Data=xxxxxxxx RRESP=00
# UVM_INFO /home/khang/Documents/SystemVerilog/Soc_RV32I/SoC/VERIFICATION/Monitor/cpu_monitor.sv(260) @ 945000: uvm_test_top.env.agent.monitor [AXI_RD] CPU←DRAM  Addr=10000068 Data=xxxxxxxx RRESP=00
# UVM_INFO /home/khang/Documents/SystemVerilog/Soc_RV32I/SoC/VERIFICATION/Monitor/cpu_monitor.sv(260) @ 985000: uvm_test_top.env.agent.monitor [AXI_RD] CPU←DRAM  Addr=10000068 Data=xxxxxxxx RRESP=00
# UVM_INFO /home/khang/Documents/SystemVerilog/Soc_RV32I/SoC/VERIFICATION/Monitor/cpu_monitor.sv(260) @ 1025000: uvm_test_top.env.agent.monitor [AXI_RD] CPU←DRAM  Addr=10000068 Data=xxxxxxxx RRESP=00
# UVM_INFO /home/khang/Documents/SystemVerilog/Soc_RV32I/SoC/VERIFICATION/Monitor/cpu_monitor.sv(260) @ 1065000: uvm_test_top.env.agent.monitor [AXI_RD] CPU←DRAM  Addr=10000068 Data=xxxxxxxx RRESP=00
# UVM_INFO /home/khang/Documents/SystemVerilog/Soc_RV32I/SoC/VERIFICATION/Monitor/cpu_monitor.sv(260) @ 1105000: uvm_test_top.env.agent.monitor [AXI_RD] CPU←DRAM  Addr=10000068 Data=xxxxxxxx RRESP=00
# UVM_INFO /home/khang/Documents/SystemVerilog/Soc_RV32I/SoC/VERIFICATION/Monitor/cpu_monitor.sv(260) @ 1145000: uvm_test_top.env.agent.monitor [AXI_RD] CPU←DRAM  Addr=10000068 Data=xxxxxxxx RRESP=00
# UVM_INFO /home/khang/Documents/SystemVerilog/Soc_RV32I/SoC/VERIFICATION/Monitor/cpu_monitor.sv(260) @ 1185000: uvm_test_top.env.agent.monitor [AXI_RD] CPU←DRAM  Addr=10000068 Data=xxxxxxxx RRESP=00
# UVM_INFO /home/khang/Documents/SystemVerilog/Soc_RV32I/SoC/VERIFICATION/Monitor/cpu_monitor.sv(260) @ 1225000: uvm_test_top.env.agent.monitor [AXI_RD] CPU←DRAM  Addr=10000068 Data=xxxxxxxx RRESP=00
# UVM_INFO /home/khang/Documents/SystemVerilog/Soc_RV32I/SoC/VERIFICATION/Monitor/cpu_monitor.sv(260) @ 1265000: uvm_test_top.env.agent.monitor [AXI_RD] CPU←DRAM  Addr=10000068 Data=xxxxxxxx RRESP=00
# UVM_INFO /home/khang/Documents/SystemVerilog/Soc_RV32I/SoC/VERIFICATION/Monitor/cpu_monitor.sv(260) @ 1305000: uvm_test_top.env.agent.monitor [AXI_RD] CPU←DRAM  Addr=10000068 Data=xxxxxxxx RRESP=00
# UVM_INFO /home/khang/Documents/SystemVerilog/Soc_RV32I/SoC/VERIFICATION/Monitor/cpu_monitor.sv(260) @ 1345000: uvm_test_top.env.agent.monitor [AXI_RD] CPU←DRAM  Addr=10000068 Data=xxxxxxxx RRESP=00
# UVM_INFO /home/khang/Documents/SystemVerilog/Soc_RV32I/SoC/VERIFICATION/Monitor/cpu_monitor.sv(260) @ 1385000: uvm_test_top.env.agent.monitor [AXI_RD] CPU←DRAM  Addr=10000068 Data=xxxxxxxx RRESP=00
# UVM_INFO /home/khang/Documents/SystemVerilog/Soc_RV32I/SoC/VERIFICATION/Monitor/cpu_monitor.sv(260) @ 1425000: uvm_test_top.env.agent.monitor [AXI_RD] CPU←DRAM  Addr=10000068 Data=xxxxxxxx RRESP=00
# UVM_INFO /home/khang/Documents/SystemVerilog/Soc_RV32I/SoC/VERIFICATION/Monitor/cpu_monitor.sv(260) @ 1465000: uvm_test_top.env.agent.monitor [AXI_RD] CPU←DRAM  Addr=10000068 Data=xxxxxxxx RRESP=00
# UVM_INFO /home/khang/Documents/SystemVerilog/Soc_RV32I/SoC/VERIFICATION/Monitor/cpu_monitor.sv(260) @ 1505000: uvm_test_top.env.agent.monitor [AXI_RD] CPU←DRAM  Addr=10000068 Data=xxxxxxxx RRESP=00
# UVM_INFO /home/khang/Documents/SystemVerilog/Soc_RV32I/SoC/VERIFICATION/Monitor/cpu_monitor.sv(260) @ 1545000: uvm_test_top.env.agent.monitor [AXI_RD] CPU←DRAM  Addr=10000068 Data=xxxxxxxx RRESP=00
# UVM_INFO /home/khang/Documents/SystemVerilog/Soc_RV32I/SoC/VERIFICATION/Monitor/cpu_monitor.sv(260) @ 1585000: uvm_test_top.env.agent.monitor [AXI_RD] CPU←DRAM  Addr=10000068 Data=xxxxxxxx RRESP=00
# UVM_INFO /home/khang/Documents/SystemVerilog/Soc_RV32I/SoC/VERIFICATION/Monitor/cpu_monitor.sv(260) @ 1625000: uvm_test_top.env.agent.monitor [AXI_RD] CPU←DRAM  Addr=10000068 Data=xxxxxxxx RRESP=00
# UVM_INFO /home/khang/Documents/SystemVerilog/Soc_RV32I/SoC/VERIFICATION/Monitor/cpu_monitor.sv(260) @ 1665000: uvm_test_top.env.agent.monitor [AXI_RD] CPU←DRAM  Addr=10000068 Data=xxxxxxxx RRESP=00
# UVM_INFO /home/khang/Documents/SystemVerilog/Soc_RV32I/SoC/VERIFICATION/Monitor/cpu_monitor.sv(260) @ 1705000: uvm_test_top.env.agent.monitor [AXI_RD] CPU←DRAM  Addr=10000068 Data=xxxxxxxx RRESP=00
# UVM_INFO /home/khang/Documents/SystemVerilog/Soc_RV32I/SoC/VERIFICATION/Monitor/cpu_monitor.sv(260) @ 1745000: uvm_test_top.env.agent.monitor [AXI_RD] CPU←DRAM  Addr=10000068 Data=xxxxxxxx RRESP=00
# UVM_INFO /home/khang/Documents/SystemVerilog/Soc_RV32I/SoC/VERIFICATION/Monitor/cpu_monitor.sv(260) @ 1785000: uvm_test_top.env.agent.monitor [AXI_RD] CPU←DRAM  Addr=10000068 Data=xxxxxxxx RRESP=00
# UVM_INFO /home/khang/Documents/SystemVerilog/Soc_RV32I/SoC/VERIFICATION/Monitor/cpu_monitor.sv(260) @ 1825000: uvm_test_top.env.agent.monitor [AXI_RD] CPU←DRAM  Addr=10000068 Data=xxxxxxxx RRESP=00
# UVM_INFO /home/khang/Documents/SystemVerilog/Soc_RV32I/SoC/VERIFICATION/Monitor/cpu_monitor.sv(260) @ 1865000: uvm_test_top.env.agent.monitor [AXI_RD] CPU←DRAM  Addr=10000068 Data=xxxxxxxx RRESP=00
# UVM_INFO /home/khang/Documents/SystemVerilog/Soc_RV32I/SoC/VERIFICATION/Monitor/cpu_monitor.sv(260) @ 1905000: uvm_test_top.env.agent.monitor [AXI_RD] CPU←DRAM  Addr=10000068 Data=xxxxxxxx RRESP=00
# UVM_INFO /home/khang/Documents/SystemVerilog/Soc_RV32I/SoC/VERIFICATION/Monitor/cpu_monitor.sv(260) @ 1945000: uvm_test_top.env.agent.monitor [AXI_RD] CPU←DRAM  Addr=10000068 Data=xxxxxxxx RRESP=00
# UVM_INFO /home/khang/Documents/SystemVerilog/Soc_RV32I/SoC/VERIFICATION/Monitor/cpu_monitor.sv(260) @ 1985000: uvm_test_top.env.agent.monitor [AXI_RD] CPU←DRAM  Addr=10000068 Data=xxxxxxxx RRESP=00
# UVM_INFO /home/khang/Documents/SystemVerilog/Soc_RV32I/SoC/VERIFICATION/Monitor/cpu_monitor.sv(260) @ 2025000: uvm_test_top.env.agent.monitor [AXI_RD] CPU←DRAM  Addr=10000068 Data=xxxxxxxx RRESP=00
# UVM_INFO /home/khang/Documents/SystemVerilog/Soc_RV32I/SoC/VERIFICATION/Monitor/cpu_monitor.sv(260) @ 2065000: uvm_test_top.env.agent.monitor [AXI_RD] CPU←DRAM  Addr=10000068 Data=xxxxxxxx RRESP=00
# UVM_INFO /home/khang/Documents/SystemVerilog/Soc_RV32I/SoC/VERIFICATION/Monitor/cpu_monitor.sv(260) @ 2105000: uvm_test_top.env.agent.monitor [AXI_RD] CPU←DRAM  Addr=10000068 Data=xxxxxxxx RRESP=00
# UVM_INFO /home/khang/Documents/SystemVerilog/Soc_RV32I/SoC/VERIFICATION/Monitor/cpu_monitor.sv(260) @ 2145000: uvm_test_top.env.agent.monitor [AXI_RD] CPU←DRAM  Addr=10000068 Data=xxxxxxxx RRESP=00
# UVM_INFO /home/khang/Documents/SystemVerilog/Soc_RV32I/SoC/VERIFICATION/Monitor/cpu_monitor.sv(260) @ 2185000: uvm_test_top.env.agent.monitor [AXI_RD] CPU←DRAM  Addr=10000068 Data=xxxxxxxx RRESP=00
# UVM_INFO /home/khang/Documents/SystemVerilog/Soc_RV32I/SoC/VERIFICATION/Monitor/cpu_monitor.sv(260) @ 2225000: uvm_test_top.env.agent.monitor [AXI_RD] CPU←DRAM  Addr=10000068 Data=xxxxxxxx RRESP=00
# UVM_INFO /home/khang/Documents/SystemVerilog/Soc_RV32I/SoC/VERIFICATION/Monitor/cpu_monitor.sv(260) @ 2265000: uvm_test_top.env.agent.monitor [AXI_RD] CPU←DRAM  Addr=10000068 Data=xxxxxxxx RRESP=00
# UVM_INFO /home/khang/Documents/SystemVerilog/Soc_RV32I/SoC/VERIFICATION/Monitor/cpu_monitor.sv(260) @ 2305000: uvm_test_top.env.agent.monitor [AXI_RD] CPU←DRAM  Addr=10000068 Data=xxxxxxxx RRESP=00
# UVM_INFO /home/khang/Documents/SystemVerilog/Soc_RV32I/SoC/VERIFICATION/Monitor/cpu_monitor.sv(260) @ 2345000: uvm_test_top.env.agent.monitor [AXI_RD] CPU←DRAM  Addr=10000068 Data=xxxxxxxx RRESP=00
# UVM_INFO /home/khang/Documents/SystemVerilog/Soc_RV32I/SoC/VERIFICATION/Monitor/cpu_monitor.sv(260) @ 2385000: uvm_test_top.env.agent.monitor [AXI_RD] CPU←DRAM  Addr=10000068 Data=xxxxxxxx RRESP=00
# UVM_INFO /home/khang/Documents/SystemVerilog/Soc_RV32I/SoC/VERIFICATION/Monitor/cpu_monitor.sv(260) @ 2425000: uvm_test_top.env.agent.monitor [AXI_RD] CPU←DRAM  Addr=10000068 Data=xxxxxxxx RRESP=00
# UVM_INFO /home/khang/Documents/SystemVerilog/Soc_RV32I/SoC/VERIFICATION/Monitor/cpu_monitor.sv(260) @ 2465000: uvm_test_top.env.agent.monitor [AXI_RD] CPU←DRAM  Addr=10000068 Data=xxxxxxxx RRESP=00
# UVM_INFO /home/khang/Documents/SystemVerilog/Soc_RV32I/SoC/VERIFICATION/Monitor/cpu_monitor.sv(260) @ 2505000: uvm_test_top.env.agent.monitor [AXI_RD] CPU←DRAM  Addr=10000068 Data=xxxxxxxx RRESP=00
# UVM_INFO /home/khang/Documents/SystemVerilog/Soc_RV32I/SoC/VERIFICATION/Monitor/cpu_monitor.sv(260) @ 2545000: uvm_test_top.env.agent.monitor [AXI_RD] CPU←DRAM  Addr=10000068 Data=xxxxxxxx RRESP=00
# UVM_INFO /home/khang/Documents/SystemVerilog/Soc_RV32I/SoC/VERIFICATION/Monitor/cpu_monitor.sv(260) @ 2585000: uvm_test_top.env.agent.monitor [AXI_RD] CPU←DRAM  Addr=10000068 Data=xxxxxxxx RRESP=00
# UVM_INFO /home/khang/Documents/SystemVerilog/Soc_RV32I/SoC/VERIFICATION/Monitor/cpu_monitor.sv(260) @ 2625000: uvm_test_top.env.agent.monitor [AXI_RD] CPU←DRAM  Addr=10000068 Data=xxxxxxxx RRESP=00
# UVM_INFO /home/khang/Documents/SystemVerilog/Soc_RV32I/SoC/VERIFICATION/Monitor/cpu_monitor.sv(260) @ 2665000: uvm_test_top.env.agent.monitor [AXI_RD] CPU←DRAM  Addr=10000068 Data=xxxxxxxx RRESP=00
# UVM_INFO /home/khang/Documents/SystemVerilog/Soc_RV32I/SoC/VERIFICATION/Monitor/cpu_monitor.sv(260) @ 2705000: uvm_test_top.env.agent.monitor [AXI_RD] CPU←DRAM  Addr=10000068 Data=xxxxxxxx RRESP=00
# UVM_INFO /home/khang/Documents/SystemVerilog/Soc_RV32I/SoC/VERIFICATION/Monitor/cpu_monitor.sv(260) @ 2745000: uvm_test_top.env.agent.monitor [AXI_RD] CPU←DRAM  Addr=10000068 Data=xxxxxxxx RRESP=00
# UVM_INFO /home/khang/Documents/SystemVerilog/Soc_RV32I/SoC/VERIFICATION/Monitor/cpu_monitor.sv(260) @ 2785000: uvm_test_top.env.agent.monitor [AXI_RD] CPU←DRAM  Addr=10000068 Data=xxxxxxxx RRESP=00
# UVM_INFO /home/khang/Documents/SystemVerilog/Soc_RV32I/SoC/VERIFICATION/Monitor/cpu_monitor.sv(260) @ 2825000: uvm_test_top.env.agent.monitor [AXI_RD] CPU←DRAM  Addr=10000068 Data=xxxxxxxx RRESP=00
# UVM_INFO /home/khang/Documents/SystemVerilog/Soc_RV32I/SoC/VERIFICATION/Monitor/cpu_monitor.sv(260) @ 2865000: uvm_test_top.env.agent.monitor [AXI_RD] CPU←DRAM  Addr=10000068 Data=xxxxxxxx RRESP=00
# UVM_INFO /home/khang/Documents/SystemVerilog/Soc_RV32I/SoC/VERIFICATION/Monitor/cpu_monitor.sv(260) @ 2905000: uvm_test_top.env.agent.monitor [AXI_RD] CPU←DRAM  Addr=10000068 Data=xxxxxxxx RRESP=00
# UVM_INFO /home/khang/Documents/SystemVerilog/Soc_RV32I/SoC/VERIFICATION/Monitor/cpu_monitor.sv(260) @ 2945000: uvm_test_top.env.agent.monitor [AXI_RD] CPU←DRAM  Addr=10000068 Data=xxxxxxxx RRESP=00
# UVM_INFO /home/khang/Documents/SystemVerilog/Soc_RV32I/SoC/VERIFICATION/Monitor/cpu_monitor.sv(260) @ 2985000: uvm_test_top.env.agent.monitor [AXI_RD] CPU←DRAM  Addr=10000068 Data=xxxxxxxx RRESP=00
# UVM_INFO /home/khang/Documents/SystemVerilog/Soc_RV32I/SoC/VERIFICATION/Monitor/cpu_monitor.sv(260) @ 3025000: uvm_test_top.env.agent.monitor [AXI_RD] CPU←DRAM  Addr=10000068 Data=xxxxxxxx RRESP=00
# UVM_INFO /home/khang/Documents/SystemVerilog/Soc_RV32I/SoC/VERIFICATION/Monitor/cpu_monitor.sv(260) @ 3065000: uvm_test_top.env.agent.monitor [AXI_RD] CPU←DRAM  Addr=10000068 Data=xxxxxxxx RRESP=00
# UVM_INFO /home/khang/Documents/SystemVerilog/Soc_RV32I/SoC/VERIFICATION/Monitor/cpu_monitor.sv(260) @ 3105000: uvm_test_top.env.agent.monitor [AXI_RD] CPU←DRAM  Addr=10000068 Data=xxxxxxxx RRESP=00
# UVM_INFO /home/khang/Documents/SystemVerilog/Soc_RV32I/SoC/VERIFICATION/Monitor/cpu_monitor.sv(260) @ 3145000: uvm_test_top.env.agent.monitor [AXI_RD] CPU←DRAM  Addr=10000068 Data=xxxxxxxx RRESP=00
# UVM_INFO /home/khang/Documents/SystemVerilog/Soc_RV32I/SoC/VERIFICATION/Monitor/cpu_monitor.sv(260) @ 3185000: uvm_test_top.env.agent.monitor [AXI_RD] CPU←DRAM  Addr=10000068 Data=xxxxxxxx RRESP=00
# UVM_INFO /home/khang/Documents/SystemVerilog/Soc_RV32I/SoC/VERIFICATION/Monitor/cpu_monitor.sv(260) @ 3225000: uvm_test_top.env.agent.monitor [AXI_RD] CPU←DRAM  Addr=10000068 Data=xxxxxxxx RRESP=00
# UVM_INFO /home/khang/Documents/SystemVerilog/Soc_RV32I/SoC/VERIFICATION/Monitor/cpu_monitor.sv(260) @ 3265000: uvm_test_top.env.agent.monitor [AXI_RD] CPU←DRAM  Addr=10000068 Data=xxxxxxxx RRESP=00
# UVM_INFO /home/khang/Documents/SystemVerilog/Soc_RV32I/SoC/VERIFICATION/Monitor/cpu_monitor.sv(260) @ 3305000: uvm_test_top.env.agent.monitor [AXI_RD] CPU←DRAM  Addr=10000068 Data=xxxxxxxx RRESP=00
# UVM_INFO /home/khang/Documents/SystemVerilog/Soc_RV32I/SoC/VERIFICATION/Monitor/cpu_monitor.sv(260) @ 3345000: uvm_test_top.env.agent.monitor [AXI_RD] CPU←DRAM  Addr=10000068 Data=xxxxxxxx RRESP=00
# UVM_INFO /home/khang/Documents/SystemVerilog/Soc_RV32I/SoC/VERIFICATION/Monitor/cpu_monitor.sv(260) @ 3385000: uvm_test_top.env.agent.monitor [AXI_RD] CPU←DRAM  Addr=10000068 Data=xxxxxxxx RRESP=00
# UVM_INFO /home/khang/Documents/SystemVerilog/Soc_RV32I/SoC/VERIFICATION/Monitor/cpu_monitor.sv(260) @ 3425000: uvm_test_top.env.agent.monitor [AXI_RD] CPU←DRAM  Addr=10000068 Data=xxxxxxxx RRESP=00
# UVM_INFO /home/khang/Documents/SystemVerilog/Soc_RV32I/SoC/VERIFICATION/Monitor/cpu_monitor.sv(260) @ 3465000: uvm_test_top.env.agent.monitor [AXI_RD] CPU←DRAM  Addr=10000068 Data=xxxxxxxx RRESP=00
# UVM_INFO /home/khang/Documents/SystemVerilog/Soc_RV32I/SoC/VERIFICATION/Monitor/cpu_monitor.sv(260) @ 3505000: uvm_test_top.env.agent.monitor [AXI_RD] CPU←DRAM  Addr=10000068 Data=xxxxxxxx RRESP=00
# UVM_INFO /home/khang/Documents/SystemVerilog/Soc_RV32I/SoC/VERIFICATION/Monitor/cpu_monitor.sv(260) @ 3545000: uvm_test_top.env.agent.monitor [AXI_RD] CPU←DRAM  Addr=10000068 Data=xxxxxxxx RRESP=00
# UVM_INFO /home/khang/Documents/SystemVerilog/Soc_RV32I/SoC/VERIFICATION/Monitor/cpu_monitor.sv(260) @ 3585000: uvm_test_top.env.agent.monitor [AXI_RD] CPU←DRAM  Addr=10000068 Data=xxxxxxxx RRESP=00
# UVM_INFO /home/khang/Documents/SystemVerilog/Soc_RV32I/SoC/VERIFICATION/Monitor/cpu_monitor.sv(260) @ 3625000: uvm_test_top.env.agent.monitor [AXI_RD] CPU←DRAM  Addr=10000068 Data=xxxxxxxx RRESP=00
# UVM_INFO /home/khang/Documents/SystemVerilog/Soc_RV32I/SoC/VERIFICATION/Monitor/cpu_monitor.sv(260) @ 3665000: uvm_test_top.env.agent.monitor [AXI_RD] CPU←DRAM  Addr=10000068 Data=xxxxxxxx RRESP=00
# UVM_INFO /home/khang/Documents/SystemVerilog/Soc_RV32I/SoC/VERIFICATION/Monitor/cpu_monitor.sv(260) @ 3705000: uvm_test_top.env.agent.monitor [AXI_RD] CPU←DRAM  Addr=10000068 Data=xxxxxxxx RRESP=00
# UVM_INFO /home/khang/Documents/SystemVerilog/Soc_RV32I/SoC/VERIFICATION/Monitor/cpu_monitor.sv(260) @ 3745000: uvm_test_top.env.agent.monitor [AXI_RD] CPU←DRAM  Addr=10000068 Data=xxxxxxxx RRESP=00
# UVM_INFO /home/khang/Documents/SystemVerilog/Soc_RV32I/SoC/VERIFICATION/Monitor/cpu_monitor.sv(260) @ 3785000: uvm_test_top.env.agent.monitor [AXI_RD] CPU←DRAM  Addr=10000068 Data=xxxxxxxx RRESP=00
# UVM_INFO /home/khang/Documents/SystemVerilog/Soc_RV32I/SoC/VERIFICATION/Monitor/cpu_monitor.sv(260) @ 3825000: uvm_test_top.env.agent.monitor [AXI_RD] CPU←DRAM  Addr=10000068 Data=xxxxxxxx RRESP=00
# UVM_INFO /home/khang/Documents/SystemVerilog/Soc_RV32I/SoC/VERIFICATION/Monitor/cpu_monitor.sv(260) @ 3865000: uvm_test_top.env.agent.monitor [AXI_RD] CPU←DRAM  Addr=10000068 Data=xxxxxxxx RRESP=00
# UVM_INFO /home/khang/Documents/SystemVerilog/Soc_RV32I/SoC/VERIFICATION/Monitor/cpu_monitor.sv(260) @ 3905000: uvm_test_top.env.agent.monitor [AXI_RD] CPU←DRAM  Addr=10000068 Data=xxxxxxxx RRESP=00
# UVM_INFO /home/khang/Documents/SystemVerilog/Soc_RV32I/SoC/VERIFICATION/Monitor/cpu_monitor.sv(260) @ 3945000: uvm_test_top.env.agent.monitor [AXI_RD] CPU←DRAM  Addr=10000068 Data=xxxxxxxx RRESP=00
# UVM_INFO /home/khang/Documents/SystemVerilog/Soc_RV32I/SoC/VERIFICATION/Monitor/cpu_monitor.sv(260) @ 3985000: uvm_test_top.env.agent.monitor [AXI_RD] CPU←DRAM  Addr=10000068 Data=xxxxxxxx RRESP=00
# UVM_INFO /home/khang/Documents/SystemVerilog/Soc_RV32I/SoC/VERIFICATION/Monitor/cpu_monitor.sv(260) @ 4025000: uvm_test_top.env.agent.monitor [AXI_RD] CPU←DRAM  Addr=10000068 Data=xxxxxxxx RRESP=00
# UVM_INFO /home/khang/Documents/SystemVerilog/Soc_RV32I/SoC/VERIFICATION/Monitor/cpu_monitor.sv(260) @ 4065000: uvm_test_top.env.agent.monitor [AXI_RD] CPU←DRAM  Addr=10000068 Data=xxxxxxxx RRESP=00
# UVM_INFO /home/khang/Documents/SystemVerilog/Soc_RV32I/SoC/VERIFICATION/Monitor/cpu_monitor.sv(260) @ 4105000: uvm_test_top.env.agent.monitor [AXI_RD] CPU←DRAM  Addr=10000068 Data=xxxxxxxx RRESP=00
# UVM_INFO /home/khang/Documents/SystemVerilog/Soc_RV32I/SoC/VERIFICATION/Monitor/cpu_monitor.sv(260) @ 4145000: uvm_test_top.env.agent.monitor [AXI_RD] CPU←DRAM  Addr=10000068 Data=xxxxxxxx RRESP=00
# UVM_INFO /home/khang/Documents/SystemVerilog/Soc_RV32I/SoC/VERIFICATION/Monitor/cpu_monitor.sv(260) @ 4185000: uvm_test_top.env.agent.monitor [AXI_RD] CPU←DRAM  Addr=10000068 Data=xxxxxxxx RRESP=00
# UVM_INFO /home/khang/Documents/SystemVerilog/Soc_RV32I/SoC/VERIFICATION/Monitor/cpu_monitor.sv(260) @ 4225000: uvm_test_top.env.agent.monitor [AXI_RD] CPU←DRAM  Addr=10000068 Data=xxxxxxxx RRESP=00
# UVM_INFO /home/khang/Documents/SystemVerilog/Soc_RV32I/SoC/VERIFICATION/Monitor/cpu_monitor.sv(260) @ 4265000: uvm_test_top.env.agent.monitor [AXI_RD] CPU←DRAM  Addr=10000068 Data=xxxxxxxx RRESP=00
# UVM_INFO /home/khang/Documents/SystemVerilog/Soc_RV32I/SoC/VERIFICATION/Monitor/cpu_monitor.sv(260) @ 4305000: uvm_test_top.env.agent.monitor [AXI_RD] CPU←DRAM  Addr=10000068 Data=xxxxxxxx RRESP=00
# UVM_INFO /home/khang/Documents/SystemVerilog/Soc_RV32I/SoC/VERIFICATION/Monitor/cpu_monitor.sv(260) @ 4345000: uvm_test_top.env.agent.monitor [AXI_RD] CPU←DRAM  Addr=10000068 Data=xxxxxxxx RRESP=00
# UVM_INFO /home/khang/Documents/SystemVerilog/Soc_RV32I/SoC/VERIFICATION/Monitor/cpu_monitor.sv(260) @ 4385000: uvm_test_top.env.agent.monitor [AXI_RD] CPU←DRAM  Addr=10000068 Data=xxxxxxxx RRESP=00
# UVM_INFO /home/khang/Documents/SystemVerilog/Soc_RV32I/SoC/VERIFICATION/Monitor/cpu_monitor.sv(260) @ 4425000: uvm_test_top.env.agent.monitor [AXI_RD] CPU←DRAM  Addr=10000068 Data=xxxxxxxx RRESP=00
# UVM_INFO /home/khang/Documents/SystemVerilog/Soc_RV32I/SoC/VERIFICATION/Monitor/cpu_monitor.sv(260) @ 4465000: uvm_test_top.env.agent.monitor [AXI_RD] CPU←DRAM  Addr=10000068 Data=xxxxxxxx RRESP=00
# UVM_INFO /home/khang/Documents/SystemVerilog/Soc_RV32I/SoC/VERIFICATION/Monitor/cpu_monitor.sv(260) @ 4505000: uvm_test_top.env.agent.monitor [AXI_RD] CPU←DRAM  Addr=10000068 Data=xxxxxxxx RRESP=00
# UVM_INFO /home/khang/Documents/SystemVerilog/Soc_RV32I/SoC/VERIFICATION/Monitor/cpu_monitor.sv(260) @ 4545000: uvm_test_top.env.agent.monitor [AXI_RD] CPU←DRAM  Addr=10000068 Data=xxxxxxxx RRESP=00
# UVM_INFO /home/khang/Documents/SystemVerilog/Soc_RV32I/SoC/VERIFICATION/Monitor/cpu_monitor.sv(260) @ 4585000: uvm_test_top.env.agent.monitor [AXI_RD] CPU←DRAM  Addr=10000068 Data=xxxxxxxx RRESP=00
# UVM_INFO /home/khang/Documents/SystemVerilog/Soc_RV32I/SoC/VERIFICATION/Monitor/cpu_monitor.sv(260) @ 4625000: uvm_test_top.env.agent.monitor [AXI_RD] CPU←DRAM  Addr=10000068 Data=xxxxxxxx RRESP=00
# UVM_INFO /home/khang/Documents/SystemVerilog/Soc_RV32I/SoC/VERIFICATION/Monitor/cpu_monitor.sv(260) @ 4665000: uvm_test_top.env.agent.monitor [AXI_RD] CPU←DRAM  Addr=10000068 Data=xxxxxxxx RRESP=00
# UVM_INFO /home/khang/Documents/SystemVerilog/Soc_RV32I/SoC/VERIFICATION/Monitor/cpu_monitor.sv(260) @ 4705000: uvm_test_top.env.agent.monitor [AXI_RD] CPU←DRAM  Addr=10000068 Data=xxxxxxxx RRESP=00
# UVM_INFO /home/khang/Documents/SystemVerilog/Soc_RV32I/SoC/VERIFICATION/Monitor/cpu_monitor.sv(260) @ 4745000: uvm_test_top.env.agent.monitor [AXI_RD] CPU←DRAM  Addr=10000068 Data=xxxxxxxx RRESP=00
# UVM_INFO /home/khang/Documents/SystemVerilog/Soc_RV32I/SoC/VERIFICATION/Monitor/cpu_monitor.sv(260) @ 4785000: uvm_test_top.env.agent.monitor [AXI_RD] CPU←DRAM  Addr=10000068 Data=xxxxxxxx RRESP=00
# UVM_INFO /home/khang/Documents/SystemVerilog/Soc_RV32I/SoC/VERIFICATION/Monitor/cpu_monitor.sv(260) @ 4825000: uvm_test_top.env.agent.monitor [AXI_RD] CPU←DRAM  Addr=10000068 Data=xxxxxxxx RRESP=00
# UVM_INFO /home/khang/Documents/SystemVerilog/Soc_RV32I/SoC/VERIFICATION/Monitor/cpu_monitor.sv(260) @ 4865000: uvm_test_top.env.agent.monitor [AXI_RD] CPU←DRAM  Addr=10000068 Data=xxxxxxxx RRESP=00
# UVM_INFO /home/khang/Documents/SystemVerilog/Soc_RV32I/SoC/VERIFICATION/Monitor/cpu_monitor.sv(260) @ 4905000: uvm_test_top.env.agent.monitor [AXI_RD] CPU←DRAM  Addr=10000068 Data=xxxxxxxx RRESP=00
# UVM_INFO /home/khang/Documents/SystemVerilog/Soc_RV32I/SoC/VERIFICATION/Monitor/cpu_monitor.sv(260) @ 4945000: uvm_test_top.env.agent.monitor [AXI_RD] CPU←DRAM  Addr=10000068 Data=xxxxxxxx RRESP=00
# UVM_INFO /home/khang/Documents/SystemVerilog/Soc_RV32I/SoC/VERIFICATION/Monitor/cpu_monitor.sv(260) @ 4985000: uvm_test_top.env.agent.monitor [AXI_RD] CPU←DRAM  Addr=10000068 Data=xxxxxxxx RRESP=00
# UVM_INFO /home/khang/Documents/SystemVerilog/Soc_RV32I/SoC/VERIFICATION/Monitor/cpu_monitor.sv(260) @ 5025000: uvm_test_top.env.agent.monitor [AXI_RD] CPU←DRAM  Addr=10000068 Data=xxxxxxxx RRESP=00
# UVM_INFO /home/khang/Documents/SystemVerilog/Soc_RV32I/SoC/VERIFICATION/Monitor/cpu_monitor.sv(260) @ 5065000: uvm_test_top.env.agent.monitor [AXI_RD] CPU←DRAM  Addr=10000068 Data=xxxxxxxx RRESP=00
# UVM_INFO /home/khang/Documents/SystemVerilog/Soc_RV32I/SoC/VERIFICATION/Monitor/cpu_monitor.sv(260) @ 5105000: uvm_test_top.env.agent.monitor [AXI_RD] CPU←DRAM  Addr=10000068 Data=xxxxxxxx RRESP=00
# UVM_INFO /home/khang/Documents/SystemVerilog/Soc_RV32I/SoC/VERIFICATION/Monitor/cpu_monitor.sv(260) @ 5145000: uvm_test_top.env.agent.monitor [AXI_RD] CPU←DRAM  Addr=10000068 Data=xxxxxxxx RRESP=00
# UVM_INFO /home/khang/Documents/SystemVerilog/Soc_RV32I/SoC/VERIFICATION/Monitor/cpu_monitor.sv(260) @ 5185000: uvm_test_top.env.agent.monitor [AXI_RD] CPU←DRAM  Addr=10000068 Data=xxxxxxxx RRESP=00
# UVM_INFO /home/khang/Documents/SystemVerilog/Soc_RV32I/SoC/VERIFICATION/Monitor/cpu_monitor.sv(260) @ 5225000: uvm_test_top.env.agent.monitor [AXI_RD] CPU←DRAM  Addr=10000068 Data=xxxxxxxx RRESP=00
# UVM_INFO /home/khang/Documents/SystemVerilog/Soc_RV32I/SoC/VERIFICATION/Monitor/cpu_monitor.sv(260) @ 5265000: uvm_test_top.env.agent.monitor [AXI_RD] CPU←DRAM  Addr=10000068 Data=xxxxxxxx RRESP=00
# UVM_INFO /home/khang/Documents/SystemVerilog/Soc_RV32I/SoC/VERIFICATION/Monitor/cpu_monitor.sv(260) @ 5305000: uvm_test_top.env.agent.monitor [AXI_RD] CPU←DRAM  Addr=10000068 Data=xxxxxxxx RRESP=00
# UVM_INFO /home/khang/Documents/SystemVerilog/Soc_RV32I/SoC/VERIFICATION/Monitor/cpu_monitor.sv(260) @ 5345000: uvm_test_top.env.agent.monitor [AXI_RD] CPU←DRAM  Addr=10000068 Data=xxxxxxxx RRESP=00
# UVM_INFO /home/khang/Documents/SystemVerilog/Soc_RV32I/SoC/VERIFICATION/Monitor/cpu_monitor.sv(260) @ 5385000: uvm_test_top.env.agent.monitor [AXI_RD] CPU←DRAM  Addr=10000068 Data=xxxxxxxx RRESP=00
# UVM_INFO /home/khang/Documents/SystemVerilog/Soc_RV32I/SoC/VERIFICATION/Monitor/cpu_monitor.sv(260) @ 5425000: uvm_test_top.env.agent.monitor [AXI_RD] CPU←DRAM  Addr=10000068 Data=xxxxxxxx RRESP=00
# UVM_INFO /home/khang/Documents/SystemVerilog/Soc_RV32I/SoC/VERIFICATION/Monitor/cpu_monitor.sv(260) @ 5465000: uvm_test_top.env.agent.monitor [AXI_RD] CPU←DRAM  Addr=10000068 Data=xxxxxxxx RRESP=00
# UVM_INFO /home/khang/Documents/SystemVerilog/Soc_RV32I/SoC/VERIFICATION/Monitor/cpu_monitor.sv(260) @ 5505000: uvm_test_top.env.agent.monitor [AXI_RD] CPU←DRAM  Addr=10000068 Data=xxxxxxxx RRESP=00
# UVM_INFO /home/khang/Documents/SystemVerilog/Soc_RV32I/SoC/VERIFICATION/Monitor/cpu_monitor.sv(260) @ 5545000: uvm_test_top.env.agent.monitor [AXI_RD] CPU←DRAM  Addr=10000068 Data=xxxxxxxx RRESP=00
# UVM_INFO /home/khang/Documents/SystemVerilog/Soc_RV32I/SoC/VERIFICATION/Monitor/cpu_monitor.sv(260) @ 5585000: uvm_test_top.env.agent.monitor [AXI_RD] CPU←DRAM  Addr=10000068 Data=xxxxxxxx RRESP=00
# UVM_INFO /home/khang/Documents/SystemVerilog/Soc_RV32I/SoC/VERIFICATION/Monitor/cpu_monitor.sv(260) @ 5625000: uvm_test_top.env.agent.monitor [AXI_RD] CPU←DRAM  Addr=10000068 Data=xxxxxxxx RRESP=00
# UVM_INFO /home/khang/Documents/SystemVerilog/Soc_RV32I/SoC/VERIFICATION/Monitor/cpu_monitor.sv(260) @ 5665000: uvm_test_top.env.agent.monitor [AXI_RD] CPU←DRAM  Addr=10000068 Data=xxxxxxxx RRESP=00
# UVM_INFO /home/khang/Documents/SystemVerilog/Soc_RV32I/SoC/VERIFICATION/Monitor/cpu_monitor.sv(260) @ 5705000: uvm_test_top.env.agent.monitor [AXI_RD] CPU←DRAM  Addr=10000068 Data=xxxxxxxx RRESP=00
# UVM_INFO /home/khang/Documents/SystemVerilog/Soc_RV32I/SoC/VERIFICATION/Monitor/cpu_monitor.sv(260) @ 5745000: uvm_test_top.env.agent.monitor [AXI_RD] CPU←DRAM  Addr=10000068 Data=xxxxxxxx RRESP=00
# UVM_INFO /home/khang/Documents/SystemVerilog/Soc_RV32I/SoC/VERIFICATION/Monitor/cpu_monitor.sv(260) @ 5785000: uvm_test_top.env.agent.monitor [AXI_RD] CPU←DRAM  Addr=10000068 Data=xxxxxxxx RRESP=00
# UVM_INFO /home/khang/Documents/SystemVerilog/Soc_RV32I/SoC/VERIFICATION/Monitor/cpu_monitor.sv(260) @ 5825000: uvm_test_top.env.agent.monitor [AXI_RD] CPU←DRAM  Addr=10000068 Data=xxxxxxxx RRESP=00
# UVM_INFO /home/khang/Documents/SystemVerilog/Soc_RV32I/SoC/VERIFICATION/Monitor/cpu_monitor.sv(260) @ 5865000: uvm_test_top.env.agent.monitor [AXI_RD] CPU←DRAM  Addr=10000068 Data=xxxxxxxx RRESP=00
# UVM_INFO /home/khang/Documents/SystemVerilog/Soc_RV32I/SoC/VERIFICATION/Monitor/cpu_monitor.sv(260) @ 5905000: uvm_test_top.env.agent.monitor [AXI_RD] CPU←DRAM  Addr=10000068 Data=xxxxxxxx RRESP=00
# UVM_INFO /home/khang/Documents/SystemVerilog/Soc_RV32I/SoC/VERIFICATION/Monitor/cpu_monitor.sv(260) @ 5945000: uvm_test_top.env.agent.monitor [AXI_RD] CPU←DRAM  Addr=10000068 Data=xxxxxxxx RRESP=00
# UVM_INFO /home/khang/Documents/SystemVerilog/Soc_RV32I/SoC/VERIFICATION/Monitor/cpu_monitor.sv(260) @ 5985000: uvm_test_top.env.agent.monitor [AXI_RD] CPU←DRAM  Addr=10000068 Data=xxxxxxxx RRESP=00
# UVM_INFO /home/khang/Documents/SystemVerilog/Soc_RV32I/SoC/VERIFICATION/Monitor/cpu_monitor.sv(260) @ 6025000: uvm_test_top.env.agent.monitor [AXI_RD] CPU←DRAM  Addr=10000068 Data=xxxxxxxx RRESP=00
# UVM_INFO /home/khang/Documents/SystemVerilog/Soc_RV32I/SoC/VERIFICATION/Monitor/cpu_monitor.sv(260) @ 6065000: uvm_test_top.env.agent.monitor [AXI_RD] CPU←DRAM  Addr=10000068 Data=xxxxxxxx RRESP=00
# UVM_INFO /home/khang/Documents/SystemVerilog/Soc_RV32I/SoC/VERIFICATION/Monitor/cpu_monitor.sv(260) @ 6105000: uvm_test_top.env.agent.monitor [AXI_RD] CPU←DRAM  Addr=10000068 Data=xxxxxxxx RRESP=00
# UVM_INFO /home/khang/Documents/SystemVerilog/Soc_RV32I/SoC/VERIFICATION/Monitor/cpu_monitor.sv(260) @ 6145000: uvm_test_top.env.agent.monitor [AXI_RD] CPU←DRAM  Addr=10000068 Data=xxxxxxxx RRESP=00
# UVM_INFO /home/khang/Documents/SystemVerilog/Soc_RV32I/SoC/VERIFICATION/Monitor/cpu_monitor.sv(260) @ 6185000: uvm_test_top.env.agent.monitor [AXI_RD] CPU←DRAM  Addr=10000068 Data=xxxxxxxx RRESP=00
# UVM_INFO /home/khang/Documents/SystemVerilog/Soc_RV32I/SoC/VERIFICATION/Monitor/cpu_monitor.sv(260) @ 6225000: uvm_test_top.env.agent.monitor [AXI_RD] CPU←DRAM  Addr=10000068 Data=xxxxxxxx RRESP=00
# UVM_INFO /home/khang/Documents/SystemVerilog/Soc_RV32I/SoC/VERIFICATION/Monitor/cpu_monitor.sv(260) @ 6265000: uvm_test_top.env.agent.monitor [AXI_RD] CPU←DRAM  Addr=10000068 Data=xxxxxxxx RRESP=00
# UVM_INFO /home/khang/Documents/SystemVerilog/Soc_RV32I/SoC/VERIFICATION/Monitor/cpu_monitor.sv(260) @ 6305000: uvm_test_top.env.agent.monitor [AXI_RD] CPU←DRAM  Addr=10000068 Data=xxxxxxxx RRESP=00
# UVM_INFO /home/khang/Documents/SystemVerilog/Soc_RV32I/SoC/VERIFICATION/Monitor/cpu_monitor.sv(260) @ 6345000: uvm_test_top.env.agent.monitor [AXI_RD] CPU←DRAM  Addr=10000068 Data=xxxxxxxx RRESP=00
# UVM_INFO /home/khang/Documents/SystemVerilog/Soc_RV32I/SoC/VERIFICATION/Monitor/cpu_monitor.sv(260) @ 6385000: uvm_test_top.env.agent.monitor [AXI_RD] CPU←DRAM  Addr=10000068 Data=xxxxxxxx RRESP=00
# UVM_INFO /home/khang/Documents/SystemVerilog/Soc_RV32I/SoC/VERIFICATION/Monitor/cpu_monitor.sv(260) @ 6425000: uvm_test_top.env.agent.monitor [AXI_RD] CPU←DRAM  Addr=10000068 Data=xxxxxxxx RRESP=00
# UVM_INFO /home/khang/Documents/SystemVerilog/Soc_RV32I/SoC/VERIFICATION/Monitor/cpu_monitor.sv(260) @ 6465000: uvm_test_top.env.agent.monitor [AXI_RD] CPU←DRAM  Addr=10000068 Data=xxxxxxxx RRESP=00
# UVM_INFO /home/khang/Documents/SystemVerilog/Soc_RV32I/SoC/VERIFICATION/Monitor/cpu_monitor.sv(260) @ 6505000: uvm_test_top.env.agent.monitor [AXI_RD] CPU←DRAM  Addr=10000068 Data=xxxxxxxx RRESP=00
# UVM_INFO /home/khang/Documents/SystemVerilog/Soc_RV32I/SoC/VERIFICATION/Monitor/cpu_monitor.sv(260) @ 6545000: uvm_test_top.env.agent.monitor [AXI_RD] CPU←DRAM  Addr=10000068 Data=xxxxxxxx RRESP=00
# UVM_INFO /home/khang/Documents/SystemVerilog/Soc_RV32I/SoC/VERIFICATION/Monitor/cpu_monitor.sv(260) @ 6585000: uvm_test_top.env.agent.monitor [AXI_RD] CPU←DRAM  Addr=10000068 Data=xxxxxxxx RRESP=00
# UVM_INFO /home/khang/Documents/SystemVerilog/Soc_RV32I/SoC/VERIFICATION/Monitor/cpu_monitor.sv(260) @ 6625000: uvm_test_top.env.agent.monitor [AXI_RD] CPU←DRAM  Addr=10000068 Data=xxxxxxxx RRESP=00
# UVM_INFO /home/khang/Documents/SystemVerilog/Soc_RV32I/SoC/VERIFICATION/Monitor/cpu_monitor.sv(260) @ 6665000: uvm_test_top.env.agent.monitor [AXI_RD] CPU←DRAM  Addr=10000068 Data=xxxxxxxx RRESP=00
# UVM_INFO /home/khang/Documents/SystemVerilog/Soc_RV32I/SoC/VERIFICATION/Monitor/cpu_monitor.sv(260) @ 6705000: uvm_test_top.env.agent.monitor [AXI_RD] CPU←DRAM  Addr=10000068 Data=xxxxxxxx RRESP=00
# UVM_INFO /home/khang/Documents/SystemVerilog/Soc_RV32I/SoC/VERIFICATION/Monitor/cpu_monitor.sv(260) @ 6745000: uvm_test_top.env.agent.monitor [AXI_RD] CPU←DRAM  Addr=10000068 Data=xxxxxxxx RRESP=00
# UVM_INFO /home/khang/Documents/SystemVerilog/Soc_RV32I/SoC/VERIFICATION/Monitor/cpu_monitor.sv(260) @ 6785000: uvm_test_top.env.agent.monitor [AXI_RD] CPU←DRAM  Addr=10000068 Data=xxxxxxxx RRESP=00
# UVM_INFO /home/khang/Documents/SystemVerilog/Soc_RV32I/SoC/VERIFICATION/Monitor/cpu_monitor.sv(260) @ 6825000: uvm_test_top.env.agent.monitor [AXI_RD] CPU←DRAM  Addr=10000068 Data=xxxxxxxx RRESP=00
# UVM_INFO /home/khang/Documents/SystemVerilog/Soc_RV32I/SoC/VERIFICATION/Monitor/cpu_monitor.sv(260) @ 6865000: uvm_test_top.env.agent.monitor [AXI_RD] CPU←DRAM  Addr=10000068 Data=xxxxxxxx RRESP=00
# UVM_INFO /home/khang/Documents/SystemVerilog/Soc_RV32I/SoC/VERIFICATION/Monitor/cpu_monitor.sv(260) @ 6905000: uvm_test_top.env.agent.monitor [AXI_RD] CPU←DRAM  Addr=10000068 Data=xxxxxxxx RRESP=00
# UVM_INFO /home/khang/Documents/SystemVerilog/Soc_RV32I/SoC/VERIFICATION/Monitor/cpu_monitor.sv(260) @ 6945000: uvm_test_top.env.agent.monitor [AXI_RD] CPU←DRAM  Addr=10000068 Data=xxxxxxxx RRESP=00
# UVM_INFO /home/khang/Documents/SystemVerilog/Soc_RV32I/SoC/VERIFICATION/Monitor/cpu_monitor.sv(260) @ 6985000: uvm_test_top.env.agent.monitor [AXI_RD] CPU←DRAM  Addr=10000068 Data=xxxxxxxx RRESP=00
# UVM_INFO /home/khang/Documents/SystemVerilog/Soc_RV32I/SoC/VERIFICATION/Monitor/cpu_monitor.sv(260) @ 7025000: uvm_test_top.env.agent.monitor [AXI_RD] CPU←DRAM  Addr=10000068 Data=xxxxxxxx RRESP=00
# UVM_INFO /home/khang/Documents/SystemVerilog/Soc_RV32I/SoC/VERIFICATION/Monitor/cpu_monitor.sv(260) @ 7065000: uvm_test_top.env.agent.monitor [AXI_RD] CPU←DRAM  Addr=10000068 Data=xxxxxxxx RRESP=00
# UVM_INFO /home/khang/Documents/SystemVerilog/Soc_RV32I/SoC/VERIFICATION/Monitor/cpu_monitor.sv(260) @ 7105000: uvm_test_top.env.agent.monitor [AXI_RD] CPU←DRAM  Addr=10000068 Data=xxxxxxxx RRESP=00
# UVM_INFO /home/khang/Documents/SystemVerilog/Soc_RV32I/SoC/VERIFICATION/Monitor/cpu_monitor.sv(260) @ 7145000: uvm_test_top.env.agent.monitor [AXI_RD] CPU←DRAM  Addr=10000068 Data=xxxxxxxx RRESP=00
# UVM_INFO /home/khang/Documents/SystemVerilog/Soc_RV32I/SoC/VERIFICATION/Monitor/cpu_monitor.sv(260) @ 7185000: uvm_test_top.env.agent.monitor [AXI_RD] CPU←DRAM  Addr=10000068 Data=xxxxxxxx RRESP=00
# UVM_INFO /home/khang/Documents/SystemVerilog/Soc_RV32I/SoC/VERIFICATION/Monitor/cpu_monitor.sv(260) @ 7225000: uvm_test_top.env.agent.monitor [AXI_RD] CPU←DRAM  Addr=10000068 Data=xxxxxxxx RRESP=00
# UVM_INFO /home/khang/Documents/SystemVerilog/Soc_RV32I/SoC/VERIFICATION/Monitor/cpu_monitor.sv(260) @ 7265000: uvm_test_top.env.agent.monitor [AXI_RD] CPU←DRAM  Addr=10000068 Data=xxxxxxxx RRESP=00
# UVM_INFO /home/khang/Documents/SystemVerilog/Soc_RV32I/SoC/VERIFICATION/Monitor/cpu_monitor.sv(260) @ 7305000: uvm_test_top.env.agent.monitor [AXI_RD] CPU←DRAM  Addr=10000068 Data=xxxxxxxx RRESP=00
# UVM_INFO /home/khang/Documents/SystemVerilog/Soc_RV32I/SoC/VERIFICATION/Monitor/cpu_monitor.sv(260) @ 7345000: uvm_test_top.env.agent.monitor [AXI_RD] CPU←DRAM  Addr=10000068 Data=xxxxxxxx RRESP=00
# UVM_INFO /home/khang/Documents/SystemVerilog/Soc_RV32I/SoC/VERIFICATION/Monitor/cpu_monitor.sv(260) @ 7385000: uvm_test_top.env.agent.monitor [AXI_RD] CPU←DRAM  Addr=10000068 Data=xxxxxxxx RRESP=00
# UVM_INFO /home/khang/Documents/SystemVerilog/Soc_RV32I/SoC/VERIFICATION/Monitor/cpu_monitor.sv(260) @ 7425000: uvm_test_top.env.agent.monitor [AXI_RD] CPU←DRAM  Addr=10000068 Data=xxxxxxxx RRESP=00
# UVM_INFO /home/khang/Documents/SystemVerilog/Soc_RV32I/SoC/VERIFICATION/Monitor/cpu_monitor.sv(260) @ 7465000: uvm_test_top.env.agent.monitor [AXI_RD] CPU←DRAM  Addr=10000068 Data=xxxxxxxx RRESP=00
# UVM_INFO /home/khang/Documents/SystemVerilog/Soc_RV32I/SoC/VERIFICATION/Monitor/cpu_monitor.sv(260) @ 7505000: uvm_test_top.env.agent.monitor [AXI_RD] CPU←DRAM  Addr=10000068 Data=xxxxxxxx RRESP=00
# UVM_INFO /home/khang/Documents/SystemVerilog/Soc_RV32I/SoC/VERIFICATION/Monitor/cpu_monitor.sv(260) @ 7545000: uvm_test_top.env.agent.monitor [AXI_RD] CPU←DRAM  Addr=10000068 Data=xxxxxxxx RRESP=00
# UVM_INFO /home/khang/Documents/SystemVerilog/Soc_RV32I/SoC/VERIFICATION/Monitor/cpu_monitor.sv(260) @ 7585000: uvm_test_top.env.agent.monitor [AXI_RD] CPU←DRAM  Addr=10000068 Data=xxxxxxxx RRESP=00
# UVM_INFO /home/khang/Documents/SystemVerilog/Soc_RV32I/SoC/VERIFICATION/Monitor/cpu_monitor.sv(260) @ 7625000: uvm_test_top.env.agent.monitor [AXI_RD] CPU←DRAM  Addr=10000068 Data=xxxxxxxx RRESP=00
# UVM_INFO /home/khang/Documents/SystemVerilog/Soc_RV32I/SoC/VERIFICATION/Monitor/cpu_monitor.sv(260) @ 7665000: uvm_test_top.env.agent.monitor [AXI_RD] CPU←DRAM  Addr=10000068 Data=xxxxxxxx RRESP=00
# UVM_INFO /home/khang/Documents/SystemVerilog/Soc_RV32I/SoC/VERIFICATION/Monitor/cpu_monitor.sv(260) @ 7705000: uvm_test_top.env.agent.monitor [AXI_RD] CPU←DRAM  Addr=10000068 Data=xxxxxxxx RRESP=00
# UVM_INFO /home/khang/Documents/SystemVerilog/Soc_RV32I/SoC/VERIFICATION/Monitor/cpu_monitor.sv(260) @ 7745000: uvm_test_top.env.agent.monitor [AXI_RD] CPU←DRAM  Addr=10000068 Data=xxxxxxxx RRESP=00
# UVM_INFO /home/khang/Documents/SystemVerilog/Soc_RV32I/SoC/VERIFICATION/Monitor/cpu_monitor.sv(260) @ 7785000: uvm_test_top.env.agent.monitor [AXI_RD] CPU←DRAM  Addr=10000068 Data=xxxxxxxx RRESP=00
# UVM_INFO /home/khang/Documents/SystemVerilog/Soc_RV32I/SoC/VERIFICATION/Monitor/cpu_monitor.sv(260) @ 7825000: uvm_test_top.env.agent.monitor [AXI_RD] CPU←DRAM  Addr=10000068 Data=xxxxxxxx RRESP=00
# UVM_INFO /home/khang/Documents/SystemVerilog/Soc_RV32I/SoC/VERIFICATION/Monitor/cpu_monitor.sv(260) @ 7865000: uvm_test_top.env.agent.monitor [AXI_RD] CPU←DRAM  Addr=10000068 Data=xxxxxxxx RRESP=00
# UVM_INFO /home/khang/Documents/SystemVerilog/Soc_RV32I/SoC/VERIFICATION/Monitor/cpu_monitor.sv(260) @ 7905000: uvm_test_top.env.agent.monitor [AXI_RD] CPU←DRAM  Addr=10000068 Data=xxxxxxxx RRESP=00
# UVM_INFO /home/khang/Documents/SystemVerilog/Soc_RV32I/SoC/VERIFICATION/Monitor/cpu_monitor.sv(260) @ 7945000: uvm_test_top.env.agent.monitor [AXI_RD] CPU←DRAM  Addr=10000068 Data=xxxxxxxx RRESP=00
# UVM_INFO /home/khang/Documents/SystemVerilog/Soc_RV32I/SoC/VERIFICATION/Monitor/cpu_monitor.sv(260) @ 7985000: uvm_test_top.env.agent.monitor [AXI_RD] CPU←DRAM  Addr=10000068 Data=xxxxxxxx RRESP=00
# UVM_INFO /home/khang/Documents/SystemVerilog/Soc_RV32I/SoC/VERIFICATION/Monitor/cpu_monitor.sv(260) @ 8025000: uvm_test_top.env.agent.monitor [AXI_RD] CPU←DRAM  Addr=10000068 Data=xxxxxxxx RRESP=00
# UVM_INFO /home/khang/Documents/SystemVerilog/Soc_RV32I/SoC/VERIFICATION/Monitor/cpu_monitor.sv(260) @ 8065000: uvm_test_top.env.agent.monitor [AXI_RD] CPU←DRAM  Addr=10000068 Data=xxxxxxxx RRESP=00
# UVM_INFO /home/khang/Documents/SystemVerilog/Soc_RV32I/SoC/VERIFICATION/Monitor/cpu_monitor.sv(260) @ 8105000: uvm_test_top.env.agent.monitor [AXI_RD] CPU←DRAM  Addr=10000068 Data=xxxxxxxx RRESP=00
# UVM_INFO /home/khang/Documents/SystemVerilog/Soc_RV32I/SoC/VERIFICATION/Monitor/cpu_monitor.sv(260) @ 8145000: uvm_test_top.env.agent.monitor [AXI_RD] CPU←DRAM  Addr=10000068 Data=xxxxxxxx RRESP=00
# UVM_INFO /home/khang/Documents/SystemVerilog/Soc_RV32I/SoC/VERIFICATION/Monitor/cpu_monitor.sv(260) @ 8185000: uvm_test_top.env.agent.monitor [AXI_RD] CPU←DRAM  Addr=10000068 Data=xxxxxxxx RRESP=00
# UVM_INFO /home/khang/Documents/SystemVerilog/Soc_RV32I/SoC/VERIFICATION/Monitor/cpu_monitor.sv(260) @ 8225000: uvm_test_top.env.agent.monitor [AXI_RD] CPU←DRAM  Addr=10000068 Data=xxxxxxxx RRESP=00
# UVM_INFO /home/khang/Documents/SystemVerilog/Soc_RV32I/SoC/VERIFICATION/Monitor/cpu_monitor.sv(260) @ 8265000: uvm_test_top.env.agent.monitor [AXI_RD] CPU←DRAM  Addr=10000068 Data=xxxxxxxx RRESP=00
# UVM_INFO /home/khang/Documents/SystemVerilog/Soc_RV32I/SoC/VERIFICATION/Monitor/cpu_monitor.sv(260) @ 8305000: uvm_test_top.env.agent.monitor [AXI_RD] CPU←DRAM  Addr=10000068 Data=xxxxxxxx RRESP=00
# UVM_INFO /home/khang/Documents/SystemVerilog/Soc_RV32I/SoC/VERIFICATION/Monitor/cpu_monitor.sv(260) @ 8345000: uvm_test_top.env.agent.monitor [AXI_RD] CPU←DRAM  Addr=10000068 Data=xxxxxxxx RRESP=00
# UVM_INFO /home/khang/Documents/SystemVerilog/Soc_RV32I/SoC/VERIFICATION/Monitor/cpu_monitor.sv(260) @ 8385000: uvm_test_top.env.agent.monitor [AXI_RD] CPU←DRAM  Addr=10000068 Data=xxxxxxxx RRESP=00
# UVM_INFO /home/khang/Documents/SystemVerilog/Soc_RV32I/SoC/VERIFICATION/Monitor/cpu_monitor.sv(260) @ 8425000: uvm_test_top.env.agent.monitor [AXI_RD] CPU←DRAM  Addr=10000068 Data=xxxxxxxx RRESP=00
# UVM_INFO /home/khang/Documents/SystemVerilog/Soc_RV32I/SoC/VERIFICATION/Monitor/cpu_monitor.sv(260) @ 8465000: uvm_test_top.env.agent.monitor [AXI_RD] CPU←DRAM  Addr=10000068 Data=xxxxxxxx RRESP=00
# UVM_INFO /home/khang/Documents/SystemVerilog/Soc_RV32I/SoC/VERIFICATION/Monitor/cpu_monitor.sv(260) @ 8505000: uvm_test_top.env.agent.monitor [AXI_RD] CPU←DRAM  Addr=10000068 Data=xxxxxxxx RRESP=00
# UVM_INFO /home/khang/Documents/SystemVerilog/Soc_RV32I/SoC/VERIFICATION/Monitor/cpu_monitor.sv(260) @ 8545000: uvm_test_top.env.agent.monitor [AXI_RD] CPU←DRAM  Addr=10000068 Data=xxxxxxxx RRESP=00
# UVM_INFO /home/khang/Documents/SystemVerilog/Soc_RV32I/SoC/VERIFICATION/Monitor/cpu_monitor.sv(260) @ 8585000: uvm_test_top.env.agent.monitor [AXI_RD] CPU←DRAM  Addr=10000068 Data=xxxxxxxx RRESP=00
# UVM_INFO /home/khang/Documents/SystemVerilog/Soc_RV32I/SoC/VERIFICATION/Monitor/cpu_monitor.sv(260) @ 8625000: uvm_test_top.env.agent.monitor [AXI_RD] CPU←DRAM  Addr=10000068 Data=xxxxxxxx RRESP=00
# UVM_INFO /home/khang/Documents/SystemVerilog/Soc_RV32I/SoC/VERIFICATION/Monitor/cpu_monitor.sv(260) @ 8665000: uvm_test_top.env.agent.monitor [AXI_RD] CPU←DRAM  Addr=10000068 Data=xxxxxxxx RRESP=00
# UVM_INFO /home/khang/Documents/SystemVerilog/Soc_RV32I/SoC/VERIFICATION/Monitor/cpu_monitor.sv(260) @ 8705000: uvm_test_top.env.agent.monitor [AXI_RD] CPU←DRAM  Addr=10000068 Data=xxxxxxxx RRESP=00
# UVM_INFO /home/khang/Documents/SystemVerilog/Soc_RV32I/SoC/VERIFICATION/Monitor/cpu_monitor.sv(260) @ 8745000: uvm_test_top.env.agent.monitor [AXI_RD] CPU←DRAM  Addr=10000068 Data=xxxxxxxx RRESP=00
# UVM_INFO /home/khang/Documents/SystemVerilog/Soc_RV32I/SoC/VERIFICATION/Monitor/cpu_monitor.sv(260) @ 8785000: uvm_test_top.env.agent.monitor [AXI_RD] CPU←DRAM  Addr=10000068 Data=xxxxxxxx RRESP=00
# UVM_INFO /home/khang/Documents/SystemVerilog/Soc_RV32I/SoC/VERIFICATION/Monitor/cpu_monitor.sv(260) @ 8825000: uvm_test_top.env.agent.monitor [AXI_RD] CPU←DRAM  Addr=10000068 Data=xxxxxxxx RRESP=00
# UVM_INFO /home/khang/Documents/SystemVerilog/Soc_RV32I/SoC/VERIFICATION/Monitor/cpu_monitor.sv(260) @ 8865000: uvm_test_top.env.agent.monitor [AXI_RD] CPU←DRAM  Addr=10000068 Data=xxxxxxxx RRESP=00
# UVM_INFO /home/khang/Documents/SystemVerilog/Soc_RV32I/SoC/VERIFICATION/Monitor/cpu_monitor.sv(260) @ 8905000: uvm_test_top.env.agent.monitor [AXI_RD] CPU←DRAM  Addr=10000068 Data=xxxxxxxx RRESP=00
# UVM_INFO /home/khang/Documents/SystemVerilog/Soc_RV32I/SoC/VERIFICATION/Monitor/cpu_monitor.sv(260) @ 8945000: uvm_test_top.env.agent.monitor [AXI_RD] CPU←DRAM  Addr=10000068 Data=xxxxxxxx RRESP=00
# UVM_INFO /home/khang/Documents/SystemVerilog/Soc_RV32I/SoC/VERIFICATION/Monitor/cpu_monitor.sv(260) @ 8985000: uvm_test_top.env.agent.monitor [AXI_RD] CPU←DRAM  Addr=10000068 Data=xxxxxxxx RRESP=00
# UVM_INFO /home/khang/Documents/SystemVerilog/Soc_RV32I/SoC/VERIFICATION/Monitor/cpu_monitor.sv(260) @ 9025000: uvm_test_top.env.agent.monitor [AXI_RD] CPU←DRAM  Addr=10000068 Data=xxxxxxxx RRESP=00
# UVM_INFO /home/khang/Documents/SystemVerilog/Soc_RV32I/SoC/VERIFICATION/Monitor/cpu_monitor.sv(260) @ 9065000: uvm_test_top.env.agent.monitor [AXI_RD] CPU←DRAM  Addr=10000068 Data=xxxxxxxx RRESP=00
# UVM_INFO /home/khang/Documents/SystemVerilog/Soc_RV32I/SoC/VERIFICATION/Monitor/cpu_monitor.sv(260) @ 9105000: uvm_test_top.env.agent.monitor [AXI_RD] CPU←DRAM  Addr=10000068 Data=xxxxxxxx RRESP=00
# UVM_INFO /home/khang/Documents/SystemVerilog/Soc_RV32I/SoC/VERIFICATION/Monitor/cpu_monitor.sv(260) @ 9145000: uvm_test_top.env.agent.monitor [AXI_RD] CPU←DRAM  Addr=10000068 Data=xxxxxxxx RRESP=00
# UVM_INFO /home/khang/Documents/SystemVerilog/Soc_RV32I/SoC/VERIFICATION/Monitor/cpu_monitor.sv(260) @ 9185000: uvm_test_top.env.agent.monitor [AXI_RD] CPU←DRAM  Addr=10000068 Data=xxxxxxxx RRESP=00
# UVM_INFO /home/khang/Documents/SystemVerilog/Soc_RV32I/SoC/VERIFICATION/Monitor/cpu_monitor.sv(260) @ 9225000: uvm_test_top.env.agent.monitor [AXI_RD] CPU←DRAM  Addr=10000068 Data=xxxxxxxx RRESP=00
# UVM_INFO /home/khang/Documents/SystemVerilog/Soc_RV32I/SoC/VERIFICATION/Monitor/cpu_monitor.sv(260) @ 9265000: uvm_test_top.env.agent.monitor [AXI_RD] CPU←DRAM  Addr=10000068 Data=xxxxxxxx RRESP=00
# UVM_INFO /home/khang/Documents/SystemVerilog/Soc_RV32I/SoC/VERIFICATION/Monitor/cpu_monitor.sv(260) @ 9305000: uvm_test_top.env.agent.monitor [AXI_RD] CPU←DRAM  Addr=10000068 Data=xxxxxxxx RRESP=00
# UVM_INFO /home/khang/Documents/SystemVerilog/Soc_RV32I/SoC/VERIFICATION/Monitor/cpu_monitor.sv(260) @ 9345000: uvm_test_top.env.agent.monitor [AXI_RD] CPU←DRAM  Addr=10000068 Data=xxxxxxxx RRESP=00
# UVM_INFO /home/khang/Documents/SystemVerilog/Soc_RV32I/SoC/VERIFICATION/Monitor/cpu_monitor.sv(260) @ 9385000: uvm_test_top.env.agent.monitor [AXI_RD] CPU←DRAM  Addr=10000068 Data=xxxxxxxx RRESP=00
# UVM_INFO /home/khang/Documents/SystemVerilog/Soc_RV32I/SoC/VERIFICATION/Monitor/cpu_monitor.sv(260) @ 9425000: uvm_test_top.env.agent.monitor [AXI_RD] CPU←DRAM  Addr=10000068 Data=xxxxxxxx RRESP=00
# UVM_INFO /home/khang/Documents/SystemVerilog/Soc_RV32I/SoC/VERIFICATION/Monitor/cpu_monitor.sv(260) @ 9465000: uvm_test_top.env.agent.monitor [AXI_RD] CPU←DRAM  Addr=10000068 Data=xxxxxxxx RRESP=00
# UVM_INFO /home/khang/Documents/SystemVerilog/Soc_RV32I/SoC/VERIFICATION/Monitor/cpu_monitor.sv(260) @ 9505000: uvm_test_top.env.agent.monitor [AXI_RD] CPU←DRAM  Addr=10000068 Data=xxxxxxxx RRESP=00
# UVM_INFO /home/khang/Documents/SystemVerilog/Soc_RV32I/SoC/VERIFICATION/Monitor/cpu_monitor.sv(260) @ 9545000: uvm_test_top.env.agent.monitor [AXI_RD] CPU←DRAM  Addr=10000068 Data=xxxxxxxx RRESP=00
# UVM_INFO /home/khang/Documents/SystemVerilog/Soc_RV32I/SoC/VERIFICATION/Monitor/cpu_monitor.sv(260) @ 9585000: uvm_test_top.env.agent.monitor [AXI_RD] CPU←DRAM  Addr=10000068 Data=xxxxxxxx RRESP=00
# UVM_INFO /home/khang/Documents/SystemVerilog/Soc_RV32I/SoC/VERIFICATION/Monitor/cpu_monitor.sv(260) @ 9625000: uvm_test_top.env.agent.monitor [AXI_RD] CPU←DRAM  Addr=10000068 Data=xxxxxxxx RRESP=00
# UVM_INFO /home/khang/Documents/SystemVerilog/Soc_RV32I/SoC/VERIFICATION/Monitor/cpu_monitor.sv(260) @ 9665000: uvm_test_top.env.agent.monitor [AXI_RD] CPU←DRAM  Addr=10000068 Data=xxxxxxxx RRESP=00
# UVM_INFO /home/khang/Documents/SystemVerilog/Soc_RV32I/SoC/VERIFICATION/Monitor/cpu_monitor.sv(260) @ 9705000: uvm_test_top.env.agent.monitor [AXI_RD] CPU←DRAM  Addr=10000068 Data=xxxxxxxx RRESP=00
# UVM_INFO /home/khang/Documents/SystemVerilog/Soc_RV32I/SoC/VERIFICATION/Monitor/cpu_monitor.sv(260) @ 9745000: uvm_test_top.env.agent.monitor [AXI_RD] CPU←DRAM  Addr=10000068 Data=xxxxxxxx RRESP=00
# UVM_INFO /home/khang/Documents/SystemVerilog/Soc_RV32I/SoC/VERIFICATION/Monitor/cpu_monitor.sv(260) @ 9785000: uvm_test_top.env.agent.monitor [AXI_RD] CPU←DRAM  Addr=10000068 Data=xxxxxxxx RRESP=00
# UVM_INFO /home/khang/Documents/SystemVerilog/Soc_RV32I/SoC/VERIFICATION/Monitor/cpu_monitor.sv(260) @ 9825000: uvm_test_top.env.agent.monitor [AXI_RD] CPU←DRAM  Addr=10000068 Data=xxxxxxxx RRESP=00
# UVM_INFO /home/khang/Documents/SystemVerilog/Soc_RV32I/SoC/VERIFICATION/Monitor/cpu_monitor.sv(260) @ 9865000: uvm_test_top.env.agent.monitor [AXI_RD] CPU←DRAM  Addr=10000068 Data=xxxxxxxx RRESP=00
# UVM_INFO /home/khang/Documents/SystemVerilog/Soc_RV32I/SoC/VERIFICATION/Monitor/cpu_monitor.sv(260) @ 9905000: uvm_test_top.env.agent.monitor [AXI_RD] CPU←DRAM  Addr=10000068 Data=xxxxxxxx RRESP=00
# UVM_INFO /home/khang/Documents/SystemVerilog/Soc_RV32I/SoC/VERIFICATION/Monitor/cpu_monitor.sv(260) @ 9945000: uvm_test_top.env.agent.monitor [AXI_RD] CPU←DRAM  Addr=10000068 Data=xxxxxxxx RRESP=00
# UVM_INFO /home/khang/Documents/SystemVerilog/Soc_RV32I/SoC/VERIFICATION/Monitor/cpu_monitor.sv(260) @ 9985000: uvm_test_top.env.agent.monitor [AXI_RD] CPU←DRAM  Addr=10000068 Data=xxxxxxxx RRESP=00
# UVM_INFO /home/khang/Documents/SystemVerilog/Soc_RV32I/SoC/VERIFICATION/Monitor/cpu_monitor.sv(260) @ 10025000: uvm_test_top.env.agent.monitor [AXI_RD] CPU←DRAM  Addr=10000068 Data=xxxxxxxx RRESP=00
# UVM_INFO /home/khang/Documents/SystemVerilog/Soc_RV32I/SoC/VERIFICATION/Monitor/cpu_monitor.sv(260) @ 10065000: uvm_test_top.env.agent.monitor [AXI_RD] CPU←DRAM  Addr=10000068 Data=xxxxxxxx RRESP=00
# UVM_INFO /home/khang/Documents/SystemVerilog/Soc_RV32I/SoC/VERIFICATION/Monitor/cpu_monitor.sv(260) @ 10105000: uvm_test_top.env.agent.monitor [AXI_RD] CPU←DRAM  Addr=10000068 Data=xxxxxxxx RRESP=00
# UVM_INFO /home/khang/Documents/SystemVerilog/Soc_RV32I/SoC/VERIFICATION/Monitor/cpu_monitor.sv(260) @ 10145000: uvm_test_top.env.agent.monitor [AXI_RD] CPU←DRAM  Addr=10000068 Data=xxxxxxxx RRESP=00
# UVM_INFO /home/khang/Documents/SystemVerilog/Soc_RV32I/SoC/VERIFICATION/Monitor/cpu_monitor.sv(260) @ 10185000: uvm_test_top.env.agent.monitor [AXI_RD] CPU←DRAM  Addr=10000068 Data=xxxxxxxx RRESP=00
# UVM_INFO /home/khang/Documents/SystemVerilog/Soc_RV32I/SoC/VERIFICATION/Monitor/cpu_monitor.sv(260) @ 10225000: uvm_test_top.env.agent.monitor [AXI_RD] CPU←DRAM  Addr=10000068 Data=xxxxxxxx RRESP=00
# UVM_INFO /home/khang/Documents/SystemVerilog/Soc_RV32I/SoC/VERIFICATION/Monitor/cpu_monitor.sv(260) @ 10265000: uvm_test_top.env.agent.monitor [AXI_RD] CPU←DRAM  Addr=10000068 Data=xxxxxxxx RRESP=00
# UVM_INFO /home/khang/Documents/SystemVerilog/Soc_RV32I/SoC/VERIFICATION/Monitor/cpu_monitor.sv(260) @ 10305000: uvm_test_top.env.agent.monitor [AXI_RD] CPU←DRAM  Addr=10000068 Data=xxxxxxxx RRESP=00
# UVM_INFO /home/khang/Documents/SystemVerilog/Soc_RV32I/SoC/VERIFICATION/Monitor/cpu_monitor.sv(260) @ 10345000: uvm_test_top.env.agent.monitor [AXI_RD] CPU←DRAM  Addr=10000068 Data=xxxxxxxx RRESP=00
# UVM_INFO /home/khang/Documents/SystemVerilog/Soc_RV32I/SoC/VERIFICATION/Monitor/cpu_monitor.sv(260) @ 10385000: uvm_test_top.env.agent.monitor [AXI_RD] CPU←DRAM  Addr=10000068 Data=xxxxxxxx RRESP=00
# UVM_INFO /home/khang/Documents/SystemVerilog/Soc_RV32I/SoC/VERIFICATION/Monitor/cpu_monitor.sv(260) @ 10425000: uvm_test_top.env.agent.monitor [AXI_RD] CPU←DRAM  Addr=10000068 Data=xxxxxxxx RRESP=00
# UVM_INFO /home/khang/Documents/SystemVerilog/Soc_RV32I/SoC/VERIFICATION/Monitor/cpu_monitor.sv(260) @ 10465000: uvm_test_top.env.agent.monitor [AXI_RD] CPU←DRAM  Addr=10000068 Data=xxxxxxxx RRESP=00
# UVM_INFO /home/khang/Documents/SystemVerilog/Soc_RV32I/SoC/VERIFICATION/Monitor/cpu_monitor.sv(260) @ 10505000: uvm_test_top.env.agent.monitor [AXI_RD] CPU←DRAM  Addr=10000068 Data=xxxxxxxx RRESP=00
# UVM_INFO /home/khang/Documents/SystemVerilog/Soc_RV32I/SoC/VERIFICATION/Monitor/cpu_monitor.sv(260) @ 10545000: uvm_test_top.env.agent.monitor [AXI_RD] CPU←DRAM  Addr=10000068 Data=xxxxxxxx RRESP=00
# UVM_INFO /home/khang/Documents/SystemVerilog/Soc_RV32I/SoC/VERIFICATION/Monitor/cpu_monitor.sv(260) @ 10585000: uvm_test_top.env.agent.monitor [AXI_RD] CPU←DRAM  Addr=10000068 Data=xxxxxxxx RRESP=00
# UVM_INFO /home/khang/Documents/SystemVerilog/Soc_RV32I/SoC/VERIFICATION/Monitor/cpu_monitor.sv(260) @ 10625000: uvm_test_top.env.agent.monitor [AXI_RD] CPU←DRAM  Addr=10000068 Data=xxxxxxxx RRESP=00
# UVM_INFO /home/khang/Documents/SystemVerilog/Soc_RV32I/SoC/VERIFICATION/Monitor/cpu_monitor.sv(260) @ 10665000: uvm_test_top.env.agent.monitor [AXI_RD] CPU←DRAM  Addr=10000068 Data=xxxxxxxx RRESP=00
# UVM_INFO /home/khang/Documents/SystemVerilog/Soc_RV32I/SoC/VERIFICATION/Monitor/cpu_monitor.sv(260) @ 10705000: uvm_test_top.env.agent.monitor [AXI_RD] CPU←DRAM  Addr=10000068 Data=xxxxxxxx RRESP=00
# UVM_INFO /home/khang/Documents/SystemVerilog/Soc_RV32I/SoC/VERIFICATION/Monitor/cpu_monitor.sv(260) @ 10745000: uvm_test_top.env.agent.monitor [AXI_RD] CPU←DRAM  Addr=10000068 Data=xxxxxxxx RRESP=00
# UVM_INFO /home/khang/Documents/SystemVerilog/Soc_RV32I/SoC/VERIFICATION/Monitor/cpu_monitor.sv(260) @ 10785000: uvm_test_top.env.agent.monitor [AXI_RD] CPU←DRAM  Addr=10000068 Data=xxxxxxxx RRESP=00
# UVM_INFO /home/khang/Documents/SystemVerilog/Soc_RV32I/SoC/VERIFICATION/Monitor/cpu_monitor.sv(260) @ 10825000: uvm_test_top.env.agent.monitor [AXI_RD] CPU←DRAM  Addr=10000068 Data=xxxxxxxx RRESP=00
# UVM_INFO /home/khang/Documents/SystemVerilog/Soc_RV32I/SoC/VERIFICATION/Monitor/cpu_monitor.sv(260) @ 10865000: uvm_test_top.env.agent.monitor [AXI_RD] CPU←DRAM  Addr=10000068 Data=xxxxxxxx RRESP=00
# UVM_INFO /home/khang/Documents/SystemVerilog/Soc_RV32I/SoC/VERIFICATION/Monitor/cpu_monitor.sv(260) @ 10905000: uvm_test_top.env.agent.monitor [AXI_RD] CPU←DRAM  Addr=10000068 Data=xxxxxxxx RRESP=00
# UVM_INFO /home/khang/Documents/SystemVerilog/Soc_RV32I/SoC/VERIFICATION/Monitor/cpu_monitor.sv(260) @ 10945000: uvm_test_top.env.agent.monitor [AXI_RD] CPU←DRAM  Addr=10000068 Data=xxxxxxxx RRESP=00
# UVM_INFO /home/khang/Documents/SystemVerilog/Soc_RV32I/SoC/VERIFICATION/Monitor/cpu_monitor.sv(260) @ 10985000: uvm_test_top.env.agent.monitor [AXI_RD] CPU←DRAM  Addr=10000068 Data=xxxxxxxx RRESP=00
# UVM_INFO /home/khang/Documents/SystemVerilog/Soc_RV32I/SoC/VERIFICATION/Monitor/cpu_monitor.sv(260) @ 11025000: uvm_test_top.env.agent.monitor [AXI_RD] CPU←DRAM  Addr=10000068 Data=xxxxxxxx RRESP=00
# UVM_INFO /home/khang/Documents/SystemVerilog/Soc_RV32I/SoC/VERIFICATION/Monitor/cpu_monitor.sv(260) @ 11065000: uvm_test_top.env.agent.monitor [AXI_RD] CPU←DRAM  Addr=10000068 Data=xxxxxxxx RRESP=00
# UVM_INFO /home/khang/Documents/SystemVerilog/Soc_RV32I/SoC/VERIFICATION/Monitor/cpu_monitor.sv(260) @ 11105000: uvm_test_top.env.agent.monitor [AXI_RD] CPU←DRAM  Addr=10000068 Data=xxxxxxxx RRESP=00
# UVM_INFO /home/khang/Documents/SystemVerilog/Soc_RV32I/SoC/VERIFICATION/Monitor/cpu_monitor.sv(260) @ 11145000: uvm_test_top.env.agent.monitor [AXI_RD] CPU←DRAM  Addr=10000068 Data=xxxxxxxx RRESP=00
# UVM_INFO /home/khang/Documents/SystemVerilog/Soc_RV32I/SoC/VERIFICATION/Monitor/cpu_monitor.sv(260) @ 11185000: uvm_test_top.env.agent.monitor [AXI_RD] CPU←DRAM  Addr=10000068 Data=xxxxxxxx RRESP=00
# UVM_INFO /home/khang/Documents/SystemVerilog/Soc_RV32I/SoC/VERIFICATION/Monitor/cpu_monitor.sv(260) @ 11225000: uvm_test_top.env.agent.monitor [AXI_RD] CPU←DRAM  Addr=10000068 Data=xxxxxxxx RRESP=00
# UVM_INFO /home/khang/Documents/SystemVerilog/Soc_RV32I/SoC/VERIFICATION/Monitor/cpu_monitor.sv(260) @ 11265000: uvm_test_top.env.agent.monitor [AXI_RD] CPU←DRAM  Addr=10000068 Data=xxxxxxxx RRESP=00
# UVM_INFO /home/khang/Documents/SystemVerilog/Soc_RV32I/SoC/VERIFICATION/Monitor/cpu_monitor.sv(260) @ 11305000: uvm_test_top.env.agent.monitor [AXI_RD] CPU←DRAM  Addr=10000068 Data=xxxxxxxx RRESP=00
# UVM_INFO /home/khang/Documents/SystemVerilog/Soc_RV32I/SoC/VERIFICATION/Monitor/cpu_monitor.sv(260) @ 11345000: uvm_test_top.env.agent.monitor [AXI_RD] CPU←DRAM  Addr=10000068 Data=xxxxxxxx RRESP=00
# UVM_INFO /home/khang/Documents/SystemVerilog/Soc_RV32I/SoC/VERIFICATION/Monitor/cpu_monitor.sv(260) @ 11385000: uvm_test_top.env.agent.monitor [AXI_RD] CPU←DRAM  Addr=10000068 Data=xxxxxxxx RRESP=00
# UVM_INFO /home/khang/Documents/SystemVerilog/Soc_RV32I/SoC/VERIFICATION/Monitor/cpu_monitor.sv(260) @ 11425000: uvm_test_top.env.agent.monitor [AXI_RD] CPU←DRAM  Addr=10000068 Data=xxxxxxxx RRESP=00
# UVM_INFO /home/khang/Documents/SystemVerilog/Soc_RV32I/SoC/VERIFICATION/Monitor/cpu_monitor.sv(260) @ 11465000: uvm_test_top.env.agent.monitor [AXI_RD] CPU←DRAM  Addr=10000068 Data=xxxxxxxx RRESP=00
# UVM_INFO /home/khang/Documents/SystemVerilog/Soc_RV32I/SoC/VERIFICATION/Monitor/cpu_monitor.sv(260) @ 11505000: uvm_test_top.env.agent.monitor [AXI_RD] CPU←DRAM  Addr=10000068 Data=xxxxxxxx RRESP=00
# UVM_INFO /home/khang/Documents/SystemVerilog/Soc_RV32I/SoC/VERIFICATION/Monitor/cpu_monitor.sv(260) @ 11545000: uvm_test_top.env.agent.monitor [AXI_RD] CPU←DRAM  Addr=10000068 Data=xxxxxxxx RRESP=00
# UVM_INFO /home/khang/Documents/SystemVerilog/Soc_RV32I/SoC/VERIFICATION/Monitor/cpu_monitor.sv(260) @ 11585000: uvm_test_top.env.agent.monitor [AXI_RD] CPU←DRAM  Addr=10000068 Data=xxxxxxxx RRESP=00
# UVM_INFO /home/khang/Documents/SystemVerilog/Soc_RV32I/SoC/VERIFICATION/Monitor/cpu_monitor.sv(260) @ 11625000: uvm_test_top.env.agent.monitor [AXI_RD] CPU←DRAM  Addr=10000068 Data=xxxxxxxx RRESP=00
# UVM_INFO /home/khang/Documents/SystemVerilog/Soc_RV32I/SoC/VERIFICATION/Monitor/cpu_monitor.sv(260) @ 11665000: uvm_test_top.env.agent.monitor [AXI_RD] CPU←DRAM  Addr=10000068 Data=xxxxxxxx RRESP=00
# UVM_INFO /home/khang/Documents/SystemVerilog/Soc_RV32I/SoC/VERIFICATION/Monitor/cpu_monitor.sv(260) @ 11705000: uvm_test_top.env.agent.monitor [AXI_RD] CPU←DRAM  Addr=10000068 Data=xxxxxxxx RRESP=00
# UVM_INFO /home/khang/Documents/SystemVerilog/Soc_RV32I/SoC/VERIFICATION/Monitor/cpu_monitor.sv(260) @ 11745000: uvm_test_top.env.agent.monitor [AXI_RD] CPU←DRAM  Addr=10000068 Data=xxxxxxxx RRESP=00
# UVM_INFO /home/khang/Documents/SystemVerilog/Soc_RV32I/SoC/VERIFICATION/Monitor/cpu_monitor.sv(260) @ 11785000: uvm_test_top.env.agent.monitor [AXI_RD] CPU←DRAM  Addr=10000068 Data=xxxxxxxx RRESP=00
# UVM_INFO /home/khang/Documents/SystemVerilog/Soc_RV32I/SoC/VERIFICATION/Monitor/cpu_monitor.sv(260) @ 11825000: uvm_test_top.env.agent.monitor [AXI_RD] CPU←DRAM  Addr=10000068 Data=xxxxxxxx RRESP=00
# UVM_INFO /home/khang/Documents/SystemVerilog/Soc_RV32I/SoC/VERIFICATION/Monitor/cpu_monitor.sv(260) @ 11865000: uvm_test_top.env.agent.monitor [AXI_RD] CPU←DRAM  Addr=10000068 Data=xxxxxxxx RRESP=00
# UVM_INFO /home/khang/Documents/SystemVerilog/Soc_RV32I/SoC/VERIFICATION/Monitor/cpu_monitor.sv(260) @ 11905000: uvm_test_top.env.agent.monitor [AXI_RD] CPU←DRAM  Addr=10000068 Data=xxxxxxxx RRESP=00
# UVM_INFO /home/khang/Documents/SystemVerilog/Soc_RV32I/SoC/VERIFICATION/Monitor/cpu_monitor.sv(260) @ 11945000: uvm_test_top.env.agent.monitor [AXI_RD] CPU←DRAM  Addr=10000068 Data=xxxxxxxx RRESP=00
# UVM_INFO /home/khang/Documents/SystemVerilog/Soc_RV32I/SoC/VERIFICATION/Monitor/cpu_monitor.sv(260) @ 11985000: uvm_test_top.env.agent.monitor [AXI_RD] CPU←DRAM  Addr=10000068 Data=xxxxxxxx RRESP=00
# UVM_INFO /home/khang/Documents/SystemVerilog/Soc_RV32I/SoC/VERIFICATION/Monitor/cpu_monitor.sv(260) @ 12025000: uvm_test_top.env.agent.monitor [AXI_RD] CPU←DRAM  Addr=10000068 Data=xxxxxxxx RRESP=00
# UVM_INFO /home/khang/Documents/SystemVerilog/Soc_RV32I/SoC/VERIFICATION/Monitor/cpu_monitor.sv(260) @ 12065000: uvm_test_top.env.agent.monitor [AXI_RD] CPU←DRAM  Addr=10000068 Data=xxxxxxxx RRESP=00
# UVM_INFO /home/khang/Documents/SystemVerilog/Soc_RV32I/SoC/VERIFICATION/Monitor/cpu_monitor.sv(260) @ 12105000: uvm_test_top.env.agent.monitor [AXI_RD] CPU←DRAM  Addr=10000068 Data=xxxxxxxx RRESP=00
# UVM_INFO /home/khang/Documents/SystemVerilog/Soc_RV32I/SoC/VERIFICATION/Monitor/cpu_monitor.sv(260) @ 12145000: uvm_test_top.env.agent.monitor [AXI_RD] CPU←DRAM  Addr=10000068 Data=xxxxxxxx RRESP=00
# UVM_INFO /home/khang/Documents/SystemVerilog/Soc_RV32I/SoC/VERIFICATION/Monitor/cpu_monitor.sv(260) @ 12185000: uvm_test_top.env.agent.monitor [AXI_RD] CPU←DRAM  Addr=10000068 Data=xxxxxxxx RRESP=00
# UVM_INFO /home/khang/Documents/SystemVerilog/Soc_RV32I/SoC/VERIFICATION/Monitor/cpu_monitor.sv(260) @ 12225000: uvm_test_top.env.agent.monitor [AXI_RD] CPU←DRAM  Addr=10000068 Data=xxxxxxxx RRESP=00
# UVM_INFO /home/khang/Documents/SystemVerilog/Soc_RV32I/SoC/VERIFICATION/Monitor/cpu_monitor.sv(260) @ 12265000: uvm_test_top.env.agent.monitor [AXI_RD] CPU←DRAM  Addr=10000068 Data=xxxxxxxx RRESP=00
# UVM_INFO /home/khang/Documents/SystemVerilog/Soc_RV32I/SoC/VERIFICATION/Monitor/cpu_monitor.sv(260) @ 12305000: uvm_test_top.env.agent.monitor [AXI_RD] CPU←DRAM  Addr=10000068 Data=xxxxxxxx RRESP=00
# UVM_INFO /home/khang/Documents/SystemVerilog/Soc_RV32I/SoC/VERIFICATION/Monitor/cpu_monitor.sv(260) @ 12345000: uvm_test_top.env.agent.monitor [AXI_RD] CPU←DRAM  Addr=10000068 Data=xxxxxxxx RRESP=00
# UVM_INFO /home/khang/Documents/SystemVerilog/Soc_RV32I/SoC/VERIFICATION/Monitor/cpu_monitor.sv(260) @ 12385000: uvm_test_top.env.agent.monitor [AXI_RD] CPU←DRAM  Addr=10000068 Data=xxxxxxxx RRESP=00
# UVM_INFO /home/khang/Documents/SystemVerilog/Soc_RV32I/SoC/VERIFICATION/Monitor/cpu_monitor.sv(260) @ 12425000: uvm_test_top.env.agent.monitor [AXI_RD] CPU←DRAM  Addr=10000068 Data=xxxxxxxx RRESP=00
# UVM_INFO /home/khang/Documents/SystemVerilog/Soc_RV32I/SoC/VERIFICATION/Monitor/cpu_monitor.sv(260) @ 12465000: uvm_test_top.env.agent.monitor [AXI_RD] CPU←DRAM  Addr=10000068 Data=xxxxxxxx RRESP=00
# UVM_INFO /home/khang/Documents/SystemVerilog/Soc_RV32I/SoC/VERIFICATION/Monitor/cpu_monitor.sv(260) @ 12505000: uvm_test_top.env.agent.monitor [AXI_RD] CPU←DRAM  Addr=10000068 Data=xxxxxxxx RRESP=00
# UVM_INFO /home/khang/Documents/SystemVerilog/Soc_RV32I/SoC/VERIFICATION/Monitor/cpu_monitor.sv(260) @ 12545000: uvm_test_top.env.agent.monitor [AXI_RD] CPU←DRAM  Addr=10000068 Data=xxxxxxxx RRESP=00
# UVM_INFO /home/khang/Documents/SystemVerilog/Soc_RV32I/SoC/VERIFICATION/Monitor/cpu_monitor.sv(260) @ 12585000: uvm_test_top.env.agent.monitor [AXI_RD] CPU←DRAM  Addr=10000068 Data=xxxxxxxx RRESP=00
# UVM_INFO /home/khang/Documents/SystemVerilog/Soc_RV32I/SoC/VERIFICATION/Monitor/cpu_monitor.sv(260) @ 12625000: uvm_test_top.env.agent.monitor [AXI_RD] CPU←DRAM  Addr=10000068 Data=xxxxxxxx RRESP=00
# UVM_INFO /home/khang/Documents/SystemVerilog/Soc_RV32I/SoC/VERIFICATION/Monitor/cpu_monitor.sv(260) @ 12665000: uvm_test_top.env.agent.monitor [AXI_RD] CPU←DRAM  Addr=10000068 Data=xxxxxxxx RRESP=00
# UVM_INFO /home/khang/Documents/SystemVerilog/Soc_RV32I/SoC/VERIFICATION/Monitor/cpu_monitor.sv(260) @ 12705000: uvm_test_top.env.agent.monitor [AXI_RD] CPU←DRAM  Addr=10000068 Data=xxxxxxxx RRESP=00
# UVM_INFO /home/khang/Documents/SystemVerilog/Soc_RV32I/SoC/VERIFICATION/Monitor/cpu_monitor.sv(260) @ 12745000: uvm_test_top.env.agent.monitor [AXI_RD] CPU←DRAM  Addr=10000068 Data=xxxxxxxx RRESP=00
# UVM_INFO /home/khang/Documents/SystemVerilog/Soc_RV32I/SoC/VERIFICATION/Monitor/cpu_monitor.sv(260) @ 12785000: uvm_test_top.env.agent.monitor [AXI_RD] CPU←DRAM  Addr=10000068 Data=xxxxxxxx RRESP=00
# UVM_INFO /home/khang/Documents/SystemVerilog/Soc_RV32I/SoC/VERIFICATION/Monitor/cpu_monitor.sv(260) @ 12825000: uvm_test_top.env.agent.monitor [AXI_RD] CPU←DRAM  Addr=10000068 Data=xxxxxxxx RRESP=00
# UVM_INFO /home/khang/Documents/SystemVerilog/Soc_RV32I/SoC/VERIFICATION/Monitor/cpu_monitor.sv(260) @ 12865000: uvm_test_top.env.agent.monitor [AXI_RD] CPU←DRAM  Addr=10000068 Data=xxxxxxxx RRESP=00
# UVM_INFO /home/khang/Documents/SystemVerilog/Soc_RV32I/SoC/VERIFICATION/Monitor/cpu_monitor.sv(260) @ 12905000: uvm_test_top.env.agent.monitor [AXI_RD] CPU←DRAM  Addr=10000068 Data=xxxxxxxx RRESP=00
# UVM_INFO /home/khang/Documents/SystemVerilog/Soc_RV32I/SoC/VERIFICATION/Monitor/cpu_monitor.sv(260) @ 12945000: uvm_test_top.env.agent.monitor [AXI_RD] CPU←DRAM  Addr=10000068 Data=xxxxxxxx RRESP=00
# UVM_INFO /home/khang/Documents/SystemVerilog/Soc_RV32I/SoC/VERIFICATION/Monitor/cpu_monitor.sv(260) @ 12985000: uvm_test_top.env.agent.monitor [AXI_RD] CPU←DRAM  Addr=10000068 Data=xxxxxxxx RRESP=00
# UVM_INFO /home/khang/Documents/SystemVerilog/Soc_RV32I/SoC/VERIFICATION/Monitor/cpu_monitor.sv(260) @ 13025000: uvm_test_top.env.agent.monitor [AXI_RD] CPU←DRAM  Addr=10000068 Data=xxxxxxxx RRESP=00
# UVM_INFO /home/khang/Documents/SystemVerilog/Soc_RV32I/SoC/VERIFICATION/Monitor/cpu_monitor.sv(260) @ 13065000: uvm_test_top.env.agent.monitor [AXI_RD] CPU←DRAM  Addr=10000068 Data=xxxxxxxx RRESP=00
# UVM_INFO /home/khang/Documents/SystemVerilog/Soc_RV32I/SoC/VERIFICATION/Monitor/cpu_monitor.sv(260) @ 13105000: uvm_test_top.env.agent.monitor [AXI_RD] CPU←DRAM  Addr=10000068 Data=xxxxxxxx RRESP=00
# UVM_INFO /home/khang/Documents/SystemVerilog/Soc_RV32I/SoC/VERIFICATION/Monitor/cpu_monitor.sv(260) @ 13145000: uvm_test_top.env.agent.monitor [AXI_RD] CPU←DRAM  Addr=10000068 Data=xxxxxxxx RRESP=00
# UVM_INFO /home/khang/Documents/SystemVerilog/Soc_RV32I/SoC/VERIFICATION/Monitor/cpu_monitor.sv(260) @ 13185000: uvm_test_top.env.agent.monitor [AXI_RD] CPU←DRAM  Addr=10000068 Data=xxxxxxxx RRESP=00
# UVM_INFO /home/khang/Documents/SystemVerilog/Soc_RV32I/SoC/VERIFICATION/Monitor/cpu_monitor.sv(260) @ 13225000: uvm_test_top.env.agent.monitor [AXI_RD] CPU←DRAM  Addr=10000068 Data=xxxxxxxx RRESP=00
# UVM_INFO /home/khang/Documents/SystemVerilog/Soc_RV32I/SoC/VERIFICATION/Monitor/cpu_monitor.sv(260) @ 13265000: uvm_test_top.env.agent.monitor [AXI_RD] CPU←DRAM  Addr=10000068 Data=xxxxxxxx RRESP=00
# UVM_INFO /home/khang/Documents/SystemVerilog/Soc_RV32I/SoC/VERIFICATION/Monitor/cpu_monitor.sv(260) @ 13305000: uvm_test_top.env.agent.monitor [AXI_RD] CPU←DRAM  Addr=10000068 Data=xxxxxxxx RRESP=00
# UVM_INFO /home/khang/Documents/SystemVerilog/Soc_RV32I/SoC/VERIFICATION/Monitor/cpu_monitor.sv(260) @ 13345000: uvm_test_top.env.agent.monitor [AXI_RD] CPU←DRAM  Addr=10000068 Data=xxxxxxxx RRESP=00
# UVM_INFO /home/khang/Documents/SystemVerilog/Soc_RV32I/SoC/VERIFICATION/Monitor/cpu_monitor.sv(260) @ 13385000: uvm_test_top.env.agent.monitor [AXI_RD] CPU←DRAM  Addr=10000068 Data=xxxxxxxx RRESP=00
# UVM_INFO /home/khang/Documents/SystemVerilog/Soc_RV32I/SoC/VERIFICATION/Monitor/cpu_monitor.sv(260) @ 13425000: uvm_test_top.env.agent.monitor [AXI_RD] CPU←DRAM  Addr=10000068 Data=xxxxxxxx RRESP=00
# UVM_INFO /home/khang/Documents/SystemVerilog/Soc_RV32I/SoC/VERIFICATION/Monitor/cpu_monitor.sv(260) @ 13465000: uvm_test_top.env.agent.monitor [AXI_RD] CPU←DRAM  Addr=10000068 Data=xxxxxxxx RRESP=00
# UVM_INFO /home/khang/Documents/SystemVerilog/Soc_RV32I/SoC/VERIFICATION/Monitor/cpu_monitor.sv(260) @ 13505000: uvm_test_top.env.agent.monitor [AXI_RD] CPU←DRAM  Addr=10000068 Data=xxxxxxxx RRESP=00
# UVM_INFO /home/khang/Documents/SystemVerilog/Soc_RV32I/SoC/VERIFICATION/Monitor/cpu_monitor.sv(260) @ 13545000: uvm_test_top.env.agent.monitor [AXI_RD] CPU←DRAM  Addr=10000068 Data=xxxxxxxx RRESP=00
# UVM_INFO /home/khang/Documents/SystemVerilog/Soc_RV32I/SoC/VERIFICATION/Monitor/cpu_monitor.sv(260) @ 13585000: uvm_test_top.env.agent.monitor [AXI_RD] CPU←DRAM  Addr=10000068 Data=xxxxxxxx RRESP=00
# UVM_INFO /home/khang/Documents/SystemVerilog/Soc_RV32I/SoC/VERIFICATION/Monitor/cpu_monitor.sv(260) @ 13625000: uvm_test_top.env.agent.monitor [AXI_RD] CPU←DRAM  Addr=10000068 Data=xxxxxxxx RRESP=00
# UVM_INFO /home/khang/Documents/SystemVerilog/Soc_RV32I/SoC/VERIFICATION/Monitor/cpu_monitor.sv(260) @ 13665000: uvm_test_top.env.agent.monitor [AXI_RD] CPU←DRAM  Addr=10000068 Data=xxxxxxxx RRESP=00
# UVM_INFO /home/khang/Documents/SystemVerilog/Soc_RV32I/SoC/VERIFICATION/Monitor/cpu_monitor.sv(260) @ 13705000: uvm_test_top.env.agent.monitor [AXI_RD] CPU←DRAM  Addr=10000068 Data=xxxxxxxx RRESP=00
# UVM_INFO /home/khang/Documents/SystemVerilog/Soc_RV32I/SoC/VERIFICATION/Monitor/cpu_monitor.sv(260) @ 13745000: uvm_test_top.env.agent.monitor [AXI_RD] CPU←DRAM  Addr=10000068 Data=xxxxxxxx RRESP=00
# UVM_INFO /home/khang/Documents/SystemVerilog/Soc_RV32I/SoC/VERIFICATION/Monitor/cpu_monitor.sv(260) @ 13785000: uvm_test_top.env.agent.monitor [AXI_RD] CPU←DRAM  Addr=10000068 Data=xxxxxxxx RRESP=00
# UVM_INFO /home/khang/Documents/SystemVerilog/Soc_RV32I/SoC/VERIFICATION/Monitor/cpu_monitor.sv(260) @ 13825000: uvm_test_top.env.agent.monitor [AXI_RD] CPU←DRAM  Addr=10000068 Data=xxxxxxxx RRESP=00
# UVM_INFO /home/khang/Documents/SystemVerilog/Soc_RV32I/SoC/VERIFICATION/Monitor/cpu_monitor.sv(260) @ 13865000: uvm_test_top.env.agent.monitor [AXI_RD] CPU←DRAM  Addr=10000068 Data=xxxxxxxx RRESP=00
# UVM_INFO /home/khang/Documents/SystemVerilog/Soc_RV32I/SoC/VERIFICATION/Monitor/cpu_monitor.sv(260) @ 13905000: uvm_test_top.env.agent.monitor [AXI_RD] CPU←DRAM  Addr=10000068 Data=xxxxxxxx RRESP=00
# UVM_INFO /home/khang/Documents/SystemVerilog/Soc_RV32I/SoC/VERIFICATION/Monitor/cpu_monitor.sv(260) @ 13945000: uvm_test_top.env.agent.monitor [AXI_RD] CPU←DRAM  Addr=10000068 Data=xxxxxxxx RRESP=00
# UVM_INFO /home/khang/Documents/SystemVerilog/Soc_RV32I/SoC/VERIFICATION/Monitor/cpu_monitor.sv(260) @ 13985000: uvm_test_top.env.agent.monitor [AXI_RD] CPU←DRAM  Addr=10000068 Data=xxxxxxxx RRESP=00
# UVM_INFO /home/khang/Documents/SystemVerilog/Soc_RV32I/SoC/VERIFICATION/Monitor/cpu_monitor.sv(260) @ 14025000: uvm_test_top.env.agent.monitor [AXI_RD] CPU←DRAM  Addr=10000068 Data=xxxxxxxx RRESP=00
# UVM_INFO /home/khang/Documents/SystemVerilog/Soc_RV32I/SoC/VERIFICATION/Monitor/cpu_monitor.sv(260) @ 14065000: uvm_test_top.env.agent.monitor [AXI_RD] CPU←DRAM  Addr=10000068 Data=xxxxxxxx RRESP=00
# UVM_INFO /home/khang/Documents/SystemVerilog/Soc_RV32I/SoC/VERIFICATION/Monitor/cpu_monitor.sv(260) @ 14105000: uvm_test_top.env.agent.monitor [AXI_RD] CPU←DRAM  Addr=10000068 Data=xxxxxxxx RRESP=00
# UVM_INFO /home/khang/Documents/SystemVerilog/Soc_RV32I/SoC/VERIFICATION/Monitor/cpu_monitor.sv(260) @ 14145000: uvm_test_top.env.agent.monitor [AXI_RD] CPU←DRAM  Addr=10000068 Data=xxxxxxxx RRESP=00
# UVM_INFO /home/khang/Documents/SystemVerilog/Soc_RV32I/SoC/VERIFICATION/Monitor/cpu_monitor.sv(260) @ 14185000: uvm_test_top.env.agent.monitor [AXI_RD] CPU←DRAM  Addr=10000068 Data=xxxxxxxx RRESP=00
# UVM_INFO /home/khang/Documents/SystemVerilog/Soc_RV32I/SoC/VERIFICATION/Monitor/cpu_monitor.sv(260) @ 14225000: uvm_test_top.env.agent.monitor [AXI_RD] CPU←DRAM  Addr=10000068 Data=xxxxxxxx RRESP=00
# UVM_INFO /home/khang/Documents/SystemVerilog/Soc_RV32I/SoC/VERIFICATION/Monitor/cpu_monitor.sv(260) @ 14265000: uvm_test_top.env.agent.monitor [AXI_RD] CPU←DRAM  Addr=10000068 Data=xxxxxxxx RRESP=00
# UVM_INFO /home/khang/Documents/SystemVerilog/Soc_RV32I/SoC/VERIFICATION/Monitor/cpu_monitor.sv(260) @ 14305000: uvm_test_top.env.agent.monitor [AXI_RD] CPU←DRAM  Addr=10000068 Data=xxxxxxxx RRESP=00
# UVM_INFO /home/khang/Documents/SystemVerilog/Soc_RV32I/SoC/VERIFICATION/Monitor/cpu_monitor.sv(260) @ 14345000: uvm_test_top.env.agent.monitor [AXI_RD] CPU←DRAM  Addr=10000068 Data=xxxxxxxx RRESP=00
# UVM_INFO /home/khang/Documents/SystemVerilog/Soc_RV32I/SoC/VERIFICATION/Monitor/cpu_monitor.sv(260) @ 14385000: uvm_test_top.env.agent.monitor [AXI_RD] CPU←DRAM  Addr=10000068 Data=xxxxxxxx RRESP=00
# UVM_INFO /home/khang/Documents/SystemVerilog/Soc_RV32I/SoC/VERIFICATION/Monitor/cpu_monitor.sv(260) @ 14425000: uvm_test_top.env.agent.monitor [AXI_RD] CPU←DRAM  Addr=10000068 Data=xxxxxxxx RRESP=00
# UVM_INFO /home/khang/Documents/SystemVerilog/Soc_RV32I/SoC/VERIFICATION/Monitor/cpu_monitor.sv(260) @ 14465000: uvm_test_top.env.agent.monitor [AXI_RD] CPU←DRAM  Addr=10000068 Data=xxxxxxxx RRESP=00
# UVM_INFO /home/khang/Documents/SystemVerilog/Soc_RV32I/SoC/VERIFICATION/Monitor/cpu_monitor.sv(260) @ 14505000: uvm_test_top.env.agent.monitor [AXI_RD] CPU←DRAM  Addr=10000068 Data=xxxxxxxx RRESP=00
# UVM_INFO /home/khang/Documents/SystemVerilog/Soc_RV32I/SoC/VERIFICATION/Monitor/cpu_monitor.sv(260) @ 14545000: uvm_test_top.env.agent.monitor [AXI_RD] CPU←DRAM  Addr=10000068 Data=xxxxxxxx RRESP=00
# UVM_INFO /home/khang/Documents/SystemVerilog/Soc_RV32I/SoC/VERIFICATION/Monitor/cpu_monitor.sv(260) @ 14585000: uvm_test_top.env.agent.monitor [AXI_RD] CPU←DRAM  Addr=10000068 Data=xxxxxxxx RRESP=00
# UVM_INFO /home/khang/Documents/SystemVerilog/Soc_RV32I/SoC/VERIFICATION/Monitor/cpu_monitor.sv(260) @ 14625000: uvm_test_top.env.agent.monitor [AXI_RD] CPU←DRAM  Addr=10000068 Data=xxxxxxxx RRESP=00
# UVM_INFO /home/khang/Documents/SystemVerilog/Soc_RV32I/SoC/VERIFICATION/Monitor/cpu_monitor.sv(260) @ 14665000: uvm_test_top.env.agent.monitor [AXI_RD] CPU←DRAM  Addr=10000068 Data=xxxxxxxx RRESP=00
# UVM_INFO /home/khang/Documents/SystemVerilog/Soc_RV32I/SoC/VERIFICATION/Monitor/cpu_monitor.sv(260) @ 14705000: uvm_test_top.env.agent.monitor [AXI_RD] CPU←DRAM  Addr=10000068 Data=xxxxxxxx RRESP=00
# UVM_INFO /home/khang/Documents/SystemVerilog/Soc_RV32I/SoC/VERIFICATION/Monitor/cpu_monitor.sv(260) @ 14745000: uvm_test_top.env.agent.monitor [AXI_RD] CPU←DRAM  Addr=10000068 Data=xxxxxxxx RRESP=00
# UVM_INFO /home/khang/Documents/SystemVerilog/Soc_RV32I/SoC/VERIFICATION/Monitor/cpu_monitor.sv(260) @ 14785000: uvm_test_top.env.agent.monitor [AXI_RD] CPU←DRAM  Addr=10000068 Data=xxxxxxxx RRESP=00
# UVM_INFO /home/khang/Documents/SystemVerilog/Soc_RV32I/SoC/VERIFICATION/Monitor/cpu_monitor.sv(260) @ 14825000: uvm_test_top.env.agent.monitor [AXI_RD] CPU←DRAM  Addr=10000068 Data=xxxxxxxx RRESP=00
# UVM_INFO /home/khang/Documents/SystemVerilog/Soc_RV32I/SoC/VERIFICATION/Monitor/cpu_monitor.sv(260) @ 14865000: uvm_test_top.env.agent.monitor [AXI_RD] CPU←DRAM  Addr=10000068 Data=xxxxxxxx RRESP=00
# UVM_INFO /home/khang/Documents/SystemVerilog/Soc_RV32I/SoC/VERIFICATION/Monitor/cpu_monitor.sv(260) @ 14905000: uvm_test_top.env.agent.monitor [AXI_RD] CPU←DRAM  Addr=10000068 Data=xxxxxxxx RRESP=00
# UVM_INFO /home/khang/Documents/SystemVerilog/Soc_RV32I/SoC/VERIFICATION/Monitor/cpu_monitor.sv(260) @ 14945000: uvm_test_top.env.agent.monitor [AXI_RD] CPU←DRAM  Addr=10000068 Data=xxxxxxxx RRESP=00
# UVM_INFO /home/khang/Documents/SystemVerilog/Soc_RV32I/SoC/VERIFICATION/Monitor/cpu_monitor.sv(260) @ 14985000: uvm_test_top.env.agent.monitor [AXI_RD] CPU←DRAM  Addr=10000068 Data=xxxxxxxx RRESP=00
# UVM_INFO /home/khang/Documents/SystemVerilog/Soc_RV32I/SoC/VERIFICATION/Monitor/cpu_monitor.sv(260) @ 15025000: uvm_test_top.env.agent.monitor [AXI_RD] CPU←DRAM  Addr=10000068 Data=xxxxxxxx RRESP=00
# UVM_INFO /home/khang/Documents/SystemVerilog/Soc_RV32I/SoC/VERIFICATION/Monitor/cpu_monitor.sv(260) @ 15065000: uvm_test_top.env.agent.monitor [AXI_RD] CPU←DRAM  Addr=10000068 Data=xxxxxxxx RRESP=00
# UVM_INFO /home/khang/Documents/SystemVerilog/Soc_RV32I/SoC/VERIFICATION/Monitor/cpu_monitor.sv(260) @ 15105000: uvm_test_top.env.agent.monitor [AXI_RD] CPU←DRAM  Addr=10000068 Data=xxxxxxxx RRESP=00
# UVM_INFO /home/khang/Documents/SystemVerilog/Soc_RV32I/SoC/VERIFICATION/Monitor/cpu_monitor.sv(260) @ 15145000: uvm_test_top.env.agent.monitor [AXI_RD] CPU←DRAM  Addr=10000068 Data=xxxxxxxx RRESP=00
# UVM_INFO /home/khang/Documents/SystemVerilog/Soc_RV32I/SoC/VERIFICATION/Monitor/cpu_monitor.sv(260) @ 15185000: uvm_test_top.env.agent.monitor [AXI_RD] CPU←DRAM  Addr=10000068 Data=xxxxxxxx RRESP=00
# UVM_INFO /home/khang/Documents/SystemVerilog/Soc_RV32I/SoC/VERIFICATION/Monitor/cpu_monitor.sv(260) @ 15225000: uvm_test_top.env.agent.monitor [AXI_RD] CPU←DRAM  Addr=10000068 Data=xxxxxxxx RRESP=00
# UVM_INFO /home/khang/Documents/SystemVerilog/Soc_RV32I/SoC/VERIFICATION/Monitor/cpu_monitor.sv(260) @ 15265000: uvm_test_top.env.agent.monitor [AXI_RD] CPU←DRAM  Addr=10000068 Data=xxxxxxxx RRESP=00
# UVM_INFO /home/khang/Documents/SystemVerilog/Soc_RV32I/SoC/VERIFICATION/Monitor/cpu_monitor.sv(260) @ 15305000: uvm_test_top.env.agent.monitor [AXI_RD] CPU←DRAM  Addr=10000068 Data=xxxxxxxx RRESP=00
# UVM_INFO /home/khang/Documents/SystemVerilog/Soc_RV32I/SoC/VERIFICATION/Monitor/cpu_monitor.sv(260) @ 15345000: uvm_test_top.env.agent.monitor [AXI_RD] CPU←DRAM  Addr=10000068 Data=xxxxxxxx RRESP=00
# UVM_INFO /home/khang/Documents/SystemVerilog/Soc_RV32I/SoC/VERIFICATION/Monitor/cpu_monitor.sv(260) @ 15385000: uvm_test_top.env.agent.monitor [AXI_RD] CPU←DRAM  Addr=10000068 Data=xxxxxxxx RRESP=00
# UVM_INFO /home/khang/Documents/SystemVerilog/Soc_RV32I/SoC/VERIFICATION/Monitor/cpu_monitor.sv(260) @ 15425000: uvm_test_top.env.agent.monitor [AXI_RD] CPU←DRAM  Addr=10000068 Data=xxxxxxxx RRESP=00
# UVM_INFO /home/khang/Documents/SystemVerilog/Soc_RV32I/SoC/VERIFICATION/Monitor/cpu_monitor.sv(260) @ 15465000: uvm_test_top.env.agent.monitor [AXI_RD] CPU←DRAM  Addr=10000068 Data=xxxxxxxx RRESP=00
# UVM_INFO /home/khang/Documents/SystemVerilog/Soc_RV32I/SoC/VERIFICATION/Monitor/cpu_monitor.sv(260) @ 15505000: uvm_test_top.env.agent.monitor [AXI_RD] CPU←DRAM  Addr=10000068 Data=xxxxxxxx RRESP=00
# UVM_INFO /home/khang/Documents/SystemVerilog/Soc_RV32I/SoC/VERIFICATION/Monitor/cpu_monitor.sv(260) @ 15545000: uvm_test_top.env.agent.monitor [AXI_RD] CPU←DRAM  Addr=10000068 Data=xxxxxxxx RRESP=00
# UVM_INFO /home/khang/Documents/SystemVerilog/Soc_RV32I/SoC/VERIFICATION/Monitor/cpu_monitor.sv(260) @ 15585000: uvm_test_top.env.agent.monitor [AXI_RD] CPU←DRAM  Addr=10000068 Data=xxxxxxxx RRESP=00
# UVM_INFO /home/khang/Documents/SystemVerilog/Soc_RV32I/SoC/VERIFICATION/Monitor/cpu_monitor.sv(260) @ 15625000: uvm_test_top.env.agent.monitor [AXI_RD] CPU←DRAM  Addr=10000068 Data=xxxxxxxx RRESP=00
# UVM_INFO /home/khang/Documents/SystemVerilog/Soc_RV32I/SoC/VERIFICATION/Monitor/cpu_monitor.sv(260) @ 15665000: uvm_test_top.env.agent.monitor [AXI_RD] CPU←DRAM  Addr=10000068 Data=xxxxxxxx RRESP=00
# UVM_INFO /home/khang/Documents/SystemVerilog/Soc_RV32I/SoC/VERIFICATION/Monitor/cpu_monitor.sv(260) @ 15705000: uvm_test_top.env.agent.monitor [AXI_RD] CPU←DRAM  Addr=10000068 Data=xxxxxxxx RRESP=00
# UVM_INFO /home/khang/Documents/SystemVerilog/Soc_RV32I/SoC/VERIFICATION/Monitor/cpu_monitor.sv(260) @ 15745000: uvm_test_top.env.agent.monitor [AXI_RD] CPU←DRAM  Addr=10000068 Data=xxxxxxxx RRESP=00
# UVM_INFO /home/khang/Documents/SystemVerilog/Soc_RV32I/SoC/VERIFICATION/Monitor/cpu_monitor.sv(260) @ 15785000: uvm_test_top.env.agent.monitor [AXI_RD] CPU←DRAM  Addr=10000068 Data=xxxxxxxx RRESP=00
# UVM_INFO /home/khang/Documents/SystemVerilog/Soc_RV32I/SoC/VERIFICATION/Monitor/cpu_monitor.sv(260) @ 15825000: uvm_test_top.env.agent.monitor [AXI_RD] CPU←DRAM  Addr=10000068 Data=xxxxxxxx RRESP=00
# UVM_INFO /home/khang/Documents/SystemVerilog/Soc_RV32I/SoC/VERIFICATION/Monitor/cpu_monitor.sv(260) @ 15865000: uvm_test_top.env.agent.monitor [AXI_RD] CPU←DRAM  Addr=10000068 Data=xxxxxxxx RRESP=00
# UVM_INFO /home/khang/Documents/SystemVerilog/Soc_RV32I/SoC/VERIFICATION/Monitor/cpu_monitor.sv(260) @ 15905000: uvm_test_top.env.agent.monitor [AXI_RD] CPU←DRAM  Addr=10000068 Data=xxxxxxxx RRESP=00
# UVM_INFO /home/khang/Documents/SystemVerilog/Soc_RV32I/SoC/VERIFICATION/Monitor/cpu_monitor.sv(260) @ 15945000: uvm_test_top.env.agent.monitor [AXI_RD] CPU←DRAM  Addr=10000068 Data=xxxxxxxx RRESP=00
# UVM_INFO /home/khang/Documents/SystemVerilog/Soc_RV32I/SoC/VERIFICATION/Monitor/cpu_monitor.sv(260) @ 15985000: uvm_test_top.env.agent.monitor [AXI_RD] CPU←DRAM  Addr=10000068 Data=xxxxxxxx RRESP=00
# UVM_INFO /home/khang/Documents/SystemVerilog/Soc_RV32I/SoC/VERIFICATION/Monitor/cpu_monitor.sv(260) @ 16025000: uvm_test_top.env.agent.monitor [AXI_RD] CPU←DRAM  Addr=10000068 Data=xxxxxxxx RRESP=00
# UVM_INFO /home/khang/Documents/SystemVerilog/Soc_RV32I/SoC/VERIFICATION/Monitor/cpu_monitor.sv(260) @ 16065000: uvm_test_top.env.agent.monitor [AXI_RD] CPU←DRAM  Addr=10000068 Data=xxxxxxxx RRESP=00
# UVM_INFO /home/khang/Documents/SystemVerilog/Soc_RV32I/SoC/VERIFICATION/Monitor/cpu_monitor.sv(260) @ 16105000: uvm_test_top.env.agent.monitor [AXI_RD] CPU←DRAM  Addr=10000068 Data=xxxxxxxx RRESP=00
# UVM_INFO /home/khang/Documents/SystemVerilog/Soc_RV32I/SoC/VERIFICATION/Monitor/cpu_monitor.sv(260) @ 16145000: uvm_test_top.env.agent.monitor [AXI_RD] CPU←DRAM  Addr=10000068 Data=xxxxxxxx RRESP=00
# UVM_INFO /home/khang/Documents/SystemVerilog/Soc_RV32I/SoC/VERIFICATION/Monitor/cpu_monitor.sv(260) @ 16185000: uvm_test_top.env.agent.monitor [AXI_RD] CPU←DRAM  Addr=10000068 Data=xxxxxxxx RRESP=00
# UVM_INFO /home/khang/Documents/SystemVerilog/Soc_RV32I/SoC/VERIFICATION/Monitor/cpu_monitor.sv(260) @ 16225000: uvm_test_top.env.agent.monitor [AXI_RD] CPU←DRAM  Addr=10000068 Data=xxxxxxxx RRESP=00
# UVM_INFO /home/khang/Documents/SystemVerilog/Soc_RV32I/SoC/VERIFICATION/Monitor/cpu_monitor.sv(260) @ 16265000: uvm_test_top.env.agent.monitor [AXI_RD] CPU←DRAM  Addr=10000068 Data=xxxxxxxx RRESP=00
# UVM_INFO /home/khang/Documents/SystemVerilog/Soc_RV32I/SoC/VERIFICATION/Monitor/cpu_monitor.sv(260) @ 16305000: uvm_test_top.env.agent.monitor [AXI_RD] CPU←DRAM  Addr=10000068 Data=xxxxxxxx RRESP=00
# UVM_INFO /home/khang/Documents/SystemVerilog/Soc_RV32I/SoC/VERIFICATION/Monitor/cpu_monitor.sv(260) @ 16345000: uvm_test_top.env.agent.monitor [AXI_RD] CPU←DRAM  Addr=10000068 Data=xxxxxxxx RRESP=00
# UVM_INFO /home/khang/Documents/SystemVerilog/Soc_RV32I/SoC/VERIFICATION/Monitor/cpu_monitor.sv(260) @ 16385000: uvm_test_top.env.agent.monitor [AXI_RD] CPU←DRAM  Addr=10000068 Data=xxxxxxxx RRESP=00
# UVM_INFO /home/khang/Documents/SystemVerilog/Soc_RV32I/SoC/VERIFICATION/Monitor/cpu_monitor.sv(260) @ 16425000: uvm_test_top.env.agent.monitor [AXI_RD] CPU←DRAM  Addr=10000068 Data=xxxxxxxx RRESP=00
# UVM_INFO /home/khang/Documents/SystemVerilog/Soc_RV32I/SoC/VERIFICATION/Monitor/cpu_monitor.sv(260) @ 16465000: uvm_test_top.env.agent.monitor [AXI_RD] CPU←DRAM  Addr=10000068 Data=xxxxxxxx RRESP=00
# UVM_INFO /home/khang/Documents/SystemVerilog/Soc_RV32I/SoC/VERIFICATION/Monitor/cpu_monitor.sv(260) @ 16505000: uvm_test_top.env.agent.monitor [AXI_RD] CPU←DRAM  Addr=10000068 Data=xxxxxxxx RRESP=00
# UVM_INFO /home/khang/Documents/SystemVerilog/Soc_RV32I/SoC/VERIFICATION/Monitor/cpu_monitor.sv(260) @ 16545000: uvm_test_top.env.agent.monitor [AXI_RD] CPU←DRAM  Addr=10000068 Data=xxxxxxxx RRESP=00
# UVM_INFO /home/khang/Documents/SystemVerilog/Soc_RV32I/SoC/VERIFICATION/Monitor/cpu_monitor.sv(260) @ 16585000: uvm_test_top.env.agent.monitor [AXI_RD] CPU←DRAM  Addr=10000068 Data=xxxxxxxx RRESP=00
# UVM_INFO /home/khang/Documents/SystemVerilog/Soc_RV32I/SoC/VERIFICATION/Monitor/cpu_monitor.sv(260) @ 16625000: uvm_test_top.env.agent.monitor [AXI_RD] CPU←DRAM  Addr=10000068 Data=xxxxxxxx RRESP=00
# UVM_INFO /home/khang/Documents/SystemVerilog/Soc_RV32I/SoC/VERIFICATION/Monitor/cpu_monitor.sv(260) @ 16665000: uvm_test_top.env.agent.monitor [AXI_RD] CPU←DRAM  Addr=10000068 Data=xxxxxxxx RRESP=00
# UVM_INFO /home/khang/Documents/SystemVerilog/Soc_RV32I/SoC/VERIFICATION/Monitor/cpu_monitor.sv(260) @ 16705000: uvm_test_top.env.agent.monitor [AXI_RD] CPU←DRAM  Addr=10000068 Data=xxxxxxxx RRESP=00
# UVM_INFO /home/khang/Documents/SystemVerilog/Soc_RV32I/SoC/VERIFICATION/Monitor/cpu_monitor.sv(260) @ 16745000: uvm_test_top.env.agent.monitor [AXI_RD] CPU←DRAM  Addr=10000068 Data=xxxxxxxx RRESP=00
# UVM_INFO /home/khang/Documents/SystemVerilog/Soc_RV32I/SoC/VERIFICATION/Monitor/cpu_monitor.sv(260) @ 16785000: uvm_test_top.env.agent.monitor [AXI_RD] CPU←DRAM  Addr=10000068 Data=xxxxxxxx RRESP=00
# UVM_INFO /home/khang/Documents/SystemVerilog/Soc_RV32I/SoC/VERIFICATION/Monitor/cpu_monitor.sv(260) @ 16825000: uvm_test_top.env.agent.monitor [AXI_RD] CPU←DRAM  Addr=10000068 Data=xxxxxxxx RRESP=00
# UVM_INFO /home/khang/Documents/SystemVerilog/Soc_RV32I/SoC/VERIFICATION/Monitor/cpu_monitor.sv(260) @ 16865000: uvm_test_top.env.agent.monitor [AXI_RD] CPU←DRAM  Addr=10000068 Data=xxxxxxxx RRESP=00
# UVM_INFO /home/khang/Documents/SystemVerilog/Soc_RV32I/SoC/VERIFICATION/Monitor/cpu_monitor.sv(260) @ 16905000: uvm_test_top.env.agent.monitor [AXI_RD] CPU←DRAM  Addr=10000068 Data=xxxxxxxx RRESP=00
# UVM_INFO /home/khang/Documents/SystemVerilog/Soc_RV32I/SoC/VERIFICATION/Monitor/cpu_monitor.sv(260) @ 16945000: uvm_test_top.env.agent.monitor [AXI_RD] CPU←DRAM  Addr=10000068 Data=xxxxxxxx RRESP=00
# UVM_INFO /home/khang/Documents/SystemVerilog/Soc_RV32I/SoC/VERIFICATION/Monitor/cpu_monitor.sv(260) @ 16985000: uvm_test_top.env.agent.monitor [AXI_RD] CPU←DRAM  Addr=10000068 Data=xxxxxxxx RRESP=00
# UVM_INFO /home/khang/Documents/SystemVerilog/Soc_RV32I/SoC/VERIFICATION/Monitor/cpu_monitor.sv(260) @ 17025000: uvm_test_top.env.agent.monitor [AXI_RD] CPU←DRAM  Addr=10000068 Data=xxxxxxxx RRESP=00
# UVM_INFO /home/khang/Documents/SystemVerilog/Soc_RV32I/SoC/VERIFICATION/Monitor/cpu_monitor.sv(260) @ 17065000: uvm_test_top.env.agent.monitor [AXI_RD] CPU←DRAM  Addr=10000068 Data=xxxxxxxx RRESP=00
# UVM_INFO /home/khang/Documents/SystemVerilog/Soc_RV32I/SoC/VERIFICATION/Monitor/cpu_monitor.sv(260) @ 17105000: uvm_test_top.env.agent.monitor [AXI_RD] CPU←DRAM  Addr=10000068 Data=xxxxxxxx RRESP=00
# UVM_INFO /home/khang/Documents/SystemVerilog/Soc_RV32I/SoC/VERIFICATION/Monitor/cpu_monitor.sv(260) @ 17145000: uvm_test_top.env.agent.monitor [AXI_RD] CPU←DRAM  Addr=10000068 Data=xxxxxxxx RRESP=00
# UVM_INFO /home/khang/Documents/SystemVerilog/Soc_RV32I/SoC/VERIFICATION/Monitor/cpu_monitor.sv(260) @ 17185000: uvm_test_top.env.agent.monitor [AXI_RD] CPU←DRAM  Addr=10000068 Data=xxxxxxxx RRESP=00
# UVM_INFO /home/khang/Documents/SystemVerilog/Soc_RV32I/SoC/VERIFICATION/Monitor/cpu_monitor.sv(260) @ 17225000: uvm_test_top.env.agent.monitor [AXI_RD] CPU←DRAM  Addr=10000068 Data=xxxxxxxx RRESP=00
# UVM_INFO /home/khang/Documents/SystemVerilog/Soc_RV32I/SoC/VERIFICATION/Monitor/cpu_monitor.sv(260) @ 17265000: uvm_test_top.env.agent.monitor [AXI_RD] CPU←DRAM  Addr=10000068 Data=xxxxxxxx RRESP=00
# UVM_INFO /home/khang/Documents/SystemVerilog/Soc_RV32I/SoC/VERIFICATION/Monitor/cpu_monitor.sv(260) @ 17305000: uvm_test_top.env.agent.monitor [AXI_RD] CPU←DRAM  Addr=10000068 Data=xxxxxxxx RRESP=00
# UVM_INFO /home/khang/Documents/SystemVerilog/Soc_RV32I/SoC/VERIFICATION/Monitor/cpu_monitor.sv(260) @ 17345000: uvm_test_top.env.agent.monitor [AXI_RD] CPU←DRAM  Addr=10000068 Data=xxxxxxxx RRESP=00
# UVM_INFO /home/khang/Documents/SystemVerilog/Soc_RV32I/SoC/VERIFICATION/Monitor/cpu_monitor.sv(260) @ 17385000: uvm_test_top.env.agent.monitor [AXI_RD] CPU←DRAM  Addr=10000068 Data=xxxxxxxx RRESP=00
# UVM_INFO /home/khang/Documents/SystemVerilog/Soc_RV32I/SoC/VERIFICATION/Monitor/cpu_monitor.sv(260) @ 17425000: uvm_test_top.env.agent.monitor [AXI_RD] CPU←DRAM  Addr=10000068 Data=xxxxxxxx RRESP=00
# UVM_INFO /home/khang/Documents/SystemVerilog/Soc_RV32I/SoC/VERIFICATION/Monitor/cpu_monitor.sv(260) @ 17465000: uvm_test_top.env.agent.monitor [AXI_RD] CPU←DRAM  Addr=10000068 Data=xxxxxxxx RRESP=00
# UVM_INFO /home/khang/Documents/SystemVerilog/Soc_RV32I/SoC/VERIFICATION/Monitor/cpu_monitor.sv(260) @ 17505000: uvm_test_top.env.agent.monitor [AXI_RD] CPU←DRAM  Addr=10000068 Data=xxxxxxxx RRESP=00
# UVM_INFO /home/khang/Documents/SystemVerilog/Soc_RV32I/SoC/VERIFICATION/Monitor/cpu_monitor.sv(260) @ 17545000: uvm_test_top.env.agent.monitor [AXI_RD] CPU←DRAM  Addr=10000068 Data=xxxxxxxx RRESP=00
# UVM_INFO /home/khang/Documents/SystemVerilog/Soc_RV32I/SoC/VERIFICATION/Monitor/cpu_monitor.sv(260) @ 17585000: uvm_test_top.env.agent.monitor [AXI_RD] CPU←DRAM  Addr=10000068 Data=xxxxxxxx RRESP=00
# UVM_INFO /home/khang/Documents/SystemVerilog/Soc_RV32I/SoC/VERIFICATION/Monitor/cpu_monitor.sv(260) @ 17625000: uvm_test_top.env.agent.monitor [AXI_RD] CPU←DRAM  Addr=10000068 Data=xxxxxxxx RRESP=00
# UVM_INFO /home/khang/Documents/SystemVerilog/Soc_RV32I/SoC/VERIFICATION/Monitor/cpu_monitor.sv(260) @ 17665000: uvm_test_top.env.agent.monitor [AXI_RD] CPU←DRAM  Addr=10000068 Data=xxxxxxxx RRESP=00
# UVM_INFO /home/khang/Documents/SystemVerilog/Soc_RV32I/SoC/VERIFICATION/Monitor/cpu_monitor.sv(260) @ 17705000: uvm_test_top.env.agent.monitor [AXI_RD] CPU←DRAM  Addr=10000068 Data=xxxxxxxx RRESP=00
# UVM_INFO /home/khang/Documents/SystemVerilog/Soc_RV32I/SoC/VERIFICATION/Monitor/cpu_monitor.sv(260) @ 17745000: uvm_test_top.env.agent.monitor [AXI_RD] CPU←DRAM  Addr=10000068 Data=xxxxxxxx RRESP=00
# UVM_INFO /home/khang/Documents/SystemVerilog/Soc_RV32I/SoC/VERIFICATION/Monitor/cpu_monitor.sv(260) @ 17785000: uvm_test_top.env.agent.monitor [AXI_RD] CPU←DRAM  Addr=10000068 Data=xxxxxxxx RRESP=00
# UVM_INFO /home/khang/Documents/SystemVerilog/Soc_RV32I/SoC/VERIFICATION/Monitor/cpu_monitor.sv(260) @ 17825000: uvm_test_top.env.agent.monitor [AXI_RD] CPU←DRAM  Addr=10000068 Data=xxxxxxxx RRESP=00
# UVM_INFO /home/khang/Documents/SystemVerilog/Soc_RV32I/SoC/VERIFICATION/Monitor/cpu_monitor.sv(260) @ 17865000: uvm_test_top.env.agent.monitor [AXI_RD] CPU←DRAM  Addr=10000068 Data=xxxxxxxx RRESP=00
# UVM_INFO /home/khang/Documents/SystemVerilog/Soc_RV32I/SoC/VERIFICATION/Monitor/cpu_monitor.sv(260) @ 17905000: uvm_test_top.env.agent.monitor [AXI_RD] CPU←DRAM  Addr=10000068 Data=xxxxxxxx RRESP=00
