--- [SIM ONLY] cpu_test ---
MODE = CPU_MASTER
Reading pref.tcl

# 2024.1

# vsim -c -L uvm -coverage -sv_seed 1538926978 vopt_top "+UVM_TESTNAME=cpu_test" "+CPU_MASTER" "+MEM_SEED=1538926978" -do "run -all; quit" 
# Start time: 11:13:38 on May 13,2026
# //  Questa Sim-64
# //  Version 2024.1 linux_x86_64 Feb  1 2024
# //
# // Unpublished work. Copyright 2024 Siemens
# //
# // This material contains trade secrets or otherwise confidential information
# // owned by Siemens Industry Software Inc. or its affiliates (collectively,
# // "SISW"), or its licensors. Access to and use of this information is strictly
# // limited as set forth in the Customer's applicable agreements with SISW.
# //
# // This material may not be copied, distributed, or otherwise disclosed outside
# // of the Customer's facilities without the express written permission of SISW,
# // and may not be used in any way not expressly authorized by SISW.
# //
# Loading sv_std.std
# Loading work.clk_rst_inf(fast)
# Loading work.soc_inf(fast)
# Loading work.cpu_monitor_inf(fast)
# Loading mtiUvm.uvm_pkg(fast)
# Loading work.soc_pkg(fast)
# Loading mtiUvm.questa_uvm_pkg(fast)
# Loading work.top_tb(fast)
# Loading work.clk_rst_inf(fast__2)
# Loading work.soc_inf(fast__2)
# Loading work.cpu_monitor_inf(fast__2)
# Loading work.TOP(fast)
# Loading work.AXI_Master(fast)
# Loading work.CPU(fast)
# Loading work.pc_reg(fast)
# Loading work.IF_ID(fast)
# Loading work.ControlUnit(fast)
# Loading work.MainDecoder(fast)
# Loading work.ALUControl(fast)
# Loading work.RegFile(fast)
# Loading work.signExtend(fast)
# Loading work.ID_EX(fast)
# Loading work.ALU(fast)
# Loading work.EX_MEM(fast)
# Loading work.MEM_WB(fast)
# Loading work.HazardUnit(fast)
# Loading work.LSU(fast)
# Loading work.AXI4_Lite_Interconnect(fast)
# Loading work.RAM(fast)
# Loading work.RAM(fast__1)
# Loading work.Timer(fast)
# Loading work.UART(fast)
# Loading work.SPI(fast)
# ** Warning: (vsim-2685) [TFMPC] - Too few port connections for 'cr_if'.  Expected 2, found 0.
#    Time: 0 ps  Iteration: 0  Instance: /top_tb/cr_if File: /home/khang/Documents/SystemVerilog/Soc_RV32I/SoC/VERIFICATION/top_tb.sv Line: 13
# ** Warning: (vsim-3722) /home/khang/Documents/SystemVerilog/Soc_RV32I/SoC/VERIFICATION/top_tb.sv(13): [TFMPC] - Missing connection for port 'clk'.
# ** Warning: (vsim-3722) /home/khang/Documents/SystemVerilog/Soc_RV32I/SoC/VERIFICATION/top_tb.sv(13): [TFMPC] - Missing connection for port 'rstn'.
# Loading /tools/mq/2024.1/questasim/uvm-1.1d/linux_x86_64/uvm_dpi.so
# run -all
# ----------------------------------------------------------------
# UVM-1.1d
# (C) 2007-2013 Mentor Graphics Corporation
# (C) 2007-2013 Cadence Design Systems, Inc.
# (C) 2006-2013 Synopsys, Inc.
# (C) 2011-2013 Cypress Semiconductor Corp.
# ----------------------------------------------------------------
# 
#   ***********       IMPORTANT RELEASE NOTES         ************
# 
#   You are using a version of the UVM library that has been compiled
#   with `UVM_NO_DEPRECATED undefined.
#   See http://www.eda.org/svdb/view.php?id=3313 for more details.
# 
#   You are using a version of the UVM library that has been compiled
#   with `UVM_OBJECT_MUST_HAVE_CONSTRUCTOR undefined.
#   See http://www.eda.org/svdb/view.php?id=3770 for more details.
# 
#       (Specify +UVM_NO_RELNOTES to turn off this notice)
# 
# UVM_INFO verilog_src/questa_uvm_pkg-1.2/src/questa_uvm_pkg.sv(277) @ 0: reporter [Questa UVM] QUESTA_UVM-1.2.3
# UVM_INFO verilog_src/questa_uvm_pkg-1.2/src/questa_uvm_pkg.sv(278) @ 0: reporter [Questa UVM]  questa_uvm::init(+struct)
# [RAM] Loading file: instr.mem
# [RAM] mem[0] = 100000b7
# [RAM] mem[1] = 0200016f
# [RAM] mem[2] = c76e6e13
# [RAM] mem[3] = 6f40a423
# [RAM] mem[4] = 3f60ae23
# [RAM] mem[5] = 0640ac03
# [RAM] mem[6] = 00000aef
# [RAM] mem[7] = 2a40a823
# [RAM] mem[8] = 00c462b3
# [RAM] mem[9] = 4c90ae23
# [RAM] mem[10] = 61e0ae23
# [RAM] mem[11] = 007cfe33
# [RAM] mem[12] = 00400e6f
# [RAM] mem[13] = e0356e13
# [RAM] mem[14] = 4110a623
# [RAM] mem[15] = 003e8063
# [RAM] mem[16] = 40ab8233
# [RAM] mem[17] = 7b40a103
# [RAM] mem[18] = 0080aa23
# [RAM] mem[19] = e2117d13
# [RAM] mem[20] = 018dd533
# [RAM] mem[21] = 3500a103
# [RAM] mem[22] = 6c80a283
# [RAM] mem[23] = 63134493
# [RAM] mem[24] = ff2f84e3
# [RAM] mem[25] = d4254393
# [RAM] mem[26] = 015aac33
# [RAM] mem[27] = af264d93
# [RAM] mem[28] = 01000a6f
# [RAM] mem[29] = 84848613
# [RAM] mem[30] = 34da0713
# [RAM] mem[31] = 23b0ac23
# [RAM] mem[32] = d3a87e13
# [RAM] mem[33] = 35c0ac83
# [RAM] mem[34] = 41ef82b3
# [RAM] mem[35] = 4183da33
# [RAM] mem[36] = 007621b3
# [RAM] mem[37] = 4900af83
# [RAM] mem[38] = 01419733
# [RAM] mem[39] = 01cd01b3
# [RAM] mem[40] = 01369eb3
# [RAM] mem[41] = a713f293
# [RAM] mem[42] = 1620a823
# [RAM] mem[43] = fd5ff7ef
# [RAM] mem[44] = 3421e613
# [RAM] mem[45] = eea26d93
# [RAM] mem[46] = 6f00a503
# [RAM] mem[47] = 7ad0a823
# [RAM] mem[48] = 4880a483
# [RAM] mem[49] = 23f6f613
# [RAM] mem[50] = 00ea8b33
# [RAM] mem[51] = ffb30ee3
# [RAM] mem[52] = 003e0063
# [RAM] mem[53] = fd988ce3
# [RAM] mem[54] = 2fd18313
# [RAM] mem[55] = dddd4f13
# [RAM] mem[56] = 012126b3
# [RAM] mem[57] = 0034f1b3
# [RAM] mem[58] = 4740a983
# [RAM] mem[59] = 4660a023
# [RAM] mem[60] = 01545133
# [RAM] mem[61] = 4050a623
# [RAM] mem[62] = 00aacbb3
# [RAM] mem[63] = 846a6593
# [RAM] mem[64] = e53bc513
# [RAM] mem[65] = 50b0a223
# [RAM] mem[66] = 00e27fb3
# [RAM] mem[67] = 2660ac23
# [RAM] mem[68] = 407881b3
# [RAM] mem[69] = d8b24913
# [RAM] mem[70] = 4600ab03
# [RAM] mem[71] = 00ee4eb3
# [RAM] mem[72] = 40d45233
# [RAM] mem[73] = 3350a023
# [RAM] mem[74] = 4cd0aa23
# [RAM] mem[75] = 21c0af83
# [RAM] mem[76] = 00dbdfb3
# [RAM] mem[77] = 2080ab03
# [RAM] mem[78] = 34b16c93
# [RAM] mem[79] = 3bcde393
# [RAM] mem[80] = 01546333
# [RAM] mem[81] = 01b6c1b3
# [RAM] mem[82] = d44f6293
# [RAM] mem[83] = a0a7ed93
# [RAM] mem[84] = 9da17313
# [RAM] mem[85] = 005f42b3
# [RAM] mem[86] = 5880aa23
# [RAM] mem[87] = 785eea13
# [RAM] mem[88] = 4157dab3
# [RAM] mem[89] = 7f40a483
# [RAM] mem[90] = a95a7813
# [RAM] mem[91] = 412c5133
# [RAM] mem[92] = 01520f33
# [RAM] mem[93] = e58c4413
# [RAM] mem[94] = 0ec0a483
# [RAM] mem[95] = 00a201b3
# [RAM] mem[96] = 01ab5733
# [RAM] mem[97] = 12db0b93
# [RAM] mem[98] = 4091d9b3
# [RAM] mem[99] = 0163f733
# [RAM] No INIT_FILE specified
# [TB] Mode: CPU MASTER — CPU drives AXI, UVM observes
# UVM_INFO @ 0: reporter [RNTST] Running test cpu_test...
# UVM_INFO /home/khang/Documents/SystemVerilog/Soc_RV32I/SoC/VERIFICATION/Scoreboard/cpu_scoreboard.sv(97) @ 0: uvm_test_top.env.scoreboard [SCB] Loaded expected registers from: expected.mem
# UVM_INFO /home/khang/Documents/SystemVerilog/Soc_RV32I/SoC/VERIFICATION/Monitor/cpu_monitor.sv(105) @ 35000: uvm_test_top.env.agent.monitor [CPU_MON] === CPU Monitor started — watching pipeline ===
# UVM_INFO /home/khang/Documents/SystemVerilog/Soc_RV32I/SoC/VERIFICATION/Monitor/cpu_monitor.sv(106) @ 35000: uvm_test_top.env.agent.monitor [CPU_MON] ─────────────────────────────────────────────────────────
# UVM_INFO /home/khang/Documents/SystemVerilog/Soc_RV32I/SoC/VERIFICATION/Test/cpu_test.sv(40) @ 55000: uvm_test_top [TEST] Reset released — CPU executing from IRAM
# UVM_INFO /home/khang/Documents/SystemVerilog/Soc_RV32I/SoC/VERIFICATION/Monitor/cpu_monitor.sv(260) @ 55000: uvm_test_top.env.agent.monitor [AXI_RD] CPU←DRAM  Addr=00000000 Data=100000b7 RRESP=00
# UVM_INFO /home/khang/Documents/SystemVerilog/Soc_RV32I/SoC/VERIFICATION/Monitor/cpu_monitor.sv(127) @ 95000: uvm_test_top.env.agent.monitor [IF] PC=00000004  INSTR=100000b7  [LUI  x1, 0x10000]            
# UVM_INFO /home/khang/Documents/SystemVerilog/Soc_RV32I/SoC/VERIFICATION/Monitor/cpu_monitor.sv(260) @ 95000: uvm_test_top.env.agent.monitor [AXI_RD] CPU←DRAM  Addr=00000004 Data=0200016f RRESP=00
# UVM_INFO /home/khang/Documents/SystemVerilog/Soc_RV32I/SoC/VERIFICATION/Monitor/cpu_monitor.sv(127) @ 135000: uvm_test_top.env.agent.monitor [IF] PC=00000008  INSTR=0200016f  [JAL  x2, ...]            
# UVM_INFO /home/khang/Documents/SystemVerilog/Soc_RV32I/SoC/VERIFICATION/Monitor/cpu_monitor.sv(260) @ 135000: uvm_test_top.env.agent.monitor [AXI_RD] CPU←DRAM  Addr=00000008 Data=c76e6e13 RRESP=00
# UVM_INFO /home/khang/Documents/SystemVerilog/Soc_RV32I/SoC/VERIFICATION/Monitor/cpu_monitor.sv(192) @ 165000: uvm_test_top.env.agent.monitor [WB] x 1 <= 10000000  (PC~00000008)
# UVM_INFO /home/khang/Documents/SystemVerilog/Soc_RV32I/SoC/VERIFICATION/Monitor/cpu_monitor.sv(127) @ 175000: uvm_test_top.env.agent.monitor [IF] PC=0000000c  INSTR=c76e6e13  [ORI  x28, x28, -906]            
# UVM_INFO /home/khang/Documents/SystemVerilog/Soc_RV32I/SoC/VERIFICATION/Monitor/cpu_monitor.sv(192) @ 175000: uvm_test_top.env.agent.monitor [WB] x 1 <= 10000000  (PC~0000000c)
# UVM_INFO /home/khang/Documents/SystemVerilog/Soc_RV32I/SoC/VERIFICATION/Monitor/cpu_monitor.sv(260) @ 175000: uvm_test_top.env.agent.monitor [AXI_RD] CPU←DRAM  Addr=0000000c Data=6f40a423 RRESP=00
# UVM_INFO /home/khang/Documents/SystemVerilog/Soc_RV32I/SoC/VERIFICATION/Monitor/cpu_monitor.sv(192) @ 185000: uvm_test_top.env.agent.monitor [WB] x 1 <= 10000000  (PC~0000000c)
# UVM_INFO /home/khang/Documents/SystemVerilog/Soc_RV32I/SoC/VERIFICATION/Monitor/cpu_monitor.sv(192) @ 195000: uvm_test_top.env.agent.monitor [WB] x 1 <= 10000000  (PC~0000000c)
# UVM_INFO /home/khang/Documents/SystemVerilog/Soc_RV32I/SoC/VERIFICATION/Monitor/cpu_monitor.sv(192) @ 205000: uvm_test_top.env.agent.monitor [WB] x 2 <= 0000000c  (PC~0000000c)
# UVM_INFO /home/khang/Documents/SystemVerilog/Soc_RV32I/SoC/VERIFICATION/Monitor/cpu_monitor.sv(127) @ 215000: uvm_test_top.env.agent.monitor [IF] PC=00000010  INSTR=6f40a423  [SW   x20, 1780(x1)]            
# UVM_INFO /home/khang/Documents/SystemVerilog/Soc_RV32I/SoC/VERIFICATION/Monitor/cpu_monitor.sv(260) @ 215000: uvm_test_top.env.agent.monitor [AXI_RD] CPU←DRAM  Addr=00000010 Data=3f60ae23 RRESP=00
# UVM_INFO /home/khang/Documents/SystemVerilog/Soc_RV32I/SoC/VERIFICATION/Monitor/cpu_monitor.sv(127) @ 255000: uvm_test_top.env.agent.monitor [IF] PC=00000014  INSTR=3f60ae23  [SW   x22, 1014(x1)]            
# UVM_INFO /home/khang/Documents/SystemVerilog/Soc_RV32I/SoC/VERIFICATION/Monitor/cpu_monitor.sv(260) @ 255000: uvm_test_top.env.agent.monitor [AXI_RD] CPU←DRAM  Addr=00000014 Data=0640ac03 RRESP=00
# UVM_INFO /home/khang/Documents/SystemVerilog/Soc_RV32I/SoC/VERIFICATION/Monitor/cpu_monitor.sv(163) @ 275000: uvm_test_top.env.agent.monitor [MEM] STORE Addr=100006e8 Data=00000000
# UVM_INFO /home/khang/Documents/SystemVerilog/Soc_RV32I/SoC/VERIFICATION/Monitor/cpu_monitor.sv(163) @ 285000: uvm_test_top.env.agent.monitor [MEM] STORE Addr=100006e8 Data=00000000
# UVM_INFO /home/khang/Documents/SystemVerilog/Soc_RV32I/SoC/VERIFICATION/Monitor/cpu_monitor.sv(163) @ 295000: uvm_test_top.env.agent.monitor [MEM] STORE Addr=100006e8 Data=00000000
# UVM_INFO /home/khang/Documents/SystemVerilog/Soc_RV32I/SoC/VERIFICATION/Monitor/cpu_monitor.sv(163) @ 305000: uvm_test_top.env.agent.monitor [MEM] STORE Addr=100006e8 Data=00000000
# UVM_INFO /home/khang/Documents/SystemVerilog/Soc_RV32I/SoC/VERIFICATION/Monitor/cpu_monitor.sv(231) @ 305000: uvm_test_top.env.agent.monitor [AXI_WR] CPU→DRAM  Addr=00000000 Data=00000000 Strb=0000 BRESP=00
# UVM_INFO /home/khang/Documents/SystemVerilog/Soc_RV32I/SoC/VERIFICATION/Monitor/cpu_monitor.sv(163) @ 315000: uvm_test_top.env.agent.monitor [MEM] STORE Addr=100006e8 Data=00000000
# UVM_INFO /home/khang/Documents/SystemVerilog/Soc_RV32I/SoC/VERIFICATION/Monitor/cpu_monitor.sv(163) @ 325000: uvm_test_top.env.agent.monitor [MEM] STORE Addr=100006e8 Data=00000000
# UVM_INFO /home/khang/Documents/SystemVerilog/Soc_RV32I/SoC/VERIFICATION/Monitor/cpu_monitor.sv(163) @ 335000: uvm_test_top.env.agent.monitor [MEM] STORE Addr=100006e8 Data=00000000
# UVM_INFO /home/khang/Documents/SystemVerilog/Soc_RV32I/SoC/VERIFICATION/Monitor/cpu_monitor.sv(163) @ 345000: uvm_test_top.env.agent.monitor [MEM] STORE Addr=100006e8 Data=00000000
# UVM_INFO /home/khang/Documents/SystemVerilog/Soc_RV32I/SoC/VERIFICATION/Monitor/cpu_monitor.sv(231) @ 345000: uvm_test_top.env.agent.monitor [AXI_WR] CPU→DRAM  Addr=100006e8 Data=00000000 Strb=1111 BRESP=00
# UVM_INFO /home/khang/Documents/SystemVerilog/Soc_RV32I/SoC/VERIFICATION/Monitor/cpu_monitor.sv(163) @ 355000: uvm_test_top.env.agent.monitor [MEM] STORE Addr=100006e8 Data=00000000
# UVM_INFO /home/khang/Documents/SystemVerilog/Soc_RV32I/SoC/VERIFICATION/Monitor/cpu_monitor.sv(163) @ 365000: uvm_test_top.env.agent.monitor [MEM] STORE Addr=100006e8 Data=00000000
# UVM_INFO /home/khang/Documents/SystemVerilog/Soc_RV32I/SoC/VERIFICATION/Monitor/cpu_monitor.sv(163) @ 375000: uvm_test_top.env.agent.monitor [MEM] STORE Addr=100006e8 Data=00000000
# UVM_INFO /home/khang/Documents/SystemVerilog/Soc_RV32I/SoC/VERIFICATION/Monitor/cpu_monitor.sv(163) @ 385000: uvm_test_top.env.agent.monitor [MEM] STORE Addr=100006e8 Data=00000000
# UVM_INFO /home/khang/Documents/SystemVerilog/Soc_RV32I/SoC/VERIFICATION/Monitor/cpu_monitor.sv(231) @ 385000: uvm_test_top.env.agent.monitor [AXI_WR] CPU→DRAM  Addr=100006e8 Data=00000000 Strb=1111 BRESP=00
# UVM_INFO /home/khang/Documents/SystemVerilog/Soc_RV32I/SoC/VERIFICATION/Monitor/cpu_monitor.sv(163) @ 395000: uvm_test_top.env.agent.monitor [MEM] STORE Addr=100006e8 Data=00000000
# UVM_INFO /home/khang/Documents/SystemVerilog/Soc_RV32I/SoC/VERIFICATION/Monitor/cpu_monitor.sv(163) @ 405000: uvm_test_top.env.agent.monitor [MEM] STORE Addr=100006e8 Data=00000000
# UVM_INFO /home/khang/Documents/SystemVerilog/Soc_RV32I/SoC/VERIFICATION/Monitor/cpu_monitor.sv(163) @ 415000: uvm_test_top.env.agent.monitor [MEM] STORE Addr=100006e8 Data=00000000
# UVM_INFO /home/khang/Documents/SystemVerilog/Soc_RV32I/SoC/VERIFICATION/Monitor/cpu_monitor.sv(163) @ 425000: uvm_test_top.env.agent.monitor [MEM] STORE Addr=100006e8 Data=00000000
# UVM_INFO /home/khang/Documents/SystemVerilog/Soc_RV32I/SoC/VERIFICATION/Monitor/cpu_monitor.sv(231) @ 425000: uvm_test_top.env.agent.monitor [AXI_WR] CPU→DRAM  Addr=100006e8 Data=00000000 Strb=1111 BRESP=00
# UVM_INFO /home/khang/Documents/SystemVerilog/Soc_RV32I/SoC/VERIFICATION/Monitor/cpu_monitor.sv(163) @ 435000: uvm_test_top.env.agent.monitor [MEM] STORE Addr=100006e8 Data=00000000
# UVM_INFO /home/khang/Documents/SystemVerilog/Soc_RV32I/SoC/VERIFICATION/Monitor/cpu_monitor.sv(163) @ 445000: uvm_test_top.env.agent.monitor [MEM] STORE Addr=100006e8 Data=00000000
# UVM_INFO /home/khang/Documents/SystemVerilog/Soc_RV32I/SoC/VERIFICATION/Monitor/cpu_monitor.sv(163) @ 455000: uvm_test_top.env.agent.monitor [MEM] STORE Addr=100006e8 Data=00000000
# UVM_INFO /home/khang/Documents/SystemVerilog/Soc_RV32I/SoC/VERIFICATION/Monitor/cpu_monitor.sv(163) @ 465000: uvm_test_top.env.agent.monitor [MEM] STORE Addr=100006e8 Data=00000000
# UVM_INFO /home/khang/Documents/SystemVerilog/Soc_RV32I/SoC/VERIFICATION/Monitor/cpu_monitor.sv(231) @ 465000: uvm_test_top.env.agent.monitor [AXI_WR] CPU→DRAM  Addr=100006e8 Data=00000000 Strb=1111 BRESP=00
# UVM_INFO /home/khang/Documents/SystemVerilog/Soc_RV32I/SoC/VERIFICATION/Monitor/cpu_monitor.sv(163) @ 475000: uvm_test_top.env.agent.monitor [MEM] STORE Addr=100006e8 Data=00000000
# UVM_INFO /home/khang/Documents/SystemVerilog/Soc_RV32I/SoC/VERIFICATION/Monitor/cpu_monitor.sv(163) @ 485000: uvm_test_top.env.agent.monitor [MEM] STORE Addr=100006e8 Data=00000000
# UVM_INFO /home/khang/Documents/SystemVerilog/Soc_RV32I/SoC/VERIFICATION/Monitor/cpu_monitor.sv(163) @ 495000: uvm_test_top.env.agent.monitor [MEM] STORE Addr=100006e8 Data=00000000
# UVM_INFO /home/khang/Documents/SystemVerilog/Soc_RV32I/SoC/VERIFICATION/Monitor/cpu_monitor.sv(163) @ 505000: uvm_test_top.env.agent.monitor [MEM] STORE Addr=100006e8 Data=00000000
# UVM_INFO /home/khang/Documents/SystemVerilog/Soc_RV32I/SoC/VERIFICATION/Monitor/cpu_monitor.sv(231) @ 505000: uvm_test_top.env.agent.monitor [AXI_WR] CPU→DRAM  Addr=100006e8 Data=00000000 Strb=1111 BRESP=00
# UVM_INFO /home/khang/Documents/SystemVerilog/Soc_RV32I/SoC/VERIFICATION/Monitor/cpu_monitor.sv(163) @ 515000: uvm_test_top.env.agent.monitor [MEM] STORE Addr=100006e8 Data=00000000
# UVM_INFO /home/khang/Documents/SystemVerilog/Soc_RV32I/SoC/VERIFICATION/Monitor/cpu_monitor.sv(163) @ 525000: uvm_test_top.env.agent.monitor [MEM] STORE Addr=100006e8 Data=00000000
# UVM_INFO /home/khang/Documents/SystemVerilog/Soc_RV32I/SoC/VERIFICATION/Monitor/cpu_monitor.sv(163) @ 535000: uvm_test_top.env.agent.monitor [MEM] STORE Addr=100006e8 Data=00000000
# UVM_INFO /home/khang/Documents/SystemVerilog/Soc_RV32I/SoC/VERIFICATION/Monitor/cpu_monitor.sv(163) @ 545000: uvm_test_top.env.agent.monitor [MEM] STORE Addr=100006e8 Data=00000000
# UVM_INFO /home/khang/Documents/SystemVerilog/Soc_RV32I/SoC/VERIFICATION/Monitor/cpu_monitor.sv(231) @ 545000: uvm_test_top.env.agent.monitor [AXI_WR] CPU→DRAM  Addr=100006e8 Data=00000000 Strb=1111 BRESP=00
# UVM_INFO /home/khang/Documents/SystemVerilog/Soc_RV32I/SoC/VERIFICATION/Monitor/cpu_monitor.sv(163) @ 555000: uvm_test_top.env.agent.monitor [MEM] STORE Addr=100006e8 Data=00000000
# UVM_INFO /home/khang/Documents/SystemVerilog/Soc_RV32I/SoC/VERIFICATION/Monitor/cpu_monitor.sv(163) @ 565000: uvm_test_top.env.agent.monitor [MEM] STORE Addr=100006e8 Data=00000000
# UVM_INFO /home/khang/Documents/SystemVerilog/Soc_RV32I/SoC/VERIFICATION/Monitor/cpu_monitor.sv(163) @ 575000: uvm_test_top.env.agent.monitor [MEM] STORE Addr=100006e8 Data=00000000
# UVM_INFO /home/khang/Documents/SystemVerilog/Soc_RV32I/SoC/VERIFICATION/Monitor/cpu_monitor.sv(163) @ 585000: uvm_test_top.env.agent.monitor [MEM] STORE Addr=100006e8 Data=00000000
# UVM_INFO /home/khang/Documents/SystemVerilog/Soc_RV32I/SoC/VERIFICATION/Monitor/cpu_monitor.sv(231) @ 585000: uvm_test_top.env.agent.monitor [AXI_WR] CPU→DRAM  Addr=100006e8 Data=00000000 Strb=1111 BRESP=00
# UVM_INFO /home/khang/Documents/SystemVerilog/Soc_RV32I/SoC/VERIFICATION/Monitor/cpu_monitor.sv(163) @ 595000: uvm_test_top.env.agent.monitor [MEM] STORE Addr=100006e8 Data=00000000
# UVM_INFO /home/khang/Documents/SystemVerilog/Soc_RV32I/SoC/VERIFICATION/Monitor/cpu_monitor.sv(163) @ 605000: uvm_test_top.env.agent.monitor [MEM] STORE Addr=100006e8 Data=00000000
# UVM_INFO /home/khang/Documents/SystemVerilog/Soc_RV32I/SoC/VERIFICATION/Monitor/cpu_monitor.sv(163) @ 615000: uvm_test_top.env.agent.monitor [MEM] STORE Addr=100006e8 Data=00000000
# UVM_INFO /home/khang/Documents/SystemVerilog/Soc_RV32I/SoC/VERIFICATION/Monitor/cpu_monitor.sv(163) @ 625000: uvm_test_top.env.agent.monitor [MEM] STORE Addr=100006e8 Data=00000000
# UVM_INFO /home/khang/Documents/SystemVerilog/Soc_RV32I/SoC/VERIFICATION/Monitor/cpu_monitor.sv(231) @ 625000: uvm_test_top.env.agent.monitor [AXI_WR] CPU→DRAM  Addr=100006e8 Data=00000000 Strb=1111 BRESP=00
# UVM_INFO /home/khang/Documents/SystemVerilog/Soc_RV32I/SoC/VERIFICATION/Monitor/cpu_monitor.sv(163) @ 635000: uvm_test_top.env.agent.monitor [MEM] STORE Addr=100006e8 Data=00000000
# UVM_INFO /home/khang/Documents/SystemVerilog/Soc_RV32I/SoC/VERIFICATION/Monitor/cpu_monitor.sv(163) @ 645000: uvm_test_top.env.agent.monitor [MEM] STORE Addr=100006e8 Data=00000000
# UVM_INFO /home/khang/Documents/SystemVerilog/Soc_RV32I/SoC/VERIFICATION/Monitor/cpu_monitor.sv(163) @ 655000: uvm_test_top.env.agent.monitor [MEM] STORE Addr=100006e8 Data=00000000
# UVM_INFO /home/khang/Documents/SystemVerilog/Soc_RV32I/SoC/VERIFICATION/Monitor/cpu_monitor.sv(163) @ 665000: uvm_test_top.env.agent.monitor [MEM] STORE Addr=100006e8 Data=00000000
# UVM_INFO /home/khang/Documents/SystemVerilog/Soc_RV32I/SoC/VERIFICATION/Monitor/cpu_monitor.sv(231) @ 665000: uvm_test_top.env.agent.monitor [AXI_WR] CPU→DRAM  Addr=100006e8 Data=00000000 Strb=1111 BRESP=00
# UVM_INFO /home/khang/Documents/SystemVerilog/Soc_RV32I/SoC/VERIFICATION/Monitor/cpu_monitor.sv(163) @ 675000: uvm_test_top.env.agent.monitor [MEM] STORE Addr=100006e8 Data=00000000
# UVM_INFO /home/khang/Documents/SystemVerilog/Soc_RV32I/SoC/VERIFICATION/Monitor/cpu_monitor.sv(163) @ 685000: uvm_test_top.env.agent.monitor [MEM] STORE Addr=100006e8 Data=00000000
# UVM_INFO /home/khang/Documents/SystemVerilog/Soc_RV32I/SoC/VERIFICATION/Monitor/cpu_monitor.sv(163) @ 695000: uvm_test_top.env.agent.monitor [MEM] STORE Addr=100006e8 Data=00000000
# UVM_INFO /home/khang/Documents/SystemVerilog/Soc_RV32I/SoC/VERIFICATION/Monitor/cpu_monitor.sv(163) @ 705000: uvm_test_top.env.agent.monitor [MEM] STORE Addr=100006e8 Data=00000000
# UVM_INFO /home/khang/Documents/SystemVerilog/Soc_RV32I/SoC/VERIFICATION/Monitor/cpu_monitor.sv(231) @ 705000: uvm_test_top.env.agent.monitor [AXI_WR] CPU→DRAM  Addr=100006e8 Data=00000000 Strb=1111 BRESP=00
# UVM_INFO /home/khang/Documents/SystemVerilog/Soc_RV32I/SoC/VERIFICATION/Monitor/cpu_monitor.sv(163) @ 715000: uvm_test_top.env.agent.monitor [MEM] STORE Addr=100006e8 Data=00000000
# UVM_INFO /home/khang/Documents/SystemVerilog/Soc_RV32I/SoC/VERIFICATION/Monitor/cpu_monitor.sv(163) @ 725000: uvm_test_top.env.agent.monitor [MEM] STORE Addr=100006e8 Data=00000000
# UVM_INFO /home/khang/Documents/SystemVerilog/Soc_RV32I/SoC/VERIFICATION/Monitor/cpu_monitor.sv(163) @ 735000: uvm_test_top.env.agent.monitor [MEM] STORE Addr=100006e8 Data=00000000
# UVM_INFO /home/khang/Documents/SystemVerilog/Soc_RV32I/SoC/VERIFICATION/Monitor/cpu_monitor.sv(163) @ 745000: uvm_test_top.env.agent.monitor [MEM] STORE Addr=100006e8 Data=00000000
# UVM_INFO /home/khang/Documents/SystemVerilog/Soc_RV32I/SoC/VERIFICATION/Monitor/cpu_monitor.sv(231) @ 745000: uvm_test_top.env.agent.monitor [AXI_WR] CPU→DRAM  Addr=100006e8 Data=00000000 Strb=1111 BRESP=00
# UVM_INFO /home/khang/Documents/SystemVerilog/Soc_RV32I/SoC/VERIFICATION/Monitor/cpu_monitor.sv(163) @ 755000: uvm_test_top.env.agent.monitor [MEM] STORE Addr=100006e8 Data=00000000
# UVM_INFO /home/khang/Documents/SystemVerilog/Soc_RV32I/SoC/VERIFICATION/Monitor/cpu_monitor.sv(163) @ 765000: uvm_test_top.env.agent.monitor [MEM] STORE Addr=100006e8 Data=00000000
# UVM_INFO /home/khang/Documents/SystemVerilog/Soc_RV32I/SoC/VERIFICATION/Monitor/cpu_monitor.sv(163) @ 775000: uvm_test_top.env.agent.monitor [MEM] STORE Addr=100006e8 Data=00000000
# UVM_INFO /home/khang/Documents/SystemVerilog/Soc_RV32I/SoC/VERIFICATION/Monitor/cpu_monitor.sv(163) @ 785000: uvm_test_top.env.agent.monitor [MEM] STORE Addr=100006e8 Data=00000000
# UVM_INFO /home/khang/Documents/SystemVerilog/Soc_RV32I/SoC/VERIFICATION/Monitor/cpu_monitor.sv(231) @ 785000: uvm_test_top.env.agent.monitor [AXI_WR] CPU→DRAM  Addr=100006e8 Data=00000000 Strb=1111 BRESP=00
# UVM_INFO /home/khang/Documents/SystemVerilog/Soc_RV32I/SoC/VERIFICATION/Monitor/cpu_monitor.sv(163) @ 795000: uvm_test_top.env.agent.monitor [MEM] STORE Addr=100006e8 Data=00000000
# UVM_INFO /home/khang/Documents/SystemVerilog/Soc_RV32I/SoC/VERIFICATION/Monitor/cpu_monitor.sv(163) @ 805000: uvm_test_top.env.agent.monitor [MEM] STORE Addr=100006e8 Data=00000000
# UVM_INFO /home/khang/Documents/SystemVerilog/Soc_RV32I/SoC/VERIFICATION/Monitor/cpu_monitor.sv(163) @ 815000: uvm_test_top.env.agent.monitor [MEM] STORE Addr=100006e8 Data=00000000
# UVM_INFO /home/khang/Documents/SystemVerilog/Soc_RV32I/SoC/VERIFICATION/Monitor/cpu_monitor.sv(163) @ 825000: uvm_test_top.env.agent.monitor [MEM] STORE Addr=100006e8 Data=00000000
# UVM_INFO /home/khang/Documents/SystemVerilog/Soc_RV32I/SoC/VERIFICATION/Monitor/cpu_monitor.sv(231) @ 825000: uvm_test_top.env.agent.monitor [AXI_WR] CPU→DRAM  Addr=100006e8 Data=00000000 Strb=1111 BRESP=00
# UVM_INFO /home/khang/Documents/SystemVerilog/Soc_RV32I/SoC/VERIFICATION/Monitor/cpu_monitor.sv(163) @ 835000: uvm_test_top.env.agent.monitor [MEM] STORE Addr=100006e8 Data=00000000
# UVM_INFO /home/khang/Documents/SystemVerilog/Soc_RV32I/SoC/VERIFICATION/Monitor/cpu_monitor.sv(163) @ 845000: uvm_test_top.env.agent.monitor [MEM] STORE Addr=100006e8 Data=00000000
# UVM_INFO /home/khang/Documents/SystemVerilog/Soc_RV32I/SoC/VERIFICATION/Monitor/cpu_monitor.sv(163) @ 855000: uvm_test_top.env.agent.monitor [MEM] STORE Addr=100006e8 Data=00000000
# UVM_INFO /home/khang/Documents/SystemVerilog/Soc_RV32I/SoC/VERIFICATION/Monitor/cpu_monitor.sv(163) @ 865000: uvm_test_top.env.agent.monitor [MEM] STORE Addr=100006e8 Data=00000000
# UVM_INFO /home/khang/Documents/SystemVerilog/Soc_RV32I/SoC/VERIFICATION/Monitor/cpu_monitor.sv(231) @ 865000: uvm_test_top.env.agent.monitor [AXI_WR] CPU→DRAM  Addr=100006e8 Data=00000000 Strb=1111 BRESP=00
# UVM_INFO /home/khang/Documents/SystemVerilog/Soc_RV32I/SoC/VERIFICATION/Monitor/cpu_monitor.sv(163) @ 875000: uvm_test_top.env.agent.monitor [MEM] STORE Addr=100006e8 Data=00000000
# UVM_INFO /home/khang/Documents/SystemVerilog/Soc_RV32I/SoC/VERIFICATION/Monitor/cpu_monitor.sv(163) @ 885000: uvm_test_top.env.agent.monitor [MEM] STORE Addr=100006e8 Data=00000000
# UVM_INFO /home/khang/Documents/SystemVerilog/Soc_RV32I/SoC/VERIFICATION/Monitor/cpu_monitor.sv(163) @ 895000: uvm_test_top.env.agent.monitor [MEM] STORE Addr=100006e8 Data=00000000
# UVM_INFO /home/khang/Documents/SystemVerilog/Soc_RV32I/SoC/VERIFICATION/Monitor/cpu_monitor.sv(163) @ 905000: uvm_test_top.env.agent.monitor [MEM] STORE Addr=100006e8 Data=00000000
# UVM_INFO /home/khang/Documents/SystemVerilog/Soc_RV32I/SoC/VERIFICATION/Monitor/cpu_monitor.sv(231) @ 905000: uvm_test_top.env.agent.monitor [AXI_WR] CPU→DRAM  Addr=100006e8 Data=00000000 Strb=1111 BRESP=00
# UVM_INFO /home/khang/Documents/SystemVerilog/Soc_RV32I/SoC/VERIFICATION/Monitor/cpu_monitor.sv(163) @ 915000: uvm_test_top.env.agent.monitor [MEM] STORE Addr=100006e8 Data=00000000
# UVM_INFO /home/khang/Documents/SystemVerilog/Soc_RV32I/SoC/VERIFICATION/Monitor/cpu_monitor.sv(163) @ 925000: uvm_test_top.env.agent.monitor [MEM] STORE Addr=100006e8 Data=00000000
# UVM_INFO /home/khang/Documents/SystemVerilog/Soc_RV32I/SoC/VERIFICATION/Monitor/cpu_monitor.sv(163) @ 935000: uvm_test_top.env.agent.monitor [MEM] STORE Addr=100006e8 Data=00000000
# UVM_INFO /home/khang/Documents/SystemVerilog/Soc_RV32I/SoC/VERIFICATION/Monitor/cpu_monitor.sv(163) @ 945000: uvm_test_top.env.agent.monitor [MEM] STORE Addr=100006e8 Data=00000000
# UVM_INFO /home/khang/Documents/SystemVerilog/Soc_RV32I/SoC/VERIFICATION/Monitor/cpu_monitor.sv(231) @ 945000: uvm_test_top.env.agent.monitor [AXI_WR] CPU→DRAM  Addr=100006e8 Data=00000000 Strb=1111 BRESP=00
# UVM_INFO /home/khang/Documents/SystemVerilog/Soc_RV32I/SoC/VERIFICATION/Monitor/cpu_monitor.sv(163) @ 955000: uvm_test_top.env.agent.monitor [MEM] STORE Addr=100006e8 Data=00000000
# UVM_INFO /home/khang/Documents/SystemVerilog/Soc_RV32I/SoC/VERIFICATION/Monitor/cpu_monitor.sv(163) @ 965000: uvm_test_top.env.agent.monitor [MEM] STORE Addr=100006e8 Data=00000000
# UVM_INFO /home/khang/Documents/SystemVerilog/Soc_RV32I/SoC/VERIFICATION/Monitor/cpu_monitor.sv(163) @ 975000: uvm_test_top.env.agent.monitor [MEM] STORE Addr=100006e8 Data=00000000
# UVM_INFO /home/khang/Documents/SystemVerilog/Soc_RV32I/SoC/VERIFICATION/Monitor/cpu_monitor.sv(163) @ 985000: uvm_test_top.env.agent.monitor [MEM] STORE Addr=100006e8 Data=00000000
# UVM_INFO /home/khang/Documents/SystemVerilog/Soc_RV32I/SoC/VERIFICATION/Monitor/cpu_monitor.sv(231) @ 985000: uvm_test_top.env.agent.monitor [AXI_WR] CPU→DRAM  Addr=100006e8 Data=00000000 Strb=1111 BRESP=00
# UVM_INFO /home/khang/Documents/SystemVerilog/Soc_RV32I/SoC/VERIFICATION/Monitor/cpu_monitor.sv(163) @ 995000: uvm_test_top.env.agent.monitor [MEM] STORE Addr=100006e8 Data=00000000
# UVM_INFO /home/khang/Documents/SystemVerilog/Soc_RV32I/SoC/VERIFICATION/Monitor/cpu_monitor.sv(163) @ 1005000: uvm_test_top.env.agent.monitor [MEM] STORE Addr=100006e8 Data=00000000
# UVM_INFO /home/khang/Documents/SystemVerilog/Soc_RV32I/SoC/VERIFICATION/Monitor/cpu_monitor.sv(163) @ 1015000: uvm_test_top.env.agent.monitor [MEM] STORE Addr=100006e8 Data=00000000
# UVM_INFO /home/khang/Documents/SystemVerilog/Soc_RV32I/SoC/VERIFICATION/Monitor/cpu_monitor.sv(163) @ 1025000: uvm_test_top.env.agent.monitor [MEM] STORE Addr=100006e8 Data=00000000
# UVM_INFO /home/khang/Documents/SystemVerilog/Soc_RV32I/SoC/VERIFICATION/Monitor/cpu_monitor.sv(231) @ 1025000: uvm_test_top.env.agent.monitor [AXI_WR] CPU→DRAM  Addr=100006e8 Data=00000000 Strb=1111 BRESP=00
# UVM_INFO /home/khang/Documents/SystemVerilog/Soc_RV32I/SoC/VERIFICATION/Monitor/cpu_monitor.sv(163) @ 1035000: uvm_test_top.env.agent.monitor [MEM] STORE Addr=100006e8 Data=00000000
# UVM_INFO /home/khang/Documents/SystemVerilog/Soc_RV32I/SoC/VERIFICATION/Monitor/cpu_monitor.sv(163) @ 1045000: uvm_test_top.env.agent.monitor [MEM] STORE Addr=100006e8 Data=00000000
# UVM_INFO /home/khang/Documents/SystemVerilog/Soc_RV32I/SoC/VERIFICATION/Monitor/cpu_monitor.sv(163) @ 1055000: uvm_test_top.env.agent.monitor [MEM] STORE Addr=100006e8 Data=00000000
# UVM_INFO /home/khang/Documents/SystemVerilog/Soc_RV32I/SoC/VERIFICATION/Monitor/cpu_monitor.sv(163) @ 1065000: uvm_test_top.env.agent.monitor [MEM] STORE Addr=100006e8 Data=00000000
# UVM_INFO /home/khang/Documents/SystemVerilog/Soc_RV32I/SoC/VERIFICATION/Monitor/cpu_monitor.sv(231) @ 1065000: uvm_test_top.env.agent.monitor [AXI_WR] CPU→DRAM  Addr=100006e8 Data=00000000 Strb=1111 BRESP=00
# UVM_INFO /home/khang/Documents/SystemVerilog/Soc_RV32I/SoC/VERIFICATION/Monitor/cpu_monitor.sv(163) @ 1075000: uvm_test_top.env.agent.monitor [MEM] STORE Addr=100006e8 Data=00000000
# UVM_INFO /home/khang/Documents/SystemVerilog/Soc_RV32I/SoC/VERIFICATION/Monitor/cpu_monitor.sv(163) @ 1085000: uvm_test_top.env.agent.monitor [MEM] STORE Addr=100006e8 Data=00000000
# UVM_INFO /home/khang/Documents/SystemVerilog/Soc_RV32I/SoC/VERIFICATION/Monitor/cpu_monitor.sv(163) @ 1095000: uvm_test_top.env.agent.monitor [MEM] STORE Addr=100006e8 Data=00000000
# UVM_INFO /home/khang/Documents/SystemVerilog/Soc_RV32I/SoC/VERIFICATION/Monitor/cpu_monitor.sv(163) @ 1105000: uvm_test_top.env.agent.monitor [MEM] STORE Addr=100006e8 Data=00000000
# UVM_INFO /home/khang/Documents/SystemVerilog/Soc_RV32I/SoC/VERIFICATION/Monitor/cpu_monitor.sv(231) @ 1105000: uvm_test_top.env.agent.monitor [AXI_WR] CPU→DRAM  Addr=100006e8 Data=00000000 Strb=1111 BRESP=00
# UVM_INFO /home/khang/Documents/SystemVerilog/Soc_RV32I/SoC/VERIFICATION/Monitor/cpu_monitor.sv(163) @ 1115000: uvm_test_top.env.agent.monitor [MEM] STORE Addr=100006e8 Data=00000000
# UVM_INFO /home/khang/Documents/SystemVerilog/Soc_RV32I/SoC/VERIFICATION/Monitor/cpu_monitor.sv(163) @ 1125000: uvm_test_top.env.agent.monitor [MEM] STORE Addr=100006e8 Data=00000000
# UVM_INFO /home/khang/Documents/SystemVerilog/Soc_RV32I/SoC/VERIFICATION/Monitor/cpu_monitor.sv(163) @ 1135000: uvm_test_top.env.agent.monitor [MEM] STORE Addr=100006e8 Data=00000000
# UVM_INFO /home/khang/Documents/SystemVerilog/Soc_RV32I/SoC/VERIFICATION/Monitor/cpu_monitor.sv(163) @ 1145000: uvm_test_top.env.agent.monitor [MEM] STORE Addr=100006e8 Data=00000000
# UVM_INFO /home/khang/Documents/SystemVerilog/Soc_RV32I/SoC/VERIFICATION/Monitor/cpu_monitor.sv(231) @ 1145000: uvm_test_top.env.agent.monitor [AXI_WR] CPU→DRAM  Addr=100006e8 Data=00000000 Strb=1111 BRESP=00
# UVM_INFO /home/khang/Documents/SystemVerilog/Soc_RV32I/SoC/VERIFICATION/Monitor/cpu_monitor.sv(163) @ 1155000: uvm_test_top.env.agent.monitor [MEM] STORE Addr=100006e8 Data=00000000
# UVM_INFO /home/khang/Documents/SystemVerilog/Soc_RV32I/SoC/VERIFICATION/Monitor/cpu_monitor.sv(163) @ 1165000: uvm_test_top.env.agent.monitor [MEM] STORE Addr=100006e8 Data=00000000
# UVM_INFO /home/khang/Documents/SystemVerilog/Soc_RV32I/SoC/VERIFICATION/Monitor/cpu_monitor.sv(163) @ 1175000: uvm_test_top.env.agent.monitor [MEM] STORE Addr=100006e8 Data=00000000
# UVM_INFO /home/khang/Documents/SystemVerilog/Soc_RV32I/SoC/VERIFICATION/Monitor/cpu_monitor.sv(163) @ 1185000: uvm_test_top.env.agent.monitor [MEM] STORE Addr=100006e8 Data=00000000
# UVM_INFO /home/khang/Documents/SystemVerilog/Soc_RV32I/SoC/VERIFICATION/Monitor/cpu_monitor.sv(231) @ 1185000: uvm_test_top.env.agent.monitor [AXI_WR] CPU→DRAM  Addr=100006e8 Data=00000000 Strb=1111 BRESP=00
# UVM_INFO /home/khang/Documents/SystemVerilog/Soc_RV32I/SoC/VERIFICATION/Monitor/cpu_monitor.sv(163) @ 1195000: uvm_test_top.env.agent.monitor [MEM] STORE Addr=100006e8 Data=00000000
# UVM_INFO /home/khang/Documents/SystemVerilog/Soc_RV32I/SoC/VERIFICATION/Monitor/cpu_monitor.sv(163) @ 1205000: uvm_test_top.env.agent.monitor [MEM] STORE Addr=100006e8 Data=00000000
# UVM_INFO /home/khang/Documents/SystemVerilog/Soc_RV32I/SoC/VERIFICATION/Monitor/cpu_monitor.sv(163) @ 1215000: uvm_test_top.env.agent.monitor [MEM] STORE Addr=100006e8 Data=00000000
# UVM_INFO /home/khang/Documents/SystemVerilog/Soc_RV32I/SoC/VERIFICATION/Monitor/cpu_monitor.sv(163) @ 1225000: uvm_test_top.env.agent.monitor [MEM] STORE Addr=100006e8 Data=00000000
# UVM_INFO /home/khang/Documents/SystemVerilog/Soc_RV32I/SoC/VERIFICATION/Monitor/cpu_monitor.sv(231) @ 1225000: uvm_test_top.env.agent.monitor [AXI_WR] CPU→DRAM  Addr=100006e8 Data=00000000 Strb=1111 BRESP=00
# UVM_INFO /home/khang/Documents/SystemVerilog/Soc_RV32I/SoC/VERIFICATION/Monitor/cpu_monitor.sv(163) @ 1235000: uvm_test_top.env.agent.monitor [MEM] STORE Addr=100006e8 Data=00000000
# UVM_INFO /home/khang/Documents/SystemVerilog/Soc_RV32I/SoC/VERIFICATION/Monitor/cpu_monitor.sv(163) @ 1245000: uvm_test_top.env.agent.monitor [MEM] STORE Addr=100006e8 Data=00000000
# UVM_INFO /home/khang/Documents/SystemVerilog/Soc_RV32I/SoC/VERIFICATION/Monitor/cpu_monitor.sv(163) @ 1255000: uvm_test_top.env.agent.monitor [MEM] STORE Addr=100006e8 Data=00000000
# UVM_INFO /home/khang/Documents/SystemVerilog/Soc_RV32I/SoC/VERIFICATION/Monitor/cpu_monitor.sv(163) @ 1265000: uvm_test_top.env.agent.monitor [MEM] STORE Addr=100006e8 Data=00000000
# UVM_INFO /home/khang/Documents/SystemVerilog/Soc_RV32I/SoC/VERIFICATION/Monitor/cpu_monitor.sv(231) @ 1265000: uvm_test_top.env.agent.monitor [AXI_WR] CPU→DRAM  Addr=100006e8 Data=00000000 Strb=1111 BRESP=00
# UVM_INFO /home/khang/Documents/SystemVerilog/Soc_RV32I/SoC/VERIFICATION/Monitor/cpu_monitor.sv(163) @ 1275000: uvm_test_top.env.agent.monitor [MEM] STORE Addr=100006e8 Data=00000000
# UVM_INFO /home/khang/Documents/SystemVerilog/Soc_RV32I/SoC/VERIFICATION/Monitor/cpu_monitor.sv(163) @ 1285000: uvm_test_top.env.agent.monitor [MEM] STORE Addr=100006e8 Data=00000000
# UVM_INFO /home/khang/Documents/SystemVerilog/Soc_RV32I/SoC/VERIFICATION/Monitor/cpu_monitor.sv(163) @ 1295000: uvm_test_top.env.agent.monitor [MEM] STORE Addr=100006e8 Data=00000000
# UVM_INFO /home/khang/Documents/SystemVerilog/Soc_RV32I/SoC/VERIFICATION/Monitor/cpu_monitor.sv(163) @ 1305000: uvm_test_top.env.agent.monitor [MEM] STORE Addr=100006e8 Data=00000000
# UVM_INFO /home/khang/Documents/SystemVerilog/Soc_RV32I/SoC/VERIFICATION/Monitor/cpu_monitor.sv(231) @ 1305000: uvm_test_top.env.agent.monitor [AXI_WR] CPU→DRAM  Addr=100006e8 Data=00000000 Strb=1111 BRESP=00
# UVM_INFO /home/khang/Documents/SystemVerilog/Soc_RV32I/SoC/VERIFICATION/Monitor/cpu_monitor.sv(163) @ 1315000: uvm_test_top.env.agent.monitor [MEM] STORE Addr=100006e8 Data=00000000
# UVM_INFO /home/khang/Documents/SystemVerilog/Soc_RV32I/SoC/VERIFICATION/Monitor/cpu_monitor.sv(163) @ 1325000: uvm_test_top.env.agent.monitor [MEM] STORE Addr=100006e8 Data=00000000
# UVM_INFO /home/khang/Documents/SystemVerilog/Soc_RV32I/SoC/VERIFICATION/Monitor/cpu_monitor.sv(163) @ 1335000: uvm_test_top.env.agent.monitor [MEM] STORE Addr=100006e8 Data=00000000
# UVM_INFO /home/khang/Documents/SystemVerilog/Soc_RV32I/SoC/VERIFICATION/Monitor/cpu_monitor.sv(163) @ 1345000: uvm_test_top.env.agent.monitor [MEM] STORE Addr=100006e8 Data=00000000
# UVM_INFO /home/khang/Documents/SystemVerilog/Soc_RV32I/SoC/VERIFICATION/Monitor/cpu_monitor.sv(231) @ 1345000: uvm_test_top.env.agent.monitor [AXI_WR] CPU→DRAM  Addr=100006e8 Data=00000000 Strb=1111 BRESP=00
# UVM_INFO /home/khang/Documents/SystemVerilog/Soc_RV32I/SoC/VERIFICATION/Monitor/cpu_monitor.sv(163) @ 1355000: uvm_test_top.env.agent.monitor [MEM] STORE Addr=100006e8 Data=00000000
# UVM_INFO /home/khang/Documents/SystemVerilog/Soc_RV32I/SoC/VERIFICATION/Monitor/cpu_monitor.sv(163) @ 1365000: uvm_test_top.env.agent.monitor [MEM] STORE Addr=100006e8 Data=00000000
# UVM_INFO /home/khang/Documents/SystemVerilog/Soc_RV32I/SoC/VERIFICATION/Monitor/cpu_monitor.sv(163) @ 1375000: uvm_test_top.env.agent.monitor [MEM] STORE Addr=100006e8 Data=00000000
# UVM_INFO /home/khang/Documents/SystemVerilog/Soc_RV32I/SoC/VERIFICATION/Monitor/cpu_monitor.sv(163) @ 1385000: uvm_test_top.env.agent.monitor [MEM] STORE Addr=100006e8 Data=00000000
# UVM_INFO /home/khang/Documents/SystemVerilog/Soc_RV32I/SoC/VERIFICATION/Monitor/cpu_monitor.sv(231) @ 1385000: uvm_test_top.env.agent.monitor [AXI_WR] CPU→DRAM  Addr=100006e8 Data=00000000 Strb=1111 BRESP=00
# UVM_INFO /home/khang/Documents/SystemVerilog/Soc_RV32I/SoC/VERIFICATION/Monitor/cpu_monitor.sv(163) @ 1395000: uvm_test_top.env.agent.monitor [MEM] STORE Addr=100006e8 Data=00000000
# UVM_INFO /home/khang/Documents/SystemVerilog/Soc_RV32I/SoC/VERIFICATION/Monitor/cpu_monitor.sv(163) @ 1405000: uvm_test_top.env.agent.monitor [MEM] STORE Addr=100006e8 Data=00000000
# UVM_INFO /home/khang/Documents/SystemVerilog/Soc_RV32I/SoC/VERIFICATION/Monitor/cpu_monitor.sv(163) @ 1415000: uvm_test_top.env.agent.monitor [MEM] STORE Addr=100006e8 Data=00000000
# UVM_INFO /home/khang/Documents/SystemVerilog/Soc_RV32I/SoC/VERIFICATION/Monitor/cpu_monitor.sv(163) @ 1425000: uvm_test_top.env.agent.monitor [MEM] STORE Addr=100006e8 Data=00000000
# UVM_INFO /home/khang/Documents/SystemVerilog/Soc_RV32I/SoC/VERIFICATION/Monitor/cpu_monitor.sv(231) @ 1425000: uvm_test_top.env.agent.monitor [AXI_WR] CPU→DRAM  Addr=100006e8 Data=00000000 Strb=1111 BRESP=00
# UVM_INFO /home/khang/Documents/SystemVerilog/Soc_RV32I/SoC/VERIFICATION/Monitor/cpu_monitor.sv(163) @ 1435000: uvm_test_top.env.agent.monitor [MEM] STORE Addr=100006e8 Data=00000000
# UVM_INFO /home/khang/Documents/SystemVerilog/Soc_RV32I/SoC/VERIFICATION/Monitor/cpu_monitor.sv(163) @ 1445000: uvm_test_top.env.agent.monitor [MEM] STORE Addr=100006e8 Data=00000000
# UVM_INFO /home/khang/Documents/SystemVerilog/Soc_RV32I/SoC/VERIFICATION/Monitor/cpu_monitor.sv(163) @ 1455000: uvm_test_top.env.agent.monitor [MEM] STORE Addr=100006e8 Data=00000000
# UVM_INFO /home/khang/Documents/SystemVerilog/Soc_RV32I/SoC/VERIFICATION/Monitor/cpu_monitor.sv(163) @ 1465000: uvm_test_top.env.agent.monitor [MEM] STORE Addr=100006e8 Data=00000000
# UVM_INFO /home/khang/Documents/SystemVerilog/Soc_RV32I/SoC/VERIFICATION/Monitor/cpu_monitor.sv(231) @ 1465000: uvm_test_top.env.agent.monitor [AXI_WR] CPU→DRAM  Addr=100006e8 Data=00000000 Strb=1111 BRESP=00
# UVM_INFO /home/khang/Documents/SystemVerilog/Soc_RV32I/SoC/VERIFICATION/Monitor/cpu_monitor.sv(163) @ 1475000: uvm_test_top.env.agent.monitor [MEM] STORE Addr=100006e8 Data=00000000
# UVM_INFO /home/khang/Documents/SystemVerilog/Soc_RV32I/SoC/VERIFICATION/Monitor/cpu_monitor.sv(163) @ 1485000: uvm_test_top.env.agent.monitor [MEM] STORE Addr=100006e8 Data=00000000
# UVM_INFO /home/khang/Documents/SystemVerilog/Soc_RV32I/SoC/VERIFICATION/Monitor/cpu_monitor.sv(163) @ 1495000: uvm_test_top.env.agent.monitor [MEM] STORE Addr=100006e8 Data=00000000
# UVM_INFO /home/khang/Documents/SystemVerilog/Soc_RV32I/SoC/VERIFICATION/Monitor/cpu_monitor.sv(163) @ 1505000: uvm_test_top.env.agent.monitor [MEM] STORE Addr=100006e8 Data=00000000
# UVM_INFO /home/khang/Documents/SystemVerilog/Soc_RV32I/SoC/VERIFICATION/Monitor/cpu_monitor.sv(231) @ 1505000: uvm_test_top.env.agent.monitor [AXI_WR] CPU→DRAM  Addr=100006e8 Data=00000000 Strb=1111 BRESP=00
# UVM_INFO /home/khang/Documents/SystemVerilog/Soc_RV32I/SoC/VERIFICATION/Monitor/cpu_monitor.sv(163) @ 1515000: uvm_test_top.env.agent.monitor [MEM] STORE Addr=100006e8 Data=00000000
# UVM_INFO /home/khang/Documents/SystemVerilog/Soc_RV32I/SoC/VERIFICATION/Monitor/cpu_monitor.sv(163) @ 1525000: uvm_test_top.env.agent.monitor [MEM] STORE Addr=100006e8 Data=00000000
# UVM_INFO /home/khang/Documents/SystemVerilog/Soc_RV32I/SoC/VERIFICATION/Monitor/cpu_monitor.sv(163) @ 1535000: uvm_test_top.env.agent.monitor [MEM] STORE Addr=100006e8 Data=00000000
# UVM_INFO /home/khang/Documents/SystemVerilog/Soc_RV32I/SoC/VERIFICATION/Monitor/cpu_monitor.sv(163) @ 1545000: uvm_test_top.env.agent.monitor [MEM] STORE Addr=100006e8 Data=00000000
# UVM_INFO /home/khang/Documents/SystemVerilog/Soc_RV32I/SoC/VERIFICATION/Monitor/cpu_monitor.sv(231) @ 1545000: uvm_test_top.env.agent.monitor [AXI_WR] CPU→DRAM  Addr=100006e8 Data=00000000 Strb=1111 BRESP=00
# UVM_INFO /home/khang/Documents/SystemVerilog/Soc_RV32I/SoC/VERIFICATION/Monitor/cpu_monitor.sv(163) @ 1555000: uvm_test_top.env.agent.monitor [MEM] STORE Addr=100006e8 Data=00000000
# UVM_INFO /home/khang/Documents/SystemVerilog/Soc_RV32I/SoC/VERIFICATION/Monitor/cpu_monitor.sv(163) @ 1565000: uvm_test_top.env.agent.monitor [MEM] STORE Addr=100006e8 Data=00000000
# UVM_INFO /home/khang/Documents/SystemVerilog/Soc_RV32I/SoC/VERIFICATION/Monitor/cpu_monitor.sv(163) @ 1575000: uvm_test_top.env.agent.monitor [MEM] STORE Addr=100006e8 Data=00000000
# UVM_INFO /home/khang/Documents/SystemVerilog/Soc_RV32I/SoC/VERIFICATION/Monitor/cpu_monitor.sv(163) @ 1585000: uvm_test_top.env.agent.monitor [MEM] STORE Addr=100006e8 Data=00000000
# UVM_INFO /home/khang/Documents/SystemVerilog/Soc_RV32I/SoC/VERIFICATION/Monitor/cpu_monitor.sv(231) @ 1585000: uvm_test_top.env.agent.monitor [AXI_WR] CPU→DRAM  Addr=100006e8 Data=00000000 Strb=1111 BRESP=00
# UVM_INFO /home/khang/Documents/SystemVerilog/Soc_RV32I/SoC/VERIFICATION/Monitor/cpu_monitor.sv(163) @ 1595000: uvm_test_top.env.agent.monitor [MEM] STORE Addr=100006e8 Data=00000000
# UVM_INFO /home/khang/Documents/SystemVerilog/Soc_RV32I/SoC/VERIFICATION/Monitor/cpu_monitor.sv(163) @ 1605000: uvm_test_top.env.agent.monitor [MEM] STORE Addr=100006e8 Data=00000000
# UVM_INFO /home/khang/Documents/SystemVerilog/Soc_RV32I/SoC/VERIFICATION/Monitor/cpu_monitor.sv(163) @ 1615000: uvm_test_top.env.agent.monitor [MEM] STORE Addr=100006e8 Data=00000000
# UVM_INFO /home/khang/Documents/SystemVerilog/Soc_RV32I/SoC/VERIFICATION/Monitor/cpu_monitor.sv(163) @ 1625000: uvm_test_top.env.agent.monitor [MEM] STORE Addr=100006e8 Data=00000000
# UVM_INFO /home/khang/Documents/SystemVerilog/Soc_RV32I/SoC/VERIFICATION/Monitor/cpu_monitor.sv(231) @ 1625000: uvm_test_top.env.agent.monitor [AXI_WR] CPU→DRAM  Addr=100006e8 Data=00000000 Strb=1111 BRESP=00
# UVM_INFO /home/khang/Documents/SystemVerilog/Soc_RV32I/SoC/VERIFICATION/Monitor/cpu_monitor.sv(163) @ 1635000: uvm_test_top.env.agent.monitor [MEM] STORE Addr=100006e8 Data=00000000
# UVM_INFO /home/khang/Documents/SystemVerilog/Soc_RV32I/SoC/VERIFICATION/Monitor/cpu_monitor.sv(163) @ 1645000: uvm_test_top.env.agent.monitor [MEM] STORE Addr=100006e8 Data=00000000
# UVM_INFO /home/khang/Documents/SystemVerilog/Soc_RV32I/SoC/VERIFICATION/Monitor/cpu_monitor.sv(163) @ 1655000: uvm_test_top.env.agent.monitor [MEM] STORE Addr=100006e8 Data=00000000
# UVM_INFO /home/khang/Documents/SystemVerilog/Soc_RV32I/SoC/VERIFICATION/Monitor/cpu_monitor.sv(163) @ 1665000: uvm_test_top.env.agent.monitor [MEM] STORE Addr=100006e8 Data=00000000
# UVM_INFO /home/khang/Documents/SystemVerilog/Soc_RV32I/SoC/VERIFICATION/Monitor/cpu_monitor.sv(231) @ 1665000: uvm_test_top.env.agent.monitor [AXI_WR] CPU→DRAM  Addr=100006e8 Data=00000000 Strb=1111 BRESP=00
# UVM_INFO /home/khang/Documents/SystemVerilog/Soc_RV32I/SoC/VERIFICATION/Monitor/cpu_monitor.sv(163) @ 1675000: uvm_test_top.env.agent.monitor [MEM] STORE Addr=100006e8 Data=00000000
# UVM_INFO /home/khang/Documents/SystemVerilog/Soc_RV32I/SoC/VERIFICATION/Monitor/cpu_monitor.sv(163) @ 1685000: uvm_test_top.env.agent.monitor [MEM] STORE Addr=100006e8 Data=00000000
# UVM_INFO /home/khang/Documents/SystemVerilog/Soc_RV32I/SoC/VERIFICATION/Monitor/cpu_monitor.sv(163) @ 1695000: uvm_test_top.env.agent.monitor [MEM] STORE Addr=100006e8 Data=00000000
# UVM_INFO /home/khang/Documents/SystemVerilog/Soc_RV32I/SoC/VERIFICATION/Monitor/cpu_monitor.sv(163) @ 1705000: uvm_test_top.env.agent.monitor [MEM] STORE Addr=100006e8 Data=00000000
# UVM_INFO /home/khang/Documents/SystemVerilog/Soc_RV32I/SoC/VERIFICATION/Monitor/cpu_monitor.sv(231) @ 1705000: uvm_test_top.env.agent.monitor [AXI_WR] CPU→DRAM  Addr=100006e8 Data=00000000 Strb=1111 BRESP=00
# UVM_INFO /home/khang/Documents/SystemVerilog/Soc_RV32I/SoC/VERIFICATION/Monitor/cpu_monitor.sv(163) @ 1715000: uvm_test_top.env.agent.monitor [MEM] STORE Addr=100006e8 Data=00000000
# UVM_INFO /home/khang/Documents/SystemVerilog/Soc_RV32I/SoC/VERIFICATION/Monitor/cpu_monitor.sv(163) @ 1725000: uvm_test_top.env.agent.monitor [MEM] STORE Addr=100006e8 Data=00000000
# UVM_INFO /home/khang/Documents/SystemVerilog/Soc_RV32I/SoC/VERIFICATION/Monitor/cpu_monitor.sv(163) @ 1735000: uvm_test_top.env.agent.monitor [MEM] STORE Addr=100006e8 Data=00000000
# UVM_INFO /home/khang/Documents/SystemVerilog/Soc_RV32I/SoC/VERIFICATION/Monitor/cpu_monitor.sv(163) @ 1745000: uvm_test_top.env.agent.monitor [MEM] STORE Addr=100006e8 Data=00000000
# UVM_INFO /home/khang/Documents/SystemVerilog/Soc_RV32I/SoC/VERIFICATION/Monitor/cpu_monitor.sv(231) @ 1745000: uvm_test_top.env.agent.monitor [AXI_WR] CPU→DRAM  Addr=100006e8 Data=00000000 Strb=1111 BRESP=00
# UVM_INFO /home/khang/Documents/SystemVerilog/Soc_RV32I/SoC/VERIFICATION/Monitor/cpu_monitor.sv(163) @ 1755000: uvm_test_top.env.agent.monitor [MEM] STORE Addr=100006e8 Data=00000000
# UVM_INFO /home/khang/Documents/SystemVerilog/Soc_RV32I/SoC/VERIFICATION/Monitor/cpu_monitor.sv(163) @ 1765000: uvm_test_top.env.agent.monitor [MEM] STORE Addr=100006e8 Data=00000000
# UVM_INFO /home/khang/Documents/SystemVerilog/Soc_RV32I/SoC/VERIFICATION/Monitor/cpu_monitor.sv(163) @ 1775000: uvm_test_top.env.agent.monitor [MEM] STORE Addr=100006e8 Data=00000000
# UVM_INFO /home/khang/Documents/SystemVerilog/Soc_RV32I/SoC/VERIFICATION/Monitor/cpu_monitor.sv(163) @ 1785000: uvm_test_top.env.agent.monitor [MEM] STORE Addr=100006e8 Data=00000000
# UVM_INFO /home/khang/Documents/SystemVerilog/Soc_RV32I/SoC/VERIFICATION/Monitor/cpu_monitor.sv(231) @ 1785000: uvm_test_top.env.agent.monitor [AXI_WR] CPU→DRAM  Addr=100006e8 Data=00000000 Strb=1111 BRESP=00
# UVM_INFO /home/khang/Documents/SystemVerilog/Soc_RV32I/SoC/VERIFICATION/Monitor/cpu_monitor.sv(163) @ 1795000: uvm_test_top.env.agent.monitor [MEM] STORE Addr=100006e8 Data=00000000
# UVM_INFO /home/khang/Documents/SystemVerilog/Soc_RV32I/SoC/VERIFICATION/Monitor/cpu_monitor.sv(163) @ 1805000: uvm_test_top.env.agent.monitor [MEM] STORE Addr=100006e8 Data=00000000
# UVM_INFO /home/khang/Documents/SystemVerilog/Soc_RV32I/SoC/VERIFICATION/Monitor/cpu_monitor.sv(163) @ 1815000: uvm_test_top.env.agent.monitor [MEM] STORE Addr=100006e8 Data=00000000
# UVM_INFO /home/khang/Documents/SystemVerilog/Soc_RV32I/SoC/VERIFICATION/Monitor/cpu_monitor.sv(163) @ 1825000: uvm_test_top.env.agent.monitor [MEM] STORE Addr=100006e8 Data=00000000
# UVM_INFO /home/khang/Documents/SystemVerilog/Soc_RV32I/SoC/VERIFICATION/Monitor/cpu_monitor.sv(231) @ 1825000: uvm_test_top.env.agent.monitor [AXI_WR] CPU→DRAM  Addr=100006e8 Data=00000000 Strb=1111 BRESP=00
# UVM_INFO /home/khang/Documents/SystemVerilog/Soc_RV32I/SoC/VERIFICATION/Monitor/cpu_monitor.sv(163) @ 1835000: uvm_test_top.env.agent.monitor [MEM] STORE Addr=100006e8 Data=00000000
# UVM_INFO /home/khang/Documents/SystemVerilog/Soc_RV32I/SoC/VERIFICATION/Monitor/cpu_monitor.sv(163) @ 1845000: uvm_test_top.env.agent.monitor [MEM] STORE Addr=100006e8 Data=00000000
# UVM_INFO /home/khang/Documents/SystemVerilog/Soc_RV32I/SoC/VERIFICATION/Monitor/cpu_monitor.sv(163) @ 1855000: uvm_test_top.env.agent.monitor [MEM] STORE Addr=100006e8 Data=00000000
# UVM_INFO /home/khang/Documents/SystemVerilog/Soc_RV32I/SoC/VERIFICATION/Monitor/cpu_monitor.sv(163) @ 1865000: uvm_test_top.env.agent.monitor [MEM] STORE Addr=100006e8 Data=00000000
# UVM_INFO /home/khang/Documents/SystemVerilog/Soc_RV32I/SoC/VERIFICATION/Monitor/cpu_monitor.sv(231) @ 1865000: uvm_test_top.env.agent.monitor [AXI_WR] CPU→DRAM  Addr=100006e8 Data=00000000 Strb=1111 BRESP=00
# UVM_INFO /home/khang/Documents/SystemVerilog/Soc_RV32I/SoC/VERIFICATION/Monitor/cpu_monitor.sv(163) @ 1875000: uvm_test_top.env.agent.monitor [MEM] STORE Addr=100006e8 Data=00000000
# UVM_INFO /home/khang/Documents/SystemVerilog/Soc_RV32I/SoC/VERIFICATION/Monitor/cpu_monitor.sv(163) @ 1885000: uvm_test_top.env.agent.monitor [MEM] STORE Addr=100006e8 Data=00000000
# UVM_INFO /home/khang/Documents/SystemVerilog/Soc_RV32I/SoC/VERIFICATION/Monitor/cpu_monitor.sv(163) @ 1895000: uvm_test_top.env.agent.monitor [MEM] STORE Addr=100006e8 Data=00000000
# UVM_INFO /home/khang/Documents/SystemVerilog/Soc_RV32I/SoC/VERIFICATION/Monitor/cpu_monitor.sv(163) @ 1905000: uvm_test_top.env.agent.monitor [MEM] STORE Addr=100006e8 Data=00000000
# UVM_INFO /home/khang/Documents/SystemVerilog/Soc_RV32I/SoC/VERIFICATION/Monitor/cpu_monitor.sv(231) @ 1905000: uvm_test_top.env.agent.monitor [AXI_WR] CPU→DRAM  Addr=100006e8 Data=00000000 Strb=1111 BRESP=00
# UVM_INFO /home/khang/Documents/SystemVerilog/Soc_RV32I/SoC/VERIFICATION/Monitor/cpu_monitor.sv(163) @ 1915000: uvm_test_top.env.agent.monitor [MEM] STORE Addr=100006e8 Data=00000000
# UVM_INFO /home/khang/Documents/SystemVerilog/Soc_RV32I/SoC/VERIFICATION/Monitor/cpu_monitor.sv(163) @ 1925000: uvm_test_top.env.agent.monitor [MEM] STORE Addr=100006e8 Data=00000000
# UVM_INFO /home/khang/Documents/SystemVerilog/Soc_RV32I/SoC/VERIFICATION/Monitor/cpu_monitor.sv(163) @ 1935000: uvm_test_top.env.agent.monitor [MEM] STORE Addr=100006e8 Data=00000000
# UVM_INFO /home/khang/Documents/SystemVerilog/Soc_RV32I/SoC/VERIFICATION/Monitor/cpu_monitor.sv(163) @ 1945000: uvm_test_top.env.agent.monitor [MEM] STORE Addr=100006e8 Data=00000000
# UVM_INFO /home/khang/Documents/SystemVerilog/Soc_RV32I/SoC/VERIFICATION/Monitor/cpu_monitor.sv(231) @ 1945000: uvm_test_top.env.agent.monitor [AXI_WR] CPU→DRAM  Addr=100006e8 Data=00000000 Strb=1111 BRESP=00
# UVM_INFO /home/khang/Documents/SystemVerilog/Soc_RV32I/SoC/VERIFICATION/Monitor/cpu_monitor.sv(163) @ 1955000: uvm_test_top.env.agent.monitor [MEM] STORE Addr=100006e8 Data=00000000
# UVM_INFO /home/khang/Documents/SystemVerilog/Soc_RV32I/SoC/VERIFICATION/Monitor/cpu_monitor.sv(163) @ 1965000: uvm_test_top.env.agent.monitor [MEM] STORE Addr=100006e8 Data=00000000
# UVM_INFO /home/khang/Documents/SystemVerilog/Soc_RV32I/SoC/VERIFICATION/Monitor/cpu_monitor.sv(163) @ 1975000: uvm_test_top.env.agent.monitor [MEM] STORE Addr=100006e8 Data=00000000
# UVM_INFO /home/khang/Documents/SystemVerilog/Soc_RV32I/SoC/VERIFICATION/Monitor/cpu_monitor.sv(163) @ 1985000: uvm_test_top.env.agent.monitor [MEM] STORE Addr=100006e8 Data=00000000
# UVM_INFO /home/khang/Documents/SystemVerilog/Soc_RV32I/SoC/VERIFICATION/Monitor/cpu_monitor.sv(231) @ 1985000: uvm_test_top.env.agent.monitor [AXI_WR] CPU→DRAM  Addr=100006e8 Data=00000000 Strb=1111 BRESP=00
# UVM_INFO /home/khang/Documents/SystemVerilog/Soc_RV32I/SoC/VERIFICATION/Monitor/cpu_monitor.sv(163) @ 1995000: uvm_test_top.env.agent.monitor [MEM] STORE Addr=100006e8 Data=00000000
# UVM_INFO /home/khang/Documents/SystemVerilog/Soc_RV32I/SoC/VERIFICATION/Monitor/cpu_monitor.sv(163) @ 2005000: uvm_test_top.env.agent.monitor [MEM] STORE Addr=100006e8 Data=00000000
# UVM_INFO /home/khang/Documents/SystemVerilog/Soc_RV32I/SoC/VERIFICATION/Monitor/cpu_monitor.sv(163) @ 2015000: uvm_test_top.env.agent.monitor [MEM] STORE Addr=100006e8 Data=00000000
# UVM_INFO /home/khang/Documents/SystemVerilog/Soc_RV32I/SoC/VERIFICATION/Monitor/cpu_monitor.sv(163) @ 2025000: uvm_test_top.env.agent.monitor [MEM] STORE Addr=100006e8 Data=00000000
# UVM_INFO /home/khang/Documents/SystemVerilog/Soc_RV32I/SoC/VERIFICATION/Monitor/cpu_monitor.sv(231) @ 2025000: uvm_test_top.env.agent.monitor [AXI_WR] CPU→DRAM  Addr=100006e8 Data=00000000 Strb=1111 BRESP=00
# UVM_INFO /home/khang/Documents/SystemVerilog/Soc_RV32I/SoC/VERIFICATION/Monitor/cpu_monitor.sv(163) @ 2035000: uvm_test_top.env.agent.monitor [MEM] STORE Addr=100006e8 Data=00000000
# UVM_INFO /home/khang/Documents/SystemVerilog/Soc_RV32I/SoC/VERIFICATION/Monitor/cpu_monitor.sv(163) @ 2045000: uvm_test_top.env.agent.monitor [MEM] STORE Addr=100006e8 Data=00000000
# UVM_INFO /home/khang/Documents/SystemVerilog/Soc_RV32I/SoC/VERIFICATION/Monitor/cpu_monitor.sv(163) @ 2055000: uvm_test_top.env.agent.monitor [MEM] STORE Addr=100006e8 Data=00000000
# UVM_INFO /home/khang/Documents/SystemVerilog/Soc_RV32I/SoC/VERIFICATION/Monitor/cpu_monitor.sv(163) @ 2065000: uvm_test_top.env.agent.monitor [MEM] STORE Addr=100006e8 Data=00000000
# UVM_INFO /home/khang/Documents/SystemVerilog/Soc_RV32I/SoC/VERIFICATION/Monitor/cpu_monitor.sv(231) @ 2065000: uvm_test_top.env.agent.monitor [AXI_WR] CPU→DRAM  Addr=100006e8 Data=00000000 Strb=1111 BRESP=00
# UVM_INFO /home/khang/Documents/SystemVerilog/Soc_RV32I/SoC/VERIFICATION/Monitor/cpu_monitor.sv(163) @ 2075000: uvm_test_top.env.agent.monitor [MEM] STORE Addr=100006e8 Data=00000000
# UVM_INFO /home/khang/Documents/SystemVerilog/Soc_RV32I/SoC/VERIFICATION/Monitor/cpu_monitor.sv(163) @ 2085000: uvm_test_top.env.agent.monitor [MEM] STORE Addr=100006e8 Data=00000000
# UVM_INFO /home/khang/Documents/SystemVerilog/Soc_RV32I/SoC/VERIFICATION/Monitor/cpu_monitor.sv(163) @ 2095000: uvm_test_top.env.agent.monitor [MEM] STORE Addr=100006e8 Data=00000000
# UVM_INFO /home/khang/Documents/SystemVerilog/Soc_RV32I/SoC/VERIFICATION/Monitor/cpu_monitor.sv(163) @ 2105000: uvm_test_top.env.agent.monitor [MEM] STORE Addr=100006e8 Data=00000000
# UVM_INFO /home/khang/Documents/SystemVerilog/Soc_RV32I/SoC/VERIFICATION/Monitor/cpu_monitor.sv(231) @ 2105000: uvm_test_top.env.agent.monitor [AXI_WR] CPU→DRAM  Addr=100006e8 Data=00000000 Strb=1111 BRESP=00
# UVM_INFO /home/khang/Documents/SystemVerilog/Soc_RV32I/SoC/VERIFICATION/Monitor/cpu_monitor.sv(163) @ 2115000: uvm_test_top.env.agent.monitor [MEM] STORE Addr=100006e8 Data=00000000
# UVM_INFO /home/khang/Documents/SystemVerilog/Soc_RV32I/SoC/VERIFICATION/Monitor/cpu_monitor.sv(163) @ 2125000: uvm_test_top.env.agent.monitor [MEM] STORE Addr=100006e8 Data=00000000
# UVM_INFO /home/khang/Documents/SystemVerilog/Soc_RV32I/SoC/VERIFICATION/Monitor/cpu_monitor.sv(163) @ 2135000: uvm_test_top.env.agent.monitor [MEM] STORE Addr=100006e8 Data=00000000
# UVM_INFO /home/khang/Documents/SystemVerilog/Soc_RV32I/SoC/VERIFICATION/Monitor/cpu_monitor.sv(163) @ 2145000: uvm_test_top.env.agent.monitor [MEM] STORE Addr=100006e8 Data=00000000
# UVM_INFO /home/khang/Documents/SystemVerilog/Soc_RV32I/SoC/VERIFICATION/Monitor/cpu_monitor.sv(231) @ 2145000: uvm_test_top.env.agent.monitor [AXI_WR] CPU→DRAM  Addr=100006e8 Data=00000000 Strb=1111 BRESP=00
# UVM_INFO /home/khang/Documents/SystemVerilog/Soc_RV32I/SoC/VERIFICATION/Monitor/cpu_monitor.sv(163) @ 2155000: uvm_test_top.env.agent.monitor [MEM] STORE Addr=100006e8 Data=00000000
# UVM_INFO /home/khang/Documents/SystemVerilog/Soc_RV32I/SoC/VERIFICATION/Monitor/cpu_monitor.sv(163) @ 2165000: uvm_test_top.env.agent.monitor [MEM] STORE Addr=100006e8 Data=00000000
# UVM_INFO /home/khang/Documents/SystemVerilog/Soc_RV32I/SoC/VERIFICATION/Monitor/cpu_monitor.sv(163) @ 2175000: uvm_test_top.env.agent.monitor [MEM] STORE Addr=100006e8 Data=00000000
# UVM_INFO /home/khang/Documents/SystemVerilog/Soc_RV32I/SoC/VERIFICATION/Monitor/cpu_monitor.sv(163) @ 2185000: uvm_test_top.env.agent.monitor [MEM] STORE Addr=100006e8 Data=00000000
# UVM_INFO /home/khang/Documents/SystemVerilog/Soc_RV32I/SoC/VERIFICATION/Monitor/cpu_monitor.sv(231) @ 2185000: uvm_test_top.env.agent.monitor [AXI_WR] CPU→DRAM  Addr=100006e8 Data=00000000 Strb=1111 BRESP=00
# UVM_INFO /home/khang/Documents/SystemVerilog/Soc_RV32I/SoC/VERIFICATION/Monitor/cpu_monitor.sv(163) @ 2195000: uvm_test_top.env.agent.monitor [MEM] STORE Addr=100006e8 Data=00000000
# UVM_INFO /home/khang/Documents/SystemVerilog/Soc_RV32I/SoC/VERIFICATION/Monitor/cpu_monitor.sv(163) @ 2205000: uvm_test_top.env.agent.monitor [MEM] STORE Addr=100006e8 Data=00000000
# UVM_INFO /home/khang/Documents/SystemVerilog/Soc_RV32I/SoC/VERIFICATION/Monitor/cpu_monitor.sv(163) @ 2215000: uvm_test_top.env.agent.monitor [MEM] STORE Addr=100006e8 Data=00000000
# UVM_INFO /home/khang/Documents/SystemVerilog/Soc_RV32I/SoC/VERIFICATION/Monitor/cpu_monitor.sv(163) @ 2225000: uvm_test_top.env.agent.monitor [MEM] STORE Addr=100006e8 Data=00000000
# UVM_INFO /home/khang/Documents/SystemVerilog/Soc_RV32I/SoC/VERIFICATION/Monitor/cpu_monitor.sv(231) @ 2225000: uvm_test_top.env.agent.monitor [AXI_WR] CPU→DRAM  Addr=100006e8 Data=00000000 Strb=1111 BRESP=00
# UVM_INFO /home/khang/Documents/SystemVerilog/Soc_RV32I/SoC/VERIFICATION/Monitor/cpu_monitor.sv(163) @ 2235000: uvm_test_top.env.agent.monitor [MEM] STORE Addr=100006e8 Data=00000000
# UVM_INFO /home/khang/Documents/SystemVerilog/Soc_RV32I/SoC/VERIFICATION/Monitor/cpu_monitor.sv(163) @ 2245000: uvm_test_top.env.agent.monitor [MEM] STORE Addr=100006e8 Data=00000000
# UVM_INFO /home/khang/Documents/SystemVerilog/Soc_RV32I/SoC/VERIFICATION/Monitor/cpu_monitor.sv(163) @ 2255000: uvm_test_top.env.agent.monitor [MEM] STORE Addr=100006e8 Data=00000000
# UVM_INFO /home/khang/Documents/SystemVerilog/Soc_RV32I/SoC/VERIFICATION/Monitor/cpu_monitor.sv(163) @ 2265000: uvm_test_top.env.agent.monitor [MEM] STORE Addr=100006e8 Data=00000000
# UVM_INFO /home/khang/Documents/SystemVerilog/Soc_RV32I/SoC/VERIFICATION/Monitor/cpu_monitor.sv(231) @ 2265000: uvm_test_top.env.agent.monitor [AXI_WR] CPU→DRAM  Addr=100006e8 Data=00000000 Strb=1111 BRESP=00
# UVM_INFO /home/khang/Documents/SystemVerilog/Soc_RV32I/SoC/VERIFICATION/Monitor/cpu_monitor.sv(163) @ 2275000: uvm_test_top.env.agent.monitor [MEM] STORE Addr=100006e8 Data=00000000
# UVM_INFO /home/khang/Documents/SystemVerilog/Soc_RV32I/SoC/VERIFICATION/Monitor/cpu_monitor.sv(163) @ 2285000: uvm_test_top.env.agent.monitor [MEM] STORE Addr=100006e8 Data=00000000
# UVM_INFO /home/khang/Documents/SystemVerilog/Soc_RV32I/SoC/VERIFICATION/Monitor/cpu_monitor.sv(163) @ 2295000: uvm_test_top.env.agent.monitor [MEM] STORE Addr=100006e8 Data=00000000
# UVM_INFO /home/khang/Documents/SystemVerilog/Soc_RV32I/SoC/VERIFICATION/Monitor/cpu_monitor.sv(163) @ 2305000: uvm_test_top.env.agent.monitor [MEM] STORE Addr=100006e8 Data=00000000
# UVM_INFO /home/khang/Documents/SystemVerilog/Soc_RV32I/SoC/VERIFICATION/Monitor/cpu_monitor.sv(231) @ 2305000: uvm_test_top.env.agent.monitor [AXI_WR] CPU→DRAM  Addr=100006e8 Data=00000000 Strb=1111 BRESP=00
# UVM_INFO /home/khang/Documents/SystemVerilog/Soc_RV32I/SoC/VERIFICATION/Monitor/cpu_monitor.sv(163) @ 2315000: uvm_test_top.env.agent.monitor [MEM] STORE Addr=100006e8 Data=00000000
# UVM_INFO /home/khang/Documents/SystemVerilog/Soc_RV32I/SoC/VERIFICATION/Monitor/cpu_monitor.sv(163) @ 2325000: uvm_test_top.env.agent.monitor [MEM] STORE Addr=100006e8 Data=00000000
# UVM_INFO /home/khang/Documents/SystemVerilog/Soc_RV32I/SoC/VERIFICATION/Monitor/cpu_monitor.sv(163) @ 2335000: uvm_test_top.env.agent.monitor [MEM] STORE Addr=100006e8 Data=00000000
# UVM_INFO /home/khang/Documents/SystemVerilog/Soc_RV32I/SoC/VERIFICATION/Monitor/cpu_monitor.sv(163) @ 2345000: uvm_test_top.env.agent.monitor [MEM] STORE Addr=100006e8 Data=00000000
# UVM_INFO /home/khang/Documents/SystemVerilog/Soc_RV32I/SoC/VERIFICATION/Monitor/cpu_monitor.sv(231) @ 2345000: uvm_test_top.env.agent.monitor [AXI_WR] CPU→DRAM  Addr=100006e8 Data=00000000 Strb=1111 BRESP=00
# UVM_INFO /home/khang/Documents/SystemVerilog/Soc_RV32I/SoC/VERIFICATION/Monitor/cpu_monitor.sv(163) @ 2355000: uvm_test_top.env.agent.monitor [MEM] STORE Addr=100006e8 Data=00000000
# UVM_INFO /home/khang/Documents/SystemVerilog/Soc_RV32I/SoC/VERIFICATION/Monitor/cpu_monitor.sv(163) @ 2365000: uvm_test_top.env.agent.monitor [MEM] STORE Addr=100006e8 Data=00000000
# UVM_INFO /home/khang/Documents/SystemVerilog/Soc_RV32I/SoC/VERIFICATION/Monitor/cpu_monitor.sv(163) @ 2375000: uvm_test_top.env.agent.monitor [MEM] STORE Addr=100006e8 Data=00000000
# UVM_INFO /home/khang/Documents/SystemVerilog/Soc_RV32I/SoC/VERIFICATION/Monitor/cpu_monitor.sv(163) @ 2385000: uvm_test_top.env.agent.monitor [MEM] STORE Addr=100006e8 Data=00000000
# UVM_INFO /home/khang/Documents/SystemVerilog/Soc_RV32I/SoC/VERIFICATION/Monitor/cpu_monitor.sv(231) @ 2385000: uvm_test_top.env.agent.monitor [AXI_WR] CPU→DRAM  Addr=100006e8 Data=00000000 Strb=1111 BRESP=00
# UVM_INFO /home/khang/Documents/SystemVerilog/Soc_RV32I/SoC/VERIFICATION/Monitor/cpu_monitor.sv(163) @ 2395000: uvm_test_top.env.agent.monitor [MEM] STORE Addr=100006e8 Data=00000000
# UVM_INFO /home/khang/Documents/SystemVerilog/Soc_RV32I/SoC/VERIFICATION/Monitor/cpu_monitor.sv(163) @ 2405000: uvm_test_top.env.agent.monitor [MEM] STORE Addr=100006e8 Data=00000000
# UVM_INFO /home/khang/Documents/SystemVerilog/Soc_RV32I/SoC/VERIFICATION/Monitor/cpu_monitor.sv(163) @ 2415000: uvm_test_top.env.agent.monitor [MEM] STORE Addr=100006e8 Data=00000000
# UVM_INFO /home/khang/Documents/SystemVerilog/Soc_RV32I/SoC/VERIFICATION/Monitor/cpu_monitor.sv(163) @ 2425000: uvm_test_top.env.agent.monitor [MEM] STORE Addr=100006e8 Data=00000000
# UVM_INFO /home/khang/Documents/SystemVerilog/Soc_RV32I/SoC/VERIFICATION/Monitor/cpu_monitor.sv(231) @ 2425000: uvm_test_top.env.agent.monitor [AXI_WR] CPU→DRAM  Addr=100006e8 Data=00000000 Strb=1111 BRESP=00
# UVM_INFO /home/khang/Documents/SystemVerilog/Soc_RV32I/SoC/VERIFICATION/Monitor/cpu_monitor.sv(163) @ 2435000: uvm_test_top.env.agent.monitor [MEM] STORE Addr=100006e8 Data=00000000
# UVM_INFO /home/khang/Documents/SystemVerilog/Soc_RV32I/SoC/VERIFICATION/Monitor/cpu_monitor.sv(163) @ 2445000: uvm_test_top.env.agent.monitor [MEM] STORE Addr=100006e8 Data=00000000
# UVM_INFO /home/khang/Documents/SystemVerilog/Soc_RV32I/SoC/VERIFICATION/Monitor/cpu_monitor.sv(163) @ 2455000: uvm_test_top.env.agent.monitor [MEM] STORE Addr=100006e8 Data=00000000
# UVM_INFO /home/khang/Documents/SystemVerilog/Soc_RV32I/SoC/VERIFICATION/Monitor/cpu_monitor.sv(163) @ 2465000: uvm_test_top.env.agent.monitor [MEM] STORE Addr=100006e8 Data=00000000
# UVM_INFO /home/khang/Documents/SystemVerilog/Soc_RV32I/SoC/VERIFICATION/Monitor/cpu_monitor.sv(231) @ 2465000: uvm_test_top.env.agent.monitor [AXI_WR] CPU→DRAM  Addr=100006e8 Data=00000000 Strb=1111 BRESP=00
# UVM_INFO /home/khang/Documents/SystemVerilog/Soc_RV32I/SoC/VERIFICATION/Monitor/cpu_monitor.sv(163) @ 2475000: uvm_test_top.env.agent.monitor [MEM] STORE Addr=100006e8 Data=00000000
# UVM_INFO /home/khang/Documents/SystemVerilog/Soc_RV32I/SoC/VERIFICATION/Monitor/cpu_monitor.sv(163) @ 2485000: uvm_test_top.env.agent.monitor [MEM] STORE Addr=100006e8 Data=00000000
# UVM_INFO /home/khang/Documents/SystemVerilog/Soc_RV32I/SoC/VERIFICATION/Monitor/cpu_monitor.sv(163) @ 2495000: uvm_test_top.env.agent.monitor [MEM] STORE Addr=100006e8 Data=00000000
# UVM_INFO /home/khang/Documents/SystemVerilog/Soc_RV32I/SoC/VERIFICATION/Monitor/cpu_monitor.sv(163) @ 2505000: uvm_test_top.env.agent.monitor [MEM] STORE Addr=100006e8 Data=00000000
# UVM_INFO /home/khang/Documents/SystemVerilog/Soc_RV32I/SoC/VERIFICATION/Monitor/cpu_monitor.sv(231) @ 2505000: uvm_test_top.env.agent.monitor [AXI_WR] CPU→DRAM  Addr=100006e8 Data=00000000 Strb=1111 BRESP=00
# UVM_INFO /home/khang/Documents/SystemVerilog/Soc_RV32I/SoC/VERIFICATION/Monitor/cpu_monitor.sv(163) @ 2515000: uvm_test_top.env.agent.monitor [MEM] STORE Addr=100006e8 Data=00000000
# UVM_INFO /home/khang/Documents/SystemVerilog/Soc_RV32I/SoC/VERIFICATION/Monitor/cpu_monitor.sv(163) @ 2525000: uvm_test_top.env.agent.monitor [MEM] STORE Addr=100006e8 Data=00000000
# UVM_INFO /home/khang/Documents/SystemVerilog/Soc_RV32I/SoC/VERIFICATION/Monitor/cpu_monitor.sv(163) @ 2535000: uvm_test_top.env.agent.monitor [MEM] STORE Addr=100006e8 Data=00000000
# UVM_INFO /home/khang/Documents/SystemVerilog/Soc_RV32I/SoC/VERIFICATION/Monitor/cpu_monitor.sv(163) @ 2545000: uvm_test_top.env.agent.monitor [MEM] STORE Addr=100006e8 Data=00000000
# UVM_INFO /home/khang/Documents/SystemVerilog/Soc_RV32I/SoC/VERIFICATION/Monitor/cpu_monitor.sv(231) @ 2545000: uvm_test_top.env.agent.monitor [AXI_WR] CPU→DRAM  Addr=100006e8 Data=00000000 Strb=1111 BRESP=00
# UVM_INFO /home/khang/Documents/SystemVerilog/Soc_RV32I/SoC/VERIFICATION/Monitor/cpu_monitor.sv(163) @ 2555000: uvm_test_top.env.agent.monitor [MEM] STORE Addr=100006e8 Data=00000000
# UVM_INFO /home/khang/Documents/SystemVerilog/Soc_RV32I/SoC/VERIFICATION/Monitor/cpu_monitor.sv(163) @ 2565000: uvm_test_top.env.agent.monitor [MEM] STORE Addr=100006e8 Data=00000000
# UVM_INFO /home/khang/Documents/SystemVerilog/Soc_RV32I/SoC/VERIFICATION/Monitor/cpu_monitor.sv(163) @ 2575000: uvm_test_top.env.agent.monitor [MEM] STORE Addr=100006e8 Data=00000000
# UVM_INFO /home/khang/Documents/SystemVerilog/Soc_RV32I/SoC/VERIFICATION/Monitor/cpu_monitor.sv(163) @ 2585000: uvm_test_top.env.agent.monitor [MEM] STORE Addr=100006e8 Data=00000000
# UVM_INFO /home/khang/Documents/SystemVerilog/Soc_RV32I/SoC/VERIFICATION/Monitor/cpu_monitor.sv(231) @ 2585000: uvm_test_top.env.agent.monitor [AXI_WR] CPU→DRAM  Addr=100006e8 Data=00000000 Strb=1111 BRESP=00
# UVM_INFO /home/khang/Documents/SystemVerilog/Soc_RV32I/SoC/VERIFICATION/Monitor/cpu_monitor.sv(163) @ 2595000: uvm_test_top.env.agent.monitor [MEM] STORE Addr=100006e8 Data=00000000
# UVM_INFO /home/khang/Documents/SystemVerilog/Soc_RV32I/SoC/VERIFICATION/Monitor/cpu_monitor.sv(163) @ 2605000: uvm_test_top.env.agent.monitor [MEM] STORE Addr=100006e8 Data=00000000
# UVM_INFO /home/khang/Documents/SystemVerilog/Soc_RV32I/SoC/VERIFICATION/Monitor/cpu_monitor.sv(163) @ 2615000: uvm_test_top.env.agent.monitor [MEM] STORE Addr=100006e8 Data=00000000
# UVM_INFO /home/khang/Documents/SystemVerilog/Soc_RV32I/SoC/VERIFICATION/Monitor/cpu_monitor.sv(163) @ 2625000: uvm_test_top.env.agent.monitor [MEM] STORE Addr=100006e8 Data=00000000
# UVM_INFO /home/khang/Documents/SystemVerilog/Soc_RV32I/SoC/VERIFICATION/Monitor/cpu_monitor.sv(231) @ 2625000: uvm_test_top.env.agent.monitor [AXI_WR] CPU→DRAM  Addr=100006e8 Data=00000000 Strb=1111 BRESP=00
# UVM_INFO /home/khang/Documents/SystemVerilog/Soc_RV32I/SoC/VERIFICATION/Monitor/cpu_monitor.sv(163) @ 2635000: uvm_test_top.env.agent.monitor [MEM] STORE Addr=100006e8 Data=00000000
# UVM_INFO /home/khang/Documents/SystemVerilog/Soc_RV32I/SoC/VERIFICATION/Monitor/cpu_monitor.sv(163) @ 2645000: uvm_test_top.env.agent.monitor [MEM] STORE Addr=100006e8 Data=00000000
# UVM_INFO /home/khang/Documents/SystemVerilog/Soc_RV32I/SoC/VERIFICATION/Monitor/cpu_monitor.sv(163) @ 2655000: uvm_test_top.env.agent.monitor [MEM] STORE Addr=100006e8 Data=00000000
# UVM_INFO /home/khang/Documents/SystemVerilog/Soc_RV32I/SoC/VERIFICATION/Monitor/cpu_monitor.sv(163) @ 2665000: uvm_test_top.env.agent.monitor [MEM] STORE Addr=100006e8 Data=00000000
# UVM_INFO /home/khang/Documents/SystemVerilog/Soc_RV32I/SoC/VERIFICATION/Monitor/cpu_monitor.sv(231) @ 2665000: uvm_test_top.env.agent.monitor [AXI_WR] CPU→DRAM  Addr=100006e8 Data=00000000 Strb=1111 BRESP=00
# UVM_INFO /home/khang/Documents/SystemVerilog/Soc_RV32I/SoC/VERIFICATION/Monitor/cpu_monitor.sv(163) @ 2675000: uvm_test_top.env.agent.monitor [MEM] STORE Addr=100006e8 Data=00000000
# UVM_INFO /home/khang/Documents/SystemVerilog/Soc_RV32I/SoC/VERIFICATION/Monitor/cpu_monitor.sv(163) @ 2685000: uvm_test_top.env.agent.monitor [MEM] STORE Addr=100006e8 Data=00000000
# UVM_INFO /home/khang/Documents/SystemVerilog/Soc_RV32I/SoC/VERIFICATION/Monitor/cpu_monitor.sv(163) @ 2695000: uvm_test_top.env.agent.monitor [MEM] STORE Addr=100006e8 Data=00000000
# UVM_INFO /home/khang/Documents/SystemVerilog/Soc_RV32I/SoC/VERIFICATION/Monitor/cpu_monitor.sv(163) @ 2705000: uvm_test_top.env.agent.monitor [MEM] STORE Addr=100006e8 Data=00000000
# UVM_INFO /home/khang/Documents/SystemVerilog/Soc_RV32I/SoC/VERIFICATION/Monitor/cpu_monitor.sv(231) @ 2705000: uvm_test_top.env.agent.monitor [AXI_WR] CPU→DRAM  Addr=100006e8 Data=00000000 Strb=1111 BRESP=00
# UVM_INFO /home/khang/Documents/SystemVerilog/Soc_RV32I/SoC/VERIFICATION/Monitor/cpu_monitor.sv(163) @ 2715000: uvm_test_top.env.agent.monitor [MEM] STORE Addr=100006e8 Data=00000000
# UVM_INFO /home/khang/Documents/SystemVerilog/Soc_RV32I/SoC/VERIFICATION/Monitor/cpu_monitor.sv(163) @ 2725000: uvm_test_top.env.agent.monitor [MEM] STORE Addr=100006e8 Data=00000000
# UVM_INFO /home/khang/Documents/SystemVerilog/Soc_RV32I/SoC/VERIFICATION/Monitor/cpu_monitor.sv(163) @ 2735000: uvm_test_top.env.agent.monitor [MEM] STORE Addr=100006e8 Data=00000000
# UVM_INFO /home/khang/Documents/SystemVerilog/Soc_RV32I/SoC/VERIFICATION/Monitor/cpu_monitor.sv(163) @ 2745000: uvm_test_top.env.agent.monitor [MEM] STORE Addr=100006e8 Data=00000000
# UVM_INFO /home/khang/Documents/SystemVerilog/Soc_RV32I/SoC/VERIFICATION/Monitor/cpu_monitor.sv(231) @ 2745000: uvm_test_top.env.agent.monitor [AXI_WR] CPU→DRAM  Addr=100006e8 Data=00000000 Strb=1111 BRESP=00
# UVM_INFO /home/khang/Documents/SystemVerilog/Soc_RV32I/SoC/VERIFICATION/Monitor/cpu_monitor.sv(163) @ 2755000: uvm_test_top.env.agent.monitor [MEM] STORE Addr=100006e8 Data=00000000
# UVM_INFO /home/khang/Documents/SystemVerilog/Soc_RV32I/SoC/VERIFICATION/Monitor/cpu_monitor.sv(163) @ 2765000: uvm_test_top.env.agent.monitor [MEM] STORE Addr=100006e8 Data=00000000
# UVM_INFO /home/khang/Documents/SystemVerilog/Soc_RV32I/SoC/VERIFICATION/Monitor/cpu_monitor.sv(163) @ 2775000: uvm_test_top.env.agent.monitor [MEM] STORE Addr=100006e8 Data=00000000
# UVM_INFO /home/khang/Documents/SystemVerilog/Soc_RV32I/SoC/VERIFICATION/Monitor/cpu_monitor.sv(163) @ 2785000: uvm_test_top.env.agent.monitor [MEM] STORE Addr=100006e8 Data=00000000
# UVM_INFO /home/khang/Documents/SystemVerilog/Soc_RV32I/SoC/VERIFICATION/Monitor/cpu_monitor.sv(231) @ 2785000: uvm_test_top.env.agent.monitor [AXI_WR] CPU→DRAM  Addr=100006e8 Data=00000000 Strb=1111 BRESP=00
# UVM_INFO /home/khang/Documents/SystemVerilog/Soc_RV32I/SoC/VERIFICATION/Monitor/cpu_monitor.sv(163) @ 2795000: uvm_test_top.env.agent.monitor [MEM] STORE Addr=100006e8 Data=00000000
# UVM_INFO /home/khang/Documents/SystemVerilog/Soc_RV32I/SoC/VERIFICATION/Monitor/cpu_monitor.sv(163) @ 2805000: uvm_test_top.env.agent.monitor [MEM] STORE Addr=100006e8 Data=00000000
# UVM_INFO /home/khang/Documents/SystemVerilog/Soc_RV32I/SoC/VERIFICATION/Monitor/cpu_monitor.sv(163) @ 2815000: uvm_test_top.env.agent.monitor [MEM] STORE Addr=100006e8 Data=00000000
# UVM_INFO /home/khang/Documents/SystemVerilog/Soc_RV32I/SoC/VERIFICATION/Monitor/cpu_monitor.sv(163) @ 2825000: uvm_test_top.env.agent.monitor [MEM] STORE Addr=100006e8 Data=00000000
# UVM_INFO /home/khang/Documents/SystemVerilog/Soc_RV32I/SoC/VERIFICATION/Monitor/cpu_monitor.sv(231) @ 2825000: uvm_test_top.env.agent.monitor [AXI_WR] CPU→DRAM  Addr=100006e8 Data=00000000 Strb=1111 BRESP=00
# UVM_INFO /home/khang/Documents/SystemVerilog/Soc_RV32I/SoC/VERIFICATION/Monitor/cpu_monitor.sv(163) @ 2835000: uvm_test_top.env.agent.monitor [MEM] STORE Addr=100006e8 Data=00000000
# UVM_INFO /home/khang/Documents/SystemVerilog/Soc_RV32I/SoC/VERIFICATION/Monitor/cpu_monitor.sv(163) @ 2845000: uvm_test_top.env.agent.monitor [MEM] STORE Addr=100006e8 Data=00000000
# UVM_INFO /home/khang/Documents/SystemVerilog/Soc_RV32I/SoC/VERIFICATION/Monitor/cpu_monitor.sv(163) @ 2855000: uvm_test_top.env.agent.monitor [MEM] STORE Addr=100006e8 Data=00000000
# UVM_INFO /home/khang/Documents/SystemVerilog/Soc_RV32I/SoC/VERIFICATION/Monitor/cpu_monitor.sv(163) @ 2865000: uvm_test_top.env.agent.monitor [MEM] STORE Addr=100006e8 Data=00000000
# UVM_INFO /home/khang/Documents/SystemVerilog/Soc_RV32I/SoC/VERIFICATION/Monitor/cpu_monitor.sv(231) @ 2865000: uvm_test_top.env.agent.monitor [AXI_WR] CPU→DRAM  Addr=100006e8 Data=00000000 Strb=1111 BRESP=00
# UVM_INFO /home/khang/Documents/SystemVerilog/Soc_RV32I/SoC/VERIFICATION/Monitor/cpu_monitor.sv(163) @ 2875000: uvm_test_top.env.agent.monitor [MEM] STORE Addr=100006e8 Data=00000000
# UVM_INFO /home/khang/Documents/SystemVerilog/Soc_RV32I/SoC/VERIFICATION/Monitor/cpu_monitor.sv(163) @ 2885000: uvm_test_top.env.agent.monitor [MEM] STORE Addr=100006e8 Data=00000000
# UVM_INFO /home/khang/Documents/SystemVerilog/Soc_RV32I/SoC/VERIFICATION/Monitor/cpu_monitor.sv(163) @ 2895000: uvm_test_top.env.agent.monitor [MEM] STORE Addr=100006e8 Data=00000000
# UVM_INFO /home/khang/Documents/SystemVerilog/Soc_RV32I/SoC/VERIFICATION/Monitor/cpu_monitor.sv(163) @ 2905000: uvm_test_top.env.agent.monitor [MEM] STORE Addr=100006e8 Data=00000000
# UVM_INFO /home/khang/Documents/SystemVerilog/Soc_RV32I/SoC/VERIFICATION/Monitor/cpu_monitor.sv(231) @ 2905000: uvm_test_top.env.agent.monitor [AXI_WR] CPU→DRAM  Addr=100006e8 Data=00000000 Strb=1111 BRESP=00
# UVM_INFO /home/khang/Documents/SystemVerilog/Soc_RV32I/SoC/VERIFICATION/Monitor/cpu_monitor.sv(163) @ 2915000: uvm_test_top.env.agent.monitor [MEM] STORE Addr=100006e8 Data=00000000
# UVM_INFO /home/khang/Documents/SystemVerilog/Soc_RV32I/SoC/VERIFICATION/Monitor/cpu_monitor.sv(163) @ 2925000: uvm_test_top.env.agent.monitor [MEM] STORE Addr=100006e8 Data=00000000
# UVM_INFO /home/khang/Documents/SystemVerilog/Soc_RV32I/SoC/VERIFICATION/Monitor/cpu_monitor.sv(163) @ 2935000: uvm_test_top.env.agent.monitor [MEM] STORE Addr=100006e8 Data=00000000
# UVM_INFO /home/khang/Documents/SystemVerilog/Soc_RV32I/SoC/VERIFICATION/Monitor/cpu_monitor.sv(163) @ 2945000: uvm_test_top.env.agent.monitor [MEM] STORE Addr=100006e8 Data=00000000
# UVM_INFO /home/khang/Documents/SystemVerilog/Soc_RV32I/SoC/VERIFICATION/Monitor/cpu_monitor.sv(231) @ 2945000: uvm_test_top.env.agent.monitor [AXI_WR] CPU→DRAM  Addr=100006e8 Data=00000000 Strb=1111 BRESP=00
# UVM_INFO /home/khang/Documents/SystemVerilog/Soc_RV32I/SoC/VERIFICATION/Monitor/cpu_monitor.sv(163) @ 2955000: uvm_test_top.env.agent.monitor [MEM] STORE Addr=100006e8 Data=00000000
# UVM_INFO /home/khang/Documents/SystemVerilog/Soc_RV32I/SoC/VERIFICATION/Monitor/cpu_monitor.sv(163) @ 2965000: uvm_test_top.env.agent.monitor [MEM] STORE Addr=100006e8 Data=00000000
# UVM_INFO /home/khang/Documents/SystemVerilog/Soc_RV32I/SoC/VERIFICATION/Monitor/cpu_monitor.sv(163) @ 2975000: uvm_test_top.env.agent.monitor [MEM] STORE Addr=100006e8 Data=00000000
# UVM_INFO /home/khang/Documents/SystemVerilog/Soc_RV32I/SoC/VERIFICATION/Monitor/cpu_monitor.sv(163) @ 2985000: uvm_test_top.env.agent.monitor [MEM] STORE Addr=100006e8 Data=00000000
# UVM_INFO /home/khang/Documents/SystemVerilog/Soc_RV32I/SoC/VERIFICATION/Monitor/cpu_monitor.sv(231) @ 2985000: uvm_test_top.env.agent.monitor [AXI_WR] CPU→DRAM  Addr=100006e8 Data=00000000 Strb=1111 BRESP=00
# UVM_INFO /home/khang/Documents/SystemVerilog/Soc_RV32I/SoC/VERIFICATION/Monitor/cpu_monitor.sv(163) @ 2995000: uvm_test_top.env.agent.monitor [MEM] STORE Addr=100006e8 Data=00000000
# UVM_INFO /home/khang/Documents/SystemVerilog/Soc_RV32I/SoC/VERIFICATION/Monitor/cpu_monitor.sv(163) @ 3005000: uvm_test_top.env.agent.monitor [MEM] STORE Addr=100006e8 Data=00000000
# UVM_INFO /home/khang/Documents/SystemVerilog/Soc_RV32I/SoC/VERIFICATION/Monitor/cpu_monitor.sv(163) @ 3015000: uvm_test_top.env.agent.monitor [MEM] STORE Addr=100006e8 Data=00000000
# UVM_INFO /home/khang/Documents/SystemVerilog/Soc_RV32I/SoC/VERIFICATION/Monitor/cpu_monitor.sv(163) @ 3025000: uvm_test_top.env.agent.monitor [MEM] STORE Addr=100006e8 Data=00000000
# UVM_INFO /home/khang/Documents/SystemVerilog/Soc_RV32I/SoC/VERIFICATION/Monitor/cpu_monitor.sv(231) @ 3025000: uvm_test_top.env.agent.monitor [AXI_WR] CPU→DRAM  Addr=100006e8 Data=00000000 Strb=1111 BRESP=00
# UVM_INFO /home/khang/Documents/SystemVerilog/Soc_RV32I/SoC/VERIFICATION/Monitor/cpu_monitor.sv(163) @ 3035000: uvm_test_top.env.agent.monitor [MEM] STORE Addr=100006e8 Data=00000000
# UVM_INFO /home/khang/Documents/SystemVerilog/Soc_RV32I/SoC/VERIFICATION/Monitor/cpu_monitor.sv(163) @ 3045000: uvm_test_top.env.agent.monitor [MEM] STORE Addr=100006e8 Data=00000000
# UVM_INFO /home/khang/Documents/SystemVerilog/Soc_RV32I/SoC/VERIFICATION/Monitor/cpu_monitor.sv(163) @ 3055000: uvm_test_top.env.agent.monitor [MEM] STORE Addr=100006e8 Data=00000000
# UVM_INFO /home/khang/Documents/SystemVerilog/Soc_RV32I/SoC/VERIFICATION/Monitor/cpu_monitor.sv(163) @ 3065000: uvm_test_top.env.agent.monitor [MEM] STORE Addr=100006e8 Data=00000000
# UVM_INFO /home/khang/Documents/SystemVerilog/Soc_RV32I/SoC/VERIFICATION/Monitor/cpu_monitor.sv(231) @ 3065000: uvm_test_top.env.agent.monitor [AXI_WR] CPU→DRAM  Addr=100006e8 Data=00000000 Strb=1111 BRESP=00
# UVM_INFO /home/khang/Documents/SystemVerilog/Soc_RV32I/SoC/VERIFICATION/Monitor/cpu_monitor.sv(163) @ 3075000: uvm_test_top.env.agent.monitor [MEM] STORE Addr=100006e8 Data=00000000
# UVM_INFO /home/khang/Documents/SystemVerilog/Soc_RV32I/SoC/VERIFICATION/Monitor/cpu_monitor.sv(163) @ 3085000: uvm_test_top.env.agent.monitor [MEM] STORE Addr=100006e8 Data=00000000
# UVM_INFO /home/khang/Documents/SystemVerilog/Soc_RV32I/SoC/VERIFICATION/Monitor/cpu_monitor.sv(163) @ 3095000: uvm_test_top.env.agent.monitor [MEM] STORE Addr=100006e8 Data=00000000
# UVM_INFO /home/khang/Documents/SystemVerilog/Soc_RV32I/SoC/VERIFICATION/Monitor/cpu_monitor.sv(163) @ 3105000: uvm_test_top.env.agent.monitor [MEM] STORE Addr=100006e8 Data=00000000
# UVM_INFO /home/khang/Documents/SystemVerilog/Soc_RV32I/SoC/VERIFICATION/Monitor/cpu_monitor.sv(231) @ 3105000: uvm_test_top.env.agent.monitor [AXI_WR] CPU→DRAM  Addr=100006e8 Data=00000000 Strb=1111 BRESP=00
# UVM_INFO /home/khang/Documents/SystemVerilog/Soc_RV32I/SoC/VERIFICATION/Monitor/cpu_monitor.sv(163) @ 3115000: uvm_test_top.env.agent.monitor [MEM] STORE Addr=100006e8 Data=00000000
# UVM_INFO /home/khang/Documents/SystemVerilog/Soc_RV32I/SoC/VERIFICATION/Monitor/cpu_monitor.sv(163) @ 3125000: uvm_test_top.env.agent.monitor [MEM] STORE Addr=100006e8 Data=00000000
# UVM_INFO /home/khang/Documents/SystemVerilog/Soc_RV32I/SoC/VERIFICATION/Monitor/cpu_monitor.sv(163) @ 3135000: uvm_test_top.env.agent.monitor [MEM] STORE Addr=100006e8 Data=00000000
# UVM_INFO /home/khang/Documents/SystemVerilog/Soc_RV32I/SoC/VERIFICATION/Monitor/cpu_monitor.sv(163) @ 3145000: uvm_test_top.env.agent.monitor [MEM] STORE Addr=100006e8 Data=00000000
# UVM_INFO /home/khang/Documents/SystemVerilog/Soc_RV32I/SoC/VERIFICATION/Monitor/cpu_monitor.sv(231) @ 3145000: uvm_test_top.env.agent.monitor [AXI_WR] CPU→DRAM  Addr=100006e8 Data=00000000 Strb=1111 BRESP=00
# UVM_INFO /home/khang/Documents/SystemVerilog/Soc_RV32I/SoC/VERIFICATION/Monitor/cpu_monitor.sv(163) @ 3155000: uvm_test_top.env.agent.monitor [MEM] STORE Addr=100006e8 Data=00000000
# UVM_INFO /home/khang/Documents/SystemVerilog/Soc_RV32I/SoC/VERIFICATION/Monitor/cpu_monitor.sv(163) @ 3165000: uvm_test_top.env.agent.monitor [MEM] STORE Addr=100006e8 Data=00000000
# UVM_INFO /home/khang/Documents/SystemVerilog/Soc_RV32I/SoC/VERIFICATION/Monitor/cpu_monitor.sv(163) @ 3175000: uvm_test_top.env.agent.monitor [MEM] STORE Addr=100006e8 Data=00000000
# UVM_INFO /home/khang/Documents/SystemVerilog/Soc_RV32I/SoC/VERIFICATION/Monitor/cpu_monitor.sv(163) @ 3185000: uvm_test_top.env.agent.monitor [MEM] STORE Addr=100006e8 Data=00000000
# UVM_INFO /home/khang/Documents/SystemVerilog/Soc_RV32I/SoC/VERIFICATION/Monitor/cpu_monitor.sv(231) @ 3185000: uvm_test_top.env.agent.monitor [AXI_WR] CPU→DRAM  Addr=100006e8 Data=00000000 Strb=1111 BRESP=00
# UVM_INFO /home/khang/Documents/SystemVerilog/Soc_RV32I/SoC/VERIFICATION/Monitor/cpu_monitor.sv(163) @ 3195000: uvm_test_top.env.agent.monitor [MEM] STORE Addr=100006e8 Data=00000000
# UVM_INFO /home/khang/Documents/SystemVerilog/Soc_RV32I/SoC/VERIFICATION/Monitor/cpu_monitor.sv(163) @ 3205000: uvm_test_top.env.agent.monitor [MEM] STORE Addr=100006e8 Data=00000000
# UVM_INFO /home/khang/Documents/SystemVerilog/Soc_RV32I/SoC/VERIFICATION/Monitor/cpu_monitor.sv(163) @ 3215000: uvm_test_top.env.agent.monitor [MEM] STORE Addr=100006e8 Data=00000000
# UVM_INFO /home/khang/Documents/SystemVerilog/Soc_RV32I/SoC/VERIFICATION/Monitor/cpu_monitor.sv(163) @ 3225000: uvm_test_top.env.agent.monitor [MEM] STORE Addr=100006e8 Data=00000000
# UVM_INFO /home/khang/Documents/SystemVerilog/Soc_RV32I/SoC/VERIFICATION/Monitor/cpu_monitor.sv(231) @ 3225000: uvm_test_top.env.agent.monitor [AXI_WR] CPU→DRAM  Addr=100006e8 Data=00000000 Strb=1111 BRESP=00
# UVM_INFO /home/khang/Documents/SystemVerilog/Soc_RV32I/SoC/VERIFICATION/Monitor/cpu_monitor.sv(163) @ 3235000: uvm_test_top.env.agent.monitor [MEM] STORE Addr=100006e8 Data=00000000
# UVM_INFO /home/khang/Documents/SystemVerilog/Soc_RV32I/SoC/VERIFICATION/Monitor/cpu_monitor.sv(163) @ 3245000: uvm_test_top.env.agent.monitor [MEM] STORE Addr=100006e8 Data=00000000
# UVM_INFO /home/khang/Documents/SystemVerilog/Soc_RV32I/SoC/VERIFICATION/Monitor/cpu_monitor.sv(163) @ 3255000: uvm_test_top.env.agent.monitor [MEM] STORE Addr=100006e8 Data=00000000
# UVM_INFO /home/khang/Documents/SystemVerilog/Soc_RV32I/SoC/VERIFICATION/Monitor/cpu_monitor.sv(163) @ 3265000: uvm_test_top.env.agent.monitor [MEM] STORE Addr=100006e8 Data=00000000
# UVM_INFO /home/khang/Documents/SystemVerilog/Soc_RV32I/SoC/VERIFICATION/Monitor/cpu_monitor.sv(231) @ 3265000: uvm_test_top.env.agent.monitor [AXI_WR] CPU→DRAM  Addr=100006e8 Data=00000000 Strb=1111 BRESP=00
# UVM_INFO /home/khang/Documents/SystemVerilog/Soc_RV32I/SoC/VERIFICATION/Monitor/cpu_monitor.sv(163) @ 3275000: uvm_test_top.env.agent.monitor [MEM] STORE Addr=100006e8 Data=00000000
# UVM_INFO /home/khang/Documents/SystemVerilog/Soc_RV32I/SoC/VERIFICATION/Monitor/cpu_monitor.sv(163) @ 3285000: uvm_test_top.env.agent.monitor [MEM] STORE Addr=100006e8 Data=00000000
# UVM_INFO /home/khang/Documents/SystemVerilog/Soc_RV32I/SoC/VERIFICATION/Monitor/cpu_monitor.sv(163) @ 3295000: uvm_test_top.env.agent.monitor [MEM] STORE Addr=100006e8 Data=00000000
# UVM_INFO /home/khang/Documents/SystemVerilog/Soc_RV32I/SoC/VERIFICATION/Monitor/cpu_monitor.sv(163) @ 3305000: uvm_test_top.env.agent.monitor [MEM] STORE Addr=100006e8 Data=00000000
# UVM_INFO /home/khang/Documents/SystemVerilog/Soc_RV32I/SoC/VERIFICATION/Monitor/cpu_monitor.sv(231) @ 3305000: uvm_test_top.env.agent.monitor [AXI_WR] CPU→DRAM  Addr=100006e8 Data=00000000 Strb=1111 BRESP=00
# UVM_INFO /home/khang/Documents/SystemVerilog/Soc_RV32I/SoC/VERIFICATION/Monitor/cpu_monitor.sv(163) @ 3315000: uvm_test_top.env.agent.monitor [MEM] STORE Addr=100006e8 Data=00000000
# UVM_INFO /home/khang/Documents/SystemVerilog/Soc_RV32I/SoC/VERIFICATION/Monitor/cpu_monitor.sv(163) @ 3325000: uvm_test_top.env.agent.monitor [MEM] STORE Addr=100006e8 Data=00000000
# UVM_INFO /home/khang/Documents/SystemVerilog/Soc_RV32I/SoC/VERIFICATION/Monitor/cpu_monitor.sv(163) @ 3335000: uvm_test_top.env.agent.monitor [MEM] STORE Addr=100006e8 Data=00000000
# UVM_INFO /home/khang/Documents/SystemVerilog/Soc_RV32I/SoC/VERIFICATION/Monitor/cpu_monitor.sv(163) @ 3345000: uvm_test_top.env.agent.monitor [MEM] STORE Addr=100006e8 Data=00000000
# UVM_INFO /home/khang/Documents/SystemVerilog/Soc_RV32I/SoC/VERIFICATION/Monitor/cpu_monitor.sv(231) @ 3345000: uvm_test_top.env.agent.monitor [AXI_WR] CPU→DRAM  Addr=100006e8 Data=00000000 Strb=1111 BRESP=00
# UVM_INFO /home/khang/Documents/SystemVerilog/Soc_RV32I/SoC/VERIFICATION/Monitor/cpu_monitor.sv(163) @ 3355000: uvm_test_top.env.agent.monitor [MEM] STORE Addr=100006e8 Data=00000000
# UVM_INFO /home/khang/Documents/SystemVerilog/Soc_RV32I/SoC/VERIFICATION/Monitor/cpu_monitor.sv(163) @ 3365000: uvm_test_top.env.agent.monitor [MEM] STORE Addr=100006e8 Data=00000000
# UVM_INFO /home/khang/Documents/SystemVerilog/Soc_RV32I/SoC/VERIFICATION/Monitor/cpu_monitor.sv(163) @ 3375000: uvm_test_top.env.agent.monitor [MEM] STORE Addr=100006e8 Data=00000000
# UVM_INFO /home/khang/Documents/SystemVerilog/Soc_RV32I/SoC/VERIFICATION/Monitor/cpu_monitor.sv(163) @ 3385000: uvm_test_top.env.agent.monitor [MEM] STORE Addr=100006e8 Data=00000000
# UVM_INFO /home/khang/Documents/SystemVerilog/Soc_RV32I/SoC/VERIFICATION/Monitor/cpu_monitor.sv(231) @ 3385000: uvm_test_top.env.agent.monitor [AXI_WR] CPU→DRAM  Addr=100006e8 Data=00000000 Strb=1111 BRESP=00
# UVM_INFO /home/khang/Documents/SystemVerilog/Soc_RV32I/SoC/VERIFICATION/Monitor/cpu_monitor.sv(163) @ 3395000: uvm_test_top.env.agent.monitor [MEM] STORE Addr=100006e8 Data=00000000
# UVM_INFO /home/khang/Documents/SystemVerilog/Soc_RV32I/SoC/VERIFICATION/Monitor/cpu_monitor.sv(163) @ 3405000: uvm_test_top.env.agent.monitor [MEM] STORE Addr=100006e8 Data=00000000
# UVM_INFO /home/khang/Documents/SystemVerilog/Soc_RV32I/SoC/VERIFICATION/Monitor/cpu_monitor.sv(163) @ 3415000: uvm_test_top.env.agent.monitor [MEM] STORE Addr=100006e8 Data=00000000
# UVM_INFO /home/khang/Documents/SystemVerilog/Soc_RV32I/SoC/VERIFICATION/Monitor/cpu_monitor.sv(163) @ 3425000: uvm_test_top.env.agent.monitor [MEM] STORE Addr=100006e8 Data=00000000
# UVM_INFO /home/khang/Documents/SystemVerilog/Soc_RV32I/SoC/VERIFICATION/Monitor/cpu_monitor.sv(231) @ 3425000: uvm_test_top.env.agent.monitor [AXI_WR] CPU→DRAM  Addr=100006e8 Data=00000000 Strb=1111 BRESP=00
# UVM_INFO /home/khang/Documents/SystemVerilog/Soc_RV32I/SoC/VERIFICATION/Monitor/cpu_monitor.sv(163) @ 3435000: uvm_test_top.env.agent.monitor [MEM] STORE Addr=100006e8 Data=00000000
# UVM_INFO /home/khang/Documents/SystemVerilog/Soc_RV32I/SoC/VERIFICATION/Monitor/cpu_monitor.sv(163) @ 3445000: uvm_test_top.env.agent.monitor [MEM] STORE Addr=100006e8 Data=00000000
# UVM_INFO /home/khang/Documents/SystemVerilog/Soc_RV32I/SoC/VERIFICATION/Monitor/cpu_monitor.sv(163) @ 3455000: uvm_test_top.env.agent.monitor [MEM] STORE Addr=100006e8 Data=00000000
# UVM_INFO /home/khang/Documents/SystemVerilog/Soc_RV32I/SoC/VERIFICATION/Monitor/cpu_monitor.sv(163) @ 3465000: uvm_test_top.env.agent.monitor [MEM] STORE Addr=100006e8 Data=00000000
# UVM_INFO /home/khang/Documents/SystemVerilog/Soc_RV32I/SoC/VERIFICATION/Monitor/cpu_monitor.sv(231) @ 3465000: uvm_test_top.env.agent.monitor [AXI_WR] CPU→DRAM  Addr=100006e8 Data=00000000 Strb=1111 BRESP=00
# UVM_INFO /home/khang/Documents/SystemVerilog/Soc_RV32I/SoC/VERIFICATION/Monitor/cpu_monitor.sv(163) @ 3475000: uvm_test_top.env.agent.monitor [MEM] STORE Addr=100006e8 Data=00000000
# UVM_INFO /home/khang/Documents/SystemVerilog/Soc_RV32I/SoC/VERIFICATION/Monitor/cpu_monitor.sv(163) @ 3485000: uvm_test_top.env.agent.monitor [MEM] STORE Addr=100006e8 Data=00000000
# UVM_INFO /home/khang/Documents/SystemVerilog/Soc_RV32I/SoC/VERIFICATION/Monitor/cpu_monitor.sv(163) @ 3495000: uvm_test_top.env.agent.monitor [MEM] STORE Addr=100006e8 Data=00000000
# UVM_INFO /home/khang/Documents/SystemVerilog/Soc_RV32I/SoC/VERIFICATION/Monitor/cpu_monitor.sv(163) @ 3505000: uvm_test_top.env.agent.monitor [MEM] STORE Addr=100006e8 Data=00000000
# UVM_INFO /home/khang/Documents/SystemVerilog/Soc_RV32I/SoC/VERIFICATION/Monitor/cpu_monitor.sv(231) @ 3505000: uvm_test_top.env.agent.monitor [AXI_WR] CPU→DRAM  Addr=100006e8 Data=00000000 Strb=1111 BRESP=00
# UVM_INFO /home/khang/Documents/SystemVerilog/Soc_RV32I/SoC/VERIFICATION/Monitor/cpu_monitor.sv(163) @ 3515000: uvm_test_top.env.agent.monitor [MEM] STORE Addr=100006e8 Data=00000000
# UVM_INFO /home/khang/Documents/SystemVerilog/Soc_RV32I/SoC/VERIFICATION/Monitor/cpu_monitor.sv(163) @ 3525000: uvm_test_top.env.agent.monitor [MEM] STORE Addr=100006e8 Data=00000000
# UVM_INFO /home/khang/Documents/SystemVerilog/Soc_RV32I/SoC/VERIFICATION/Monitor/cpu_monitor.sv(163) @ 3535000: uvm_test_top.env.agent.monitor [MEM] STORE Addr=100006e8 Data=00000000
# UVM_INFO /home/khang/Documents/SystemVerilog/Soc_RV32I/SoC/VERIFICATION/Monitor/cpu_monitor.sv(163) @ 3545000: uvm_test_top.env.agent.monitor [MEM] STORE Addr=100006e8 Data=00000000
# UVM_INFO /home/khang/Documents/SystemVerilog/Soc_RV32I/SoC/VERIFICATION/Monitor/cpu_monitor.sv(231) @ 3545000: uvm_test_top.env.agent.monitor [AXI_WR] CPU→DRAM  Addr=100006e8 Data=00000000 Strb=1111 BRESP=00
# UVM_INFO /home/khang/Documents/SystemVerilog/Soc_RV32I/SoC/VERIFICATION/Monitor/cpu_monitor.sv(163) @ 3555000: uvm_test_top.env.agent.monitor [MEM] STORE Addr=100006e8 Data=00000000
# UVM_INFO /home/khang/Documents/SystemVerilog/Soc_RV32I/SoC/VERIFICATION/Monitor/cpu_monitor.sv(163) @ 3565000: uvm_test_top.env.agent.monitor [MEM] STORE Addr=100006e8 Data=00000000
# UVM_INFO /home/khang/Documents/SystemVerilog/Soc_RV32I/SoC/VERIFICATION/Monitor/cpu_monitor.sv(163) @ 3575000: uvm_test_top.env.agent.monitor [MEM] STORE Addr=100006e8 Data=00000000
# UVM_INFO /home/khang/Documents/SystemVerilog/Soc_RV32I/SoC/VERIFICATION/Monitor/cpu_monitor.sv(163) @ 3585000: uvm_test_top.env.agent.monitor [MEM] STORE Addr=100006e8 Data=00000000
# UVM_INFO /home/khang/Documents/SystemVerilog/Soc_RV32I/SoC/VERIFICATION/Monitor/cpu_monitor.sv(231) @ 3585000: uvm_test_top.env.agent.monitor [AXI_WR] CPU→DRAM  Addr=100006e8 Data=00000000 Strb=1111 BRESP=00
# UVM_INFO /home/khang/Documents/SystemVerilog/Soc_RV32I/SoC/VERIFICATION/Monitor/cpu_monitor.sv(163) @ 3595000: uvm_test_top.env.agent.monitor [MEM] STORE Addr=100006e8 Data=00000000
# UVM_INFO /home/khang/Documents/SystemVerilog/Soc_RV32I/SoC/VERIFICATION/Monitor/cpu_monitor.sv(163) @ 3605000: uvm_test_top.env.agent.monitor [MEM] STORE Addr=100006e8 Data=00000000
# UVM_INFO /home/khang/Documents/SystemVerilog/Soc_RV32I/SoC/VERIFICATION/Monitor/cpu_monitor.sv(163) @ 3615000: uvm_test_top.env.agent.monitor [MEM] STORE Addr=100006e8 Data=00000000
# UVM_INFO /home/khang/Documents/SystemVerilog/Soc_RV32I/SoC/VERIFICATION/Monitor/cpu_monitor.sv(163) @ 3625000: uvm_test_top.env.agent.monitor [MEM] STORE Addr=100006e8 Data=00000000
# UVM_INFO /home/khang/Documents/SystemVerilog/Soc_RV32I/SoC/VERIFICATION/Monitor/cpu_monitor.sv(231) @ 3625000: uvm_test_top.env.agent.monitor [AXI_WR] CPU→DRAM  Addr=100006e8 Data=00000000 Strb=1111 BRESP=00
# UVM_INFO /home/khang/Documents/SystemVerilog/Soc_RV32I/SoC/VERIFICATION/Monitor/cpu_monitor.sv(163) @ 3635000: uvm_test_top.env.agent.monitor [MEM] STORE Addr=100006e8 Data=00000000
# UVM_INFO /home/khang/Documents/SystemVerilog/Soc_RV32I/SoC/VERIFICATION/Monitor/cpu_monitor.sv(163) @ 3645000: uvm_test_top.env.agent.monitor [MEM] STORE Addr=100006e8 Data=00000000
# UVM_INFO /home/khang/Documents/SystemVerilog/Soc_RV32I/SoC/VERIFICATION/Monitor/cpu_monitor.sv(163) @ 3655000: uvm_test_top.env.agent.monitor [MEM] STORE Addr=100006e8 Data=00000000
# UVM_INFO /home/khang/Documents/SystemVerilog/Soc_RV32I/SoC/VERIFICATION/Monitor/cpu_monitor.sv(163) @ 3665000: uvm_test_top.env.agent.monitor [MEM] STORE Addr=100006e8 Data=00000000
# UVM_INFO /home/khang/Documents/SystemVerilog/Soc_RV32I/SoC/VERIFICATION/Monitor/cpu_monitor.sv(231) @ 3665000: uvm_test_top.env.agent.monitor [AXI_WR] CPU→DRAM  Addr=100006e8 Data=00000000 Strb=1111 BRESP=00
# UVM_INFO /home/khang/Documents/SystemVerilog/Soc_RV32I/SoC/VERIFICATION/Monitor/cpu_monitor.sv(163) @ 3675000: uvm_test_top.env.agent.monitor [MEM] STORE Addr=100006e8 Data=00000000
# UVM_INFO /home/khang/Documents/SystemVerilog/Soc_RV32I/SoC/VERIFICATION/Monitor/cpu_monitor.sv(163) @ 3685000: uvm_test_top.env.agent.monitor [MEM] STORE Addr=100006e8 Data=00000000
# UVM_INFO /home/khang/Documents/SystemVerilog/Soc_RV32I/SoC/VERIFICATION/Monitor/cpu_monitor.sv(163) @ 3695000: uvm_test_top.env.agent.monitor [MEM] STORE Addr=100006e8 Data=00000000
# UVM_INFO /home/khang/Documents/SystemVerilog/Soc_RV32I/SoC/VERIFICATION/Monitor/cpu_monitor.sv(163) @ 3705000: uvm_test_top.env.agent.monitor [MEM] STORE Addr=100006e8 Data=00000000
# UVM_INFO /home/khang/Documents/SystemVerilog/Soc_RV32I/SoC/VERIFICATION/Monitor/cpu_monitor.sv(231) @ 3705000: uvm_test_top.env.agent.monitor [AXI_WR] CPU→DRAM  Addr=100006e8 Data=00000000 Strb=1111 BRESP=00
# UVM_INFO /home/khang/Documents/SystemVerilog/Soc_RV32I/SoC/VERIFICATION/Monitor/cpu_monitor.sv(163) @ 3715000: uvm_test_top.env.agent.monitor [MEM] STORE Addr=100006e8 Data=00000000
# UVM_INFO /home/khang/Documents/SystemVerilog/Soc_RV32I/SoC/VERIFICATION/Monitor/cpu_monitor.sv(163) @ 3725000: uvm_test_top.env.agent.monitor [MEM] STORE Addr=100006e8 Data=00000000
# UVM_INFO /home/khang/Documents/SystemVerilog/Soc_RV32I/SoC/VERIFICATION/Monitor/cpu_monitor.sv(163) @ 3735000: uvm_test_top.env.agent.monitor [MEM] STORE Addr=100006e8 Data=00000000
# UVM_INFO /home/khang/Documents/SystemVerilog/Soc_RV32I/SoC/VERIFICATION/Monitor/cpu_monitor.sv(163) @ 3745000: uvm_test_top.env.agent.monitor [MEM] STORE Addr=100006e8 Data=00000000
# UVM_INFO /home/khang/Documents/SystemVerilog/Soc_RV32I/SoC/VERIFICATION/Monitor/cpu_monitor.sv(231) @ 3745000: uvm_test_top.env.agent.monitor [AXI_WR] CPU→DRAM  Addr=100006e8 Data=00000000 Strb=1111 BRESP=00
# UVM_INFO /home/khang/Documents/SystemVerilog/Soc_RV32I/SoC/VERIFICATION/Monitor/cpu_monitor.sv(163) @ 3755000: uvm_test_top.env.agent.monitor [MEM] STORE Addr=100006e8 Data=00000000
# UVM_INFO /home/khang/Documents/SystemVerilog/Soc_RV32I/SoC/VERIFICATION/Monitor/cpu_monitor.sv(163) @ 3765000: uvm_test_top.env.agent.monitor [MEM] STORE Addr=100006e8 Data=00000000
# UVM_INFO /home/khang/Documents/SystemVerilog/Soc_RV32I/SoC/VERIFICATION/Monitor/cpu_monitor.sv(163) @ 3775000: uvm_test_top.env.agent.monitor [MEM] STORE Addr=100006e8 Data=00000000
# UVM_INFO /home/khang/Documents/SystemVerilog/Soc_RV32I/SoC/VERIFICATION/Monitor/cpu_monitor.sv(163) @ 3785000: uvm_test_top.env.agent.monitor [MEM] STORE Addr=100006e8 Data=00000000
# UVM_INFO /home/khang/Documents/SystemVerilog/Soc_RV32I/SoC/VERIFICATION/Monitor/cpu_monitor.sv(231) @ 3785000: uvm_test_top.env.agent.monitor [AXI_WR] CPU→DRAM  Addr=100006e8 Data=00000000 Strb=1111 BRESP=00
# UVM_INFO /home/khang/Documents/SystemVerilog/Soc_RV32I/SoC/VERIFICATION/Monitor/cpu_monitor.sv(163) @ 3795000: uvm_test_top.env.agent.monitor [MEM] STORE Addr=100006e8 Data=00000000
# UVM_INFO /home/khang/Documents/SystemVerilog/Soc_RV32I/SoC/VERIFICATION/Monitor/cpu_monitor.sv(163) @ 3805000: uvm_test_top.env.agent.monitor [MEM] STORE Addr=100006e8 Data=00000000
# UVM_INFO /home/khang/Documents/SystemVerilog/Soc_RV32I/SoC/VERIFICATION/Monitor/cpu_monitor.sv(163) @ 3815000: uvm_test_top.env.agent.monitor [MEM] STORE Addr=100006e8 Data=00000000
# UVM_INFO /home/khang/Documents/SystemVerilog/Soc_RV32I/SoC/VERIFICATION/Monitor/cpu_monitor.sv(163) @ 3825000: uvm_test_top.env.agent.monitor [MEM] STORE Addr=100006e8 Data=00000000
# UVM_INFO /home/khang/Documents/SystemVerilog/Soc_RV32I/SoC/VERIFICATION/Monitor/cpu_monitor.sv(231) @ 3825000: uvm_test_top.env.agent.monitor [AXI_WR] CPU→DRAM  Addr=100006e8 Data=00000000 Strb=1111 BRESP=00
# UVM_INFO /home/khang/Documents/SystemVerilog/Soc_RV32I/SoC/VERIFICATION/Monitor/cpu_monitor.sv(163) @ 3835000: uvm_test_top.env.agent.monitor [MEM] STORE Addr=100006e8 Data=00000000
# UVM_INFO /home/khang/Documents/SystemVerilog/Soc_RV32I/SoC/VERIFICATION/Monitor/cpu_monitor.sv(163) @ 3845000: uvm_test_top.env.agent.monitor [MEM] STORE Addr=100006e8 Data=00000000
# UVM_INFO /home/khang/Documents/SystemVerilog/Soc_RV32I/SoC/VERIFICATION/Monitor/cpu_monitor.sv(163) @ 3855000: uvm_test_top.env.agent.monitor [MEM] STORE Addr=100006e8 Data=00000000
# UVM_INFO /home/khang/Documents/SystemVerilog/Soc_RV32I/SoC/VERIFICATION/Monitor/cpu_monitor.sv(163) @ 3865000: uvm_test_top.env.agent.monitor [MEM] STORE Addr=100006e8 Data=00000000
# UVM_INFO /home/khang/Documents/SystemVerilog/Soc_RV32I/SoC/VERIFICATION/Monitor/cpu_monitor.sv(231) @ 3865000: uvm_test_top.env.agent.monitor [AXI_WR] CPU→DRAM  Addr=100006e8 Data=00000000 Strb=1111 BRESP=00
# UVM_INFO /home/khang/Documents/SystemVerilog/Soc_RV32I/SoC/VERIFICATION/Monitor/cpu_monitor.sv(163) @ 3875000: uvm_test_top.env.agent.monitor [MEM] STORE Addr=100006e8 Data=00000000
# UVM_INFO /home/khang/Documents/SystemVerilog/Soc_RV32I/SoC/VERIFICATION/Monitor/cpu_monitor.sv(163) @ 3885000: uvm_test_top.env.agent.monitor [MEM] STORE Addr=100006e8 Data=00000000
# UVM_INFO /home/khang/Documents/SystemVerilog/Soc_RV32I/SoC/VERIFICATION/Monitor/cpu_monitor.sv(163) @ 3895000: uvm_test_top.env.agent.monitor [MEM] STORE Addr=100006e8 Data=00000000
# UVM_INFO /home/khang/Documents/SystemVerilog/Soc_RV32I/SoC/VERIFICATION/Monitor/cpu_monitor.sv(163) @ 3905000: uvm_test_top.env.agent.monitor [MEM] STORE Addr=100006e8 Data=00000000
# UVM_INFO /home/khang/Documents/SystemVerilog/Soc_RV32I/SoC/VERIFICATION/Monitor/cpu_monitor.sv(231) @ 3905000: uvm_test_top.env.agent.monitor [AXI_WR] CPU→DRAM  Addr=100006e8 Data=00000000 Strb=1111 BRESP=00
# UVM_INFO /home/khang/Documents/SystemVerilog/Soc_RV32I/SoC/VERIFICATION/Monitor/cpu_monitor.sv(163) @ 3915000: uvm_test_top.env.agent.monitor [MEM] STORE Addr=100006e8 Data=00000000
# UVM_INFO /home/khang/Documents/SystemVerilog/Soc_RV32I/SoC/VERIFICATION/Monitor/cpu_monitor.sv(163) @ 3925000: uvm_test_top.env.agent.monitor [MEM] STORE Addr=100006e8 Data=00000000
# UVM_INFO /home/khang/Documents/SystemVerilog/Soc_RV32I/SoC/VERIFICATION/Monitor/cpu_monitor.sv(163) @ 3935000: uvm_test_top.env.agent.monitor [MEM] STORE Addr=100006e8 Data=00000000
# UVM_INFO /home/khang/Documents/SystemVerilog/Soc_RV32I/SoC/VERIFICATION/Monitor/cpu_monitor.sv(163) @ 3945000: uvm_test_top.env.agent.monitor [MEM] STORE Addr=100006e8 Data=00000000
# UVM_INFO /home/khang/Documents/SystemVerilog/Soc_RV32I/SoC/VERIFICATION/Monitor/cpu_monitor.sv(231) @ 3945000: uvm_test_top.env.agent.monitor [AXI_WR] CPU→DRAM  Addr=100006e8 Data=00000000 Strb=1111 BRESP=00
# UVM_INFO /home/khang/Documents/SystemVerilog/Soc_RV32I/SoC/VERIFICATION/Monitor/cpu_monitor.sv(163) @ 3955000: uvm_test_top.env.agent.monitor [MEM] STORE Addr=100006e8 Data=00000000
# UVM_INFO /home/khang/Documents/SystemVerilog/Soc_RV32I/SoC/VERIFICATION/Monitor/cpu_monitor.sv(163) @ 3965000: uvm_test_top.env.agent.monitor [MEM] STORE Addr=100006e8 Data=00000000
# UVM_INFO /home/khang/Documents/SystemVerilog/Soc_RV32I/SoC/VERIFICATION/Monitor/cpu_monitor.sv(163) @ 3975000: uvm_test_top.env.agent.monitor [MEM] STORE Addr=100006e8 Data=00000000
# UVM_INFO /home/khang/Documents/SystemVerilog/Soc_RV32I/SoC/VERIFICATION/Monitor/cpu_monitor.sv(163) @ 3985000: uvm_test_top.env.agent.monitor [MEM] STORE Addr=100006e8 Data=00000000
# UVM_INFO /home/khang/Documents/SystemVerilog/Soc_RV32I/SoC/VERIFICATION/Monitor/cpu_monitor.sv(231) @ 3985000: uvm_test_top.env.agent.monitor [AXI_WR] CPU→DRAM  Addr=100006e8 Data=00000000 Strb=1111 BRESP=00
# UVM_INFO /home/khang/Documents/SystemVerilog/Soc_RV32I/SoC/VERIFICATION/Monitor/cpu_monitor.sv(163) @ 3995000: uvm_test_top.env.agent.monitor [MEM] STORE Addr=100006e8 Data=00000000
# UVM_INFO /home/khang/Documents/SystemVerilog/Soc_RV32I/SoC/VERIFICATION/Monitor/cpu_monitor.sv(163) @ 4005000: uvm_test_top.env.agent.monitor [MEM] STORE Addr=100006e8 Data=00000000
# UVM_INFO /home/khang/Documents/SystemVerilog/Soc_RV32I/SoC/VERIFICATION/Monitor/cpu_monitor.sv(163) @ 4015000: uvm_test_top.env.agent.monitor [MEM] STORE Addr=100006e8 Data=00000000
# UVM_INFO /home/khang/Documents/SystemVerilog/Soc_RV32I/SoC/VERIFICATION/Monitor/cpu_monitor.sv(163) @ 4025000: uvm_test_top.env.agent.monitor [MEM] STORE Addr=100006e8 Data=00000000
# UVM_INFO /home/khang/Documents/SystemVerilog/Soc_RV32I/SoC/VERIFICATION/Monitor/cpu_monitor.sv(231) @ 4025000: uvm_test_top.env.agent.monitor [AXI_WR] CPU→DRAM  Addr=100006e8 Data=00000000 Strb=1111 BRESP=00
# UVM_INFO /home/khang/Documents/SystemVerilog/Soc_RV32I/SoC/VERIFICATION/Monitor/cpu_monitor.sv(163) @ 4035000: uvm_test_top.env.agent.monitor [MEM] STORE Addr=100006e8 Data=00000000
# UVM_INFO /home/khang/Documents/SystemVerilog/Soc_RV32I/SoC/VERIFICATION/Monitor/cpu_monitor.sv(163) @ 4045000: uvm_test_top.env.agent.monitor [MEM] STORE Addr=100006e8 Data=00000000
# UVM_INFO /home/khang/Documents/SystemVerilog/Soc_RV32I/SoC/VERIFICATION/Monitor/cpu_monitor.sv(163) @ 4055000: uvm_test_top.env.agent.monitor [MEM] STORE Addr=100006e8 Data=00000000
# UVM_INFO /home/khang/Documents/SystemVerilog/Soc_RV32I/SoC/VERIFICATION/Monitor/cpu_monitor.sv(163) @ 4065000: uvm_test_top.env.agent.monitor [MEM] STORE Addr=100006e8 Data=00000000
