--- [SIM ONLY] cpu_test ---
MODE = CPU_MASTER
Reading C:/app/QuestaSim/tcl/vsim/pref.tcl 

# 10.2c

# vsim +UVM_TESTNAME=cpu_test +CPU_MASTER +MEM_SEED=290170898 -coverage -do {run -all; quit} -c -sv_seed 290170898 vopt_top 
# //  Questa Sim-64
# //  Version 10.2c Unknown Platform Jul 19 2013
# //
# //  Copyright 1991-2013 Mentor Graphics Corporation
# //  All Rights Reserved.
# //
# //  THIS WORK CONTAINS TRADE SECRET AND PROPRIETARY INFORMATION
# //  WHICH IS THE PROPERTY OF MENTOR GRAPHICS CORPORATION OR ITS
# //  LICENSORS AND IS SUBJECT TO LICENSE TERMS.
# //
# Loading sv_std.std
# Loading mtiUvm.uvm_pkg
# Loading work.soc_pkg(fast)
# Loading work.top_tb(fast)
# Loading work.clk_rst_inf(fast)
# Loading work.soc_inf(fast)
# Loading work.cpu_monitor_inf(fast)
# Loading work.TOP(fast)
# Loading work.AXI_Master(fast)
# Loading work.CPU(fast)
# Loading work.pc_reg(fast)
# Loading work.IF_ID(fast)
# Loading work.ControlUnit(fast)
# Loading work.MainDecoder(fast)
# Loading work.ALUControl(fast)
# Loading work.RegFile(fast)
# Loading work.signExtend(fast)
# Loading work.ID_EX(fast)
# Loading work.ALU(fast)
# Loading work.EX_MEM(fast)
# Loading work.MEM_WB(fast)
# Loading work.HazardUnit(fast)
# Loading work.LSU(fast)
# Loading work.AXI4_Lite_Interconnect(fast)
# Loading work.IRAM(fast)
# Loading work.DRAM(fast)
# Loading work.Timer(fast)
# Loading work.UART(fast)
# Loading work.SPI(fast)
# Loading mtiUvm.questa_uvm_pkg(fast)
# Loading C:/app/QuestaSim/uvm-1.1d\win64\uvm_dpi.dll
# run -all 
# ----------------------------------------------------------------
# UVM-1.1d
# (C) 2007-2013 Mentor Graphics Corporation
# (C) 2007-2013 Cadence Design Systems, Inc.
# (C) 2006-2013 Synopsys, Inc.
# (C) 2011-2013 Cypress Semiconductor Corp.
# ----------------------------------------------------------------
# 
#   ***********       IMPORTANT RELEASE NOTES         ************
# 
#   You are using a version of the UVM library that has been compiled
#   with `UVM_NO_DEPRECATED undefined.
#   See http://www.eda.org/svdb/view.php?id=3313 for more details.
# 
#   You are using a version of the UVM library that has been compiled
#   with `UVM_OBJECT_MUST_HAVE_CONSTRUCTOR undefined.
#   See http://www.eda.org/svdb/view.php?id=3770 for more details.
# 
#       (Specify +UVM_NO_RELNOTES to turn off this notice)
# 
# UVM_INFO verilog_src/questa_uvm_pkg-1.2/src/questa_uvm_pkg.sv(215) @ 0: reporter [Questa UVM] QUESTA_UVM-1.2.2
# UVM_INFO verilog_src/questa_uvm_pkg-1.2/src/questa_uvm_pkg.sv(217) @ 0: reporter [Questa UVM]  questa_uvm::init(+struct)
# [IRAM] Loading file: instr.mem
# [IRAM] mem[0] = 100000b7
# [IRAM] mem[1] = a1be8c13
# [IRAM] mem[2] = 01d45133
# [IRAM] mem[3] = 79e0a823
# [IRAM] mem[4] = 4f76e313
# [IRAM] mem[5] = 2640a703
# [IRAM] mem[6] = 024009ef
# [IRAM] mem[7] = 6180ae03
# [IRAM] mem[8] = 0f40a603
# [IRAM] mem[9] = 4380ae83
# [IRAM] mem[10] = 00830eb3
# [IRAM] mem[11] = 67d0a423
# [IRAM] mem[12] = 62d0a823
# [IRAM] mem[13] = 0120a623
# [IRAM] mem[14] = 005c0a63
# [IRAM] mem[15] = 9e58fa93
# [IRAM] mem[16] = 01a70e63
# [IRAM] mem[17] = 002a48b3
# [IRAM] mem[18] = 4580a823
# [IRAM] mem[19] = 039e8663
# [IRAM] mem[20] = 01155eb3
# [IRAM] mem[21] = 02db8063
# [IRAM] mem[22] = 1d80a683
# [IRAM] mem[23] = 79f0a823
# [IRAM] mem[24] = 37f60893
# [IRAM] mem[25] = 02800f6f
# [IRAM] mem[26] = 2fc0a303
# [IRAM] mem[27] = 3dc0ad03
# [IRAM] mem[28] = 0b00a803
# [IRAM] mem[29] = 41935f33
# [IRAM] mem[30] = 2d718f93
# [IRAM] mem[31] = 00996e33
# [IRAM] mem[32] = 1f80a883
# [IRAM] mem[33] = 6140aa23
# [IRAM] mem[34] = 58d0a023
# [IRAM] mem[35] = 89f16f13
# [IRAM] mem[36] = 01e124b3
# [IRAM] mem[37] = 007a29b3
# [IRAM] mem[38] = 009e8a63
# [IRAM] mem[39] = 3670a623
# [IRAM] mem[40] = 01a74e33
# [IRAM] mem[41] = 62c0a903
# [IRAM] mem[42] = c69f4293
# [IRAM] mem[43] = a5458b13
# [IRAM] mem[44] = 3640a803
# [IRAM] mem[45] = 00c00aef
# [IRAM] mem[46] = 01074d33
# [IRAM] mem[47] = 01a19f33
# [IRAM] mem[48] = 5f30ac23
# [IRAM] mem[49] = 1680af03
# [IRAM] mem[50] = 2a40a283
# [IRAM] mem[51] = 00788eb3
# [IRAM] mem[52] = 00da67b3
# [IRAM] mem[53] = 0065e933
# [IRAM] mem[54] = 8636e513
# [IRAM] mem[55] = a1a9f413
# [IRAM] mem[56] = 0040036f
# [IRAM] mem[57] = 014549b3
# [IRAM] mem[58] = 410787b3
# [IRAM] mem[59] = 4152d7b3
# [IRAM] mem[60] = 01895233
# [IRAM] mem[61] = 00c00def
# [IRAM] mem[62] = 7c00ad83
# [IRAM] mem[63] = 01cb7bb3
# [IRAM] mem[64] = 72c0a683
# [IRAM] mem[65] = 3c40af03
# [IRAM] mem[66] = 002885b3
# [IRAM] mem[67] = 7f00a783
# [IRAM] mem[68] = 40538633
# [IRAM] mem[69] = 4380ac23
# [IRAM] mem[70] = 13d0a823
# [IRAM] mem[71] = 7100a483
# [IRAM] mem[72] = 7440a503
# [IRAM] mem[73] = d79e6493
# [IRAM] mem[74] = cd62f593
# [IRAM] mem[75] = a7d80e13
# [IRAM] mem[76] = 011a4bb3
# [IRAM] mem[77] = b251e613
# [IRAM] mem[78] = 1e00af83
# [IRAM] mem[79] = 404f09b3
# [IRAM] mem[80] = af38cb13
# [IRAM] mem[81] = d0cc7593
# [IRAM] mem[82] = 27ba6c13
# [IRAM] mem[83] = 6bc0aa23
# [IRAM] mem[84] = 4ed0ac23
# [IRAM] mem[85] = 01dc64b3
# [IRAM] mem[86] = 1660a023
# [IRAM] mem[87] = 26e0ac23
# [IRAM] mem[88] = b811e293
# [IRAM] mem[89] = 767d4c93
# [IRAM] mem[90] = d9684613
# [IRAM] mem[91] = 06b0aa23
# [IRAM] mem[92] = 1b00a223
# [IRAM] mem[93] = 009381b3
# [IRAM] mem[94] = 31ac0793
# [IRAM] mem[95] = e5526113
# [IRAM] mem[96] = 52914613
# [IRAM] mem[97] = 3780a283
# [IRAM] mem[98] = 01af9f33
# [IRAM] mem[99] = 41f0a023
# [IRAM] mem[100] = eaa1f913
# [TB] Mode: CPU MASTER â?? CPU drives AXI, UVM observes
# UVM_INFO @ 0: reporter [RNTST] Running test cpu_test...
# UVM_INFO C:/Documents/DoAnThietKeViMach/Project/SoC/VERIFICATION/Scoreboard/cpu_scoreboard.sv(98) @ 0: uvm_test_top.env.scoreboard [SCB] Loaded expected registers from: expected.mem
# UVM_INFO C:/Documents/DoAnThietKeViMach/Project/SoC/VERIFICATION/Test/cpu_test.sv(55) @ 0: uvm_test_top [TEST] Program has 101 instructions, end PC = 00000194
# UVM_INFO C:/Documents/DoAnThietKeViMach/Project/SoC/VERIFICATION/Monitor/cpu_monitor.sv(200) @ 35000: uvm_test_top.env.agent.monitor [CPU_MON] === CPU Monitor started == watching pipeline ===
# UVM_INFO C:/Documents/DoAnThietKeViMach/Project/SoC/VERIFICATION/Monitor/cpu_monitor.sv(202) @ 35000: uvm_test_top.env.agent.monitor [CPU_MON] ============================================================
# UVM_INFO C:/Documents/DoAnThietKeViMach/Project/SoC/VERIFICATION/Test/cpu_test.sv(62) @ 55000: uvm_test_top [TEST] Reset released â?? CPU executing from IRAM
# UVM_INFO C:/Documents/DoAnThietKeViMach/Project/SoC/VERIFICATION/Monitor/cpu_monitor.sv(364) @ 55000: uvm_test_top.env.agent.monitor [AXI_RD] CPU <- IRAM  Addr=00000000 Data=100000b7 RRESP=00
# UVM_INFO C:/Documents/DoAnThietKeViMach/Project/SoC/VERIFICATION/Monitor/cpu_monitor.sv(364) @ 95000: uvm_test_top.env.agent.monitor [AXI_RD] CPU <- IRAM  Addr=00000004 Data=a1be8c13 RRESP=00
# UVM_INFO C:/Documents/DoAnThietKeViMach/Project/SoC/VERIFICATION/Monitor/cpu_monitor.sv(234) @ 95000: uvm_test_top.env.agent.monitor [IF] PC=00000004  INSTR=a1be8c13  [ADDI x24, x29, -1509]            
# UVM_INFO C:/Documents/DoAnThietKeViMach/Project/SoC/VERIFICATION/Monitor/cpu_monitor.sv(364) @ 135000: uvm_test_top.env.agent.monitor [AXI_RD] CPU <- IRAM  Addr=00000008 Data=01d45133 RRESP=00
# UVM_INFO C:/Documents/DoAnThietKeViMach/Project/SoC/VERIFICATION/Monitor/cpu_monitor.sv(234) @ 135000: uvm_test_top.env.agent.monitor [IF] PC=00000008  INSTR=01d45133  [SRL  x2, x8, x29]            
# UVM_INFO C:/Documents/DoAnThietKeViMach/Project/SoC/VERIFICATION/Monitor/cpu_monitor.sv(364) @ 175000: uvm_test_top.env.agent.monitor [AXI_RD] CPU <- IRAM  Addr=0000000c Data=79e0a823 RRESP=00
# UVM_INFO C:/Documents/DoAnThietKeViMach/Project/SoC/VERIFICATION/Monitor/cpu_monitor.sv(234) @ 175000: uvm_test_top.env.agent.monitor [IF] PC=0000000c  INSTR=79e0a823  [SW   x30, 1950(x1)]            
# UVM_INFO C:/Documents/DoAnThietKeViMach/Project/SoC/VERIFICATION/Monitor/cpu_monitor.sv(296) @ 185000: uvm_test_top.env.agent.monitor [WB] x01 <= 10000000  (PC~0000000c)
# UVM_INFO C:/Documents/DoAnThietKeViMach/Project/SoC/VERIFICATION/Monitor/cpu_monitor.sv(296) @ 195000: uvm_test_top.env.agent.monitor [WB] x01 <= 10000000  (PC~0000000c)
# UVM_INFO C:/Documents/DoAnThietKeViMach/Project/SoC/VERIFICATION/Monitor/cpu_monitor.sv(296) @ 205000: uvm_test_top.env.agent.monitor [WB] x01 <= 10000000  (PC~0000000c)
# UVM_INFO C:/Documents/DoAnThietKeViMach/Project/SoC/VERIFICATION/Monitor/cpu_monitor.sv(364) @ 215000: uvm_test_top.env.agent.monitor [AXI_RD] CPU <- IRAM  Addr=00000010 Data=4f76e313 RRESP=00
# UVM_INFO C:/Documents/DoAnThietKeViMach/Project/SoC/VERIFICATION/Monitor/cpu_monitor.sv(234) @ 215000: uvm_test_top.env.agent.monitor [IF] PC=00000010  INSTR=4f76e313  [ORI  x6, x13, 1271]            
# UVM_INFO C:/Documents/DoAnThietKeViMach/Project/SoC/VERIFICATION/Monitor/cpu_monitor.sv(296) @ 215000: uvm_test_top.env.agent.monitor [WB] x01 <= 10000000  (PC~00000010)
# UVM_INFO C:/Documents/DoAnThietKeViMach/Project/SoC/VERIFICATION/Monitor/cpu_monitor.sv(296) @ 225000: uvm_test_top.env.agent.monitor [WB] x24 <= fffffa1b  (PC~00000010)
# UVM_INFO C:/Documents/DoAnThietKeViMach/Project/SoC/VERIFICATION/Monitor/cpu_monitor.sv(296) @ 235000: uvm_test_top.env.agent.monitor [WB] x24 <= fffffa1b  (PC~00000010)
# UVM_INFO C:/Documents/DoAnThietKeViMach/Project/SoC/VERIFICATION/Monitor/cpu_monitor.sv(296) @ 245000: uvm_test_top.env.agent.monitor [WB] x24 <= fffffa1b  (PC~00000010)
# UVM_INFO C:/Documents/DoAnThietKeViMach/Project/SoC/VERIFICATION/Monitor/cpu_monitor.sv(364) @ 255000: uvm_test_top.env.agent.monitor [AXI_RD] CPU <- IRAM  Addr=00000014 Data=2640a703 RRESP=00
# UVM_INFO C:/Documents/DoAnThietKeViMach/Project/SoC/VERIFICATION/Monitor/cpu_monitor.sv(234) @ 255000: uvm_test_top.env.agent.monitor [IF] PC=00000014  INSTR=2640a703  [LW   x14, 612(x1)]            
# UVM_INFO C:/Documents/DoAnThietKeViMach/Project/SoC/VERIFICATION/Monitor/cpu_monitor.sv(296) @ 255000: uvm_test_top.env.agent.monitor [WB] x24 <= fffffa1b  (PC~00000014)
# UVM_INFO C:/Documents/DoAnThietKeViMach/Project/SoC/VERIFICATION/Monitor/cpu_monitor.sv(268) @ 265000: uvm_test_top.env.agent.monitor [MEM] STORE Addr=10000790 Data=00000000
# UVM_INFO C:/Documents/DoAnThietKeViMach/Project/SoC/VERIFICATION/Monitor/cpu_monitor.sv(268) @ 275000: uvm_test_top.env.agent.monitor [MEM] STORE Addr=10000790 Data=00000000
# [DRAM WRITE] addr=10000790 data=00000000
# UVM_INFO C:/Documents/DoAnThietKeViMach/Project/SoC/VERIFICATION/Monitor/cpu_monitor.sv(268) @ 285000: uvm_test_top.env.agent.monitor [MEM] STORE Addr=10000790 Data=00000000
# UVM_INFO C:/Documents/DoAnThietKeViMach/Project/SoC/VERIFICATION/Monitor/cpu_monitor.sv(335) @ 295000: uvm_test_top.env.agent.monitor [AXI_WR] CPU -> DRAM  Addr=10000790 Data=00000000 Strb=1111 BRESP=00
# UVM_INFO C:/Documents/DoAnThietKeViMach/Project/SoC/VERIFICATION/Monitor/cpu_monitor.sv(268) @ 295000: uvm_test_top.env.agent.monitor [MEM] STORE Addr=10000790 Data=00000000
# UVM_INFO C:/Documents/DoAnThietKeViMach/Project/SoC/VERIFICATION/Monitor/cpu_monitor.sv(296) @ 295000: uvm_test_top.env.agent.monitor [WB] x02 <= 00000000  (PC~00000014)
# UVM_INFO C:/Documents/DoAnThietKeViMach/Project/SoC/VERIFICATION/Monitor/cpu_monitor.sv(268) @ 305000: uvm_test_top.env.agent.monitor [MEM] STORE Addr=10000790 Data=00000000
# UVM_INFO C:/Documents/DoAnThietKeViMach/Project/SoC/VERIFICATION/Monitor/cpu_monitor.sv(296) @ 305000: uvm_test_top.env.agent.monitor [WB] x02 <= 00000000  (PC~00000014)
# UVM_INFO C:/Documents/DoAnThietKeViMach/Project/SoC/VERIFICATION/Monitor/cpu_monitor.sv(268) @ 315000: uvm_test_top.env.agent.monitor [MEM] STORE Addr=10000790 Data=00000000
# UVM_INFO C:/Documents/DoAnThietKeViMach/Project/SoC/VERIFICATION/Monitor/cpu_monitor.sv(296) @ 315000: uvm_test_top.env.agent.monitor [WB] x02 <= 00000000  (PC~00000014)
# UVM_INFO C:/Documents/DoAnThietKeViMach/Project/SoC/VERIFICATION/Monitor/cpu_monitor.sv(268) @ 325000: uvm_test_top.env.agent.monitor [MEM] STORE Addr=10000790 Data=00000000
# UVM_INFO C:/Documents/DoAnThietKeViMach/Project/SoC/VERIFICATION/Monitor/cpu_monitor.sv(296) @ 325000: uvm_test_top.env.agent.monitor [WB] x02 <= 00000000  (PC~00000014)
# UVM_INFO C:/Documents/DoAnThietKeViMach/Project/SoC/VERIFICATION/Monitor/cpu_monitor.sv(364) @ 335000: uvm_test_top.env.agent.monitor [AXI_RD] CPU <- IRAM  Addr=00000018 Data=024009ef RRESP=00
# UVM_INFO C:/Documents/DoAnThietKeViMach/Project/SoC/VERIFICATION/Monitor/cpu_monitor.sv(234) @ 335000: uvm_test_top.env.agent.monitor [IF] PC=00000018  INSTR=024009ef  [JAL  x19, ...]            
# UVM_INFO C:/Documents/DoAnThietKeViMach/Project/SoC/VERIFICATION/Monitor/cpu_monitor.sv(268) @ 335000: uvm_test_top.env.agent.monitor [MEM] STORE Addr=10000790 Data=00000000
# UVM_INFO C:/Documents/DoAnThietKeViMach/Project/SoC/VERIFICATION/Monitor/cpu_monitor.sv(296) @ 335000: uvm_test_top.env.agent.monitor [WB] x02 <= 00000000  (PC~00000018)
# UVM_INFO C:/Documents/DoAnThietKeViMach/Project/SoC/VERIFICATION/Monitor/cpu_monitor.sv(364) @ 375000: uvm_test_top.env.agent.monitor [AXI_RD] CPU <- IRAM  Addr=0000001c Data=6180ae03 RRESP=00
# UVM_INFO C:/Documents/DoAnThietKeViMach/Project/SoC/VERIFICATION/Monitor/cpu_monitor.sv(234) @ 375000: uvm_test_top.env.agent.monitor [IF] PC=0000001c  INSTR=6180ae03  [LW   x28, 1560(x1)]            
# [DRAM READ] addr=10000264 data=00000000
# UVM_INFO C:/Documents/DoAnThietKeViMach/Project/SoC/VERIFICATION/Monitor/cpu_monitor.sv(364) @ 415000: uvm_test_top.env.agent.monitor [AXI_RD] CPU <- DRAM  Addr=10000264 Data=00000000 RRESP=00
# UVM_INFO C:/Documents/DoAnThietKeViMach/Project/SoC/VERIFICATION/Monitor/cpu_monitor.sv(296) @ 415000: uvm_test_top.env.agent.monitor [WB] x06 <= 000004f7  (PC~0000001c)
# UVM_INFO C:/Documents/DoAnThietKeViMach/Project/SoC/VERIFICATION/Monitor/cpu_monitor.sv(296) @ 425000: uvm_test_top.env.agent.monitor [WB] x06 <= 000004f7  (PC~0000001c)
# UVM_INFO C:/Documents/DoAnThietKeViMach/Project/SoC/VERIFICATION/Monitor/cpu_monitor.sv(296) @ 435000: uvm_test_top.env.agent.monitor [WB] x06 <= 000004f7  (PC~0000001c)
# UVM_INFO C:/Documents/DoAnThietKeViMach/Project/SoC/VERIFICATION/Monitor/cpu_monitor.sv(296) @ 445000: uvm_test_top.env.agent.monitor [WB] x06 <= 000004f7  (PC~0000001c)
# UVM_INFO C:/Documents/DoAnThietKeViMach/Project/SoC/VERIFICATION/Monitor/cpu_monitor.sv(364) @ 455000: uvm_test_top.env.agent.monitor [AXI_RD] CPU <- IRAM  Addr=00000020 Data=0f40a603 RRESP=00
# UVM_INFO C:/Documents/DoAnThietKeViMach/Project/SoC/VERIFICATION/Monitor/cpu_monitor.sv(234) @ 455000: uvm_test_top.env.agent.monitor [IF] PC=00000020  INSTR=0f40a603  [LW   x12, 244(x1)]            
# UVM_INFO C:/Documents/DoAnThietKeViMach/Project/SoC/VERIFICATION/Monitor/cpu_monitor.sv(296) @ 455000: uvm_test_top.env.agent.monitor [WB] x06 <= 000004f7  (PC~00000020)
# UVM_INFO C:/Documents/DoAnThietKeViMach/Project/SoC/VERIFICATION/Monitor/cpu_monitor.sv(296) @ 465000: uvm_test_top.env.agent.monitor [WB] x14 <= 00000000  (PC~00000020)
# UVM_INFO C:/Documents/DoAnThietKeViMach/Project/SoC/VERIFICATION/Monitor/cpu_monitor.sv(296) @ 475000: uvm_test_top.env.agent.monitor [WB] x14 <= 00000000  (PC~00000020)
# UVM_INFO C:/Documents/DoAnThietKeViMach/Project/SoC/VERIFICATION/Monitor/cpu_monitor.sv(296) @ 485000: uvm_test_top.env.agent.monitor [WB] x14 <= 00000000  (PC~00000020)
# UVM_INFO C:/Documents/DoAnThietKeViMach/Project/SoC/VERIFICATION/Monitor/cpu_monitor.sv(364) @ 495000: uvm_test_top.env.agent.monitor [AXI_RD] CPU <- IRAM  Addr=0000003c Data=9e58fa93 RRESP=00
# UVM_INFO C:/Documents/DoAnThietKeViMach/Project/SoC/VERIFICATION/Monitor/cpu_monitor.sv(234) @ 495000: uvm_test_top.env.agent.monitor [IF] PC=0000003c  INSTR=9e58fa93  [ANDI x21, x17, -1563]            
# UVM_INFO C:/Documents/DoAnThietKeViMach/Project/SoC/VERIFICATION/Monitor/cpu_monitor.sv(296) @ 495000: uvm_test_top.env.agent.monitor [WB] x14 <= 00000000  (PC~0000003c)
# UVM_INFO C:/Documents/DoAnThietKeViMach/Project/SoC/VERIFICATION/Monitor/cpu_monitor.sv(296) @ 505000: uvm_test_top.env.agent.monitor [WB] x19 <= 0000001c  (PC~0000003c)
# UVM_INFO C:/Documents/DoAnThietKeViMach/Project/SoC/VERIFICATION/Monitor/cpu_monitor.sv(296) @ 515000: uvm_test_top.env.agent.monitor [WB] x19 <= 0000001c  (PC~0000003c)
# UVM_INFO C:/Documents/DoAnThietKeViMach/Project/SoC/VERIFICATION/Monitor/cpu_monitor.sv(296) @ 525000: uvm_test_top.env.agent.monitor [WB] x19 <= 0000001c  (PC~0000003c)
# UVM_INFO C:/Documents/DoAnThietKeViMach/Project/SoC/VERIFICATION/Monitor/cpu_monitor.sv(364) @ 535000: uvm_test_top.env.agent.monitor [AXI_RD] CPU <- IRAM  Addr=00000040 Data=01a70e63 RRESP=00
# UVM_INFO C:/Documents/DoAnThietKeViMach/Project/SoC/VERIFICATION/Monitor/cpu_monitor.sv(234) @ 535000: uvm_test_top.env.agent.monitor [IF] PC=00000040  INSTR=01a70e63  [BEQ  x14, x26, ...]            
# UVM_INFO C:/Documents/DoAnThietKeViMach/Project/SoC/VERIFICATION/Monitor/cpu_monitor.sv(296) @ 535000: uvm_test_top.env.agent.monitor [WB] x19 <= 0000001c  (PC~00000040)
# UVM_INFO C:/Documents/DoAnThietKeViMach/Project/SoC/VERIFICATION/Monitor/cpu_monitor.sv(364) @ 575000: uvm_test_top.env.agent.monitor [AXI_RD] CPU <- IRAM  Addr=00000044 Data=002a48b3 RRESP=00
# UVM_INFO C:/Documents/DoAnThietKeViMach/Project/SoC/VERIFICATION/Monitor/cpu_monitor.sv(234) @ 575000: uvm_test_top.env.agent.monitor [IF] PC=00000044  INSTR=002a48b3  [XOR  x17, x20, x2]            
# UVM_INFO C:/Documents/DoAnThietKeViMach/Project/SoC/VERIFICATION/Monitor/cpu_monitor.sv(364) @ 615000: uvm_test_top.env.agent.monitor [AXI_RD] CPU <- IRAM  Addr=00000048 Data=4580a823 RRESP=00
# UVM_INFO C:/Documents/DoAnThietKeViMach/Project/SoC/VERIFICATION/Monitor/cpu_monitor.sv(234) @ 615000: uvm_test_top.env.agent.monitor [IF] PC=00000048  INSTR=4580a823  [SW   x24, 1112(x1)]            
# UVM_INFO C:/Documents/DoAnThietKeViMach/Project/SoC/VERIFICATION/Monitor/cpu_monitor.sv(296) @ 625000: uvm_test_top.env.agent.monitor [WB] x21 <= 00000000  (PC~00000048)
# UVM_INFO C:/Documents/DoAnThietKeViMach/Project/SoC/VERIFICATION/Monitor/cpu_monitor.sv(296) @ 635000: uvm_test_top.env.agent.monitor [WB] x21 <= 00000000  (PC~00000048)
# UVM_INFO C:/Documents/DoAnThietKeViMach/Project/SoC/VERIFICATION/Monitor/cpu_monitor.sv(296) @ 645000: uvm_test_top.env.agent.monitor [WB] x21 <= 00000000  (PC~00000048)
# UVM_INFO C:/Documents/DoAnThietKeViMach/Project/SoC/VERIFICATION/Monitor/cpu_monitor.sv(364) @ 655000: uvm_test_top.env.agent.monitor [AXI_RD] CPU <- IRAM  Addr=0000005c Data=79f0a823 RRESP=00
# UVM_INFO C:/Documents/DoAnThietKeViMach/Project/SoC/VERIFICATION/Monitor/cpu_monitor.sv(234) @ 655000: uvm_test_top.env.agent.monitor [IF] PC=0000005c  INSTR=79f0a823  [SW   x31, 1951(x1)]            
# UVM_INFO C:/Documents/DoAnThietKeViMach/Project/SoC/VERIFICATION/Monitor/cpu_monitor.sv(296) @ 655000: uvm_test_top.env.agent.monitor [WB] x21 <= 00000000  (PC~0000005c)
# UVM_INFO C:/Documents/DoAnThietKeViMach/Project/SoC/VERIFICATION/Monitor/cpu_monitor.sv(364) @ 695000: uvm_test_top.env.agent.monitor [AXI_RD] CPU <- IRAM  Addr=00000060 Data=37f60893 RRESP=00
# UVM_INFO C:/Documents/DoAnThietKeViMach/Project/SoC/VERIFICATION/Monitor/cpu_monitor.sv(234) @ 695000: uvm_test_top.env.agent.monitor [IF] PC=00000060  INSTR=37f60893  [ADDI x17, x12, 895]            
# UVM_INFO C:/Documents/DoAnThietKeViMach/Project/SoC/VERIFICATION/Monitor/cpu_monitor.sv(364) @ 735000: uvm_test_top.env.agent.monitor [AXI_RD] CPU <- IRAM  Addr=00000064 Data=02800f6f RRESP=00
# UVM_INFO C:/Documents/DoAnThietKeViMach/Project/SoC/VERIFICATION/Monitor/cpu_monitor.sv(234) @ 735000: uvm_test_top.env.agent.monitor [IF] PC=00000064  INSTR=02800f6f  [JAL  x30, ...]            
# UVM_INFO C:/Documents/DoAnThietKeViMach/Project/SoC/VERIFICATION/Monitor/cpu_monitor.sv(268) @ 745000: uvm_test_top.env.agent.monitor [MEM] STORE Addr=10000790 Data=00000000
# UVM_INFO C:/Documents/DoAnThietKeViMach/Project/SoC/VERIFICATION/Monitor/cpu_monitor.sv(268) @ 755000: uvm_test_top.env.agent.monitor [MEM] STORE Addr=10000790 Data=00000000
# [DRAM WRITE] addr=10000790 data=00000000
# UVM_INFO C:/Documents/DoAnThietKeViMach/Project/SoC/VERIFICATION/Monitor/cpu_monitor.sv(268) @ 765000: uvm_test_top.env.agent.monitor [MEM] STORE Addr=10000790 Data=00000000
# UVM_INFO C:/Documents/DoAnThietKeViMach/Project/SoC/VERIFICATION/Monitor/cpu_monitor.sv(335) @ 775000: uvm_test_top.env.agent.monitor [AXI_WR] CPU -> DRAM  Addr=10000790 Data=00000000 Strb=1111 BRESP=00
# UVM_INFO C:/Documents/DoAnThietKeViMach/Project/SoC/VERIFICATION/Monitor/cpu_monitor.sv(268) @ 775000: uvm_test_top.env.agent.monitor [MEM] STORE Addr=10000790 Data=00000000
# UVM_INFO C:/Documents/DoAnThietKeViMach/Project/SoC/VERIFICATION/Monitor/cpu_monitor.sv(268) @ 785000: uvm_test_top.env.agent.monitor [MEM] STORE Addr=10000790 Data=00000000
# UVM_INFO C:/Documents/DoAnThietKeViMach/Project/SoC/VERIFICATION/Monitor/cpu_monitor.sv(268) @ 795000: uvm_test_top.env.agent.monitor [MEM] STORE Addr=10000790 Data=00000000
# UVM_INFO C:/Documents/DoAnThietKeViMach/Project/SoC/VERIFICATION/Monitor/cpu_monitor.sv(268) @ 805000: uvm_test_top.env.agent.monitor [MEM] STORE Addr=10000790 Data=00000000
# UVM_INFO C:/Documents/DoAnThietKeViMach/Project/SoC/VERIFICATION/Monitor/cpu_monitor.sv(364) @ 815000: uvm_test_top.env.agent.monitor [AXI_RD] CPU <- IRAM  Addr=00000068 Data=2fc0a303 RRESP=00
# UVM_INFO C:/Documents/DoAnThietKeViMach/Project/SoC/VERIFICATION/Monitor/cpu_monitor.sv(234) @ 815000: uvm_test_top.env.agent.monitor [IF] PC=00000068  INSTR=2fc0a303  [LW   x6, 764(x1)]            
# UVM_INFO C:/Documents/DoAnThietKeViMach/Project/SoC/VERIFICATION/Monitor/cpu_monitor.sv(268) @ 815000: uvm_test_top.env.agent.monitor [MEM] STORE Addr=10000790 Data=00000000
# UVM_INFO C:/Documents/DoAnThietKeViMach/Project/SoC/VERIFICATION/Monitor/cpu_monitor.sv(364) @ 855000: uvm_test_top.env.agent.monitor [AXI_RD] CPU <- IRAM  Addr=0000006c Data=3dc0ad03 RRESP=00
# UVM_INFO C:/Documents/DoAnThietKeViMach/Project/SoC/VERIFICATION/Monitor/cpu_monitor.sv(234) @ 855000: uvm_test_top.env.agent.monitor [IF] PC=0000006c  INSTR=3dc0ad03  [LW   x26, 988(x1)]            
# UVM_INFO C:/Documents/DoAnThietKeViMach/Project/SoC/VERIFICATION/Monitor/cpu_monitor.sv(296) @ 865000: uvm_test_top.env.agent.monitor [WB] x17 <= 0000037f  (PC~0000006c)
# UVM_INFO C:/Documents/DoAnThietKeViMach/Project/SoC/VERIFICATION/Monitor/cpu_monitor.sv(296) @ 875000: uvm_test_top.env.agent.monitor [WB] x17 <= 0000037f  (PC~0000006c)
# UVM_INFO C:/Documents/DoAnThietKeViMach/Project/SoC/VERIFICATION/Monitor/cpu_monitor.sv(296) @ 885000: uvm_test_top.env.agent.monitor [WB] x17 <= 0000037f  (PC~0000006c)
# UVM_INFO C:/Documents/DoAnThietKeViMach/Project/SoC/VERIFICATION/Monitor/cpu_monitor.sv(364) @ 895000: uvm_test_top.env.agent.monitor [AXI_RD] CPU <- IRAM  Addr=0000008c Data=89f16f13 RRESP=00
# UVM_INFO C:/Documents/DoAnThietKeViMach/Project/SoC/VERIFICATION/Monitor/cpu_monitor.sv(234) @ 895000: uvm_test_top.env.agent.monitor [IF] PC=0000008c  INSTR=89f16f13  [ORI  x30, x2, -1889]            
# UVM_INFO C:/Documents/DoAnThietKeViMach/Project/SoC/VERIFICATION/Monitor/cpu_monitor.sv(296) @ 895000: uvm_test_top.env.agent.monitor [WB] x17 <= 0000037f  (PC~0000008c)
# UVM_INFO C:/Documents/DoAnThietKeViMach/Project/SoC/VERIFICATION/Monitor/cpu_monitor.sv(296) @ 905000: uvm_test_top.env.agent.monitor [WB] x30 <= 00000068  (PC~0000008c)
# UVM_INFO C:/Documents/DoAnThietKeViMach/Project/SoC/VERIFICATION/Monitor/cpu_monitor.sv(296) @ 915000: uvm_test_top.env.agent.monitor [WB] x30 <= 00000068  (PC~0000008c)
# UVM_INFO C:/Documents/DoAnThietKeViMach/Project/SoC/VERIFICATION/Monitor/cpu_monitor.sv(296) @ 925000: uvm_test_top.env.agent.monitor [WB] x30 <= 00000068  (PC~0000008c)
# UVM_INFO C:/Documents/DoAnThietKeViMach/Project/SoC/VERIFICATION/Monitor/cpu_monitor.sv(364) @ 935000: uvm_test_top.env.agent.monitor [AXI_RD] CPU <- IRAM  Addr=00000090 Data=01e124b3 RRESP=00
# UVM_INFO C:/Documents/DoAnThietKeViMach/Project/SoC/VERIFICATION/Monitor/cpu_monitor.sv(234) @ 935000: uvm_test_top.env.agent.monitor [IF] PC=00000090  INSTR=01e124b3  [SLT  x9, x2, x30]            
# UVM_INFO C:/Documents/DoAnThietKeViMach/Project/SoC/VERIFICATION/Monitor/cpu_monitor.sv(296) @ 935000: uvm_test_top.env.agent.monitor [WB] x30 <= 00000068  (PC~00000090)
# UVM_INFO C:/Documents/DoAnThietKeViMach/Project/SoC/VERIFICATION/Monitor/cpu_monitor.sv(364) @ 975000: uvm_test_top.env.agent.monitor [AXI_RD] CPU <- IRAM  Addr=00000094 Data=007a29b3 RRESP=00
# UVM_INFO C:/Documents/DoAnThietKeViMach/Project/SoC/VERIFICATION/Monitor/cpu_monitor.sv(234) @ 975000: uvm_test_top.env.agent.monitor [IF] PC=00000094  INSTR=007a29b3  [SLT  x19, x20, x7]            
# UVM_INFO C:/Documents/DoAnThietKeViMach/Project/SoC/VERIFICATION/Monitor/cpu_monitor.sv(364) @ 1015000: uvm_test_top.env.agent.monitor [AXI_RD] CPU <- IRAM  Addr=00000098 Data=009e8a63 RRESP=00
# UVM_INFO C:/Documents/DoAnThietKeViMach/Project/SoC/VERIFICATION/Monitor/cpu_monitor.sv(234) @ 1015000: uvm_test_top.env.agent.monitor [IF] PC=00000098  INSTR=009e8a63  [BEQ  x29, x9, ...]            
# UVM_INFO C:/Documents/DoAnThietKeViMach/Project/SoC/VERIFICATION/Monitor/cpu_monitor.sv(296) @ 1025000: uvm_test_top.env.agent.monitor [WB] x30 <= fffff89f  (PC~00000098)
# UVM_INFO C:/Documents/DoAnThietKeViMach/Project/SoC/VERIFICATION/Monitor/cpu_monitor.sv(296) @ 1035000: uvm_test_top.env.agent.monitor [WB] x30 <= fffff89f  (PC~00000098)
# UVM_INFO C:/Documents/DoAnThietKeViMach/Project/SoC/VERIFICATION/Monitor/cpu_monitor.sv(296) @ 1045000: uvm_test_top.env.agent.monitor [WB] x30 <= fffff89f  (PC~00000098)
# UVM_INFO C:/Documents/DoAnThietKeViMach/Project/SoC/VERIFICATION/Monitor/cpu_monitor.sv(364) @ 1055000: uvm_test_top.env.agent.monitor [AXI_RD] CPU <- IRAM  Addr=0000009c Data=3670a623 RRESP=00
# UVM_INFO C:/Documents/DoAnThietKeViMach/Project/SoC/VERIFICATION/Monitor/cpu_monitor.sv(234) @ 1055000: uvm_test_top.env.agent.monitor [IF] PC=0000009c  INSTR=3670a623  [SW   x7, 871(x1)]            
# UVM_INFO C:/Documents/DoAnThietKeViMach/Project/SoC/VERIFICATION/Monitor/cpu_monitor.sv(296) @ 1055000: uvm_test_top.env.agent.monitor [WB] x30 <= fffff89f  (PC~0000009c)
# UVM_INFO C:/Documents/DoAnThietKeViMach/Project/SoC/VERIFICATION/Monitor/cpu_monitor.sv(296) @ 1065000: uvm_test_top.env.agent.monitor [WB] x09 <= 00000000  (PC~0000009c)
# UVM_INFO C:/Documents/DoAnThietKeViMach/Project/SoC/VERIFICATION/Monitor/cpu_monitor.sv(296) @ 1075000: uvm_test_top.env.agent.monitor [WB] x09 <= 00000000  (PC~0000009c)
# UVM_INFO C:/Documents/DoAnThietKeViMach/Project/SoC/VERIFICATION/Monitor/cpu_monitor.sv(296) @ 1085000: uvm_test_top.env.agent.monitor [WB] x09 <= 00000000  (PC~0000009c)
# UVM_INFO C:/Documents/DoAnThietKeViMach/Project/SoC/VERIFICATION/Monitor/cpu_monitor.sv(364) @ 1095000: uvm_test_top.env.agent.monitor [AXI_RD] CPU <- IRAM  Addr=000000a0 Data=01a74e33 RRESP=00
# UVM_INFO C:/Documents/DoAnThietKeViMach/Project/SoC/VERIFICATION/Monitor/cpu_monitor.sv(234) @ 1095000: uvm_test_top.env.agent.monitor [IF] PC=000000a0  INSTR=01a74e33  [XOR  x28, x14, x26]            
# UVM_INFO C:/Documents/DoAnThietKeViMach/Project/SoC/VERIFICATION/Monitor/cpu_monitor.sv(296) @ 1095000: uvm_test_top.env.agent.monitor [WB] x09 <= 00000000  (PC~000000a0)
# UVM_INFO C:/Documents/DoAnThietKeViMach/Project/SoC/VERIFICATION/Monitor/cpu_monitor.sv(296) @ 1105000: uvm_test_top.env.agent.monitor [WB] x19 <= 00000000  (PC~000000a0)
# UVM_INFO C:/Documents/DoAnThietKeViMach/Project/SoC/VERIFICATION/Monitor/cpu_monitor.sv(296) @ 1115000: uvm_test_top.env.agent.monitor [WB] x19 <= 00000000  (PC~000000a0)
# UVM_INFO C:/Documents/DoAnThietKeViMach/Project/SoC/VERIFICATION/Monitor/cpu_monitor.sv(296) @ 1125000: uvm_test_top.env.agent.monitor [WB] x19 <= 00000000  (PC~000000a0)
# UVM_INFO C:/Documents/DoAnThietKeViMach/Project/SoC/VERIFICATION/Monitor/cpu_monitor.sv(364) @ 1135000: uvm_test_top.env.agent.monitor [AXI_RD] CPU <- IRAM  Addr=000000ac Data=a5458b13 RRESP=00
# UVM_INFO C:/Documents/DoAnThietKeViMach/Project/SoC/VERIFICATION/Monitor/cpu_monitor.sv(234) @ 1135000: uvm_test_top.env.agent.monitor [IF] PC=000000ac  INSTR=a5458b13  [ADDI x22, x11, -1452]            
# UVM_INFO C:/Documents/DoAnThietKeViMach/Project/SoC/VERIFICATION/Monitor/cpu_monitor.sv(296) @ 1135000: uvm_test_top.env.agent.monitor [WB] x19 <= 00000000  (PC~000000ac)
# UVM_INFO C:/Documents/DoAnThietKeViMach/Project/SoC/VERIFICATION/Monitor/cpu_monitor.sv(364) @ 1175000: uvm_test_top.env.agent.monitor [AXI_RD] CPU <- IRAM  Addr=000000b0 Data=3640a803 RRESP=00
# UVM_INFO C:/Documents/DoAnThietKeViMach/Project/SoC/VERIFICATION/Monitor/cpu_monitor.sv(234) @ 1175000: uvm_test_top.env.agent.monitor [IF] PC=000000b0  INSTR=3640a803  [LW   x16, 868(x1)]            
# UVM_INFO C:/Documents/DoAnThietKeViMach/Project/SoC/VERIFICATION/Monitor/cpu_monitor.sv(364) @ 1215000: uvm_test_top.env.agent.monitor [AXI_RD] CPU <- IRAM  Addr=000000b4 Data=00c00aef RRESP=00
# UVM_INFO C:/Documents/DoAnThietKeViMach/Project/SoC/VERIFICATION/Monitor/cpu_monitor.sv(234) @ 1215000: uvm_test_top.env.agent.monitor [IF] PC=000000b4  INSTR=00c00aef  [JAL  x21, ...]            
# UVM_INFO C:/Documents/DoAnThietKeViMach/Project/SoC/VERIFICATION/Monitor/cpu_monitor.sv(364) @ 1255000: uvm_test_top.env.agent.monitor [AXI_RD] CPU <- IRAM  Addr=000000b8 Data=01074d33 RRESP=00
# UVM_INFO C:/Documents/DoAnThietKeViMach/Project/SoC/VERIFICATION/Monitor/cpu_monitor.sv(234) @ 1255000: uvm_test_top.env.agent.monitor [IF] PC=000000b8  INSTR=01074d33  [XOR  x26, x14, x16]            
# [DRAM READ] addr=10000364 data=00000000
# UVM_INFO C:/Documents/DoAnThietKeViMach/Project/SoC/VERIFICATION/Monitor/cpu_monitor.sv(364) @ 1295000: uvm_test_top.env.agent.monitor [AXI_RD] CPU <- DRAM  Addr=10000364 Data=00000000 RRESP=00
# UVM_INFO C:/Documents/DoAnThietKeViMach/Project/SoC/VERIFICATION/Monitor/cpu_monitor.sv(296) @ 1295000: uvm_test_top.env.agent.monitor [WB] x22 <= fffffa54  (PC~000000b8)
# UVM_INFO C:/Documents/DoAnThietKeViMach/Project/SoC/VERIFICATION/Monitor/cpu_monitor.sv(296) @ 1305000: uvm_test_top.env.agent.monitor [WB] x22 <= fffffa54  (PC~000000b8)
# UVM_INFO C:/Documents/DoAnThietKeViMach/Project/SoC/VERIFICATION/Monitor/cpu_monitor.sv(296) @ 1315000: uvm_test_top.env.agent.monitor [WB] x22 <= fffffa54  (PC~000000b8)
# UVM_INFO C:/Documents/DoAnThietKeViMach/Project/SoC/VERIFICATION/Monitor/cpu_monitor.sv(296) @ 1325000: uvm_test_top.env.agent.monitor [WB] x22 <= fffffa54  (PC~000000b8)
# UVM_INFO C:/Documents/DoAnThietKeViMach/Project/SoC/VERIFICATION/Monitor/cpu_monitor.sv(364) @ 1335000: uvm_test_top.env.agent.monitor [AXI_RD] CPU <- IRAM  Addr=000000bc Data=01a19f33 RRESP=00
# UVM_INFO C:/Documents/DoAnThietKeViMach/Project/SoC/VERIFICATION/Monitor/cpu_monitor.sv(234) @ 1335000: uvm_test_top.env.agent.monitor [IF] PC=000000bc  INSTR=01a19f33  [SLL  x30, x3, x26]            
# UVM_INFO C:/Documents/DoAnThietKeViMach/Project/SoC/VERIFICATION/Monitor/cpu_monitor.sv(296) @ 1335000: uvm_test_top.env.agent.monitor [WB] x22 <= fffffa54  (PC~000000bc)
# UVM_INFO C:/Documents/DoAnThietKeViMach/Project/SoC/VERIFICATION/Monitor/cpu_monitor.sv(296) @ 1345000: uvm_test_top.env.agent.monitor [WB] x16 <= 00000000  (PC~000000bc)
# UVM_INFO C:/Documents/DoAnThietKeViMach/Project/SoC/VERIFICATION/Monitor/cpu_monitor.sv(296) @ 1355000: uvm_test_top.env.agent.monitor [WB] x16 <= 00000000  (PC~000000bc)
# UVM_INFO C:/Documents/DoAnThietKeViMach/Project/SoC/VERIFICATION/Monitor/cpu_monitor.sv(296) @ 1365000: uvm_test_top.env.agent.monitor [WB] x16 <= 00000000  (PC~000000bc)
# UVM_INFO C:/Documents/DoAnThietKeViMach/Project/SoC/VERIFICATION/Monitor/cpu_monitor.sv(364) @ 1375000: uvm_test_top.env.agent.monitor [AXI_RD] CPU <- IRAM  Addr=000000c0 Data=5f30ac23 RRESP=00
# UVM_INFO C:/Documents/DoAnThietKeViMach/Project/SoC/VERIFICATION/Monitor/cpu_monitor.sv(234) @ 1375000: uvm_test_top.env.agent.monitor [IF] PC=000000c0  INSTR=5f30ac23  [SW   x19, 1523(x1)]            
# UVM_INFO C:/Documents/DoAnThietKeViMach/Project/SoC/VERIFICATION/Monitor/cpu_monitor.sv(296) @ 1375000: uvm_test_top.env.agent.monitor [WB] x16 <= 00000000  (PC~000000c0)
# UVM_INFO C:/Documents/DoAnThietKeViMach/Project/SoC/VERIFICATION/Monitor/cpu_monitor.sv(296) @ 1385000: uvm_test_top.env.agent.monitor [WB] x21 <= 000000b8  (PC~000000c0)
# UVM_INFO C:/Documents/DoAnThietKeViMach/Project/SoC/VERIFICATION/Monitor/cpu_monitor.sv(296) @ 1395000: uvm_test_top.env.agent.monitor [WB] x21 <= 000000b8  (PC~000000c0)
# UVM_INFO C:/Documents/DoAnThietKeViMach/Project/SoC/VERIFICATION/Monitor/cpu_monitor.sv(296) @ 1405000: uvm_test_top.env.agent.monitor [WB] x21 <= 000000b8  (PC~000000c0)
# UVM_INFO C:/Documents/DoAnThietKeViMach/Project/SoC/VERIFICATION/Monitor/cpu_monitor.sv(364) @ 1415000: uvm_test_top.env.agent.monitor [AXI_RD] CPU <- IRAM  Addr=000000c4 Data=1680af03 RRESP=00
# UVM_INFO C:/Documents/DoAnThietKeViMach/Project/SoC/VERIFICATION/Monitor/cpu_monitor.sv(234) @ 1415000: uvm_test_top.env.agent.monitor [IF] PC=000000c4  INSTR=1680af03  [LW   x30, 360(x1)]            
# UVM_INFO C:/Documents/DoAnThietKeViMach/Project/SoC/VERIFICATION/Monitor/cpu_monitor.sv(296) @ 1415000: uvm_test_top.env.agent.monitor [WB] x21 <= 000000b8  (PC~000000c4)
# UVM_INFO C:/Documents/DoAnThietKeViMach/Project/SoC/VERIFICATION/Monitor/cpu_monitor.sv(364) @ 1455000: uvm_test_top.env.agent.monitor [AXI_RD] CPU <- IRAM  Addr=000000c8 Data=2a40a283 RRESP=00
# UVM_INFO C:/Documents/DoAnThietKeViMach/Project/SoC/VERIFICATION/Monitor/cpu_monitor.sv(234) @ 1455000: uvm_test_top.env.agent.monitor [IF] PC=000000c8  INSTR=2a40a283  [LW   x5, 676(x1)]            
# UVM_INFO C:/Documents/DoAnThietKeViMach/Project/SoC/VERIFICATION/Monitor/cpu_monitor.sv(268) @ 1465000: uvm_test_top.env.agent.monitor [MEM] STORE Addr=100005f8 Data=00000000
# UVM_INFO C:/Documents/DoAnThietKeViMach/Project/SoC/VERIFICATION/Monitor/cpu_monitor.sv(268) @ 1475000: uvm_test_top.env.agent.monitor [MEM] STORE Addr=100005f8 Data=00000000
# [DRAM WRITE] addr=100005f8 data=00000000
# UVM_INFO C:/Documents/DoAnThietKeViMach/Project/SoC/VERIFICATION/Monitor/cpu_monitor.sv(268) @ 1485000: uvm_test_top.env.agent.monitor [MEM] STORE Addr=100005f8 Data=00000000
# UVM_INFO C:/Documents/DoAnThietKeViMach/Project/SoC/VERIFICATION/Monitor/cpu_monitor.sv(335) @ 1495000: uvm_test_top.env.agent.monitor [AXI_WR] CPU -> DRAM  Addr=100005f8 Data=00000000 Strb=1111 BRESP=00
# UVM_INFO C:/Documents/DoAnThietKeViMach/Project/SoC/VERIFICATION/Monitor/cpu_monitor.sv(268) @ 1495000: uvm_test_top.env.agent.monitor [MEM] STORE Addr=100005f8 Data=00000000
# UVM_INFO C:/Documents/DoAnThietKeViMach/Project/SoC/VERIFICATION/Monitor/cpu_monitor.sv(268) @ 1505000: uvm_test_top.env.agent.monitor [MEM] STORE Addr=100005f8 Data=00000000
# UVM_INFO C:/Documents/DoAnThietKeViMach/Project/SoC/VERIFICATION/Monitor/cpu_monitor.sv(268) @ 1515000: uvm_test_top.env.agent.monitor [MEM] STORE Addr=100005f8 Data=00000000
# UVM_INFO C:/Documents/DoAnThietKeViMach/Project/SoC/VERIFICATION/Monitor/cpu_monitor.sv(268) @ 1525000: uvm_test_top.env.agent.monitor [MEM] STORE Addr=100005f8 Data=00000000
# UVM_INFO C:/Documents/DoAnThietKeViMach/Project/SoC/VERIFICATION/Monitor/cpu_monitor.sv(364) @ 1535000: uvm_test_top.env.agent.monitor [AXI_RD] CPU <- IRAM  Addr=000000cc Data=00788eb3 RRESP=00
# UVM_INFO C:/Documents/DoAnThietKeViMach/Project/SoC/VERIFICATION/Monitor/cpu_monitor.sv(234) @ 1535000: uvm_test_top.env.agent.monitor [IF] PC=000000cc  INSTR=00788eb3  [ADD  x29, x17, x7]            
# UVM_INFO C:/Documents/DoAnThietKeViMach/Project/SoC/VERIFICATION/Monitor/cpu_monitor.sv(268) @ 1535000: uvm_test_top.env.agent.monitor [MEM] STORE Addr=100005f8 Data=00000000
# [DRAM READ] addr=10000168 data=00000000
# UVM_INFO C:/Documents/DoAnThietKeViMach/Project/SoC/VERIFICATION/Monitor/cpu_monitor.sv(364) @ 1575000: uvm_test_top.env.agent.monitor [AXI_RD] CPU <- DRAM  Addr=10000168 Data=00000000 RRESP=00
# UVM_INFO C:/Documents/DoAnThietKeViMach/Project/SoC/VERIFICATION/Monitor/cpu_monitor.sv(364) @ 1615000: uvm_test_top.env.agent.monitor [AXI_RD] CPU <- IRAM  Addr=000000d0 Data=00da67b3 RRESP=00
# UVM_INFO C:/Documents/DoAnThietKeViMach/Project/SoC/VERIFICATION/Monitor/cpu_monitor.sv(234) @ 1615000: uvm_test_top.env.agent.monitor [IF] PC=000000d0  INSTR=00da67b3  [OR   x15, x20, x13]            
# [DRAM READ] addr=100002a4 data=00000000
# UVM_INFO C:/Documents/DoAnThietKeViMach/Project/SoC/VERIFICATION/Monitor/cpu_monitor.sv(364) @ 1655000: uvm_test_top.env.agent.monitor [AXI_RD] CPU <- DRAM  Addr=100002a4 Data=00000000 RRESP=00
# UVM_INFO C:/Documents/DoAnThietKeViMach/Project/SoC/VERIFICATION/Monitor/cpu_monitor.sv(296) @ 1655000: uvm_test_top.env.agent.monitor [WB] x30 <= 00000000  (PC~000000d0)
# UVM_INFO C:/Documents/DoAnThietKeViMach/Project/SoC/VERIFICATION/Monitor/cpu_monitor.sv(296) @ 1665000: uvm_test_top.env.agent.monitor [WB] x30 <= 00000000  (PC~000000d0)
# UVM_INFO C:/Documents/DoAnThietKeViMach/Project/SoC/VERIFICATION/Monitor/cpu_monitor.sv(296) @ 1675000: uvm_test_top.env.agent.monitor [WB] x30 <= 00000000  (PC~000000d0)
# UVM_INFO C:/Documents/DoAnThietKeViMach/Project/SoC/VERIFICATION/Monitor/cpu_monitor.sv(296) @ 1685000: uvm_test_top.env.agent.monitor [WB] x30 <= 00000000  (PC~000000d0)
# UVM_INFO C:/Documents/DoAnThietKeViMach/Project/SoC/VERIFICATION/Monitor/cpu_monitor.sv(364) @ 1695000: uvm_test_top.env.agent.monitor [AXI_RD] CPU <- IRAM  Addr=000000d4 Data=0065e933 RRESP=00
# UVM_INFO C:/Documents/DoAnThietKeViMach/Project/SoC/VERIFICATION/Monitor/cpu_monitor.sv(234) @ 1695000: uvm_test_top.env.agent.monitor [IF] PC=000000d4  INSTR=0065e933  [OR   x18, x11, x6]            
# UVM_INFO C:/Documents/DoAnThietKeViMach/Project/SoC/VERIFICATION/Monitor/cpu_monitor.sv(296) @ 1695000: uvm_test_top.env.agent.monitor [WB] x30 <= 00000000  (PC~000000d4)
# UVM_INFO C:/Documents/DoAnThietKeViMach/Project/SoC/VERIFICATION/Monitor/cpu_monitor.sv(296) @ 1705000: uvm_test_top.env.agent.monitor [WB] x05 <= 00000000  (PC~000000d4)
# UVM_INFO C:/Documents/DoAnThietKeViMach/Project/SoC/VERIFICATION/Monitor/cpu_monitor.sv(296) @ 1715000: uvm_test_top.env.agent.monitor [WB] x05 <= 00000000  (PC~000000d4)
# UVM_INFO C:/Documents/DoAnThietKeViMach/Project/SoC/VERIFICATION/Monitor/cpu_monitor.sv(296) @ 1725000: uvm_test_top.env.agent.monitor [WB] x05 <= 00000000  (PC~000000d4)
# UVM_INFO C:/Documents/DoAnThietKeViMach/Project/SoC/VERIFICATION/Monitor/cpu_monitor.sv(364) @ 1735000: uvm_test_top.env.agent.monitor [AXI_RD] CPU <- IRAM  Addr=000000d8 Data=8636e513 RRESP=00
# UVM_INFO C:/Documents/DoAnThietKeViMach/Project/SoC/VERIFICATION/Monitor/cpu_monitor.sv(234) @ 1735000: uvm_test_top.env.agent.monitor [IF] PC=000000d8  INSTR=8636e513  [ORI  x10, x13, -1949]            
# UVM_INFO C:/Documents/DoAnThietKeViMach/Project/SoC/VERIFICATION/Monitor/cpu_monitor.sv(296) @ 1735000: uvm_test_top.env.agent.monitor [WB] x05 <= 00000000  (PC~000000d8)
# UVM_INFO C:/Documents/DoAnThietKeViMach/Project/SoC/VERIFICATION/Monitor/cpu_monitor.sv(296) @ 1745000: uvm_test_top.env.agent.monitor [WB] x29 <= 0000037f  (PC~000000d8)
# UVM_INFO C:/Documents/DoAnThietKeViMach/Project/SoC/VERIFICATION/Monitor/cpu_monitor.sv(296) @ 1755000: uvm_test_top.env.agent.monitor [WB] x29 <= 0000037f  (PC~000000d8)
# UVM_INFO C:/Documents/DoAnThietKeViMach/Project/SoC/VERIFICATION/Monitor/cpu_monitor.sv(296) @ 1765000: uvm_test_top.env.agent.monitor [WB] x29 <= 0000037f  (PC~000000d8)
# UVM_INFO C:/Documents/DoAnThietKeViMach/Project/SoC/VERIFICATION/Monitor/cpu_monitor.sv(364) @ 1775000: uvm_test_top.env.agent.monitor [AXI_RD] CPU <- IRAM  Addr=000000dc Data=a1a9f413 RRESP=00
# UVM_INFO C:/Documents/DoAnThietKeViMach/Project/SoC/VERIFICATION/Monitor/cpu_monitor.sv(234) @ 1775000: uvm_test_top.env.agent.monitor [IF] PC=000000dc  INSTR=a1a9f413  [ANDI x8, x19, -1510]            
# UVM_INFO C:/Documents/DoAnThietKeViMach/Project/SoC/VERIFICATION/Monitor/cpu_monitor.sv(296) @ 1775000: uvm_test_top.env.agent.monitor [WB] x29 <= 0000037f  (PC~000000dc)
# UVM_INFO C:/Documents/DoAnThietKeViMach/Project/SoC/VERIFICATION/Monitor/cpu_monitor.sv(296) @ 1785000: uvm_test_top.env.agent.monitor [WB] x15 <= 00000000  (PC~000000dc)
# UVM_INFO C:/Documents/DoAnThietKeViMach/Project/SoC/VERIFICATION/Monitor/cpu_monitor.sv(296) @ 1795000: uvm_test_top.env.agent.monitor [WB] x15 <= 00000000  (PC~000000dc)
# UVM_INFO C:/Documents/DoAnThietKeViMach/Project/SoC/VERIFICATION/Monitor/cpu_monitor.sv(296) @ 1805000: uvm_test_top.env.agent.monitor [WB] x15 <= 00000000  (PC~000000dc)
# UVM_INFO C:/Documents/DoAnThietKeViMach/Project/SoC/VERIFICATION/Monitor/cpu_monitor.sv(364) @ 1815000: uvm_test_top.env.agent.monitor [AXI_RD] CPU <- IRAM  Addr=000000e0 Data=0040036f RRESP=00
# UVM_INFO C:/Documents/DoAnThietKeViMach/Project/SoC/VERIFICATION/Monitor/cpu_monitor.sv(234) @ 1815000: uvm_test_top.env.agent.monitor [IF] PC=000000e0  INSTR=0040036f  [JAL  x6, ...]            
# UVM_INFO C:/Documents/DoAnThietKeViMach/Project/SoC/VERIFICATION/Monitor/cpu_monitor.sv(296) @ 1815000: uvm_test_top.env.agent.monitor [WB] x15 <= 00000000  (PC~000000e0)
# UVM_INFO C:/Documents/DoAnThietKeViMach/Project/SoC/VERIFICATION/Monitor/cpu_monitor.sv(296) @ 1825000: uvm_test_top.env.agent.monitor [WB] x18 <= 000004f7  (PC~000000e0)
# UVM_INFO C:/Documents/DoAnThietKeViMach/Project/SoC/VERIFICATION/Monitor/cpu_monitor.sv(296) @ 1835000: uvm_test_top.env.agent.monitor [WB] x18 <= 000004f7  (PC~000000e0)
# UVM_INFO C:/Documents/DoAnThietKeViMach/Project/SoC/VERIFICATION/Monitor/cpu_monitor.sv(296) @ 1845000: uvm_test_top.env.agent.monitor [WB] x18 <= 000004f7  (PC~000000e0)
# UVM_INFO C:/Documents/DoAnThietKeViMach/Project/SoC/VERIFICATION/Monitor/cpu_monitor.sv(364) @ 1855000: uvm_test_top.env.agent.monitor [AXI_RD] CPU <- IRAM  Addr=000000e4 Data=014549b3 RRESP=00
# UVM_INFO C:/Documents/DoAnThietKeViMach/Project/SoC/VERIFICATION/Monitor/cpu_monitor.sv(234) @ 1855000: uvm_test_top.env.agent.monitor [IF] PC=000000e4  INSTR=014549b3  [XOR  x19, x10, x20]            
# UVM_INFO C:/Documents/DoAnThietKeViMach/Project/SoC/VERIFICATION/Monitor/cpu_monitor.sv(296) @ 1855000: uvm_test_top.env.agent.monitor [WB] x18 <= 000004f7  (PC~000000e4)
# UVM_INFO C:/Documents/DoAnThietKeViMach/Project/SoC/VERIFICATION/Monitor/cpu_monitor.sv(296) @ 1865000: uvm_test_top.env.agent.monitor [WB] x10 <= fffff863  (PC~000000e4)
# UVM_INFO C:/Documents/DoAnThietKeViMach/Project/SoC/VERIFICATION/Monitor/cpu_monitor.sv(296) @ 1875000: uvm_test_top.env.agent.monitor [WB] x10 <= fffff863  (PC~000000e4)
# UVM_INFO C:/Documents/DoAnThietKeViMach/Project/SoC/VERIFICATION/Monitor/cpu_monitor.sv(296) @ 1885000: uvm_test_top.env.agent.monitor [WB] x10 <= fffff863  (PC~000000e4)
# UVM_INFO C:/Documents/DoAnThietKeViMach/Project/SoC/VERIFICATION/Monitor/cpu_monitor.sv(364) @ 1895000: uvm_test_top.env.agent.monitor [AXI_RD] CPU <- IRAM  Addr=000000e8 Data=410787b3 RRESP=00
# UVM_INFO C:/Documents/DoAnThietKeViMach/Project/SoC/VERIFICATION/Monitor/cpu_monitor.sv(234) @ 1895000: uvm_test_top.env.agent.monitor [IF] PC=000000e8  INSTR=410787b3  [SUB  x15, x15, x16]            
# UVM_INFO C:/Documents/DoAnThietKeViMach/Project/SoC/VERIFICATION/Monitor/cpu_monitor.sv(296) @ 1895000: uvm_test_top.env.agent.monitor [WB] x10 <= fffff863  (PC~000000e8)
# UVM_INFO C:/Documents/DoAnThietKeViMach/Project/SoC/VERIFICATION/Monitor/cpu_monitor.sv(296) @ 1905000: uvm_test_top.env.agent.monitor [WB] x08 <= 00000000  (PC~000000e8)
# UVM_INFO C:/Documents/DoAnThietKeViMach/Project/SoC/VERIFICATION/Monitor/cpu_monitor.sv(296) @ 1915000: uvm_test_top.env.agent.monitor [WB] x08 <= 00000000  (PC~000000e8)
# UVM_INFO C:/Documents/DoAnThietKeViMach/Project/SoC/VERIFICATION/Monitor/cpu_monitor.sv(296) @ 1925000: uvm_test_top.env.agent.monitor [WB] x08 <= 00000000  (PC~000000e8)
# UVM_INFO C:/Documents/DoAnThietKeViMach/Project/SoC/VERIFICATION/Monitor/cpu_monitor.sv(364) @ 1935000: uvm_test_top.env.agent.monitor [AXI_RD] CPU <- IRAM  Addr=000000e4 Data=014549b3 RRESP=00
# UVM_INFO C:/Documents/DoAnThietKeViMach/Project/SoC/VERIFICATION/Monitor/cpu_monitor.sv(234) @ 1935000: uvm_test_top.env.agent.monitor [IF] PC=000000e4  INSTR=014549b3  [XOR  x19, x10, x20]            
# UVM_INFO C:/Documents/DoAnThietKeViMach/Project/SoC/VERIFICATION/Monitor/cpu_monitor.sv(296) @ 1935000: uvm_test_top.env.agent.monitor [WB] x08 <= 00000000  (PC~000000e4)
# UVM_INFO C:/Documents/DoAnThietKeViMach/Project/SoC/VERIFICATION/Monitor/cpu_monitor.sv(296) @ 1945000: uvm_test_top.env.agent.monitor [WB] x06 <= 000000e4  (PC~000000e4)
# UVM_INFO C:/Documents/DoAnThietKeViMach/Project/SoC/VERIFICATION/Monitor/cpu_monitor.sv(296) @ 1955000: uvm_test_top.env.agent.monitor [WB] x06 <= 000000e4  (PC~000000e4)
# UVM_INFO C:/Documents/DoAnThietKeViMach/Project/SoC/VERIFICATION/Monitor/cpu_monitor.sv(296) @ 1965000: uvm_test_top.env.agent.monitor [WB] x06 <= 000000e4  (PC~000000e4)
# UVM_INFO C:/Documents/DoAnThietKeViMach/Project/SoC/VERIFICATION/Monitor/cpu_monitor.sv(364) @ 1975000: uvm_test_top.env.agent.monitor [AXI_RD] CPU <- IRAM  Addr=000000e8 Data=410787b3 RRESP=00
# UVM_INFO C:/Documents/DoAnThietKeViMach/Project/SoC/VERIFICATION/Monitor/cpu_monitor.sv(234) @ 1975000: uvm_test_top.env.agent.monitor [IF] PC=000000e8  INSTR=410787b3  [SUB  x15, x15, x16]            
# UVM_INFO C:/Documents/DoAnThietKeViMach/Project/SoC/VERIFICATION/Monitor/cpu_monitor.sv(296) @ 1975000: uvm_test_top.env.agent.monitor [WB] x06 <= 000000e4  (PC~000000e8)
# UVM_INFO C:/Documents/DoAnThietKeViMach/Project/SoC/VERIFICATION/Monitor/cpu_monitor.sv(364) @ 2015000: uvm_test_top.env.agent.monitor [AXI_RD] CPU <- IRAM  Addr=000000ec Data=4152d7b3 RRESP=00
# UVM_INFO C:/Documents/DoAnThietKeViMach/Project/SoC/VERIFICATION/Monitor/cpu_monitor.sv(234) @ 2015000: uvm_test_top.env.agent.monitor [IF] PC=000000ec  INSTR=4152d7b3  [SRA  x15, x5, x21]            
# UVM_INFO C:/Documents/DoAnThietKeViMach/Project/SoC/VERIFICATION/Monitor/cpu_monitor.sv(364) @ 2055000: uvm_test_top.env.agent.monitor [AXI_RD] CPU <- IRAM  Addr=000000f0 Data=01895233 RRESP=00
# UVM_INFO C:/Documents/DoAnThietKeViMach/Project/SoC/VERIFICATION/Monitor/cpu_monitor.sv(234) @ 2055000: uvm_test_top.env.agent.monitor [IF] PC=000000f0  INSTR=01895233  [SRL  x4, x18, x24]            
# UVM_INFO C:/Documents/DoAnThietKeViMach/Project/SoC/VERIFICATION/Monitor/cpu_monitor.sv(296) @ 2065000: uvm_test_top.env.agent.monitor [WB] x19 <= fffff863  (PC~000000f0)
# UVM_INFO C:/Documents/DoAnThietKeViMach/Project/SoC/VERIFICATION/Monitor/cpu_monitor.sv(296) @ 2075000: uvm_test_top.env.agent.monitor [WB] x19 <= fffff863  (PC~000000f0)
# UVM_INFO C:/Documents/DoAnThietKeViMach/Project/SoC/VERIFICATION/Monitor/cpu_monitor.sv(296) @ 2085000: uvm_test_top.env.agent.monitor [WB] x19 <= fffff863  (PC~000000f0)
# UVM_INFO C:/Documents/DoAnThietKeViMach/Project/SoC/VERIFICATION/Monitor/cpu_monitor.sv(364) @ 2095000: uvm_test_top.env.agent.monitor [AXI_RD] CPU <- IRAM  Addr=000000f4 Data=00c00def RRESP=00
# UVM_INFO C:/Documents/DoAnThietKeViMach/Project/SoC/VERIFICATION/Monitor/cpu_monitor.sv(234) @ 2095000: uvm_test_top.env.agent.monitor [IF] PC=000000f4  INSTR=00c00def  [JAL  x27, ...]            
# UVM_INFO C:/Documents/DoAnThietKeViMach/Project/SoC/VERIFICATION/Monitor/cpu_monitor.sv(296) @ 2095000: uvm_test_top.env.agent.monitor [WB] x19 <= fffff863  (PC~000000f4)
# UVM_INFO C:/Documents/DoAnThietKeViMach/Project/SoC/VERIFICATION/Monitor/cpu_monitor.sv(296) @ 2105000: uvm_test_top.env.agent.monitor [WB] x15 <= 00000000  (PC~000000f4)
# UVM_INFO C:/Documents/DoAnThietKeViMach/Project/SoC/VERIFICATION/Monitor/cpu_monitor.sv(296) @ 2115000: uvm_test_top.env.agent.monitor [WB] x15 <= 00000000  (PC~000000f4)
# UVM_INFO C:/Documents/DoAnThietKeViMach/Project/SoC/VERIFICATION/Monitor/cpu_monitor.sv(296) @ 2125000: uvm_test_top.env.agent.monitor [WB] x15 <= 00000000  (PC~000000f4)
# UVM_INFO C:/Documents/DoAnThietKeViMach/Project/SoC/VERIFICATION/Monitor/cpu_monitor.sv(364) @ 2135000: uvm_test_top.env.agent.monitor [AXI_RD] CPU <- IRAM  Addr=000000f8 Data=7c00ad83 RRESP=00
# UVM_INFO C:/Documents/DoAnThietKeViMach/Project/SoC/VERIFICATION/Monitor/cpu_monitor.sv(234) @ 2135000: uvm_test_top.env.agent.monitor [IF] PC=000000f8  INSTR=7c00ad83  [LW   x27, 1984(x1)]            
# UVM_INFO C:/Documents/DoAnThietKeViMach/Project/SoC/VERIFICATION/Monitor/cpu_monitor.sv(296) @ 2135000: uvm_test_top.env.agent.monitor [WB] x15 <= 00000000  (PC~000000f8)
# UVM_INFO C:/Documents/DoAnThietKeViMach/Project/SoC/VERIFICATION/Monitor/cpu_monitor.sv(296) @ 2145000: uvm_test_top.env.agent.monitor [WB] x15 <= 00000000  (PC~000000f8)
# UVM_INFO C:/Documents/DoAnThietKeViMach/Project/SoC/VERIFICATION/Monitor/cpu_monitor.sv(296) @ 2155000: uvm_test_top.env.agent.monitor [WB] x15 <= 00000000  (PC~000000f8)
# UVM_INFO C:/Documents/DoAnThietKeViMach/Project/SoC/VERIFICATION/Monitor/cpu_monitor.sv(296) @ 2165000: uvm_test_top.env.agent.monitor [WB] x15 <= 00000000  (PC~000000f8)
# UVM_INFO C:/Documents/DoAnThietKeViMach/Project/SoC/VERIFICATION/Monitor/cpu_monitor.sv(364) @ 2175000: uvm_test_top.env.agent.monitor [AXI_RD] CPU <- IRAM  Addr=000000fc Data=01cb7bb3 RRESP=00
# UVM_INFO C:/Documents/DoAnThietKeViMach/Project/SoC/VERIFICATION/Monitor/cpu_monitor.sv(234) @ 2175000: uvm_test_top.env.agent.monitor [IF] PC=000000fc  INSTR=01cb7bb3  [AND  x23, x22, x28]            
# UVM_INFO C:/Documents/DoAnThietKeViMach/Project/SoC/VERIFICATION/Monitor/cpu_monitor.sv(296) @ 2175000: uvm_test_top.env.agent.monitor [WB] x15 <= 00000000  (PC~000000fc)
# UVM_INFO C:/Documents/DoAnThietKeViMach/Project/SoC/VERIFICATION/Monitor/cpu_monitor.sv(296) @ 2185000: uvm_test_top.env.agent.monitor [WB] x04 <= 00000000  (PC~000000fc)
# UVM_INFO C:/Documents/DoAnThietKeViMach/Project/SoC/VERIFICATION/Monitor/cpu_monitor.sv(296) @ 2195000: uvm_test_top.env.agent.monitor [WB] x04 <= 00000000  (PC~000000fc)
# UVM_INFO C:/Documents/DoAnThietKeViMach/Project/SoC/VERIFICATION/Monitor/cpu_monitor.sv(296) @ 2205000: uvm_test_top.env.agent.monitor [WB] x04 <= 00000000  (PC~000000fc)
# UVM_INFO C:/Documents/DoAnThietKeViMach/Project/SoC/VERIFICATION/Monitor/cpu_monitor.sv(364) @ 2215000: uvm_test_top.env.agent.monitor [AXI_RD] CPU <- IRAM  Addr=00000100 Data=72c0a683 RRESP=00
# UVM_INFO C:/Documents/DoAnThietKeViMach/Project/SoC/VERIFICATION/Monitor/cpu_monitor.sv(234) @ 2215000: uvm_test_top.env.agent.monitor [IF] PC=00000100  INSTR=72c0a683  [LW   x13, 1836(x1)]            
# UVM_INFO C:/Documents/DoAnThietKeViMach/Project/SoC/VERIFICATION/Monitor/cpu_monitor.sv(296) @ 2215000: uvm_test_top.env.agent.monitor [WB] x04 <= 00000000  (PC~00000100)
# UVM_INFO C:/Documents/DoAnThietKeViMach/Project/SoC/VERIFICATION/Monitor/cpu_monitor.sv(296) @ 2225000: uvm_test_top.env.agent.monitor [WB] x27 <= 000000f8  (PC~00000100)
# UVM_INFO C:/Documents/DoAnThietKeViMach/Project/SoC/VERIFICATION/Monitor/cpu_monitor.sv(296) @ 2235000: uvm_test_top.env.agent.monitor [WB] x27 <= 000000f8  (PC~00000100)
# UVM_INFO C:/Documents/DoAnThietKeViMach/Project/SoC/VERIFICATION/Monitor/cpu_monitor.sv(296) @ 2245000: uvm_test_top.env.agent.monitor [WB] x27 <= 000000f8  (PC~00000100)
# UVM_INFO C:/Documents/DoAnThietKeViMach/Project/SoC/VERIFICATION/Monitor/cpu_monitor.sv(364) @ 2255000: uvm_test_top.env.agent.monitor [AXI_RD] CPU <- IRAM  Addr=00000104 Data=3c40af03 RRESP=00
# UVM_INFO C:/Documents/DoAnThietKeViMach/Project/SoC/VERIFICATION/Monitor/cpu_monitor.sv(234) @ 2255000: uvm_test_top.env.agent.monitor [IF] PC=00000104  INSTR=3c40af03  [LW   x30, 964(x1)]            
# UVM_INFO C:/Documents/DoAnThietKeViMach/Project/SoC/VERIFICATION/Monitor/cpu_monitor.sv(296) @ 2255000: uvm_test_top.env.agent.monitor [WB] x27 <= 000000f8  (PC~00000104)
# UVM_INFO C:/Documents/DoAnThietKeViMach/Project/SoC/VERIFICATION/Monitor/cpu_monitor.sv(364) @ 2295000: uvm_test_top.env.agent.monitor [AXI_RD] CPU <- IRAM  Addr=00000108 Data=002885b3 RRESP=00
# UVM_INFO C:/Documents/DoAnThietKeViMach/Project/SoC/VERIFICATION/Monitor/cpu_monitor.sv(234) @ 2295000: uvm_test_top.env.agent.monitor [IF] PC=00000108  INSTR=002885b3  [ADD  x11, x17, x2]            
# [DRAM READ] addr=1000072c data=00000000
# UVM_INFO C:/Documents/DoAnThietKeViMach/Project/SoC/VERIFICATION/Monitor/cpu_monitor.sv(364) @ 2335000: uvm_test_top.env.agent.monitor [AXI_RD] CPU <- DRAM  Addr=1000072c Data=00000000 RRESP=00
# UVM_INFO C:/Documents/DoAnThietKeViMach/Project/SoC/VERIFICATION/Monitor/cpu_monitor.sv(364) @ 2375000: uvm_test_top.env.agent.monitor [AXI_RD] CPU <- IRAM  Addr=0000010c Data=7f00a783 RRESP=00
# UVM_INFO C:/Documents/DoAnThietKeViMach/Project/SoC/VERIFICATION/Monitor/cpu_monitor.sv(234) @ 2375000: uvm_test_top.env.agent.monitor [IF] PC=0000010c  INSTR=7f00a783  [LW   x15, 2032(x1)]            
# [DRAM READ] addr=100003c4 data=00000000
# UVM_INFO C:/Documents/DoAnThietKeViMach/Project/SoC/VERIFICATION/Monitor/cpu_monitor.sv(364) @ 2415000: uvm_test_top.env.agent.monitor [AXI_RD] CPU <- DRAM  Addr=100003c4 Data=00000000 RRESP=00
# UVM_INFO C:/Documents/DoAnThietKeViMach/Project/SoC/VERIFICATION/Monitor/cpu_monitor.sv(296) @ 2415000: uvm_test_top.env.agent.monitor [WB] x13 <= 00000000  (PC~0000010c)
# UVM_INFO C:/Documents/DoAnThietKeViMach/Project/SoC/VERIFICATION/Monitor/cpu_monitor.sv(296) @ 2425000: uvm_test_top.env.agent.monitor [WB] x13 <= 00000000  (PC~0000010c)
# UVM_INFO C:/Documents/DoAnThietKeViMach/Project/SoC/VERIFICATION/Monitor/cpu_monitor.sv(296) @ 2435000: uvm_test_top.env.agent.monitor [WB] x13 <= 00000000  (PC~0000010c)
# UVM_INFO C:/Documents/DoAnThietKeViMach/Project/SoC/VERIFICATION/Monitor/cpu_monitor.sv(296) @ 2445000: uvm_test_top.env.agent.monitor [WB] x13 <= 00000000  (PC~0000010c)
# UVM_INFO C:/Documents/DoAnThietKeViMach/Project/SoC/VERIFICATION/Monitor/cpu_monitor.sv(364) @ 2455000: uvm_test_top.env.agent.monitor [AXI_RD] CPU <- IRAM  Addr=00000110 Data=40538633 RRESP=00
# UVM_INFO C:/Documents/DoAnThietKeViMach/Project/SoC/VERIFICATION/Monitor/cpu_monitor.sv(234) @ 2455000: uvm_test_top.env.agent.monitor [IF] PC=00000110  INSTR=40538633  [SUB  x12, x7, x5]            
# UVM_INFO C:/Documents/DoAnThietKeViMach/Project/SoC/VERIFICATION/Monitor/cpu_monitor.sv(296) @ 2455000: uvm_test_top.env.agent.monitor [WB] x13 <= 00000000  (PC~00000110)
# UVM_INFO C:/Documents/DoAnThietKeViMach/Project/SoC/VERIFICATION/Monitor/cpu_monitor.sv(296) @ 2465000: uvm_test_top.env.agent.monitor [WB] x30 <= 00000000  (PC~00000110)
# UVM_INFO C:/Documents/DoAnThietKeViMach/Project/SoC/VERIFICATION/Monitor/cpu_monitor.sv(296) @ 2475000: uvm_test_top.env.agent.monitor [WB] x30 <= 00000000  (PC~00000110)
# UVM_INFO C:/Documents/DoAnThietKeViMach/Project/SoC/VERIFICATION/Monitor/cpu_monitor.sv(296) @ 2485000: uvm_test_top.env.agent.monitor [WB] x30 <= 00000000  (PC~00000110)
# UVM_INFO C:/Documents/DoAnThietKeViMach/Project/SoC/VERIFICATION/Monitor/cpu_monitor.sv(364) @ 2495000: uvm_test_top.env.agent.monitor [AXI_RD] CPU <- IRAM  Addr=00000114 Data=4380ac23 RRESP=00
# UVM_INFO C:/Documents/DoAnThietKeViMach/Project/SoC/VERIFICATION/Monitor/cpu_monitor.sv(234) @ 2495000: uvm_test_top.env.agent.monitor [IF] PC=00000114  INSTR=4380ac23  [SW   x24, 1080(x1)]            
# UVM_INFO C:/Documents/DoAnThietKeViMach/Project/SoC/VERIFICATION/Monitor/cpu_monitor.sv(296) @ 2495000: uvm_test_top.env.agent.monitor [WB] x30 <= 00000000  (PC~00000114)
# [DRAM READ] addr=100007f0 data=00000000
# UVM_INFO C:/Documents/DoAnThietKeViMach/Project/SoC/VERIFICATION/Monitor/cpu_monitor.sv(364) @ 2535000: uvm_test_top.env.agent.monitor [AXI_RD] CPU <- DRAM  Addr=100007f0 Data=00000000 RRESP=00
# UVM_INFO C:/Documents/DoAnThietKeViMach/Project/SoC/VERIFICATION/Monitor/cpu_monitor.sv(296) @ 2535000: uvm_test_top.env.agent.monitor [WB] x11 <= 0000037f  (PC~00000114)
# UVM_INFO C:/Documents/DoAnThietKeViMach/Project/SoC/VERIFICATION/Monitor/cpu_monitor.sv(296) @ 2545000: uvm_test_top.env.agent.monitor [WB] x11 <= 0000037f  (PC~00000114)
# UVM_INFO C:/Documents/DoAnThietKeViMach/Project/SoC/VERIFICATION/Monitor/cpu_monitor.sv(296) @ 2555000: uvm_test_top.env.agent.monitor [WB] x11 <= 0000037f  (PC~00000114)
# UVM_INFO C:/Documents/DoAnThietKeViMach/Project/SoC/VERIFICATION/Monitor/cpu_monitor.sv(296) @ 2565000: uvm_test_top.env.agent.monitor [WB] x11 <= 0000037f  (PC~00000114)
# UVM_INFO C:/Documents/DoAnThietKeViMach/Project/SoC/VERIFICATION/Monitor/cpu_monitor.sv(364) @ 2575000: uvm_test_top.env.agent.monitor [AXI_RD] CPU <- IRAM  Addr=00000118 Data=13d0a823 RRESP=00
# UVM_INFO C:/Documents/DoAnThietKeViMach/Project/SoC/VERIFICATION/Monitor/cpu_monitor.sv(234) @ 2575000: uvm_test_top.env.agent.monitor [IF] PC=00000118  INSTR=13d0a823  [SW   x29, 317(x1)]            
# UVM_INFO C:/Documents/DoAnThietKeViMach/Project/SoC/VERIFICATION/Monitor/cpu_monitor.sv(296) @ 2575000: uvm_test_top.env.agent.monitor [WB] x11 <= 0000037f  (PC~00000118)
# UVM_INFO C:/Documents/DoAnThietKeViMach/Project/SoC/VERIFICATION/Monitor/cpu_monitor.sv(296) @ 2585000: uvm_test_top.env.agent.monitor [WB] x15 <= 00000000  (PC~00000118)
# UVM_INFO C:/Documents/DoAnThietKeViMach/Project/SoC/VERIFICATION/Monitor/cpu_monitor.sv(296) @ 2595000: uvm_test_top.env.agent.monitor [WB] x15 <= 00000000  (PC~00000118)
# UVM_INFO C:/Documents/DoAnThietKeViMach/Project/SoC/VERIFICATION/Monitor/cpu_monitor.sv(296) @ 2605000: uvm_test_top.env.agent.monitor [WB] x15 <= 00000000  (PC~00000118)
# UVM_INFO C:/Documents/DoAnThietKeViMach/Project/SoC/VERIFICATION/Monitor/cpu_monitor.sv(364) @ 2615000: uvm_test_top.env.agent.monitor [AXI_RD] CPU <- IRAM  Addr=0000011c Data=7100a483 RRESP=00
# UVM_INFO C:/Documents/DoAnThietKeViMach/Project/SoC/VERIFICATION/Monitor/cpu_monitor.sv(234) @ 2615000: uvm_test_top.env.agent.monitor [IF] PC=0000011c  INSTR=7100a483  [LW   x9, 1808(x1)]            
# UVM_INFO C:/Documents/DoAnThietKeViMach/Project/SoC/VERIFICATION/Monitor/cpu_monitor.sv(296) @ 2615000: uvm_test_top.env.agent.monitor [WB] x15 <= 00000000  (PC~0000011c)
# UVM_INFO C:/Documents/DoAnThietKeViMach/Project/SoC/VERIFICATION/Monitor/cpu_monitor.sv(268) @ 2625000: uvm_test_top.env.agent.monitor [MEM] STORE Addr=10000438 Data=fffffa1b
# UVM_INFO C:/Documents/DoAnThietKeViMach/Project/SoC/VERIFICATION/Monitor/cpu_monitor.sv(268) @ 2635000: uvm_test_top.env.agent.monitor [MEM] STORE Addr=10000438 Data=fffffa1b
# [DRAM WRITE] addr=10000438 data=fffffa1b
# UVM_INFO C:/Documents/DoAnThietKeViMach/Project/SoC/VERIFICATION/Monitor/cpu_monitor.sv(268) @ 2645000: uvm_test_top.env.agent.monitor [MEM] STORE Addr=10000438 Data=fffffa1b
# UVM_INFO C:/Documents/DoAnThietKeViMach/Project/SoC/VERIFICATION/Monitor/cpu_monitor.sv(335) @ 2655000: uvm_test_top.env.agent.monitor [AXI_WR] CPU -> DRAM  Addr=10000438 Data=fffffa1b Strb=1111 BRESP=00
# UVM_INFO C:/Documents/DoAnThietKeViMach/Project/SoC/VERIFICATION/Monitor/cpu_monitor.sv(268) @ 2655000: uvm_test_top.env.agent.monitor [MEM] STORE Addr=10000438 Data=fffffa1b
# UVM_INFO C:/Documents/DoAnThietKeViMach/Project/SoC/VERIFICATION/Monitor/cpu_monitor.sv(296) @ 2655000: uvm_test_top.env.agent.monitor [WB] x12 <= 00000000  (PC~0000011c)
# UVM_INFO C:/Documents/DoAnThietKeViMach/Project/SoC/VERIFICATION/Monitor/cpu_monitor.sv(268) @ 2665000: uvm_test_top.env.agent.monitor [MEM] STORE Addr=10000438 Data=fffffa1b
# UVM_INFO C:/Documents/DoAnThietKeViMach/Project/SoC/VERIFICATION/Monitor/cpu_monitor.sv(296) @ 2665000: uvm_test_top.env.agent.monitor [WB] x12 <= 00000000  (PC~0000011c)
# UVM_INFO C:/Documents/DoAnThietKeViMach/Project/SoC/VERIFICATION/Monitor/cpu_monitor.sv(268) @ 2675000: uvm_test_top.env.agent.monitor [MEM] STORE Addr=10000438 Data=fffffa1b
# UVM_INFO C:/Documents/DoAnThietKeViMach/Project/SoC/VERIFICATION/Monitor/cpu_monitor.sv(296) @ 2675000: uvm_test_top.env.agent.monitor [WB] x12 <= 00000000  (PC~0000011c)
# UVM_INFO C:/Documents/DoAnThietKeViMach/Project/SoC/VERIFICATION/Monitor/cpu_monitor.sv(268) @ 2685000: uvm_test_top.env.agent.monitor [MEM] STORE Addr=10000438 Data=fffffa1b
# UVM_INFO C:/Documents/DoAnThietKeViMach/Project/SoC/VERIFICATION/Monitor/cpu_monitor.sv(296) @ 2685000: uvm_test_top.env.agent.monitor [WB] x12 <= 00000000  (PC~0000011c)
# UVM_INFO C:/Documents/DoAnThietKeViMach/Project/SoC/VERIFICATION/Monitor/cpu_monitor.sv(364) @ 2695000: uvm_test_top.env.agent.monitor [AXI_RD] CPU <- IRAM  Addr=00000120 Data=7440a503 RRESP=00
# UVM_INFO C:/Documents/DoAnThietKeViMach/Project/SoC/VERIFICATION/Monitor/cpu_monitor.sv(234) @ 2695000: uvm_test_top.env.agent.monitor [IF] PC=00000120  INSTR=7440a503  [LW   x10, 1860(x1)]            
# UVM_INFO C:/Documents/DoAnThietKeViMach/Project/SoC/VERIFICATION/Monitor/cpu_monitor.sv(268) @ 2695000: uvm_test_top.env.agent.monitor [MEM] STORE Addr=10000438 Data=fffffa1b
# UVM_INFO C:/Documents/DoAnThietKeViMach/Project/SoC/VERIFICATION/Monitor/cpu_monitor.sv(296) @ 2695000: uvm_test_top.env.agent.monitor [WB] x12 <= 00000000  (PC~00000120)
# UVM_INFO C:/Documents/DoAnThietKeViMach/Project/SoC/VERIFICATION/Monitor/cpu_monitor.sv(268) @ 2705000: uvm_test_top.env.agent.monitor [MEM] STORE Addr=10000130 Data=0000037f
# UVM_INFO C:/Documents/DoAnThietKeViMach/Project/SoC/VERIFICATION/Monitor/cpu_monitor.sv(268) @ 2715000: uvm_test_top.env.agent.monitor [MEM] STORE Addr=10000130 Data=0000037f
# [DRAM WRITE] addr=10000130 data=0000037f
# UVM_INFO C:/Documents/DoAnThietKeViMach/Project/SoC/VERIFICATION/Monitor/cpu_monitor.sv(268) @ 2725000: uvm_test_top.env.agent.monitor [MEM] STORE Addr=10000130 Data=0000037f
# UVM_INFO C:/Documents/DoAnThietKeViMach/Project/SoC/VERIFICATION/Monitor/cpu_monitor.sv(335) @ 2735000: uvm_test_top.env.agent.monitor [AXI_WR] CPU -> DRAM  Addr=10000130 Data=0000037f Strb=1111 BRESP=00
# UVM_INFO C:/Documents/DoAnThietKeViMach/Project/SoC/VERIFICATION/Monitor/cpu_monitor.sv(268) @ 2735000: uvm_test_top.env.agent.monitor [MEM] STORE Addr=10000130 Data=0000037f
# UVM_INFO C:/Documents/DoAnThietKeViMach/Project/SoC/VERIFICATION/Monitor/cpu_monitor.sv(268) @ 2745000: uvm_test_top.env.agent.monitor [MEM] STORE Addr=10000130 Data=0000037f
# UVM_INFO C:/Documents/DoAnThietKeViMach/Project/SoC/VERIFICATION/Monitor/cpu_monitor.sv(268) @ 2755000: uvm_test_top.env.agent.monitor [MEM] STORE Addr=10000130 Data=0000037f
# UVM_INFO C:/Documents/DoAnThietKeViMach/Project/SoC/VERIFICATION/Monitor/cpu_monitor.sv(268) @ 2765000: uvm_test_top.env.agent.monitor [MEM] STORE Addr=10000130 Data=0000037f
# UVM_INFO C:/Documents/DoAnThietKeViMach/Project/SoC/VERIFICATION/Monitor/cpu_monitor.sv(364) @ 2775000: uvm_test_top.env.agent.monitor [AXI_RD] CPU <- IRAM  Addr=00000124 Data=d79e6493 RRESP=00
# UVM_INFO C:/Documents/DoAnThietKeViMach/Project/SoC/VERIFICATION/Monitor/cpu_monitor.sv(234) @ 2775000: uvm_test_top.env.agent.monitor [IF] PC=00000124  INSTR=d79e6493  [ORI  x9, x28, -647]            
# UVM_INFO C:/Documents/DoAnThietKeViMach/Project/SoC/VERIFICATION/Monitor/cpu_monitor.sv(268) @ 2775000: uvm_test_top.env.agent.monitor [MEM] STORE Addr=10000130 Data=0000037f
# [DRAM READ] addr=10000710 data=00000000
# UVM_INFO C:/Documents/DoAnThietKeViMach/Project/SoC/VERIFICATION/Monitor/cpu_monitor.sv(364) @ 2815000: uvm_test_top.env.agent.monitor [AXI_RD] CPU <- DRAM  Addr=10000710 Data=00000000 RRESP=00
# UVM_INFO C:/Documents/DoAnThietKeViMach/Project/SoC/VERIFICATION/Monitor/cpu_monitor.sv(364) @ 2855000: uvm_test_top.env.agent.monitor [AXI_RD] CPU <- IRAM  Addr=00000128 Data=cd62f593 RRESP=00
# UVM_INFO C:/Documents/DoAnThietKeViMach/Project/SoC/VERIFICATION/Monitor/cpu_monitor.sv(234) @ 2855000: uvm_test_top.env.agent.monitor [IF] PC=00000128  INSTR=cd62f593  [ANDI x11, x5, -810]            
# [DRAM READ] addr=10000744 data=00000000
# UVM_INFO C:/Documents/DoAnThietKeViMach/Project/SoC/VERIFICATION/Monitor/cpu_monitor.sv(364) @ 2895000: uvm_test_top.env.agent.monitor [AXI_RD] CPU <- DRAM  Addr=10000744 Data=00000000 RRESP=00
# UVM_INFO C:/Documents/DoAnThietKeViMach/Project/SoC/VERIFICATION/Monitor/cpu_monitor.sv(296) @ 2895000: uvm_test_top.env.agent.monitor [WB] x09 <= 00000000  (PC~00000128)
# UVM_INFO C:/Documents/DoAnThietKeViMach/Project/SoC/VERIFICATION/Monitor/cpu_monitor.sv(296) @ 2905000: uvm_test_top.env.agent.monitor [WB] x09 <= 00000000  (PC~00000128)
# UVM_INFO C:/Documents/DoAnThietKeViMach/Project/SoC/VERIFICATION/Monitor/cpu_monitor.sv(296) @ 2915000: uvm_test_top.env.agent.monitor [WB] x09 <= 00000000  (PC~00000128)
# UVM_INFO C:/Documents/DoAnThietKeViMach/Project/SoC/VERIFICATION/Monitor/cpu_monitor.sv(296) @ 2925000: uvm_test_top.env.agent.monitor [WB] x09 <= 00000000  (PC~00000128)
# UVM_INFO C:/Documents/DoAnThietKeViMach/Project/SoC/VERIFICATION/Monitor/cpu_monitor.sv(364) @ 2935000: uvm_test_top.env.agent.monitor [AXI_RD] CPU <- IRAM  Addr=0000012c Data=a7d80e13 RRESP=00
# UVM_INFO C:/Documents/DoAnThietKeViMach/Project/SoC/VERIFICATION/Monitor/cpu_monitor.sv(234) @ 2935000: uvm_test_top.env.agent.monitor [IF] PC=0000012c  INSTR=a7d80e13  [ADDI x28, x16, -1411]            
# UVM_INFO C:/Documents/DoAnThietKeViMach/Project/SoC/VERIFICATION/Monitor/cpu_monitor.sv(296) @ 2935000: uvm_test_top.env.agent.monitor [WB] x09 <= 00000000  (PC~0000012c)
# UVM_INFO C:/Documents/DoAnThietKeViMach/Project/SoC/VERIFICATION/Monitor/cpu_monitor.sv(296) @ 2945000: uvm_test_top.env.agent.monitor [WB] x10 <= 00000000  (PC~0000012c)
# UVM_INFO C:/Documents/DoAnThietKeViMach/Project/SoC/VERIFICATION/Monitor/cpu_monitor.sv(296) @ 2955000: uvm_test_top.env.agent.monitor [WB] x10 <= 00000000  (PC~0000012c)
# UVM_INFO C:/Documents/DoAnThietKeViMach/Project/SoC/VERIFICATION/Monitor/cpu_monitor.sv(296) @ 2965000: uvm_test_top.env.agent.monitor [WB] x10 <= 00000000  (PC~0000012c)
# UVM_INFO C:/Documents/DoAnThietKeViMach/Project/SoC/VERIFICATION/Monitor/cpu_monitor.sv(364) @ 2975000: uvm_test_top.env.agent.monitor [AXI_RD] CPU <- IRAM  Addr=00000130 Data=011a4bb3 RRESP=00
# UVM_INFO C:/Documents/DoAnThietKeViMach/Project/SoC/VERIFICATION/Monitor/cpu_monitor.sv(234) @ 2975000: uvm_test_top.env.agent.monitor [IF] PC=00000130  INSTR=011a4bb3  [XOR  x23, x20, x17]            
# UVM_INFO C:/Documents/DoAnThietKeViMach/Project/SoC/VERIFICATION/Monitor/cpu_monitor.sv(296) @ 2975000: uvm_test_top.env.agent.monitor [WB] x10 <= 00000000  (PC~00000130)
# UVM_INFO C:/Documents/DoAnThietKeViMach/Project/SoC/VERIFICATION/Monitor/cpu_monitor.sv(296) @ 2985000: uvm_test_top.env.agent.monitor [WB] x09 <= fffffd79  (PC~00000130)
# UVM_INFO C:/Documents/DoAnThietKeViMach/Project/SoC/VERIFICATION/Monitor/cpu_monitor.sv(296) @ 2995000: uvm_test_top.env.agent.monitor [WB] x09 <= fffffd79  (PC~00000130)
# UVM_INFO C:/Documents/DoAnThietKeViMach/Project/SoC/VERIFICATION/Monitor/cpu_monitor.sv(296) @ 3005000: uvm_test_top.env.agent.monitor [WB] x09 <= fffffd79  (PC~00000130)
# UVM_INFO C:/Documents/DoAnThietKeViMach/Project/SoC/VERIFICATION/Monitor/cpu_monitor.sv(364) @ 3015000: uvm_test_top.env.agent.monitor [AXI_RD] CPU <- IRAM  Addr=00000134 Data=b251e613 RRESP=00
# UVM_INFO C:/Documents/DoAnThietKeViMach/Project/SoC/VERIFICATION/Monitor/cpu_monitor.sv(234) @ 3015000: uvm_test_top.env.agent.monitor [IF] PC=00000134  INSTR=b251e613  [ORI  x12, x3, -1243]            
# UVM_INFO C:/Documents/DoAnThietKeViMach/Project/SoC/VERIFICATION/Monitor/cpu_monitor.sv(296) @ 3015000: uvm_test_top.env.agent.monitor [WB] x09 <= fffffd79  (PC~00000134)
# UVM_INFO C:/Documents/DoAnThietKeViMach/Project/SoC/VERIFICATION/Monitor/cpu_monitor.sv(296) @ 3025000: uvm_test_top.env.agent.monitor [WB] x11 <= 00000000  (PC~00000134)
# UVM_INFO C:/Documents/DoAnThietKeViMach/Project/SoC/VERIFICATION/Monitor/cpu_monitor.sv(296) @ 3035000: uvm_test_top.env.agent.monitor [WB] x11 <= 00000000  (PC~00000134)
# UVM_INFO C:/Documents/DoAnThietKeViMach/Project/SoC/VERIFICATION/Monitor/cpu_monitor.sv(296) @ 3045000: uvm_test_top.env.agent.monitor [WB] x11 <= 00000000  (PC~00000134)
# UVM_INFO C:/Documents/DoAnThietKeViMach/Project/SoC/VERIFICATION/Monitor/cpu_monitor.sv(364) @ 3055000: uvm_test_top.env.agent.monitor [AXI_RD] CPU <- IRAM  Addr=00000138 Data=1e00af83 RRESP=00
# UVM_INFO C:/Documents/DoAnThietKeViMach/Project/SoC/VERIFICATION/Monitor/cpu_monitor.sv(234) @ 3055000: uvm_test_top.env.agent.monitor [IF] PC=00000138  INSTR=1e00af83  [LW   x31, 480(x1)]            
# UVM_INFO C:/Documents/DoAnThietKeViMach/Project/SoC/VERIFICATION/Monitor/cpu_monitor.sv(296) @ 3055000: uvm_test_top.env.agent.monitor [WB] x11 <= 00000000  (PC~00000138)
# UVM_INFO C:/Documents/DoAnThietKeViMach/Project/SoC/VERIFICATION/Monitor/cpu_monitor.sv(296) @ 3065000: uvm_test_top.env.agent.monitor [WB] x28 <= fffffa7d  (PC~00000138)
# UVM_INFO C:/Documents/DoAnThietKeViMach/Project/SoC/VERIFICATION/Monitor/cpu_monitor.sv(296) @ 3075000: uvm_test_top.env.agent.monitor [WB] x28 <= fffffa7d  (PC~00000138)
# UVM_INFO C:/Documents/DoAnThietKeViMach/Project/SoC/VERIFICATION/Monitor/cpu_monitor.sv(296) @ 3085000: uvm_test_top.env.agent.monitor [WB] x28 <= fffffa7d  (PC~00000138)
# UVM_INFO C:/Documents/DoAnThietKeViMach/Project/SoC/VERIFICATION/Monitor/cpu_monitor.sv(364) @ 3095000: uvm_test_top.env.agent.monitor [AXI_RD] CPU <- IRAM  Addr=0000013c Data=404f09b3 RRESP=00
# UVM_INFO C:/Documents/DoAnThietKeViMach/Project/SoC/VERIFICATION/Monitor/cpu_monitor.sv(234) @ 3095000: uvm_test_top.env.agent.monitor [IF] PC=0000013c  INSTR=404f09b3  [SUB  x19, x30, x4]            
# UVM_INFO C:/Documents/DoAnThietKeViMach/Project/SoC/VERIFICATION/Monitor/cpu_monitor.sv(296) @ 3095000: uvm_test_top.env.agent.monitor [WB] x28 <= fffffa7d  (PC~0000013c)
# UVM_INFO C:/Documents/DoAnThietKeViMach/Project/SoC/VERIFICATION/Monitor/cpu_monitor.sv(296) @ 3105000: uvm_test_top.env.agent.monitor [WB] x23 <= 0000037f  (PC~0000013c)
# UVM_INFO C:/Documents/DoAnThietKeViMach/Project/SoC/VERIFICATION/Monitor/cpu_monitor.sv(296) @ 3115000: uvm_test_top.env.agent.monitor [WB] x23 <= 0000037f  (PC~0000013c)
# UVM_INFO C:/Documents/DoAnThietKeViMach/Project/SoC/VERIFICATION/Monitor/cpu_monitor.sv(296) @ 3125000: uvm_test_top.env.agent.monitor [WB] x23 <= 0000037f  (PC~0000013c)
# UVM_INFO C:/Documents/DoAnThietKeViMach/Project/SoC/VERIFICATION/Monitor/cpu_monitor.sv(364) @ 3135000: uvm_test_top.env.agent.monitor [AXI_RD] CPU <- IRAM  Addr=00000140 Data=af38cb13 RRESP=00
# UVM_INFO C:/Documents/DoAnThietKeViMach/Project/SoC/VERIFICATION/Monitor/cpu_monitor.sv(234) @ 3135000: uvm_test_top.env.agent.monitor [IF] PC=00000140  INSTR=af38cb13  [XORI x22, x17, -1293]            
# UVM_INFO C:/Documents/DoAnThietKeViMach/Project/SoC/VERIFICATION/Monitor/cpu_monitor.sv(296) @ 3135000: uvm_test_top.env.agent.monitor [WB] x23 <= 0000037f  (PC~00000140)
# [DRAM READ] addr=100001e0 data=00000000
# UVM_INFO C:/Documents/DoAnThietKeViMach/Project/SoC/VERIFICATION/Monitor/cpu_monitor.sv(364) @ 3175000: uvm_test_top.env.agent.monitor [AXI_RD] CPU <- DRAM  Addr=100001e0 Data=00000000 RRESP=00
# UVM_INFO C:/Documents/DoAnThietKeViMach/Project/SoC/VERIFICATION/Monitor/cpu_monitor.sv(296) @ 3175000: uvm_test_top.env.agent.monitor [WB] x12 <= fffffb25  (PC~00000140)
# UVM_INFO C:/Documents/DoAnThietKeViMach/Project/SoC/VERIFICATION/Monitor/cpu_monitor.sv(296) @ 3185000: uvm_test_top.env.agent.monitor [WB] x12 <= fffffb25  (PC~00000140)
# UVM_INFO C:/Documents/DoAnThietKeViMach/Project/SoC/VERIFICATION/Monitor/cpu_monitor.sv(296) @ 3195000: uvm_test_top.env.agent.monitor [WB] x12 <= fffffb25  (PC~00000140)
# UVM_INFO C:/Documents/DoAnThietKeViMach/Project/SoC/VERIFICATION/Monitor/cpu_monitor.sv(296) @ 3205000: uvm_test_top.env.agent.monitor [WB] x12 <= fffffb25  (PC~00000140)
# UVM_INFO C:/Documents/DoAnThietKeViMach/Project/SoC/VERIFICATION/Monitor/cpu_monitor.sv(364) @ 3215000: uvm_test_top.env.agent.monitor [AXI_RD] CPU <- IRAM  Addr=00000144 Data=d0cc7593 RRESP=00
# UVM_INFO C:/Documents/DoAnThietKeViMach/Project/SoC/VERIFICATION/Monitor/cpu_monitor.sv(234) @ 3215000: uvm_test_top.env.agent.monitor [IF] PC=00000144  INSTR=d0cc7593  [ANDI x11, x24, -756]            
# UVM_INFO C:/Documents/DoAnThietKeViMach/Project/SoC/VERIFICATION/Monitor/cpu_monitor.sv(296) @ 3215000: uvm_test_top.env.agent.monitor [WB] x12 <= fffffb25  (PC~00000144)
# UVM_INFO C:/Documents/DoAnThietKeViMach/Project/SoC/VERIFICATION/Monitor/cpu_monitor.sv(296) @ 3225000: uvm_test_top.env.agent.monitor [WB] x31 <= 00000000  (PC~00000144)
# UVM_INFO C:/Documents/DoAnThietKeViMach/Project/SoC/VERIFICATION/Monitor/cpu_monitor.sv(296) @ 3235000: uvm_test_top.env.agent.monitor [WB] x31 <= 00000000  (PC~00000144)
# UVM_INFO C:/Documents/DoAnThietKeViMach/Project/SoC/VERIFICATION/Monitor/cpu_monitor.sv(296) @ 3245000: uvm_test_top.env.agent.monitor [WB] x31 <= 00000000  (PC~00000144)
# UVM_INFO C:/Documents/DoAnThietKeViMach/Project/SoC/VERIFICATION/Monitor/cpu_monitor.sv(364) @ 3255000: uvm_test_top.env.agent.monitor [AXI_RD] CPU <- IRAM  Addr=00000148 Data=27ba6c13 RRESP=00
# UVM_INFO C:/Documents/DoAnThietKeViMach/Project/SoC/VERIFICATION/Monitor/cpu_monitor.sv(234) @ 3255000: uvm_test_top.env.agent.monitor [IF] PC=00000148  INSTR=27ba6c13  [ORI  x24, x20, 635]            
# UVM_INFO C:/Documents/DoAnThietKeViMach/Project/SoC/VERIFICATION/Monitor/cpu_monitor.sv(296) @ 3255000: uvm_test_top.env.agent.monitor [WB] x31 <= 00000000  (PC~00000148)
# UVM_INFO C:/Documents/DoAnThietKeViMach/Project/SoC/VERIFICATION/Monitor/cpu_monitor.sv(296) @ 3265000: uvm_test_top.env.agent.monitor [WB] x19 <= 00000000  (PC~00000148)
# UVM_INFO C:/Documents/DoAnThietKeViMach/Project/SoC/VERIFICATION/Monitor/cpu_monitor.sv(296) @ 3275000: uvm_test_top.env.agent.monitor [WB] x19 <= 00000000  (PC~00000148)
# UVM_INFO C:/Documents/DoAnThietKeViMach/Project/SoC/VERIFICATION/Monitor/cpu_monitor.sv(296) @ 3285000: uvm_test_top.env.agent.monitor [WB] x19 <= 00000000  (PC~00000148)
# UVM_INFO C:/Documents/DoAnThietKeViMach/Project/SoC/VERIFICATION/Monitor/cpu_monitor.sv(364) @ 3295000: uvm_test_top.env.agent.monitor [AXI_RD] CPU <- IRAM  Addr=0000014c Data=6bc0aa23 RRESP=00
# UVM_INFO C:/Documents/DoAnThietKeViMach/Project/SoC/VERIFICATION/Monitor/cpu_monitor.sv(234) @ 3295000: uvm_test_top.env.agent.monitor [IF] PC=0000014c  INSTR=6bc0aa23  [SW   x28, 1724(x1)]            
# UVM_INFO C:/Documents/DoAnThietKeViMach/Project/SoC/VERIFICATION/Monitor/cpu_monitor.sv(296) @ 3295000: uvm_test_top.env.agent.monitor [WB] x19 <= 00000000  (PC~0000014c)
# UVM_INFO C:/Documents/DoAnThietKeViMach/Project/SoC/VERIFICATION/Monitor/cpu_monitor.sv(296) @ 3305000: uvm_test_top.env.agent.monitor [WB] x22 <= fffff98c  (PC~0000014c)
# UVM_INFO C:/Documents/DoAnThietKeViMach/Project/SoC/VERIFICATION/Monitor/cpu_monitor.sv(296) @ 3315000: uvm_test_top.env.agent.monitor [WB] x22 <= fffff98c  (PC~0000014c)
# UVM_INFO C:/Documents/DoAnThietKeViMach/Project/SoC/VERIFICATION/Monitor/cpu_monitor.sv(296) @ 3325000: uvm_test_top.env.agent.monitor [WB] x22 <= fffff98c  (PC~0000014c)
# UVM_INFO C:/Documents/DoAnThietKeViMach/Project/SoC/VERIFICATION/Monitor/cpu_monitor.sv(364) @ 3335000: uvm_test_top.env.agent.monitor [AXI_RD] CPU <- IRAM  Addr=00000150 Data=4ed0ac23 RRESP=00
# UVM_INFO C:/Documents/DoAnThietKeViMach/Project/SoC/VERIFICATION/Monitor/cpu_monitor.sv(234) @ 3335000: uvm_test_top.env.agent.monitor [IF] PC=00000150  INSTR=4ed0ac23  [SW   x13, 1261(x1)]            
# UVM_INFO C:/Documents/DoAnThietKeViMach/Project/SoC/VERIFICATION/Monitor/cpu_monitor.sv(296) @ 3335000: uvm_test_top.env.agent.monitor [WB] x22 <= fffff98c  (PC~00000150)
# UVM_INFO C:/Documents/DoAnThietKeViMach/Project/SoC/VERIFICATION/Monitor/cpu_monitor.sv(296) @ 3345000: uvm_test_top.env.agent.monitor [WB] x11 <= fffff808  (PC~00000150)
# UVM_INFO C:/Documents/DoAnThietKeViMach/Project/SoC/VERIFICATION/Monitor/cpu_monitor.sv(296) @ 3355000: uvm_test_top.env.agent.monitor [WB] x11 <= fffff808  (PC~00000150)
# UVM_INFO C:/Documents/DoAnThietKeViMach/Project/SoC/VERIFICATION/Monitor/cpu_monitor.sv(296) @ 3365000: uvm_test_top.env.agent.monitor [WB] x11 <= fffff808  (PC~00000150)
# UVM_INFO C:/Documents/DoAnThietKeViMach/Project/SoC/VERIFICATION/Monitor/cpu_monitor.sv(364) @ 3375000: uvm_test_top.env.agent.monitor [AXI_RD] CPU <- IRAM  Addr=00000154 Data=01dc64b3 RRESP=00
# UVM_INFO C:/Documents/DoAnThietKeViMach/Project/SoC/VERIFICATION/Monitor/cpu_monitor.sv(234) @ 3375000: uvm_test_top.env.agent.monitor [IF] PC=00000154  INSTR=01dc64b3  [OR   x9, x24, x29]            
# UVM_INFO C:/Documents/DoAnThietKeViMach/Project/SoC/VERIFICATION/Monitor/cpu_monitor.sv(296) @ 3375000: uvm_test_top.env.agent.monitor [WB] x11 <= fffff808  (PC~00000154)
# UVM_INFO C:/Documents/DoAnThietKeViMach/Project/SoC/VERIFICATION/Monitor/cpu_monitor.sv(268) @ 3385000: uvm_test_top.env.agent.monitor [MEM] STORE Addr=100006b4 Data=fffffa7d
# UVM_INFO C:/Documents/DoAnThietKeViMach/Project/SoC/VERIFICATION/Monitor/cpu_monitor.sv(268) @ 3395000: uvm_test_top.env.agent.monitor [MEM] STORE Addr=100006b4 Data=fffffa7d
# [DRAM WRITE] addr=100006b4 data=fffffa7d
# UVM_INFO C:/Documents/DoAnThietKeViMach/Project/SoC/VERIFICATION/Monitor/cpu_monitor.sv(268) @ 3405000: uvm_test_top.env.agent.monitor [MEM] STORE Addr=100006b4 Data=fffffa7d
# UVM_INFO C:/Documents/DoAnThietKeViMach/Project/SoC/VERIFICATION/Monitor/cpu_monitor.sv(335) @ 3415000: uvm_test_top.env.agent.monitor [AXI_WR] CPU -> DRAM  Addr=100006b4 Data=fffffa7d Strb=1111 BRESP=00
# UVM_INFO C:/Documents/DoAnThietKeViMach/Project/SoC/VERIFICATION/Monitor/cpu_monitor.sv(268) @ 3415000: uvm_test_top.env.agent.monitor [MEM] STORE Addr=100006b4 Data=fffffa7d
# UVM_INFO C:/Documents/DoAnThietKeViMach/Project/SoC/VERIFICATION/Monitor/cpu_monitor.sv(296) @ 3415000: uvm_test_top.env.agent.monitor [WB] x24 <= 0000027b  (PC~00000154)
# UVM_INFO C:/Documents/DoAnThietKeViMach/Project/SoC/VERIFICATION/Monitor/cpu_monitor.sv(268) @ 3425000: uvm_test_top.env.agent.monitor [MEM] STORE Addr=100006b4 Data=fffffa7d
# UVM_INFO C:/Documents/DoAnThietKeViMach/Project/SoC/VERIFICATION/Monitor/cpu_monitor.sv(296) @ 3425000: uvm_test_top.env.agent.monitor [WB] x24 <= 0000027b  (PC~00000154)
# UVM_INFO C:/Documents/DoAnThietKeViMach/Project/SoC/VERIFICATION/Monitor/cpu_monitor.sv(268) @ 3435000: uvm_test_top.env.agent.monitor [MEM] STORE Addr=100006b4 Data=fffffa7d
# UVM_INFO C:/Documents/DoAnThietKeViMach/Project/SoC/VERIFICATION/Monitor/cpu_monitor.sv(296) @ 3435000: uvm_test_top.env.agent.monitor [WB] x24 <= 0000027b  (PC~00000154)
# UVM_INFO C:/Documents/DoAnThietKeViMach/Project/SoC/VERIFICATION/Monitor/cpu_monitor.sv(268) @ 3445000: uvm_test_top.env.agent.monitor [MEM] STORE Addr=100006b4 Data=fffffa7d
# UVM_INFO C:/Documents/DoAnThietKeViMach/Project/SoC/VERIFICATION/Monitor/cpu_monitor.sv(296) @ 3445000: uvm_test_top.env.agent.monitor [WB] x24 <= 0000027b  (PC~00000154)
# UVM_INFO C:/Documents/DoAnThietKeViMach/Project/SoC/VERIFICATION/Monitor/cpu_monitor.sv(364) @ 3455000: uvm_test_top.env.agent.monitor [AXI_RD] CPU <- IRAM  Addr=00000158 Data=1660a023 RRESP=00
# UVM_INFO C:/Documents/DoAnThietKeViMach/Project/SoC/VERIFICATION/Monitor/cpu_monitor.sv(234) @ 3455000: uvm_test_top.env.agent.monitor [IF] PC=00000158  INSTR=1660a023  [SW   x6, 358(x1)]            
# UVM_INFO C:/Documents/DoAnThietKeViMach/Project/SoC/VERIFICATION/Monitor/cpu_monitor.sv(268) @ 3455000: uvm_test_top.env.agent.monitor [MEM] STORE Addr=100006b4 Data=fffffa7d
# UVM_INFO C:/Documents/DoAnThietKeViMach/Project/SoC/VERIFICATION/Monitor/cpu_monitor.sv(296) @ 3455000: uvm_test_top.env.agent.monitor [WB] x24 <= 0000027b  (PC~00000158)
# UVM_INFO C:/Documents/DoAnThietKeViMach/Project/SoC/VERIFICATION/Monitor/cpu_monitor.sv(268) @ 3465000: uvm_test_top.env.agent.monitor [MEM] STORE Addr=100004f8 Data=00000000
# UVM_INFO C:/Documents/DoAnThietKeViMach/Project/SoC/VERIFICATION/Monitor/cpu_monitor.sv(268) @ 3475000: uvm_test_top.env.agent.monitor [MEM] STORE Addr=100004f8 Data=00000000
# [DRAM WRITE] addr=100004f8 data=00000000
# UVM_INFO C:/Documents/DoAnThietKeViMach/Project/SoC/VERIFICATION/Monitor/cpu_monitor.sv(268) @ 3485000: uvm_test_top.env.agent.monitor [MEM] STORE Addr=100004f8 Data=00000000
# UVM_INFO C:/Documents/DoAnThietKeViMach/Project/SoC/VERIFICATION/Monitor/cpu_monitor.sv(335) @ 3495000: uvm_test_top.env.agent.monitor [AXI_WR] CPU -> DRAM  Addr=100004f8 Data=00000000 Strb=1111 BRESP=00
# UVM_INFO C:/Documents/DoAnThietKeViMach/Project/SoC/VERIFICATION/Monitor/cpu_monitor.sv(268) @ 3495000: uvm_test_top.env.agent.monitor [MEM] STORE Addr=100004f8 Data=00000000
# UVM_INFO C:/Documents/DoAnThietKeViMach/Project/SoC/VERIFICATION/Monitor/cpu_monitor.sv(268) @ 3505000: uvm_test_top.env.agent.monitor [MEM] STORE Addr=100004f8 Data=00000000
# UVM_INFO C:/Documents/DoAnThietKeViMach/Project/SoC/VERIFICATION/Monitor/cpu_monitor.sv(268) @ 3515000: uvm_test_top.env.agent.monitor [MEM] STORE Addr=100004f8 Data=00000000
# UVM_INFO C:/Documents/DoAnThietKeViMach/Project/SoC/VERIFICATION/Monitor/cpu_monitor.sv(268) @ 3525000: uvm_test_top.env.agent.monitor [MEM] STORE Addr=100004f8 Data=00000000
# UVM_INFO C:/Documents/DoAnThietKeViMach/Project/SoC/VERIFICATION/Monitor/cpu_monitor.sv(364) @ 3535000: uvm_test_top.env.agent.monitor [AXI_RD] CPU <- IRAM  Addr=0000015c Data=26e0ac23 RRESP=00
# UVM_INFO C:/Documents/DoAnThietKeViMach/Project/SoC/VERIFICATION/Monitor/cpu_monitor.sv(234) @ 3535000: uvm_test_top.env.agent.monitor [IF] PC=0000015c  INSTR=26e0ac23  [SW   x14, 622(x1)]            
# UVM_INFO C:/Documents/DoAnThietKeViMach/Project/SoC/VERIFICATION/Monitor/cpu_monitor.sv(268) @ 3535000: uvm_test_top.env.agent.monitor [MEM] STORE Addr=100004f8 Data=00000000
# UVM_INFO C:/Documents/DoAnThietKeViMach/Project/SoC/VERIFICATION/Monitor/cpu_monitor.sv(364) @ 3575000: uvm_test_top.env.agent.monitor [AXI_RD] CPU <- IRAM  Addr=00000160 Data=b811e293 RRESP=00
# UVM_INFO C:/Documents/DoAnThietKeViMach/Project/SoC/VERIFICATION/Monitor/cpu_monitor.sv(234) @ 3575000: uvm_test_top.env.agent.monitor [IF] PC=00000160  INSTR=b811e293  [ORI  x5, x3, -1151]            
# UVM_INFO C:/Documents/DoAnThietKeViMach/Project/SoC/VERIFICATION/Monitor/cpu_monitor.sv(268) @ 3585000: uvm_test_top.env.agent.monitor [MEM] STORE Addr=10000160 Data=000000e4
# UVM_INFO C:/Documents/DoAnThietKeViMach/Project/SoC/VERIFICATION/Monitor/cpu_monitor.sv(268) @ 3595000: uvm_test_top.env.agent.monitor [MEM] STORE Addr=10000160 Data=000000e4
# [DRAM WRITE] addr=10000160 data=000000e4
# UVM_INFO C:/Documents/DoAnThietKeViMach/Project/SoC/VERIFICATION/Monitor/cpu_monitor.sv(268) @ 3605000: uvm_test_top.env.agent.monitor [MEM] STORE Addr=10000160 Data=000000e4
# UVM_INFO C:/Documents/DoAnThietKeViMach/Project/SoC/VERIFICATION/Monitor/cpu_monitor.sv(335) @ 3615000: uvm_test_top.env.agent.monitor [AXI_WR] CPU -> DRAM  Addr=10000160 Data=000000e4 Strb=1111 BRESP=00
# UVM_INFO C:/Documents/DoAnThietKeViMach/Project/SoC/VERIFICATION/Monitor/cpu_monitor.sv(268) @ 3615000: uvm_test_top.env.agent.monitor [MEM] STORE Addr=10000160 Data=000000e4
# UVM_INFO C:/Documents/DoAnThietKeViMach/Project/SoC/VERIFICATION/Monitor/cpu_monitor.sv(296) @ 3615000: uvm_test_top.env.agent.monitor [WB] x09 <= 0000037f  (PC~00000160)
# UVM_INFO C:/Documents/DoAnThietKeViMach/Project/SoC/VERIFICATION/Monitor/cpu_monitor.sv(268) @ 3625000: uvm_test_top.env.agent.monitor [MEM] STORE Addr=10000160 Data=000000e4
# UVM_INFO C:/Documents/DoAnThietKeViMach/Project/SoC/VERIFICATION/Monitor/cpu_monitor.sv(296) @ 3625000: uvm_test_top.env.agent.monitor [WB] x09 <= 0000037f  (PC~00000160)
# UVM_INFO C:/Documents/DoAnThietKeViMach/Project/SoC/VERIFICATION/Monitor/cpu_monitor.sv(268) @ 3635000: uvm_test_top.env.agent.monitor [MEM] STORE Addr=10000160 Data=000000e4
# UVM_INFO C:/Documents/DoAnThietKeViMach/Project/SoC/VERIFICATION/Monitor/cpu_monitor.sv(296) @ 3635000: uvm_test_top.env.agent.monitor [WB] x09 <= 0000037f  (PC~00000160)
# UVM_INFO C:/Documents/DoAnThietKeViMach/Project/SoC/VERIFICATION/Monitor/cpu_monitor.sv(268) @ 3645000: uvm_test_top.env.agent.monitor [MEM] STORE Addr=10000160 Data=000000e4
# UVM_INFO C:/Documents/DoAnThietKeViMach/Project/SoC/VERIFICATION/Monitor/cpu_monitor.sv(296) @ 3645000: uvm_test_top.env.agent.monitor [WB] x09 <= 0000037f  (PC~00000160)
# UVM_INFO C:/Documents/DoAnThietKeViMach/Project/SoC/VERIFICATION/Monitor/cpu_monitor.sv(364) @ 3655000: uvm_test_top.env.agent.monitor [AXI_RD] CPU <- IRAM  Addr=00000164 Data=767d4c93 RRESP=00
# UVM_INFO C:/Documents/DoAnThietKeViMach/Project/SoC/VERIFICATION/Monitor/cpu_monitor.sv(234) @ 3655000: uvm_test_top.env.agent.monitor [IF] PC=00000164  INSTR=767d4c93  [XORI x25, x26, 1895]            
# UVM_INFO C:/Documents/DoAnThietKeViMach/Project/SoC/VERIFICATION/Monitor/cpu_monitor.sv(268) @ 3655000: uvm_test_top.env.agent.monitor [MEM] STORE Addr=10000160 Data=000000e4
# UVM_INFO C:/Documents/DoAnThietKeViMach/Project/SoC/VERIFICATION/Monitor/cpu_monitor.sv(296) @ 3655000: uvm_test_top.env.agent.monitor [WB] x09 <= 0000037f  (PC~00000164)
# UVM_INFO C:/Documents/DoAnThietKeViMach/Project/SoC/VERIFICATION/Monitor/cpu_monitor.sv(268) @ 3665000: uvm_test_top.env.agent.monitor [MEM] STORE Addr=10000278 Data=00000000
# UVM_INFO C:/Documents/DoAnThietKeViMach/Project/SoC/VERIFICATION/Monitor/cpu_monitor.sv(268) @ 3675000: uvm_test_top.env.agent.monitor [MEM] STORE Addr=10000278 Data=00000000
# [DRAM WRITE] addr=10000278 data=00000000
# UVM_INFO C:/Documents/DoAnThietKeViMach/Project/SoC/VERIFICATION/Monitor/cpu_monitor.sv(268) @ 3685000: uvm_test_top.env.agent.monitor [MEM] STORE Addr=10000278 Data=00000000
# UVM_INFO C:/Documents/DoAnThietKeViMach/Project/SoC/VERIFICATION/Monitor/cpu_monitor.sv(335) @ 3695000: uvm_test_top.env.agent.monitor [AXI_WR] CPU -> DRAM  Addr=10000278 Data=00000000 Strb=1111 BRESP=00
# UVM_INFO C:/Documents/DoAnThietKeViMach/Project/SoC/VERIFICATION/Monitor/cpu_monitor.sv(268) @ 3695000: uvm_test_top.env.agent.monitor [MEM] STORE Addr=10000278 Data=00000000
# UVM_INFO C:/Documents/DoAnThietKeViMach/Project/SoC/VERIFICATION/Monitor/cpu_monitor.sv(268) @ 3705000: uvm_test_top.env.agent.monitor [MEM] STORE Addr=10000278 Data=00000000
# UVM_INFO C:/Documents/DoAnThietKeViMach/Project/SoC/VERIFICATION/Monitor/cpu_monitor.sv(268) @ 3715000: uvm_test_top.env.agent.monitor [MEM] STORE Addr=10000278 Data=00000000
# UVM_INFO C:/Documents/DoAnThietKeViMach/Project/SoC/VERIFICATION/Monitor/cpu_monitor.sv(268) @ 3725000: uvm_test_top.env.agent.monitor [MEM] STORE Addr=10000278 Data=00000000
# UVM_INFO C:/Documents/DoAnThietKeViMach/Project/SoC/VERIFICATION/Monitor/cpu_monitor.sv(364) @ 3735000: uvm_test_top.env.agent.monitor [AXI_RD] CPU <- IRAM  Addr=00000168 Data=d9684613 RRESP=00
# UVM_INFO C:/Documents/DoAnThietKeViMach/Project/SoC/VERIFICATION/Monitor/cpu_monitor.sv(234) @ 3735000: uvm_test_top.env.agent.monitor [IF] PC=00000168  INSTR=d9684613  [XORI x12, x16, -618]            
# UVM_INFO C:/Documents/DoAnThietKeViMach/Project/SoC/VERIFICATION/Monitor/cpu_monitor.sv(268) @ 3735000: uvm_test_top.env.agent.monitor [MEM] STORE Addr=10000278 Data=00000000
# UVM_INFO C:/Documents/DoAnThietKeViMach/Project/SoC/VERIFICATION/Monitor/cpu_monitor.sv(364) @ 3775000: uvm_test_top.env.agent.monitor [AXI_RD] CPU <- IRAM  Addr=0000016c Data=06b0aa23 RRESP=00
# UVM_INFO C:/Documents/DoAnThietKeViMach/Project/SoC/VERIFICATION/Monitor/cpu_monitor.sv(234) @ 3775000: uvm_test_top.env.agent.monitor [IF] PC=0000016c  INSTR=06b0aa23  [SW   x11, 107(x1)]            
# UVM_INFO C:/Documents/DoAnThietKeViMach/Project/SoC/VERIFICATION/Monitor/cpu_monitor.sv(296) @ 3785000: uvm_test_top.env.agent.monitor [WB] x05 <= fffffb81  (PC~0000016c)
# UVM_INFO C:/Documents/DoAnThietKeViMach/Project/SoC/VERIFICATION/Monitor/cpu_monitor.sv(296) @ 3795000: uvm_test_top.env.agent.monitor [WB] x05 <= fffffb81  (PC~0000016c)
# UVM_INFO C:/Documents/DoAnThietKeViMach/Project/SoC/VERIFICATION/Monitor/cpu_monitor.sv(296) @ 3805000: uvm_test_top.env.agent.monitor [WB] x05 <= fffffb81  (PC~0000016c)
# UVM_INFO C:/Documents/DoAnThietKeViMach/Project/SoC/VERIFICATION/Monitor/cpu_monitor.sv(364) @ 3815000: uvm_test_top.env.agent.monitor [AXI_RD] CPU <- IRAM  Addr=00000170 Data=1b00a223 RRESP=00
# UVM_INFO C:/Documents/DoAnThietKeViMach/Project/SoC/VERIFICATION/Monitor/cpu_monitor.sv(234) @ 3815000: uvm_test_top.env.agent.monitor [IF] PC=00000170  INSTR=1b00a223  [SW   x16, 432(x1)]            
# UVM_INFO C:/Documents/DoAnThietKeViMach/Project/SoC/VERIFICATION/Monitor/cpu_monitor.sv(296) @ 3815000: uvm_test_top.env.agent.monitor [WB] x05 <= fffffb81  (PC~00000170)
# UVM_INFO C:/Documents/DoAnThietKeViMach/Project/SoC/VERIFICATION/Monitor/cpu_monitor.sv(296) @ 3825000: uvm_test_top.env.agent.monitor [WB] x25 <= 00000767  (PC~00000170)
# UVM_INFO C:/Documents/DoAnThietKeViMach/Project/SoC/VERIFICATION/Monitor/cpu_monitor.sv(296) @ 3835000: uvm_test_top.env.agent.monitor [WB] x25 <= 00000767  (PC~00000170)
# UVM_INFO C:/Documents/DoAnThietKeViMach/Project/SoC/VERIFICATION/Monitor/cpu_monitor.sv(296) @ 3845000: uvm_test_top.env.agent.monitor [WB] x25 <= 00000767  (PC~00000170)
# UVM_INFO C:/Documents/DoAnThietKeViMach/Project/SoC/VERIFICATION/Monitor/cpu_monitor.sv(364) @ 3855000: uvm_test_top.env.agent.monitor [AXI_RD] CPU <- IRAM  Addr=00000174 Data=009381b3 RRESP=00
# UVM_INFO C:/Documents/DoAnThietKeViMach/Project/SoC/VERIFICATION/Monitor/cpu_monitor.sv(234) @ 3855000: uvm_test_top.env.agent.monitor [IF] PC=00000174  INSTR=009381b3  [ADD  x3, x7, x9]            
# UVM_INFO C:/Documents/DoAnThietKeViMach/Project/SoC/VERIFICATION/Monitor/cpu_monitor.sv(296) @ 3855000: uvm_test_top.env.agent.monitor [WB] x25 <= 00000767  (PC~00000174)
# UVM_INFO C:/Documents/DoAnThietKeViMach/Project/SoC/VERIFICATION/Monitor/cpu_monitor.sv(268) @ 3865000: uvm_test_top.env.agent.monitor [MEM] STORE Addr=10000074 Data=fffff808
# UVM_INFO C:/Documents/DoAnThietKeViMach/Project/SoC/VERIFICATION/Monitor/cpu_monitor.sv(268) @ 3875000: uvm_test_top.env.agent.monitor [MEM] STORE Addr=10000074 Data=fffff808
# [DRAM WRITE] addr=10000074 data=fffff808
# UVM_INFO C:/Documents/DoAnThietKeViMach/Project/SoC/VERIFICATION/Monitor/cpu_monitor.sv(268) @ 3885000: uvm_test_top.env.agent.monitor [MEM] STORE Addr=10000074 Data=fffff808
# UVM_INFO C:/Documents/DoAnThietKeViMach/Project/SoC/VERIFICATION/Monitor/cpu_monitor.sv(335) @ 3895000: uvm_test_top.env.agent.monitor [AXI_WR] CPU -> DRAM  Addr=10000074 Data=fffff808 Strb=1111 BRESP=00
# UVM_INFO C:/Documents/DoAnThietKeViMach/Project/SoC/VERIFICATION/Monitor/cpu_monitor.sv(268) @ 3895000: uvm_test_top.env.agent.monitor [MEM] STORE Addr=10000074 Data=fffff808
# UVM_INFO C:/Documents/DoAnThietKeViMach/Project/SoC/VERIFICATION/Monitor/cpu_monitor.sv(296) @ 3895000: uvm_test_top.env.agent.monitor [WB] x12 <= fffffd96  (PC~00000174)
# UVM_INFO C:/Documents/DoAnThietKeViMach/Project/SoC/VERIFICATION/Monitor/cpu_monitor.sv(268) @ 3905000: uvm_test_top.env.agent.monitor [MEM] STORE Addr=10000074 Data=fffff808
# UVM_INFO C:/Documents/DoAnThietKeViMach/Project/SoC/VERIFICATION/Monitor/cpu_monitor.sv(296) @ 3905000: uvm_test_top.env.agent.monitor [WB] x12 <= fffffd96  (PC~00000174)
# UVM_INFO C:/Documents/DoAnThietKeViMach/Project/SoC/VERIFICATION/Monitor/cpu_monitor.sv(268) @ 3915000: uvm_test_top.env.agent.monitor [MEM] STORE Addr=10000074 Data=fffff808
# UVM_INFO C:/Documents/DoAnThietKeViMach/Project/SoC/VERIFICATION/Monitor/cpu_monitor.sv(296) @ 3915000: uvm_test_top.env.agent.monitor [WB] x12 <= fffffd96  (PC~00000174)
# UVM_INFO C:/Documents/DoAnThietKeViMach/Project/SoC/VERIFICATION/Monitor/cpu_monitor.sv(268) @ 3925000: uvm_test_top.env.agent.monitor [MEM] STORE Addr=10000074 Data=fffff808
# UVM_INFO C:/Documents/DoAnThietKeViMach/Project/SoC/VERIFICATION/Monitor/cpu_monitor.sv(296) @ 3925000: uvm_test_top.env.agent.monitor [WB] x12 <= fffffd96  (PC~00000174)
# UVM_INFO C:/Documents/DoAnThietKeViMach/Project/SoC/VERIFICATION/Monitor/cpu_monitor.sv(364) @ 3935000: uvm_test_top.env.agent.monitor [AXI_RD] CPU <- IRAM  Addr=00000178 Data=31ac0793 RRESP=00
# UVM_INFO C:/Documents/DoAnThietKeViMach/Project/SoC/VERIFICATION/Monitor/cpu_monitor.sv(234) @ 3935000: uvm_test_top.env.agent.monitor [IF] PC=00000178  INSTR=31ac0793  [ADDI x15, x24, 794]            
# UVM_INFO C:/Documents/DoAnThietKeViMach/Project/SoC/VERIFICATION/Monitor/cpu_monitor.sv(268) @ 3935000: uvm_test_top.env.agent.monitor [MEM] STORE Addr=10000074 Data=fffff808
# UVM_INFO C:/Documents/DoAnThietKeViMach/Project/SoC/VERIFICATION/Monitor/cpu_monitor.sv(296) @ 3935000: uvm_test_top.env.agent.monitor [WB] x12 <= fffffd96  (PC~00000178)
# UVM_INFO C:/Documents/DoAnThietKeViMach/Project/SoC/VERIFICATION/Monitor/cpu_monitor.sv(268) @ 3945000: uvm_test_top.env.agent.monitor [MEM] STORE Addr=100001a4 Data=00000000
# UVM_INFO C:/Documents/DoAnThietKeViMach/Project/SoC/VERIFICATION/Monitor/cpu_monitor.sv(268) @ 3955000: uvm_test_top.env.agent.monitor [MEM] STORE Addr=100001a4 Data=00000000
# [DRAM WRITE] addr=100001a4 data=00000000
# UVM_INFO C:/Documents/DoAnThietKeViMach/Project/SoC/VERIFICATION/Monitor/cpu_monitor.sv(268) @ 3965000: uvm_test_top.env.agent.monitor [MEM] STORE Addr=100001a4 Data=00000000
# UVM_INFO C:/Documents/DoAnThietKeViMach/Project/SoC/VERIFICATION/Monitor/cpu_monitor.sv(335) @ 3975000: uvm_test_top.env.agent.monitor [AXI_WR] CPU -> DRAM  Addr=100001a4 Data=00000000 Strb=1111 BRESP=00
# UVM_INFO C:/Documents/DoAnThietKeViMach/Project/SoC/VERIFICATION/Monitor/cpu_monitor.sv(268) @ 3975000: uvm_test_top.env.agent.monitor [MEM] STORE Addr=100001a4 Data=00000000
# UVM_INFO C:/Documents/DoAnThietKeViMach/Project/SoC/VERIFICATION/Monitor/cpu_monitor.sv(268) @ 3985000: uvm_test_top.env.agent.monitor [MEM] STORE Addr=100001a4 Data=00000000
# UVM_INFO C:/Documents/DoAnThietKeViMach/Project/SoC/VERIFICATION/Monitor/cpu_monitor.sv(268) @ 3995000: uvm_test_top.env.agent.monitor [MEM] STORE Addr=100001a4 Data=00000000
# UVM_INFO C:/Documents/DoAnThietKeViMach/Project/SoC/VERIFICATION/Monitor/cpu_monitor.sv(268) @ 4005000: uvm_test_top.env.agent.monitor [MEM] STORE Addr=100001a4 Data=00000000
# UVM_INFO C:/Documents/DoAnThietKeViMach/Project/SoC/VERIFICATION/Monitor/cpu_monitor.sv(364) @ 4015000: uvm_test_top.env.agent.monitor [AXI_RD] CPU <- IRAM  Addr=0000017c Data=e5526113 RRESP=00
# UVM_INFO C:/Documents/DoAnThietKeViMach/Project/SoC/VERIFICATION/Monitor/cpu_monitor.sv(234) @ 4015000: uvm_test_top.env.agent.monitor [IF] PC=0000017c  INSTR=e5526113  [ORI  x2, x4, -427]            
# UVM_INFO C:/Documents/DoAnThietKeViMach/Project/SoC/VERIFICATION/Monitor/cpu_monitor.sv(268) @ 4015000: uvm_test_top.env.agent.monitor [MEM] STORE Addr=100001a4 Data=00000000
# UVM_INFO C:/Documents/DoAnThietKeViMach/Project/SoC/VERIFICATION/Monitor/cpu_monitor.sv(364) @ 4055000: uvm_test_top.env.agent.monitor [AXI_RD] CPU <- IRAM  Addr=00000180 Data=52914613 RRESP=00
# UVM_INFO C:/Documents/DoAnThietKeViMach/Project/SoC/VERIFICATION/Monitor/cpu_monitor.sv(234) @ 4055000: uvm_test_top.env.agent.monitor [IF] PC=00000180  INSTR=52914613  [XORI x12, x2, 1321]            
# UVM_INFO C:/Documents/DoAnThietKeViMach/Project/SoC/VERIFICATION/Monitor/cpu_monitor.sv(296) @ 4065000: uvm_test_top.env.agent.monitor [WB] x03 <= 0000037f  (PC~00000180)
# UVM_INFO C:/Documents/DoAnThietKeViMach/Project/SoC/VERIFICATION/Monitor/cpu_monitor.sv(296) @ 4075000: uvm_test_top.env.agent.monitor [WB] x03 <= 0000037f  (PC~00000180)
# UVM_INFO C:/Documents/DoAnThietKeViMach/Project/SoC/VERIFICATION/Monitor/cpu_monitor.sv(296) @ 4085000: uvm_test_top.env.agent.monitor [WB] x03 <= 0000037f  (PC~00000180)
# UVM_INFO C:/Documents/DoAnThietKeViMach/Project/SoC/VERIFICATION/Monitor/cpu_monitor.sv(364) @ 4095000: uvm_test_top.env.agent.monitor [AXI_RD] CPU <- IRAM  Addr=00000184 Data=3780a283 RRESP=00
# UVM_INFO C:/Documents/DoAnThietKeViMach/Project/SoC/VERIFICATION/Monitor/cpu_monitor.sv(234) @ 4095000: uvm_test_top.env.agent.monitor [IF] PC=00000184  INSTR=3780a283  [LW   x5, 888(x1)]            
# UVM_INFO C:/Documents/DoAnThietKeViMach/Project/SoC/VERIFICATION/Monitor/cpu_monitor.sv(296) @ 4095000: uvm_test_top.env.agent.monitor [WB] x03 <= 0000037f  (PC~00000184)
# UVM_INFO C:/Documents/DoAnThietKeViMach/Project/SoC/VERIFICATION/Monitor/cpu_monitor.sv(296) @ 4105000: uvm_test_top.env.agent.monitor [WB] x15 <= 00000595  (PC~00000184)
# UVM_INFO C:/Documents/DoAnThietKeViMach/Project/SoC/VERIFICATION/Monitor/cpu_monitor.sv(296) @ 4115000: uvm_test_top.env.agent.monitor [WB] x15 <= 00000595  (PC~00000184)
# UVM_INFO C:/Documents/DoAnThietKeViMach/Project/SoC/VERIFICATION/Monitor/cpu_monitor.sv(296) @ 4125000: uvm_test_top.env.agent.monitor [WB] x15 <= 00000595  (PC~00000184)
# UVM_INFO C:/Documents/DoAnThietKeViMach/Project/SoC/VERIFICATION/Monitor/cpu_monitor.sv(364) @ 4135000: uvm_test_top.env.agent.monitor [AXI_RD] CPU <- IRAM  Addr=00000188 Data=01af9f33 RRESP=00
# UVM_INFO C:/Documents/DoAnThietKeViMach/Project/SoC/VERIFICATION/Monitor/cpu_monitor.sv(234) @ 4135000: uvm_test_top.env.agent.monitor [IF] PC=00000188  INSTR=01af9f33  [SLL  x30, x31, x26]            
# UVM_INFO C:/Documents/DoAnThietKeViMach/Project/SoC/VERIFICATION/Monitor/cpu_monitor.sv(296) @ 4135000: uvm_test_top.env.agent.monitor [WB] x15 <= 00000595  (PC~00000188)
# UVM_INFO C:/Documents/DoAnThietKeViMach/Project/SoC/VERIFICATION/Monitor/cpu_monitor.sv(296) @ 4145000: uvm_test_top.env.agent.monitor [WB] x02 <= fffffe55  (PC~00000188)
# UVM_INFO C:/Documents/DoAnThietKeViMach/Project/SoC/VERIFICATION/Monitor/cpu_monitor.sv(296) @ 4155000: uvm_test_top.env.agent.monitor [WB] x02 <= fffffe55  (PC~00000188)
# UVM_INFO C:/Documents/DoAnThietKeViMach/Project/SoC/VERIFICATION/Monitor/cpu_monitor.sv(296) @ 4165000: uvm_test_top.env.agent.monitor [WB] x02 <= fffffe55  (PC~00000188)
# UVM_INFO C:/Documents/DoAnThietKeViMach/Project/SoC/VERIFICATION/Monitor/cpu_monitor.sv(364) @ 4175000: uvm_test_top.env.agent.monitor [AXI_RD] CPU <- IRAM  Addr=0000018c Data=41f0a023 RRESP=00
# UVM_INFO C:/Documents/DoAnThietKeViMach/Project/SoC/VERIFICATION/Monitor/cpu_monitor.sv(234) @ 4175000: uvm_test_top.env.agent.monitor [IF] PC=0000018c  INSTR=41f0a023  [SW   x31, 1055(x1)]            
# UVM_INFO C:/Documents/DoAnThietKeViMach/Project/SoC/VERIFICATION/Monitor/cpu_monitor.sv(296) @ 4175000: uvm_test_top.env.agent.monitor [WB] x02 <= fffffe55  (PC~0000018c)
# [DRAM READ] addr=10000378 data=00000000
# UVM_INFO C:/Documents/DoAnThietKeViMach/Project/SoC/VERIFICATION/Monitor/cpu_monitor.sv(364) @ 4215000: uvm_test_top.env.agent.monitor [AXI_RD] CPU <- DRAM  Addr=10000378 Data=00000000 RRESP=00
# UVM_INFO C:/Documents/DoAnThietKeViMach/Project/SoC/VERIFICATION/Monitor/cpu_monitor.sv(296) @ 4215000: uvm_test_top.env.agent.monitor [WB] x12 <= fffffb7c  (PC~0000018c)
# UVM_INFO C:/Documents/DoAnThietKeViMach/Project/SoC/VERIFICATION/Monitor/cpu_monitor.sv(296) @ 4225000: uvm_test_top.env.agent.monitor [WB] x12 <= fffffb7c  (PC~0000018c)
# UVM_INFO C:/Documents/DoAnThietKeViMach/Project/SoC/VERIFICATION/Monitor/cpu_monitor.sv(296) @ 4235000: uvm_test_top.env.agent.monitor [WB] x12 <= fffffb7c  (PC~0000018c)
# UVM_INFO C:/Documents/DoAnThietKeViMach/Project/SoC/VERIFICATION/Monitor/cpu_monitor.sv(296) @ 4245000: uvm_test_top.env.agent.monitor [WB] x12 <= fffffb7c  (PC~0000018c)
# UVM_INFO C:/Documents/DoAnThietKeViMach/Project/SoC/VERIFICATION/Monitor/cpu_monitor.sv(364) @ 4255000: uvm_test_top.env.agent.monitor [AXI_RD] CPU <- IRAM  Addr=00000190 Data=eaa1f913 RRESP=00
