--- [SIM ONLY] cpu_test ---
MODE = CPU_MASTER
Reading pref.tcl

# 2024.1

# vsim -c -L uvm -coverage -sv_seed 1440673505 vopt_top "+UVM_TESTNAME=cpu_test" "+CPU_MASTER" "+MEM_SEED=1440673505" -do "run -all; quit" 
# Start time: 12:42:24 on May 13,2026
# //  Questa Sim-64
# //  Version 2024.1 linux_x86_64 Feb  1 2024
# //
# // Unpublished work. Copyright 2024 Siemens
# //
# // This material contains trade secrets or otherwise confidential information
# // owned by Siemens Industry Software Inc. or its affiliates (collectively,
# // "SISW"), or its licensors. Access to and use of this information is strictly
# // limited as set forth in the Customer's applicable agreements with SISW.
# //
# // This material may not be copied, distributed, or otherwise disclosed outside
# // of the Customer's facilities without the express written permission of SISW,
# // and may not be used in any way not expressly authorized by SISW.
# //
# Loading sv_std.std
# Loading work.clk_rst_inf(fast)
# Loading work.soc_inf(fast)
# Loading work.cpu_monitor_inf(fast)
# Loading mtiUvm.uvm_pkg(fast)
# Loading work.soc_pkg(fast)
# Loading mtiUvm.questa_uvm_pkg(fast)
# Loading work.top_tb(fast)
# Loading work.clk_rst_inf(fast__2)
# Loading work.soc_inf(fast__2)
# Loading work.cpu_monitor_inf(fast__2)
# Loading work.TOP(fast)
# Loading work.AXI_Master(fast)
# Loading work.CPU(fast)
# Loading work.pc_reg(fast)
# Loading work.IF_ID(fast)
# Loading work.ControlUnit(fast)
# Loading work.MainDecoder(fast)
# Loading work.ALUControl(fast)
# Loading work.RegFile(fast)
# Loading work.signExtend(fast)
# Loading work.ID_EX(fast)
# Loading work.ALU(fast)
# Loading work.EX_MEM(fast)
# Loading work.MEM_WB(fast)
# Loading work.HazardUnit(fast)
# Loading work.LSU(fast)
# Loading work.AXI4_Lite_Interconnect(fast)
# Loading work.IRAM(fast)
# Loading work.DRAM(fast)
# Loading work.Timer(fast)
# Loading work.UART(fast)
# Loading work.SPI(fast)
# ** Warning: (vsim-2685) [TFMPC] - Too few port connections for 'cr_if'.  Expected 2, found 0.
#    Time: 0 ps  Iteration: 0  Instance: /top_tb/cr_if File: /home/khang/Documents/SystemVerilog/Soc_RV32I/SoC/VERIFICATION/top_tb.sv Line: 13
# ** Warning: (vsim-3722) /home/khang/Documents/SystemVerilog/Soc_RV32I/SoC/VERIFICATION/top_tb.sv(13): [TFMPC] - Missing connection for port 'clk'.
# ** Warning: (vsim-3722) /home/khang/Documents/SystemVerilog/Soc_RV32I/SoC/VERIFICATION/top_tb.sv(13): [TFMPC] - Missing connection for port 'rstn'.
# Loading /tools/mq/2024.1/questasim/uvm-1.1d/linux_x86_64/uvm_dpi.so
# run -all
# ----------------------------------------------------------------
# UVM-1.1d
# (C) 2007-2013 Mentor Graphics Corporation
# (C) 2007-2013 Cadence Design Systems, Inc.
# (C) 2006-2013 Synopsys, Inc.
# (C) 2011-2013 Cypress Semiconductor Corp.
# ----------------------------------------------------------------
# 
#   ***********       IMPORTANT RELEASE NOTES         ************
# 
#   You are using a version of the UVM library that has been compiled
#   with `UVM_NO_DEPRECATED undefined.
#   See http://www.eda.org/svdb/view.php?id=3313 for more details.
# 
#   You are using a version of the UVM library that has been compiled
#   with `UVM_OBJECT_MUST_HAVE_CONSTRUCTOR undefined.
#   See http://www.eda.org/svdb/view.php?id=3770 for more details.
# 
#       (Specify +UVM_NO_RELNOTES to turn off this notice)
# 
# UVM_INFO verilog_src/questa_uvm_pkg-1.2/src/questa_uvm_pkg.sv(277) @ 0: reporter [Questa UVM] QUESTA_UVM-1.2.3
# UVM_INFO verilog_src/questa_uvm_pkg-1.2/src/questa_uvm_pkg.sv(278) @ 0: reporter [Questa UVM]  questa_uvm::init(+struct)
# [IRAM] Loading file: instr.mem
# [IRAM] mem[0] = 100000b7
# [IRAM] mem[1] = 34c0a303
# [IRAM] mem[2] = 41ec02b3
# [IRAM] mem[3] = 40940f33
# [IRAM] mem[4] = 1080ac23
# [IRAM] mem[5] = 5040a803
# [IRAM] mem[6] = 379ccc93
# [IRAM] mem[7] = 52737793
# [IRAM] mem[8] = 01f97333
# [IRAM] mem[9] = ff6b02e3
# [IRAM] mem[10] = ff1a8ee3
# [IRAM] mem[11] = 4b9cf793
# [IRAM] mem[12] = ff7bc913
# [IRAM] mem[13] = 53e0a823
# [IRAM] mem[14] = 1350ac23
# [IRAM] mem[15] = fedffdef
# [IRAM] mem[16] = 2ae78793
# [IRAM] mem[17] = 017285b3
# [IRAM] mem[18] = 0200036f
# [IRAM] mem[19] = 3140ad03
# [IRAM] mem[20] = 02c0ae03
# [IRAM] mem[21] = 4058deb3
# [IRAM] mem[22] = 7440a703
# [IRAM] mem[23] = 00528263
# [IRAM] mem[24] = 01135db3
# [IRAM] mem[25] = 41dedc33
# [IRAM] mem[26] = 1990a423
# [IRAM] mem[27] = 28a0ae23
# [IRAM] mem[28] = 01e28463
# [IRAM] mem[29] = fe1ffeef
# [IRAM] mem[30] = 00649633
# [IRAM] mem[31] = 7a718f13
# [IRAM] mem[32] = 2760a823
# [IRAM] mem[33] = 019302b3
# [IRAM] mem[34] = 0078f2b3
# [IRAM] mem[35] = 69fc7a93
# [IRAM] mem[36] = 2680a403
# [IRAM] mem[37] = 0190ae23
# [IRAM] mem[38] = 0027d8b3
# [IRAM] mem[39] = 5b40a623
# [IRAM] mem[40] = 3780a383
# [IRAM] mem[41] = 6efc4813
# [IRAM] mem[42] = 01f18433
# [IRAM] mem[43] = 6c72ed93
# [IRAM] mem[44] = 541b4813
# [IRAM] mem[45] = 02f28063
# [IRAM] mem[46] = 013e5933
# [IRAM] mem[47] = 0181f4b3
# [IRAM] mem[48] = 0196deb3
# [IRAM] mem[49] = 0e2c8593
# [IRAM] mem[50] = 00ee12b3
# [IRAM] mem[51] = 41d805b3
# [IRAM] mem[52] = 2e90ae23
# [IRAM] mem[53] = fedff56f
# [IRAM] mem[54] = 0680a803
# [IRAM] mem[55] = 05c0a783
# [IRAM] mem[56] = 3640aa83
# [IRAM] mem[57] = 8fb58593
# [IRAM] mem[58] = 0046e4b3
# [IRAM] mem[59] = 3400a783
# [IRAM] mem[60] = 2d00a823
# [IRAM] mem[61] = 2cef6593
# [IRAM] mem[62] = fddffcef
# [IRAM] mem[63] = 0940ae23
# [IRAM] mem[64] = 406d87b3
# [IRAM] mem[65] = 2e4fe393
# [IRAM] mem[66] = 00769533
# [IRAM] mem[67] = 143b4113
# [IRAM] mem[68] = 6abef413
# [IRAM] mem[69] = 72b68793
# [IRAM] mem[70] = ad1fe113
# [IRAM] mem[71] = 00b91eb3
# [IRAM] mem[72] = 54194e13
# [IRAM] mem[73] = 406107b3
# [IRAM] mem[74] = 4025d8b3
# [IRAM] mem[75] = 7ac0a603
# [IRAM] mem[76] = 32928d13
# [IRAM] mem[77] = 4fb60993
# [IRAM] mem[78] = 01319d33
# [IRAM] mem[79] = 1740a023
# [IRAM] mem[80] = 07f3ec13
# [IRAM] mem[81] = 00b6f8b3
# [IRAM] mem[82] = 5f80a803
# [IRAM] mem[83] = 3d10a823
# [IRAM] mem[84] = 0480a803
# [IRAM] mem[85] = 70df8513
# [IRAM] mem[86] = 3680aa03
# [IRAM] mem[87] = 014106b3
# [IRAM] mem[88] = cc9f0d13
# [IRAM] mem[89] = d16c7f13
# [IRAM] mem[90] = 0500ac83
# [IRAM] mem[91] = 002c8633
# [IRAM] mem[92] = 67c0ae03
# [IRAM] mem[93] = 003deeb3
# [IRAM] mem[94] = 80e9c693
# [IRAM] mem[95] = 4920a823
# [IRAM] mem[96] = 7278f913
# [IRAM] mem[97] = 005bdeb3
# [IRAM] mem[98] = 2cc2cc93
# [IRAM] mem[99] = 4930a223
# [IRAM] mem[100] = 2880ad83
# [TB] Mode: CPU MASTER — CPU drives AXI, UVM observes
# UVM_INFO @ 0: reporter [RNTST] Running test cpu_test...
# UVM_INFO /home/khang/Documents/SystemVerilog/Soc_RV32I/SoC/VERIFICATION/Scoreboard/cpu_scoreboard.sv(97) @ 0: uvm_test_top.env.scoreboard [SCB] Loaded expected registers from: expected.mem
# UVM_INFO /home/khang/Documents/SystemVerilog/Soc_RV32I/SoC/VERIFICATION/Test/cpu_test.sv(54) @ 0: uvm_test_top [TEST] Program has 101 instructions, end PC = 00000194
# UVM_INFO /home/khang/Documents/SystemVerilog/Soc_RV32I/SoC/VERIFICATION/Monitor/cpu_monitor.sv(186) @ 35000: uvm_test_top.env.agent.monitor [CPU_MON] === CPU Monitor started — watching pipeline ===
# UVM_INFO /home/khang/Documents/SystemVerilog/Soc_RV32I/SoC/VERIFICATION/Monitor/cpu_monitor.sv(187) @ 35000: uvm_test_top.env.agent.monitor [CPU_MON] ─────────────────────────────────────────────────────────
# UVM_INFO /home/khang/Documents/SystemVerilog/Soc_RV32I/SoC/VERIFICATION/Test/cpu_test.sv(62) @ 55000: uvm_test_top [TEST] Reset released — CPU executing from IRAM
# UVM_INFO /home/khang/Documents/SystemVerilog/Soc_RV32I/SoC/VERIFICATION/Monitor/cpu_monitor.sv(342) @ 55000: uvm_test_top.env.agent.monitor [AXI_RD] CPU←DRAM  Addr=00000000 Data=100000b7 RRESP=00
# UVM_INFO /home/khang/Documents/SystemVerilog/Soc_RV32I/SoC/VERIFICATION/Monitor/cpu_monitor.sv(209) @ 95000: uvm_test_top.env.agent.monitor [IF] PC=00000004  INSTR=100000b7  [LUI  x1, 0x10000]            
# UVM_INFO /home/khang/Documents/SystemVerilog/Soc_RV32I/SoC/VERIFICATION/Monitor/cpu_monitor.sv(342) @ 95000: uvm_test_top.env.agent.monitor [AXI_RD] CPU←DRAM  Addr=00000004 Data=34c0a303 RRESP=00
# UVM_INFO /home/khang/Documents/SystemVerilog/Soc_RV32I/SoC/VERIFICATION/Monitor/cpu_monitor.sv(209) @ 135000: uvm_test_top.env.agent.monitor [IF] PC=00000008  INSTR=34c0a303  [LW   x6, 844(x1)]            
# UVM_INFO /home/khang/Documents/SystemVerilog/Soc_RV32I/SoC/VERIFICATION/Monitor/cpu_monitor.sv(342) @ 135000: uvm_test_top.env.agent.monitor [AXI_RD] CPU←DRAM  Addr=00000008 Data=41ec02b3 RRESP=00
# UVM_INFO /home/khang/Documents/SystemVerilog/Soc_RV32I/SoC/VERIFICATION/Monitor/cpu_monitor.sv(209) @ 175000: uvm_test_top.env.agent.monitor [IF] PC=0000000c  INSTR=41ec02b3  [SUB  x5, x24, x30]            
# UVM_INFO /home/khang/Documents/SystemVerilog/Soc_RV32I/SoC/VERIFICATION/Monitor/cpu_monitor.sv(342) @ 175000: uvm_test_top.env.agent.monitor [AXI_RD] CPU←DRAM  Addr=0000000c Data=40940f33 RRESP=00
# UVM_INFO /home/khang/Documents/SystemVerilog/Soc_RV32I/SoC/VERIFICATION/Monitor/cpu_monitor.sv(209) @ 215000: uvm_test_top.env.agent.monitor [IF] PC=00000010  INSTR=40940f33  [SUB  x30, x8, x9]            
# UVM_INFO /home/khang/Documents/SystemVerilog/Soc_RV32I/SoC/VERIFICATION/Monitor/cpu_monitor.sv(342) @ 215000: uvm_test_top.env.agent.monitor [AXI_RD] CPU←DRAM  Addr=00000010 Data=1080ac23 RRESP=00
# [DRAM READ] addr=1000034c data=00000000
# UVM_INFO /home/khang/Documents/SystemVerilog/Soc_RV32I/SoC/VERIFICATION/Monitor/cpu_monitor.sv(209) @ 255000: uvm_test_top.env.agent.monitor [IF] PC=00000014  INSTR=1080ac23  [SW   x8, 264(x1)]            
# UVM_INFO /home/khang/Documents/SystemVerilog/Soc_RV32I/SoC/VERIFICATION/Monitor/cpu_monitor.sv(274) @ 255000: uvm_test_top.env.agent.monitor [WB] x 1 <= 10000000  (PC~00000014)
# UVM_INFO /home/khang/Documents/SystemVerilog/Soc_RV32I/SoC/VERIFICATION/Monitor/cpu_monitor.sv(342) @ 255000: uvm_test_top.env.agent.monitor [AXI_RD] CPU←DRAM  Addr=1000034c Data=00000000 RRESP=00
# UVM_INFO /home/khang/Documents/SystemVerilog/Soc_RV32I/SoC/VERIFICATION/Monitor/cpu_monitor.sv(274) @ 265000: uvm_test_top.env.agent.monitor [WB] x 6 <= xxxxxxxx  (PC~00000014)
# UVM_INFO /home/khang/Documents/SystemVerilog/Soc_RV32I/SoC/VERIFICATION/Monitor/cpu_monitor.sv(274) @ 275000: uvm_test_top.env.agent.monitor [WB] x 6 <= xxxxxxxx  (PC~00000014)
# UVM_INFO /home/khang/Documents/SystemVerilog/Soc_RV32I/SoC/VERIFICATION/Monitor/cpu_monitor.sv(274) @ 285000: uvm_test_top.env.agent.monitor [WB] x 6 <= xxxxxxxx  (PC~00000014)
# UVM_INFO /home/khang/Documents/SystemVerilog/Soc_RV32I/SoC/VERIFICATION/Monitor/cpu_monitor.sv(209) @ 295000: uvm_test_top.env.agent.monitor [IF] PC=00000018  INSTR=1080ac23  [SW   x8, 264(x1)]            
# UVM_INFO /home/khang/Documents/SystemVerilog/Soc_RV32I/SoC/VERIFICATION/Monitor/cpu_monitor.sv(274) @ 295000: uvm_test_top.env.agent.monitor [WB] x 6 <= xxxxxxxx  (PC~00000018)
# UVM_INFO /home/khang/Documents/SystemVerilog/Soc_RV32I/SoC/VERIFICATION/Monitor/cpu_monitor.sv(342) @ 295000: uvm_test_top.env.agent.monitor [AXI_RD] CPU←DRAM  Addr=00000018 Data=379ccc93 RRESP=00
# UVM_INFO /home/khang/Documents/SystemVerilog/Soc_RV32I/SoC/VERIFICATION/Monitor/cpu_monitor.sv(274) @ 305000: uvm_test_top.env.agent.monitor [WB] x 5 <= 00000000  (PC~00000018)
# UVM_INFO /home/khang/Documents/SystemVerilog/Soc_RV32I/SoC/VERIFICATION/Monitor/cpu_monitor.sv(274) @ 315000: uvm_test_top.env.agent.monitor [WB] x 5 <= 00000000  (PC~00000018)
# UVM_INFO /home/khang/Documents/SystemVerilog/Soc_RV32I/SoC/VERIFICATION/Monitor/cpu_monitor.sv(274) @ 325000: uvm_test_top.env.agent.monitor [WB] x 5 <= 00000000  (PC~00000018)
# UVM_INFO /home/khang/Documents/SystemVerilog/Soc_RV32I/SoC/VERIFICATION/Monitor/cpu_monitor.sv(209) @ 335000: uvm_test_top.env.agent.monitor [IF] PC=0000001c  INSTR=379ccc93  [XORI x25, x25, 889]            
# UVM_INFO /home/khang/Documents/SystemVerilog/Soc_RV32I/SoC/VERIFICATION/Monitor/cpu_monitor.sv(274) @ 335000: uvm_test_top.env.agent.monitor [WB] x 5 <= 00000000  (PC~0000001c)
# UVM_INFO /home/khang/Documents/SystemVerilog/Soc_RV32I/SoC/VERIFICATION/Monitor/cpu_monitor.sv(342) @ 335000: uvm_test_top.env.agent.monitor [AXI_RD] CPU←DRAM  Addr=0000001c Data=52737793 RRESP=00
# UVM_INFO /home/khang/Documents/SystemVerilog/Soc_RV32I/SoC/VERIFICATION/Monitor/cpu_monitor.sv(245) @ 345000: uvm_test_top.env.agent.monitor [MEM] STORE Addr=10000118 Data=00000000
# UVM_INFO /home/khang/Documents/SystemVerilog/Soc_RV32I/SoC/VERIFICATION/Monitor/cpu_monitor.sv(245) @ 355000: uvm_test_top.env.agent.monitor [MEM] STORE Addr=10000118 Data=00000000
# [DRAM WRITE] addr=10000118 data=00000000
# UVM_INFO /home/khang/Documents/SystemVerilog/Soc_RV32I/SoC/VERIFICATION/Monitor/cpu_monitor.sv(245) @ 365000: uvm_test_top.env.agent.monitor [MEM] STORE Addr=10000118 Data=00000000
# UVM_INFO /home/khang/Documents/SystemVerilog/Soc_RV32I/SoC/VERIFICATION/Monitor/cpu_monitor.sv(209) @ 375000: uvm_test_top.env.agent.monitor [IF] PC=00000020  INSTR=52737793  [ANDI x15, x6, 1319]            
# UVM_INFO /home/khang/Documents/SystemVerilog/Soc_RV32I/SoC/VERIFICATION/Monitor/cpu_monitor.sv(245) @ 375000: uvm_test_top.env.agent.monitor [MEM] STORE Addr=10000118 Data=00000000
# UVM_INFO /home/khang/Documents/SystemVerilog/Soc_RV32I/SoC/VERIFICATION/Monitor/cpu_monitor.sv(274) @ 375000: uvm_test_top.env.agent.monitor [WB] x30 <= 00000000  (PC~00000020)
# UVM_INFO /home/khang/Documents/SystemVerilog/Soc_RV32I/SoC/VERIFICATION/Monitor/cpu_monitor.sv(313) @ 375000: uvm_test_top.env.agent.monitor [AXI_WR] CPU→DRAM  Addr=10000118 Data=00000000 Strb=1111 BRESP=00
# UVM_INFO /home/khang/Documents/SystemVerilog/Soc_RV32I/SoC/VERIFICATION/Monitor/cpu_monitor.sv(245) @ 385000: uvm_test_top.env.agent.monitor [MEM] STORE Addr=10000118 Data=00000000
# UVM_INFO /home/khang/Documents/SystemVerilog/Soc_RV32I/SoC/VERIFICATION/Monitor/cpu_monitor.sv(245) @ 395000: uvm_test_top.env.agent.monitor [MEM] STORE Addr=10000118 Data=00000000
# [DRAM WRITE] addr=10000118 data=00000000
# UVM_INFO /home/khang/Documents/SystemVerilog/Soc_RV32I/SoC/VERIFICATION/Monitor/cpu_monitor.sv(245) @ 405000: uvm_test_top.env.agent.monitor [MEM] STORE Addr=10000118 Data=00000000
# UVM_INFO /home/khang/Documents/SystemVerilog/Soc_RV32I/SoC/VERIFICATION/Monitor/cpu_monitor.sv(209) @ 415000: uvm_test_top.env.agent.monitor [IF] PC=00000024  INSTR=52737793  [ANDI x15, x6, 1319]            
# UVM_INFO /home/khang/Documents/SystemVerilog/Soc_RV32I/SoC/VERIFICATION/Monitor/cpu_monitor.sv(245) @ 415000: uvm_test_top.env.agent.monitor [MEM] STORE Addr=10000118 Data=00000000
# UVM_INFO /home/khang/Documents/SystemVerilog/Soc_RV32I/SoC/VERIFICATION/Monitor/cpu_monitor.sv(313) @ 415000: uvm_test_top.env.agent.monitor [AXI_WR] CPU→DRAM  Addr=10000118 Data=00000000 Strb=1111 BRESP=00
# UVM_INFO /home/khang/Documents/SystemVerilog/Soc_RV32I/SoC/VERIFICATION/Monitor/cpu_monitor.sv(209) @ 455000: uvm_test_top.env.agent.monitor [IF] PC=00000028  INSTR=52737793  [ANDI x15, x6, 1319]            
# UVM_INFO /home/khang/Documents/SystemVerilog/Soc_RV32I/SoC/VERIFICATION/Monitor/cpu_monitor.sv(342) @ 455000: uvm_test_top.env.agent.monitor [AXI_RD] CPU←DRAM  Addr=00000028 Data=ff1a8ee3 RRESP=00
# UVM_INFO /home/khang/Documents/SystemVerilog/Soc_RV32I/SoC/VERIFICATION/Monitor/cpu_monitor.sv(274) @ 465000: uvm_test_top.env.agent.monitor [WB] x25 <= 00000379  (PC~00000028)
# UVM_INFO /home/khang/Documents/SystemVerilog/Soc_RV32I/SoC/VERIFICATION/Monitor/cpu_monitor.sv(274) @ 475000: uvm_test_top.env.agent.monitor [WB] x25 <= 00000379  (PC~00000028)
# UVM_INFO /home/khang/Documents/SystemVerilog/Soc_RV32I/SoC/VERIFICATION/Monitor/cpu_monitor.sv(274) @ 485000: uvm_test_top.env.agent.monitor [WB] x25 <= 00000379  (PC~00000028)
# UVM_INFO /home/khang/Documents/SystemVerilog/Soc_RV32I/SoC/VERIFICATION/Monitor/cpu_monitor.sv(209) @ 495000: uvm_test_top.env.agent.monitor [IF] PC=0000002c  INSTR=ff1a8ee3  [BEQ  x21, x17, ...]            
# UVM_INFO /home/khang/Documents/SystemVerilog/Soc_RV32I/SoC/VERIFICATION/Monitor/cpu_monitor.sv(274) @ 495000: uvm_test_top.env.agent.monitor [WB] x25 <= 00000379  (PC~0000002c)
# UVM_INFO /home/khang/Documents/SystemVerilog/Soc_RV32I/SoC/VERIFICATION/Monitor/cpu_monitor.sv(342) @ 495000: uvm_test_top.env.agent.monitor [AXI_RD] CPU←DRAM  Addr=0000002c Data=4b9cf793 RRESP=00
# UVM_INFO /home/khang/Documents/SystemVerilog/Soc_RV32I/SoC/VERIFICATION/Monitor/cpu_monitor.sv(274) @ 505000: uvm_test_top.env.agent.monitor [WB] x15 <= 00000XXX  (PC~0000002c)
# UVM_INFO /home/khang/Documents/SystemVerilog/Soc_RV32I/SoC/VERIFICATION/Monitor/cpu_monitor.sv(274) @ 515000: uvm_test_top.env.agent.monitor [WB] x15 <= 00000XXX  (PC~0000002c)
# UVM_INFO /home/khang/Documents/SystemVerilog/Soc_RV32I/SoC/VERIFICATION/Monitor/cpu_monitor.sv(274) @ 525000: uvm_test_top.env.agent.monitor [WB] x15 <= 00000XXX  (PC~0000002c)
# UVM_INFO /home/khang/Documents/SystemVerilog/Soc_RV32I/SoC/VERIFICATION/Monitor/cpu_monitor.sv(209) @ 535000: uvm_test_top.env.agent.monitor [IF] PC=00000030  INSTR=4b9cf793  [ANDI x15, x25, 1209]            
# UVM_INFO /home/khang/Documents/SystemVerilog/Soc_RV32I/SoC/VERIFICATION/Monitor/cpu_monitor.sv(274) @ 535000: uvm_test_top.env.agent.monitor [WB] x15 <= 00000XXX  (PC~00000030)
# UVM_INFO /home/khang/Documents/SystemVerilog/Soc_RV32I/SoC/VERIFICATION/Monitor/cpu_monitor.sv(342) @ 535000: uvm_test_top.env.agent.monitor [AXI_RD] CPU←DRAM  Addr=00000030 Data=ff7bc913 RRESP=00
# UVM_INFO /home/khang/Documents/SystemVerilog/Soc_RV32I/SoC/VERIFICATION/Monitor/cpu_monitor.sv(274) @ 545000: uvm_test_top.env.agent.monitor [WB] x15 <= 00000XXX  (PC~00000030)
# UVM_INFO /home/khang/Documents/SystemVerilog/Soc_RV32I/SoC/VERIFICATION/Monitor/cpu_monitor.sv(274) @ 555000: uvm_test_top.env.agent.monitor [WB] x15 <= 00000XXX  (PC~00000030)
# UVM_INFO /home/khang/Documents/SystemVerilog/Soc_RV32I/SoC/VERIFICATION/Monitor/cpu_monitor.sv(274) @ 565000: uvm_test_top.env.agent.monitor [WB] x15 <= 00000XXX  (PC~00000030)
# UVM_INFO /home/khang/Documents/SystemVerilog/Soc_RV32I/SoC/VERIFICATION/Monitor/cpu_monitor.sv(209) @ 575000: uvm_test_top.env.agent.monitor [IF] PC=00000034  INSTR=ff7bc913  [XORI x18, x23, -9]            
# UVM_INFO /home/khang/Documents/SystemVerilog/Soc_RV32I/SoC/VERIFICATION/Monitor/cpu_monitor.sv(274) @ 575000: uvm_test_top.env.agent.monitor [WB] x15 <= 00000XXX  (PC~00000034)
# UVM_INFO /home/khang/Documents/SystemVerilog/Soc_RV32I/SoC/VERIFICATION/Monitor/cpu_monitor.sv(342) @ 575000: uvm_test_top.env.agent.monitor [AXI_RD] CPU←DRAM  Addr=00000034 Data=53e0a823 RRESP=00
# UVM_INFO /home/khang/Documents/SystemVerilog/Soc_RV32I/SoC/VERIFICATION/Monitor/cpu_monitor.sv(274) @ 585000: uvm_test_top.env.agent.monitor [WB] x15 <= 00000XXX  (PC~00000034)
# UVM_INFO /home/khang/Documents/SystemVerilog/Soc_RV32I/SoC/VERIFICATION/Monitor/cpu_monitor.sv(274) @ 595000: uvm_test_top.env.agent.monitor [WB] x15 <= 00000XXX  (PC~00000034)
# UVM_INFO /home/khang/Documents/SystemVerilog/Soc_RV32I/SoC/VERIFICATION/Monitor/cpu_monitor.sv(274) @ 605000: uvm_test_top.env.agent.monitor [WB] x15 <= 00000XXX  (PC~00000034)
# UVM_INFO /home/khang/Documents/SystemVerilog/Soc_RV32I/SoC/VERIFICATION/Monitor/cpu_monitor.sv(209) @ 615000: uvm_test_top.env.agent.monitor [IF] PC=00000028  INSTR=53e0a823  [SW   x30, 1342(x1)]            
# UVM_INFO /home/khang/Documents/SystemVerilog/Soc_RV32I/SoC/VERIFICATION/Monitor/cpu_monitor.sv(274) @ 615000: uvm_test_top.env.agent.monitor [WB] x15 <= 00000XXX  (PC~00000028)
# UVM_INFO /home/khang/Documents/SystemVerilog/Soc_RV32I/SoC/VERIFICATION/Monitor/cpu_monitor.sv(342) @ 615000: uvm_test_top.env.agent.monitor [AXI_RD] CPU←DRAM  Addr=00000028 Data=ff1a8ee3 RRESP=00
# UVM_INFO /home/khang/Documents/SystemVerilog/Soc_RV32I/SoC/VERIFICATION/Monitor/cpu_monitor.sv(209) @ 655000: uvm_test_top.env.agent.monitor [IF] PC=0000002c  INSTR=ff1a8ee3  [BEQ  x21, x17, ...]            
# UVM_INFO /home/khang/Documents/SystemVerilog/Soc_RV32I/SoC/VERIFICATION/Monitor/cpu_monitor.sv(342) @ 655000: uvm_test_top.env.agent.monitor [AXI_RD] CPU←DRAM  Addr=0000002c Data=4b9cf793 RRESP=00
# UVM_INFO /home/khang/Documents/SystemVerilog/Soc_RV32I/SoC/VERIFICATION/Monitor/cpu_monitor.sv(209) @ 695000: uvm_test_top.env.agent.monitor [IF] PC=00000030  INSTR=4b9cf793  [ANDI x15, x25, 1209]            
# UVM_INFO /home/khang/Documents/SystemVerilog/Soc_RV32I/SoC/VERIFICATION/Monitor/cpu_monitor.sv(342) @ 695000: uvm_test_top.env.agent.monitor [AXI_RD] CPU←DRAM  Addr=00000030 Data=ff7bc913 RRESP=00
# UVM_INFO /home/khang/Documents/SystemVerilog/Soc_RV32I/SoC/VERIFICATION/Monitor/cpu_monitor.sv(245) @ 705000: uvm_test_top.env.agent.monitor [MEM] STORE Addr=10000530 Data=00000000
# UVM_INFO /home/khang/Documents/SystemVerilog/Soc_RV32I/SoC/VERIFICATION/Monitor/cpu_monitor.sv(245) @ 715000: uvm_test_top.env.agent.monitor [MEM] STORE Addr=10000530 Data=00000000
# [DRAM WRITE] addr=10000530 data=00000000
# UVM_INFO /home/khang/Documents/SystemVerilog/Soc_RV32I/SoC/VERIFICATION/Monitor/cpu_monitor.sv(245) @ 725000: uvm_test_top.env.agent.monitor [MEM] STORE Addr=10000530 Data=00000000
# UVM_INFO /home/khang/Documents/SystemVerilog/Soc_RV32I/SoC/VERIFICATION/Monitor/cpu_monitor.sv(209) @ 735000: uvm_test_top.env.agent.monitor [IF] PC=00000034  INSTR=ff7bc913  [XORI x18, x23, -9]            
# UVM_INFO /home/khang/Documents/SystemVerilog/Soc_RV32I/SoC/VERIFICATION/Monitor/cpu_monitor.sv(245) @ 735000: uvm_test_top.env.agent.monitor [MEM] STORE Addr=10000530 Data=00000000
# UVM_INFO /home/khang/Documents/SystemVerilog/Soc_RV32I/SoC/VERIFICATION/Monitor/cpu_monitor.sv(313) @ 735000: uvm_test_top.env.agent.monitor [AXI_WR] CPU→DRAM  Addr=10000530 Data=00000000 Strb=1111 BRESP=00
# UVM_INFO /home/khang/Documents/SystemVerilog/Soc_RV32I/SoC/VERIFICATION/Monitor/cpu_monitor.sv(209) @ 775000: uvm_test_top.env.agent.monitor [IF] PC=00000028  INSTR=ff7bc913  [XORI x18, x23, -9]            
# UVM_INFO /home/khang/Documents/SystemVerilog/Soc_RV32I/SoC/VERIFICATION/Monitor/cpu_monitor.sv(342) @ 775000: uvm_test_top.env.agent.monitor [AXI_RD] CPU←DRAM  Addr=00000028 Data=ff1a8ee3 RRESP=00
# UVM_INFO /home/khang/Documents/SystemVerilog/Soc_RV32I/SoC/VERIFICATION/Monitor/cpu_monitor.sv(209) @ 815000: uvm_test_top.env.agent.monitor [IF] PC=0000002c  INSTR=ff1a8ee3  [BEQ  x21, x17, ...]            
# UVM_INFO /home/khang/Documents/SystemVerilog/Soc_RV32I/SoC/VERIFICATION/Monitor/cpu_monitor.sv(342) @ 815000: uvm_test_top.env.agent.monitor [AXI_RD] CPU←DRAM  Addr=0000002c Data=4b9cf793 RRESP=00
# UVM_INFO /home/khang/Documents/SystemVerilog/Soc_RV32I/SoC/VERIFICATION/Monitor/cpu_monitor.sv(209) @ 855000: uvm_test_top.env.agent.monitor [IF] PC=00000030  INSTR=4b9cf793  [ANDI x15, x25, 1209]            
# UVM_INFO /home/khang/Documents/SystemVerilog/Soc_RV32I/SoC/VERIFICATION/Monitor/cpu_monitor.sv(342) @ 855000: uvm_test_top.env.agent.monitor [AXI_RD] CPU←DRAM  Addr=00000030 Data=ff7bc913 RRESP=00
# UVM_INFO /home/khang/Documents/SystemVerilog/Soc_RV32I/SoC/VERIFICATION/Monitor/cpu_monitor.sv(209) @ 895000: uvm_test_top.env.agent.monitor [IF] PC=00000034  INSTR=ff7bc913  [XORI x18, x23, -9]            
# UVM_INFO /home/khang/Documents/SystemVerilog/Soc_RV32I/SoC/VERIFICATION/Monitor/cpu_monitor.sv(342) @ 895000: uvm_test_top.env.agent.monitor [AXI_RD] CPU←DRAM  Addr=00000034 Data=53e0a823 RRESP=00
# UVM_INFO /home/khang/Documents/SystemVerilog/Soc_RV32I/SoC/VERIFICATION/Monitor/cpu_monitor.sv(274) @ 905000: uvm_test_top.env.agent.monitor [WB] x18 <= fffffff7  (PC~00000034)
# UVM_INFO /home/khang/Documents/SystemVerilog/Soc_RV32I/SoC/VERIFICATION/Monitor/cpu_monitor.sv(274) @ 915000: uvm_test_top.env.agent.monitor [WB] x18 <= fffffff7  (PC~00000034)
# UVM_INFO /home/khang/Documents/SystemVerilog/Soc_RV32I/SoC/VERIFICATION/Monitor/cpu_monitor.sv(274) @ 925000: uvm_test_top.env.agent.monitor [WB] x18 <= fffffff7  (PC~00000034)
# UVM_INFO /home/khang/Documents/SystemVerilog/Soc_RV32I/SoC/VERIFICATION/Monitor/cpu_monitor.sv(209) @ 935000: uvm_test_top.env.agent.monitor [IF] PC=00000028  INSTR=53e0a823  [SW   x30, 1342(x1)]            
# UVM_INFO /home/khang/Documents/SystemVerilog/Soc_RV32I/SoC/VERIFICATION/Monitor/cpu_monitor.sv(274) @ 935000: uvm_test_top.env.agent.monitor [WB] x18 <= fffffff7  (PC~00000028)
# UVM_INFO /home/khang/Documents/SystemVerilog/Soc_RV32I/SoC/VERIFICATION/Monitor/cpu_monitor.sv(342) @ 935000: uvm_test_top.env.agent.monitor [AXI_RD] CPU←DRAM  Addr=00000028 Data=ff1a8ee3 RRESP=00
# UVM_INFO /home/khang/Documents/SystemVerilog/Soc_RV32I/SoC/VERIFICATION/Monitor/cpu_monitor.sv(209) @ 975000: uvm_test_top.env.agent.monitor [IF] PC=0000002c  INSTR=ff1a8ee3  [BEQ  x21, x17, ...]            
# UVM_INFO /home/khang/Documents/SystemVerilog/Soc_RV32I/SoC/VERIFICATION/Monitor/cpu_monitor.sv(342) @ 975000: uvm_test_top.env.agent.monitor [AXI_RD] CPU←DRAM  Addr=0000002c Data=4b9cf793 RRESP=00
# UVM_INFO /home/khang/Documents/SystemVerilog/Soc_RV32I/SoC/VERIFICATION/Monitor/cpu_monitor.sv(209) @ 1015000: uvm_test_top.env.agent.monitor [IF] PC=00000030  INSTR=4b9cf793  [ANDI x15, x25, 1209]            
# UVM_INFO /home/khang/Documents/SystemVerilog/Soc_RV32I/SoC/VERIFICATION/Monitor/cpu_monitor.sv(342) @ 1015000: uvm_test_top.env.agent.monitor [AXI_RD] CPU←DRAM  Addr=00000030 Data=ff7bc913 RRESP=00
# UVM_INFO /home/khang/Documents/SystemVerilog/Soc_RV32I/SoC/VERIFICATION/Monitor/cpu_monitor.sv(245) @ 1025000: uvm_test_top.env.agent.monitor [MEM] STORE Addr=10000530 Data=00000000
# UVM_INFO /home/khang/Documents/SystemVerilog/Soc_RV32I/SoC/VERIFICATION/Monitor/cpu_monitor.sv(245) @ 1035000: uvm_test_top.env.agent.monitor [MEM] STORE Addr=10000530 Data=00000000
# [DRAM WRITE] addr=10000530 data=00000000
# UVM_INFO /home/khang/Documents/SystemVerilog/Soc_RV32I/SoC/VERIFICATION/Monitor/cpu_monitor.sv(245) @ 1045000: uvm_test_top.env.agent.monitor [MEM] STORE Addr=10000530 Data=00000000
# UVM_INFO /home/khang/Documents/SystemVerilog/Soc_RV32I/SoC/VERIFICATION/Monitor/cpu_monitor.sv(209) @ 1055000: uvm_test_top.env.agent.monitor [IF] PC=00000034  INSTR=ff7bc913  [XORI x18, x23, -9]            
# UVM_INFO /home/khang/Documents/SystemVerilog/Soc_RV32I/SoC/VERIFICATION/Monitor/cpu_monitor.sv(245) @ 1055000: uvm_test_top.env.agent.monitor [MEM] STORE Addr=10000530 Data=00000000
# UVM_INFO /home/khang/Documents/SystemVerilog/Soc_RV32I/SoC/VERIFICATION/Monitor/cpu_monitor.sv(313) @ 1055000: uvm_test_top.env.agent.monitor [AXI_WR] CPU→DRAM  Addr=10000530 Data=00000000 Strb=1111 BRESP=00
# UVM_INFO /home/khang/Documents/SystemVerilog/Soc_RV32I/SoC/VERIFICATION/Monitor/cpu_monitor.sv(209) @ 1095000: uvm_test_top.env.agent.monitor [IF] PC=00000028  INSTR=ff7bc913  [XORI x18, x23, -9]            
# UVM_INFO /home/khang/Documents/SystemVerilog/Soc_RV32I/SoC/VERIFICATION/Monitor/cpu_monitor.sv(342) @ 1095000: uvm_test_top.env.agent.monitor [AXI_RD] CPU←DRAM  Addr=00000028 Data=ff1a8ee3 RRESP=00
# UVM_INFO /home/khang/Documents/SystemVerilog/Soc_RV32I/SoC/VERIFICATION/Monitor/cpu_monitor.sv(209) @ 1135000: uvm_test_top.env.agent.monitor [IF] PC=0000002c  INSTR=ff1a8ee3  [BEQ  x21, x17, ...]            
# UVM_INFO /home/khang/Documents/SystemVerilog/Soc_RV32I/SoC/VERIFICATION/Monitor/cpu_monitor.sv(342) @ 1135000: uvm_test_top.env.agent.monitor [AXI_RD] CPU←DRAM  Addr=0000002c Data=4b9cf793 RRESP=00
# UVM_INFO /home/khang/Documents/SystemVerilog/Soc_RV32I/SoC/VERIFICATION/Monitor/cpu_monitor.sv(209) @ 1175000: uvm_test_top.env.agent.monitor [IF] PC=00000030  INSTR=4b9cf793  [ANDI x15, x25, 1209]            
# UVM_INFO /home/khang/Documents/SystemVerilog/Soc_RV32I/SoC/VERIFICATION/Monitor/cpu_monitor.sv(342) @ 1175000: uvm_test_top.env.agent.monitor [AXI_RD] CPU←DRAM  Addr=00000030 Data=ff7bc913 RRESP=00
# UVM_INFO /home/khang/Documents/SystemVerilog/Soc_RV32I/SoC/VERIFICATION/Monitor/cpu_monitor.sv(209) @ 1215000: uvm_test_top.env.agent.monitor [IF] PC=00000034  INSTR=ff7bc913  [XORI x18, x23, -9]            
# UVM_INFO /home/khang/Documents/SystemVerilog/Soc_RV32I/SoC/VERIFICATION/Monitor/cpu_monitor.sv(342) @ 1215000: uvm_test_top.env.agent.monitor [AXI_RD] CPU←DRAM  Addr=00000034 Data=53e0a823 RRESP=00
# UVM_INFO /home/khang/Documents/SystemVerilog/Soc_RV32I/SoC/VERIFICATION/Monitor/cpu_monitor.sv(274) @ 1225000: uvm_test_top.env.agent.monitor [WB] x18 <= fffffff7  (PC~00000034)
# UVM_INFO /home/khang/Documents/SystemVerilog/Soc_RV32I/SoC/VERIFICATION/Monitor/cpu_monitor.sv(274) @ 1235000: uvm_test_top.env.agent.monitor [WB] x18 <= fffffff7  (PC~00000034)
# UVM_INFO /home/khang/Documents/SystemVerilog/Soc_RV32I/SoC/VERIFICATION/Monitor/cpu_monitor.sv(274) @ 1245000: uvm_test_top.env.agent.monitor [WB] x18 <= fffffff7  (PC~00000034)
# UVM_INFO /home/khang/Documents/SystemVerilog/Soc_RV32I/SoC/VERIFICATION/Monitor/cpu_monitor.sv(209) @ 1255000: uvm_test_top.env.agent.monitor [IF] PC=00000028  INSTR=53e0a823  [SW   x30, 1342(x1)]            
# UVM_INFO /home/khang/Documents/SystemVerilog/Soc_RV32I/SoC/VERIFICATION/Monitor/cpu_monitor.sv(274) @ 1255000: uvm_test_top.env.agent.monitor [WB] x18 <= fffffff7  (PC~00000028)
# UVM_INFO /home/khang/Documents/SystemVerilog/Soc_RV32I/SoC/VERIFICATION/Monitor/cpu_monitor.sv(342) @ 1255000: uvm_test_top.env.agent.monitor [AXI_RD] CPU←DRAM  Addr=00000028 Data=ff1a8ee3 RRESP=00
# UVM_INFO /home/khang/Documents/SystemVerilog/Soc_RV32I/SoC/VERIFICATION/Monitor/cpu_monitor.sv(209) @ 1295000: uvm_test_top.env.agent.monitor [IF] PC=0000002c  INSTR=ff1a8ee3  [BEQ  x21, x17, ...]            
# UVM_INFO /home/khang/Documents/SystemVerilog/Soc_RV32I/SoC/VERIFICATION/Monitor/cpu_monitor.sv(342) @ 1295000: uvm_test_top.env.agent.monitor [AXI_RD] CPU←DRAM  Addr=0000002c Data=4b9cf793 RRESP=00
# UVM_INFO /home/khang/Documents/SystemVerilog/Soc_RV32I/SoC/VERIFICATION/Monitor/cpu_monitor.sv(209) @ 1335000: uvm_test_top.env.agent.monitor [IF] PC=00000030  INSTR=4b9cf793  [ANDI x15, x25, 1209]            
# UVM_INFO /home/khang/Documents/SystemVerilog/Soc_RV32I/SoC/VERIFICATION/Monitor/cpu_monitor.sv(342) @ 1335000: uvm_test_top.env.agent.monitor [AXI_RD] CPU←DRAM  Addr=00000030 Data=ff7bc913 RRESP=00
# UVM_INFO /home/khang/Documents/SystemVerilog/Soc_RV32I/SoC/VERIFICATION/Monitor/cpu_monitor.sv(245) @ 1345000: uvm_test_top.env.agent.monitor [MEM] STORE Addr=10000530 Data=00000000
# UVM_INFO /home/khang/Documents/SystemVerilog/Soc_RV32I/SoC/VERIFICATION/Monitor/cpu_monitor.sv(245) @ 1355000: uvm_test_top.env.agent.monitor [MEM] STORE Addr=10000530 Data=00000000
# [DRAM WRITE] addr=10000530 data=00000000
# UVM_INFO /home/khang/Documents/SystemVerilog/Soc_RV32I/SoC/VERIFICATION/Monitor/cpu_monitor.sv(245) @ 1365000: uvm_test_top.env.agent.monitor [MEM] STORE Addr=10000530 Data=00000000
# UVM_INFO /home/khang/Documents/SystemVerilog/Soc_RV32I/SoC/VERIFICATION/Monitor/cpu_monitor.sv(209) @ 1375000: uvm_test_top.env.agent.monitor [IF] PC=00000034  INSTR=ff7bc913  [XORI x18, x23, -9]            
# UVM_INFO /home/khang/Documents/SystemVerilog/Soc_RV32I/SoC/VERIFICATION/Monitor/cpu_monitor.sv(245) @ 1375000: uvm_test_top.env.agent.monitor [MEM] STORE Addr=10000530 Data=00000000
# UVM_INFO /home/khang/Documents/SystemVerilog/Soc_RV32I/SoC/VERIFICATION/Monitor/cpu_monitor.sv(313) @ 1375000: uvm_test_top.env.agent.monitor [AXI_WR] CPU→DRAM  Addr=10000530 Data=00000000 Strb=1111 BRESP=00
# UVM_INFO /home/khang/Documents/SystemVerilog/Soc_RV32I/SoC/VERIFICATION/Monitor/cpu_monitor.sv(209) @ 1415000: uvm_test_top.env.agent.monitor [IF] PC=00000028  INSTR=ff7bc913  [XORI x18, x23, -9]            
# UVM_INFO /home/khang/Documents/SystemVerilog/Soc_RV32I/SoC/VERIFICATION/Monitor/cpu_monitor.sv(342) @ 1415000: uvm_test_top.env.agent.monitor [AXI_RD] CPU←DRAM  Addr=00000028 Data=ff1a8ee3 RRESP=00
# UVM_INFO /home/khang/Documents/SystemVerilog/Soc_RV32I/SoC/VERIFICATION/Monitor/cpu_monitor.sv(209) @ 1455000: uvm_test_top.env.agent.monitor [IF] PC=0000002c  INSTR=ff1a8ee3  [BEQ  x21, x17, ...]            
# UVM_INFO /home/khang/Documents/SystemVerilog/Soc_RV32I/SoC/VERIFICATION/Monitor/cpu_monitor.sv(342) @ 1455000: uvm_test_top.env.agent.monitor [AXI_RD] CPU←DRAM  Addr=0000002c Data=4b9cf793 RRESP=00
# UVM_INFO /home/khang/Documents/SystemVerilog/Soc_RV32I/SoC/VERIFICATION/Monitor/cpu_monitor.sv(209) @ 1495000: uvm_test_top.env.agent.monitor [IF] PC=00000030  INSTR=4b9cf793  [ANDI x15, x25, 1209]            
# UVM_INFO /home/khang/Documents/SystemVerilog/Soc_RV32I/SoC/VERIFICATION/Monitor/cpu_monitor.sv(342) @ 1495000: uvm_test_top.env.agent.monitor [AXI_RD] CPU←DRAM  Addr=00000030 Data=ff7bc913 RRESP=00
# UVM_INFO /home/khang/Documents/SystemVerilog/Soc_RV32I/SoC/VERIFICATION/Monitor/cpu_monitor.sv(209) @ 1535000: uvm_test_top.env.agent.monitor [IF] PC=00000034  INSTR=ff7bc913  [XORI x18, x23, -9]            
# UVM_INFO /home/khang/Documents/SystemVerilog/Soc_RV32I/SoC/VERIFICATION/Monitor/cpu_monitor.sv(342) @ 1535000: uvm_test_top.env.agent.monitor [AXI_RD] CPU←DRAM  Addr=00000034 Data=53e0a823 RRESP=00
# UVM_INFO /home/khang/Documents/SystemVerilog/Soc_RV32I/SoC/VERIFICATION/Monitor/cpu_monitor.sv(274) @ 1545000: uvm_test_top.env.agent.monitor [WB] x18 <= fffffff7  (PC~00000034)
# UVM_INFO /home/khang/Documents/SystemVerilog/Soc_RV32I/SoC/VERIFICATION/Monitor/cpu_monitor.sv(274) @ 1555000: uvm_test_top.env.agent.monitor [WB] x18 <= fffffff7  (PC~00000034)
# UVM_INFO /home/khang/Documents/SystemVerilog/Soc_RV32I/SoC/VERIFICATION/Monitor/cpu_monitor.sv(274) @ 1565000: uvm_test_top.env.agent.monitor [WB] x18 <= fffffff7  (PC~00000034)
# UVM_INFO /home/khang/Documents/SystemVerilog/Soc_RV32I/SoC/VERIFICATION/Monitor/cpu_monitor.sv(209) @ 1575000: uvm_test_top.env.agent.monitor [IF] PC=00000028  INSTR=53e0a823  [SW   x30, 1342(x1)]            
# UVM_INFO /home/khang/Documents/SystemVerilog/Soc_RV32I/SoC/VERIFICATION/Monitor/cpu_monitor.sv(274) @ 1575000: uvm_test_top.env.agent.monitor [WB] x18 <= fffffff7  (PC~00000028)
# UVM_INFO /home/khang/Documents/SystemVerilog/Soc_RV32I/SoC/VERIFICATION/Monitor/cpu_monitor.sv(342) @ 1575000: uvm_test_top.env.agent.monitor [AXI_RD] CPU←DRAM  Addr=00000028 Data=ff1a8ee3 RRESP=00
# UVM_INFO /home/khang/Documents/SystemVerilog/Soc_RV32I/SoC/VERIFICATION/Monitor/cpu_monitor.sv(209) @ 1615000: uvm_test_top.env.agent.monitor [IF] PC=0000002c  INSTR=ff1a8ee3  [BEQ  x21, x17, ...]            
# UVM_INFO /home/khang/Documents/SystemVerilog/Soc_RV32I/SoC/VERIFICATION/Monitor/cpu_monitor.sv(342) @ 1615000: uvm_test_top.env.agent.monitor [AXI_RD] CPU←DRAM  Addr=0000002c Data=4b9cf793 RRESP=00
# UVM_INFO /home/khang/Documents/SystemVerilog/Soc_RV32I/SoC/VERIFICATION/Monitor/cpu_monitor.sv(209) @ 1655000: uvm_test_top.env.agent.monitor [IF] PC=00000030  INSTR=4b9cf793  [ANDI x15, x25, 1209]            
# UVM_INFO /home/khang/Documents/SystemVerilog/Soc_RV32I/SoC/VERIFICATION/Monitor/cpu_monitor.sv(342) @ 1655000: uvm_test_top.env.agent.monitor [AXI_RD] CPU←DRAM  Addr=00000030 Data=ff7bc913 RRESP=00
# UVM_INFO /home/khang/Documents/SystemVerilog/Soc_RV32I/SoC/VERIFICATION/Monitor/cpu_monitor.sv(245) @ 1665000: uvm_test_top.env.agent.monitor [MEM] STORE Addr=10000530 Data=00000000
# UVM_INFO /home/khang/Documents/SystemVerilog/Soc_RV32I/SoC/VERIFICATION/Monitor/cpu_monitor.sv(245) @ 1675000: uvm_test_top.env.agent.monitor [MEM] STORE Addr=10000530 Data=00000000
# [DRAM WRITE] addr=10000530 data=00000000
# UVM_INFO /home/khang/Documents/SystemVerilog/Soc_RV32I/SoC/VERIFICATION/Monitor/cpu_monitor.sv(245) @ 1685000: uvm_test_top.env.agent.monitor [MEM] STORE Addr=10000530 Data=00000000
# UVM_INFO /home/khang/Documents/SystemVerilog/Soc_RV32I/SoC/VERIFICATION/Monitor/cpu_monitor.sv(209) @ 1695000: uvm_test_top.env.agent.monitor [IF] PC=00000034  INSTR=ff7bc913  [XORI x18, x23, -9]            
# UVM_INFO /home/khang/Documents/SystemVerilog/Soc_RV32I/SoC/VERIFICATION/Monitor/cpu_monitor.sv(245) @ 1695000: uvm_test_top.env.agent.monitor [MEM] STORE Addr=10000530 Data=00000000
# UVM_INFO /home/khang/Documents/SystemVerilog/Soc_RV32I/SoC/VERIFICATION/Monitor/cpu_monitor.sv(313) @ 1695000: uvm_test_top.env.agent.monitor [AXI_WR] CPU→DRAM  Addr=10000530 Data=00000000 Strb=1111 BRESP=00
# UVM_INFO /home/khang/Documents/SystemVerilog/Soc_RV32I/SoC/VERIFICATION/Monitor/cpu_monitor.sv(209) @ 1735000: uvm_test_top.env.agent.monitor [IF] PC=00000028  INSTR=ff7bc913  [XORI x18, x23, -9]            
# UVM_INFO /home/khang/Documents/SystemVerilog/Soc_RV32I/SoC/VERIFICATION/Monitor/cpu_monitor.sv(342) @ 1735000: uvm_test_top.env.agent.monitor [AXI_RD] CPU←DRAM  Addr=00000028 Data=ff1a8ee3 RRESP=00
# UVM_INFO /home/khang/Documents/SystemVerilog/Soc_RV32I/SoC/VERIFICATION/Monitor/cpu_monitor.sv(209) @ 1775000: uvm_test_top.env.agent.monitor [IF] PC=0000002c  INSTR=ff1a8ee3  [BEQ  x21, x17, ...]            
# UVM_INFO /home/khang/Documents/SystemVerilog/Soc_RV32I/SoC/VERIFICATION/Monitor/cpu_monitor.sv(342) @ 1775000: uvm_test_top.env.agent.monitor [AXI_RD] CPU←DRAM  Addr=0000002c Data=4b9cf793 RRESP=00
# UVM_INFO /home/khang/Documents/SystemVerilog/Soc_RV32I/SoC/VERIFICATION/Monitor/cpu_monitor.sv(209) @ 1815000: uvm_test_top.env.agent.monitor [IF] PC=00000030  INSTR=4b9cf793  [ANDI x15, x25, 1209]            
# UVM_INFO /home/khang/Documents/SystemVerilog/Soc_RV32I/SoC/VERIFICATION/Monitor/cpu_monitor.sv(342) @ 1815000: uvm_test_top.env.agent.monitor [AXI_RD] CPU←DRAM  Addr=00000030 Data=ff7bc913 RRESP=00
# UVM_INFO /home/khang/Documents/SystemVerilog/Soc_RV32I/SoC/VERIFICATION/Monitor/cpu_monitor.sv(209) @ 1855000: uvm_test_top.env.agent.monitor [IF] PC=00000034  INSTR=ff7bc913  [XORI x18, x23, -9]            
# UVM_INFO /home/khang/Documents/SystemVerilog/Soc_RV32I/SoC/VERIFICATION/Monitor/cpu_monitor.sv(342) @ 1855000: uvm_test_top.env.agent.monitor [AXI_RD] CPU←DRAM  Addr=00000034 Data=53e0a823 RRESP=00
# UVM_INFO /home/khang/Documents/SystemVerilog/Soc_RV32I/SoC/VERIFICATION/Monitor/cpu_monitor.sv(274) @ 1865000: uvm_test_top.env.agent.monitor [WB] x18 <= fffffff7  (PC~00000034)
# UVM_INFO /home/khang/Documents/SystemVerilog/Soc_RV32I/SoC/VERIFICATION/Monitor/cpu_monitor.sv(274) @ 1875000: uvm_test_top.env.agent.monitor [WB] x18 <= fffffff7  (PC~00000034)
# UVM_INFO /home/khang/Documents/SystemVerilog/Soc_RV32I/SoC/VERIFICATION/Monitor/cpu_monitor.sv(274) @ 1885000: uvm_test_top.env.agent.monitor [WB] x18 <= fffffff7  (PC~00000034)
# UVM_INFO /home/khang/Documents/SystemVerilog/Soc_RV32I/SoC/VERIFICATION/Monitor/cpu_monitor.sv(209) @ 1895000: uvm_test_top.env.agent.monitor [IF] PC=00000028  INSTR=53e0a823  [SW   x30, 1342(x1)]            
# UVM_INFO /home/khang/Documents/SystemVerilog/Soc_RV32I/SoC/VERIFICATION/Monitor/cpu_monitor.sv(274) @ 1895000: uvm_test_top.env.agent.monitor [WB] x18 <= fffffff7  (PC~00000028)
# UVM_INFO /home/khang/Documents/SystemVerilog/Soc_RV32I/SoC/VERIFICATION/Monitor/cpu_monitor.sv(342) @ 1895000: uvm_test_top.env.agent.monitor [AXI_RD] CPU←DRAM  Addr=00000028 Data=ff1a8ee3 RRESP=00
# UVM_INFO /home/khang/Documents/SystemVerilog/Soc_RV32I/SoC/VERIFICATION/Monitor/cpu_monitor.sv(209) @ 1935000: uvm_test_top.env.agent.monitor [IF] PC=0000002c  INSTR=ff1a8ee3  [BEQ  x21, x17, ...]            
# UVM_INFO /home/khang/Documents/SystemVerilog/Soc_RV32I/SoC/VERIFICATION/Monitor/cpu_monitor.sv(342) @ 1935000: uvm_test_top.env.agent.monitor [AXI_RD] CPU←DRAM  Addr=0000002c Data=4b9cf793 RRESP=00
# UVM_INFO /home/khang/Documents/SystemVerilog/Soc_RV32I/SoC/VERIFICATION/Monitor/cpu_monitor.sv(209) @ 1975000: uvm_test_top.env.agent.monitor [IF] PC=00000030  INSTR=4b9cf793  [ANDI x15, x25, 1209]            
# UVM_INFO /home/khang/Documents/SystemVerilog/Soc_RV32I/SoC/VERIFICATION/Monitor/cpu_monitor.sv(342) @ 1975000: uvm_test_top.env.agent.monitor [AXI_RD] CPU←DRAM  Addr=00000030 Data=ff7bc913 RRESP=00
# UVM_INFO /home/khang/Documents/SystemVerilog/Soc_RV32I/SoC/VERIFICATION/Monitor/cpu_monitor.sv(245) @ 1985000: uvm_test_top.env.agent.monitor [MEM] STORE Addr=10000530 Data=00000000
# UVM_INFO /home/khang/Documents/SystemVerilog/Soc_RV32I/SoC/VERIFICATION/Monitor/cpu_monitor.sv(245) @ 1995000: uvm_test_top.env.agent.monitor [MEM] STORE Addr=10000530 Data=00000000
# [DRAM WRITE] addr=10000530 data=00000000
# UVM_INFO /home/khang/Documents/SystemVerilog/Soc_RV32I/SoC/VERIFICATION/Monitor/cpu_monitor.sv(245) @ 2005000: uvm_test_top.env.agent.monitor [MEM] STORE Addr=10000530 Data=00000000
# UVM_INFO /home/khang/Documents/SystemVerilog/Soc_RV32I/SoC/VERIFICATION/Monitor/cpu_monitor.sv(209) @ 2015000: uvm_test_top.env.agent.monitor [IF] PC=00000034  INSTR=ff7bc913  [XORI x18, x23, -9]            
# UVM_INFO /home/khang/Documents/SystemVerilog/Soc_RV32I/SoC/VERIFICATION/Monitor/cpu_monitor.sv(245) @ 2015000: uvm_test_top.env.agent.monitor [MEM] STORE Addr=10000530 Data=00000000
# UVM_INFO /home/khang/Documents/SystemVerilog/Soc_RV32I/SoC/VERIFICATION/Monitor/cpu_monitor.sv(313) @ 2015000: uvm_test_top.env.agent.monitor [AXI_WR] CPU→DRAM  Addr=10000530 Data=00000000 Strb=1111 BRESP=00
# UVM_INFO /home/khang/Documents/SystemVerilog/Soc_RV32I/SoC/VERIFICATION/Monitor/cpu_monitor.sv(209) @ 2055000: uvm_test_top.env.agent.monitor [IF] PC=00000028  INSTR=ff7bc913  [XORI x18, x23, -9]            
# UVM_INFO /home/khang/Documents/SystemVerilog/Soc_RV32I/SoC/VERIFICATION/Monitor/cpu_monitor.sv(342) @ 2055000: uvm_test_top.env.agent.monitor [AXI_RD] CPU←DRAM  Addr=00000028 Data=ff1a8ee3 RRESP=00
# UVM_INFO /home/khang/Documents/SystemVerilog/Soc_RV32I/SoC/VERIFICATION/Monitor/cpu_monitor.sv(209) @ 2095000: uvm_test_top.env.agent.monitor [IF] PC=0000002c  INSTR=ff1a8ee3  [BEQ  x21, x17, ...]            
# UVM_INFO /home/khang/Documents/SystemVerilog/Soc_RV32I/SoC/VERIFICATION/Monitor/cpu_monitor.sv(342) @ 2095000: uvm_test_top.env.agent.monitor [AXI_RD] CPU←DRAM  Addr=0000002c Data=4b9cf793 RRESP=00
# UVM_INFO /home/khang/Documents/SystemVerilog/Soc_RV32I/SoC/VERIFICATION/Monitor/cpu_monitor.sv(209) @ 2135000: uvm_test_top.env.agent.monitor [IF] PC=00000030  INSTR=4b9cf793  [ANDI x15, x25, 1209]            
# UVM_INFO /home/khang/Documents/SystemVerilog/Soc_RV32I/SoC/VERIFICATION/Monitor/cpu_monitor.sv(342) @ 2135000: uvm_test_top.env.agent.monitor [AXI_RD] CPU←DRAM  Addr=00000030 Data=ff7bc913 RRESP=00
# UVM_INFO /home/khang/Documents/SystemVerilog/Soc_RV32I/SoC/VERIFICATION/Monitor/cpu_monitor.sv(209) @ 2175000: uvm_test_top.env.agent.monitor [IF] PC=00000034  INSTR=ff7bc913  [XORI x18, x23, -9]            
# UVM_INFO /home/khang/Documents/SystemVerilog/Soc_RV32I/SoC/VERIFICATION/Monitor/cpu_monitor.sv(342) @ 2175000: uvm_test_top.env.agent.monitor [AXI_RD] CPU←DRAM  Addr=00000034 Data=53e0a823 RRESP=00
# UVM_INFO /home/khang/Documents/SystemVerilog/Soc_RV32I/SoC/VERIFICATION/Monitor/cpu_monitor.sv(274) @ 2185000: uvm_test_top.env.agent.monitor [WB] x18 <= fffffff7  (PC~00000034)
# UVM_INFO /home/khang/Documents/SystemVerilog/Soc_RV32I/SoC/VERIFICATION/Monitor/cpu_monitor.sv(274) @ 2195000: uvm_test_top.env.agent.monitor [WB] x18 <= fffffff7  (PC~00000034)
# UVM_INFO /home/khang/Documents/SystemVerilog/Soc_RV32I/SoC/VERIFICATION/Monitor/cpu_monitor.sv(274) @ 2205000: uvm_test_top.env.agent.monitor [WB] x18 <= fffffff7  (PC~00000034)
# UVM_INFO /home/khang/Documents/SystemVerilog/Soc_RV32I/SoC/VERIFICATION/Monitor/cpu_monitor.sv(209) @ 2215000: uvm_test_top.env.agent.monitor [IF] PC=00000028  INSTR=53e0a823  [SW   x30, 1342(x1)]            
# UVM_INFO /home/khang/Documents/SystemVerilog/Soc_RV32I/SoC/VERIFICATION/Monitor/cpu_monitor.sv(274) @ 2215000: uvm_test_top.env.agent.monitor [WB] x18 <= fffffff7  (PC~00000028)
# UVM_INFO /home/khang/Documents/SystemVerilog/Soc_RV32I/SoC/VERIFICATION/Monitor/cpu_monitor.sv(342) @ 2215000: uvm_test_top.env.agent.monitor [AXI_RD] CPU←DRAM  Addr=00000028 Data=ff1a8ee3 RRESP=00
# UVM_INFO /home/khang/Documents/SystemVerilog/Soc_RV32I/SoC/VERIFICATION/Monitor/cpu_monitor.sv(209) @ 2255000: uvm_test_top.env.agent.monitor [IF] PC=0000002c  INSTR=ff1a8ee3  [BEQ  x21, x17, ...]            
# UVM_INFO /home/khang/Documents/SystemVerilog/Soc_RV32I/SoC/VERIFICATION/Monitor/cpu_monitor.sv(342) @ 2255000: uvm_test_top.env.agent.monitor [AXI_RD] CPU←DRAM  Addr=0000002c Data=4b9cf793 RRESP=00
# UVM_INFO /home/khang/Documents/SystemVerilog/Soc_RV32I/SoC/VERIFICATION/Monitor/cpu_monitor.sv(209) @ 2295000: uvm_test_top.env.agent.monitor [IF] PC=00000030  INSTR=4b9cf793  [ANDI x15, x25, 1209]            
# UVM_INFO /home/khang/Documents/SystemVerilog/Soc_RV32I/SoC/VERIFICATION/Monitor/cpu_monitor.sv(342) @ 2295000: uvm_test_top.env.agent.monitor [AXI_RD] CPU←DRAM  Addr=00000030 Data=ff7bc913 RRESP=00
# UVM_INFO /home/khang/Documents/SystemVerilog/Soc_RV32I/SoC/VERIFICATION/Monitor/cpu_monitor.sv(245) @ 2305000: uvm_test_top.env.agent.monitor [MEM] STORE Addr=10000530 Data=00000000
# UVM_INFO /home/khang/Documents/SystemVerilog/Soc_RV32I/SoC/VERIFICATION/Monitor/cpu_monitor.sv(245) @ 2315000: uvm_test_top.env.agent.monitor [MEM] STORE Addr=10000530 Data=00000000
# [DRAM WRITE] addr=10000530 data=00000000
# UVM_INFO /home/khang/Documents/SystemVerilog/Soc_RV32I/SoC/VERIFICATION/Monitor/cpu_monitor.sv(245) @ 2325000: uvm_test_top.env.agent.monitor [MEM] STORE Addr=10000530 Data=00000000
# UVM_INFO /home/khang/Documents/SystemVerilog/Soc_RV32I/SoC/VERIFICATION/Monitor/cpu_monitor.sv(209) @ 2335000: uvm_test_top.env.agent.monitor [IF] PC=00000034  INSTR=ff7bc913  [XORI x18, x23, -9]            
# UVM_INFO /home/khang/Documents/SystemVerilog/Soc_RV32I/SoC/VERIFICATION/Monitor/cpu_monitor.sv(245) @ 2335000: uvm_test_top.env.agent.monitor [MEM] STORE Addr=10000530 Data=00000000
# UVM_INFO /home/khang/Documents/SystemVerilog/Soc_RV32I/SoC/VERIFICATION/Monitor/cpu_monitor.sv(313) @ 2335000: uvm_test_top.env.agent.monitor [AXI_WR] CPU→DRAM  Addr=10000530 Data=00000000 Strb=1111 BRESP=00
# UVM_INFO /home/khang/Documents/SystemVerilog/Soc_RV32I/SoC/VERIFICATION/Monitor/cpu_monitor.sv(209) @ 2375000: uvm_test_top.env.agent.monitor [IF] PC=00000028  INSTR=ff7bc913  [XORI x18, x23, -9]            
# UVM_INFO /home/khang/Documents/SystemVerilog/Soc_RV32I/SoC/VERIFICATION/Monitor/cpu_monitor.sv(342) @ 2375000: uvm_test_top.env.agent.monitor [AXI_RD] CPU←DRAM  Addr=00000028 Data=ff1a8ee3 RRESP=00
# UVM_INFO /home/khang/Documents/SystemVerilog/Soc_RV32I/SoC/VERIFICATION/Monitor/cpu_monitor.sv(209) @ 2415000: uvm_test_top.env.agent.monitor [IF] PC=0000002c  INSTR=ff1a8ee3  [BEQ  x21, x17, ...]            
# UVM_INFO /home/khang/Documents/SystemVerilog/Soc_RV32I/SoC/VERIFICATION/Monitor/cpu_monitor.sv(342) @ 2415000: uvm_test_top.env.agent.monitor [AXI_RD] CPU←DRAM  Addr=0000002c Data=4b9cf793 RRESP=00
# UVM_INFO /home/khang/Documents/SystemVerilog/Soc_RV32I/SoC/VERIFICATION/Monitor/cpu_monitor.sv(209) @ 2455000: uvm_test_top.env.agent.monitor [IF] PC=00000030  INSTR=4b9cf793  [ANDI x15, x25, 1209]            
# UVM_INFO /home/khang/Documents/SystemVerilog/Soc_RV32I/SoC/VERIFICATION/Monitor/cpu_monitor.sv(342) @ 2455000: uvm_test_top.env.agent.monitor [AXI_RD] CPU←DRAM  Addr=00000030 Data=ff7bc913 RRESP=00
# UVM_INFO /home/khang/Documents/SystemVerilog/Soc_RV32I/SoC/VERIFICATION/Monitor/cpu_monitor.sv(209) @ 2495000: uvm_test_top.env.agent.monitor [IF] PC=00000034  INSTR=ff7bc913  [XORI x18, x23, -9]            
# UVM_INFO /home/khang/Documents/SystemVerilog/Soc_RV32I/SoC/VERIFICATION/Monitor/cpu_monitor.sv(342) @ 2495000: uvm_test_top.env.agent.monitor [AXI_RD] CPU←DRAM  Addr=00000034 Data=53e0a823 RRESP=00
# UVM_INFO /home/khang/Documents/SystemVerilog/Soc_RV32I/SoC/VERIFICATION/Monitor/cpu_monitor.sv(274) @ 2505000: uvm_test_top.env.agent.monitor [WB] x18 <= fffffff7  (PC~00000034)
# UVM_INFO /home/khang/Documents/SystemVerilog/Soc_RV32I/SoC/VERIFICATION/Monitor/cpu_monitor.sv(274) @ 2515000: uvm_test_top.env.agent.monitor [WB] x18 <= fffffff7  (PC~00000034)
# UVM_INFO /home/khang/Documents/SystemVerilog/Soc_RV32I/SoC/VERIFICATION/Monitor/cpu_monitor.sv(274) @ 2525000: uvm_test_top.env.agent.monitor [WB] x18 <= fffffff7  (PC~00000034)
# UVM_INFO /home/khang/Documents/SystemVerilog/Soc_RV32I/SoC/VERIFICATION/Monitor/cpu_monitor.sv(209) @ 2535000: uvm_test_top.env.agent.monitor [IF] PC=00000028  INSTR=53e0a823  [SW   x30, 1342(x1)]            
# UVM_INFO /home/khang/Documents/SystemVerilog/Soc_RV32I/SoC/VERIFICATION/Monitor/cpu_monitor.sv(274) @ 2535000: uvm_test_top.env.agent.monitor [WB] x18 <= fffffff7  (PC~00000028)
# UVM_INFO /home/khang/Documents/SystemVerilog/Soc_RV32I/SoC/VERIFICATION/Monitor/cpu_monitor.sv(342) @ 2535000: uvm_test_top.env.agent.monitor [AXI_RD] CPU←DRAM  Addr=00000028 Data=ff1a8ee3 RRESP=00
# UVM_INFO /home/khang/Documents/SystemVerilog/Soc_RV32I/SoC/VERIFICATION/Monitor/cpu_monitor.sv(209) @ 2575000: uvm_test_top.env.agent.monitor [IF] PC=0000002c  INSTR=ff1a8ee3  [BEQ  x21, x17, ...]            
# UVM_INFO /home/khang/Documents/SystemVerilog/Soc_RV32I/SoC/VERIFICATION/Monitor/cpu_monitor.sv(342) @ 2575000: uvm_test_top.env.agent.monitor [AXI_RD] CPU←DRAM  Addr=0000002c Data=4b9cf793 RRESP=00
# UVM_INFO /home/khang/Documents/SystemVerilog/Soc_RV32I/SoC/VERIFICATION/Monitor/cpu_monitor.sv(209) @ 2615000: uvm_test_top.env.agent.monitor [IF] PC=00000030  INSTR=4b9cf793  [ANDI x15, x25, 1209]            
# UVM_INFO /home/khang/Documents/SystemVerilog/Soc_RV32I/SoC/VERIFICATION/Monitor/cpu_monitor.sv(342) @ 2615000: uvm_test_top.env.agent.monitor [AXI_RD] CPU←DRAM  Addr=00000030 Data=ff7bc913 RRESP=00
# UVM_INFO /home/khang/Documents/SystemVerilog/Soc_RV32I/SoC/VERIFICATION/Monitor/cpu_monitor.sv(245) @ 2625000: uvm_test_top.env.agent.monitor [MEM] STORE Addr=10000530 Data=00000000
# UVM_INFO /home/khang/Documents/SystemVerilog/Soc_RV32I/SoC/VERIFICATION/Monitor/cpu_monitor.sv(245) @ 2635000: uvm_test_top.env.agent.monitor [MEM] STORE Addr=10000530 Data=00000000
# [DRAM WRITE] addr=10000530 data=00000000
# UVM_INFO /home/khang/Documents/SystemVerilog/Soc_RV32I/SoC/VERIFICATION/Monitor/cpu_monitor.sv(245) @ 2645000: uvm_test_top.env.agent.monitor [MEM] STORE Addr=10000530 Data=00000000
# UVM_INFO /home/khang/Documents/SystemVerilog/Soc_RV32I/SoC/VERIFICATION/Monitor/cpu_monitor.sv(209) @ 2655000: uvm_test_top.env.agent.monitor [IF] PC=00000034  INSTR=ff7bc913  [XORI x18, x23, -9]            
# UVM_INFO /home/khang/Documents/SystemVerilog/Soc_RV32I/SoC/VERIFICATION/Monitor/cpu_monitor.sv(245) @ 2655000: uvm_test_top.env.agent.monitor [MEM] STORE Addr=10000530 Data=00000000
# UVM_INFO /home/khang/Documents/SystemVerilog/Soc_RV32I/SoC/VERIFICATION/Monitor/cpu_monitor.sv(313) @ 2655000: uvm_test_top.env.agent.monitor [AXI_WR] CPU→DRAM  Addr=10000530 Data=00000000 Strb=1111 BRESP=00
# UVM_INFO /home/khang/Documents/SystemVerilog/Soc_RV32I/SoC/VERIFICATION/Monitor/cpu_monitor.sv(209) @ 2695000: uvm_test_top.env.agent.monitor [IF] PC=00000028  INSTR=ff7bc913  [XORI x18, x23, -9]            
# UVM_INFO /home/khang/Documents/SystemVerilog/Soc_RV32I/SoC/VERIFICATION/Monitor/cpu_monitor.sv(342) @ 2695000: uvm_test_top.env.agent.monitor [AXI_RD] CPU←DRAM  Addr=00000028 Data=ff1a8ee3 RRESP=00
# UVM_INFO /home/khang/Documents/SystemVerilog/Soc_RV32I/SoC/VERIFICATION/Monitor/cpu_monitor.sv(209) @ 2735000: uvm_test_top.env.agent.monitor [IF] PC=0000002c  INSTR=ff1a8ee3  [BEQ  x21, x17, ...]            
# UVM_INFO /home/khang/Documents/SystemVerilog/Soc_RV32I/SoC/VERIFICATION/Monitor/cpu_monitor.sv(342) @ 2735000: uvm_test_top.env.agent.monitor [AXI_RD] CPU←DRAM  Addr=0000002c Data=4b9cf793 RRESP=00
# UVM_INFO /home/khang/Documents/SystemVerilog/Soc_RV32I/SoC/VERIFICATION/Monitor/cpu_monitor.sv(209) @ 2775000: uvm_test_top.env.agent.monitor [IF] PC=00000030  INSTR=4b9cf793  [ANDI x15, x25, 1209]            
# UVM_INFO /home/khang/Documents/SystemVerilog/Soc_RV32I/SoC/VERIFICATION/Monitor/cpu_monitor.sv(342) @ 2775000: uvm_test_top.env.agent.monitor [AXI_RD] CPU←DRAM  Addr=00000030 Data=ff7bc913 RRESP=00
# UVM_INFO /home/khang/Documents/SystemVerilog/Soc_RV32I/SoC/VERIFICATION/Monitor/cpu_monitor.sv(209) @ 2815000: uvm_test_top.env.agent.monitor [IF] PC=00000034  INSTR=ff7bc913  [XORI x18, x23, -9]            
# UVM_INFO /home/khang/Documents/SystemVerilog/Soc_RV32I/SoC/VERIFICATION/Monitor/cpu_monitor.sv(342) @ 2815000: uvm_test_top.env.agent.monitor [AXI_RD] CPU←DRAM  Addr=00000034 Data=53e0a823 RRESP=00
# UVM_INFO /home/khang/Documents/SystemVerilog/Soc_RV32I/SoC/VERIFICATION/Monitor/cpu_monitor.sv(274) @ 2825000: uvm_test_top.env.agent.monitor [WB] x18 <= fffffff7  (PC~00000034)
# UVM_INFO /home/khang/Documents/SystemVerilog/Soc_RV32I/SoC/VERIFICATION/Monitor/cpu_monitor.sv(274) @ 2835000: uvm_test_top.env.agent.monitor [WB] x18 <= fffffff7  (PC~00000034)
# UVM_INFO /home/khang/Documents/SystemVerilog/Soc_RV32I/SoC/VERIFICATION/Monitor/cpu_monitor.sv(274) @ 2845000: uvm_test_top.env.agent.monitor [WB] x18 <= fffffff7  (PC~00000034)
# UVM_INFO /home/khang/Documents/SystemVerilog/Soc_RV32I/SoC/VERIFICATION/Monitor/cpu_monitor.sv(209) @ 2855000: uvm_test_top.env.agent.monitor [IF] PC=00000028  INSTR=53e0a823  [SW   x30, 1342(x1)]            
# UVM_INFO /home/khang/Documents/SystemVerilog/Soc_RV32I/SoC/VERIFICATION/Monitor/cpu_monitor.sv(274) @ 2855000: uvm_test_top.env.agent.monitor [WB] x18 <= fffffff7  (PC~00000028)
# UVM_INFO /home/khang/Documents/SystemVerilog/Soc_RV32I/SoC/VERIFICATION/Monitor/cpu_monitor.sv(342) @ 2855000: uvm_test_top.env.agent.monitor [AXI_RD] CPU←DRAM  Addr=00000028 Data=ff1a8ee3 RRESP=00
# UVM_INFO /home/khang/Documents/SystemVerilog/Soc_RV32I/SoC/VERIFICATION/Monitor/cpu_monitor.sv(209) @ 2895000: uvm_test_top.env.agent.monitor [IF] PC=0000002c  INSTR=ff1a8ee3  [BEQ  x21, x17, ...]            
# UVM_INFO /home/khang/Documents/SystemVerilog/Soc_RV32I/SoC/VERIFICATION/Monitor/cpu_monitor.sv(342) @ 2895000: uvm_test_top.env.agent.monitor [AXI_RD] CPU←DRAM  Addr=0000002c Data=4b9cf793 RRESP=00
# UVM_INFO /home/khang/Documents/SystemVerilog/Soc_RV32I/SoC/VERIFICATION/Monitor/cpu_monitor.sv(209) @ 2935000: uvm_test_top.env.agent.monitor [IF] PC=00000030  INSTR=4b9cf793  [ANDI x15, x25, 1209]            
# UVM_INFO /home/khang/Documents/SystemVerilog/Soc_RV32I/SoC/VERIFICATION/Monitor/cpu_monitor.sv(342) @ 2935000: uvm_test_top.env.agent.monitor [AXI_RD] CPU←DRAM  Addr=00000030 Data=ff7bc913 RRESP=00
# UVM_INFO /home/khang/Documents/SystemVerilog/Soc_RV32I/SoC/VERIFICATION/Monitor/cpu_monitor.sv(245) @ 2945000: uvm_test_top.env.agent.monitor [MEM] STORE Addr=10000530 Data=00000000
# UVM_INFO /home/khang/Documents/SystemVerilog/Soc_RV32I/SoC/VERIFICATION/Monitor/cpu_monitor.sv(245) @ 2955000: uvm_test_top.env.agent.monitor [MEM] STORE Addr=10000530 Data=00000000
# [DRAM WRITE] addr=10000530 data=00000000
# UVM_INFO /home/khang/Documents/SystemVerilog/Soc_RV32I/SoC/VERIFICATION/Monitor/cpu_monitor.sv(245) @ 2965000: uvm_test_top.env.agent.monitor [MEM] STORE Addr=10000530 Data=00000000
# UVM_INFO /home/khang/Documents/SystemVerilog/Soc_RV32I/SoC/VERIFICATION/Monitor/cpu_monitor.sv(209) @ 2975000: uvm_test_top.env.agent.monitor [IF] PC=00000034  INSTR=ff7bc913  [XORI x18, x23, -9]            
# UVM_INFO /home/khang/Documents/SystemVerilog/Soc_RV32I/SoC/VERIFICATION/Monitor/cpu_monitor.sv(245) @ 2975000: uvm_test_top.env.agent.monitor [MEM] STORE Addr=10000530 Data=00000000
# UVM_INFO /home/khang/Documents/SystemVerilog/Soc_RV32I/SoC/VERIFICATION/Monitor/cpu_monitor.sv(313) @ 2975000: uvm_test_top.env.agent.monitor [AXI_WR] CPU→DRAM  Addr=10000530 Data=00000000 Strb=1111 BRESP=00
# UVM_INFO /home/khang/Documents/SystemVerilog/Soc_RV32I/SoC/VERIFICATION/Monitor/cpu_monitor.sv(209) @ 3015000: uvm_test_top.env.agent.monitor [IF] PC=00000028  INSTR=ff7bc913  [XORI x18, x23, -9]            
# UVM_INFO /home/khang/Documents/SystemVerilog/Soc_RV32I/SoC/VERIFICATION/Monitor/cpu_monitor.sv(342) @ 3015000: uvm_test_top.env.agent.monitor [AXI_RD] CPU←DRAM  Addr=00000028 Data=ff1a8ee3 RRESP=00
# UVM_INFO /home/khang/Documents/SystemVerilog/Soc_RV32I/SoC/VERIFICATION/Monitor/cpu_monitor.sv(209) @ 3055000: uvm_test_top.env.agent.monitor [IF] PC=0000002c  INSTR=ff1a8ee3  [BEQ  x21, x17, ...]            
# UVM_INFO /home/khang/Documents/SystemVerilog/Soc_RV32I/SoC/VERIFICATION/Monitor/cpu_monitor.sv(342) @ 3055000: uvm_test_top.env.agent.monitor [AXI_RD] CPU←DRAM  Addr=0000002c Data=4b9cf793 RRESP=00
# UVM_INFO /home/khang/Documents/SystemVerilog/Soc_RV32I/SoC/VERIFICATION/Monitor/cpu_monitor.sv(209) @ 3095000: uvm_test_top.env.agent.monitor [IF] PC=00000030  INSTR=4b9cf793  [ANDI x15, x25, 1209]            
# UVM_INFO /home/khang/Documents/SystemVerilog/Soc_RV32I/SoC/VERIFICATION/Monitor/cpu_monitor.sv(342) @ 3095000: uvm_test_top.env.agent.monitor [AXI_RD] CPU←DRAM  Addr=00000030 Data=ff7bc913 RRESP=00
# UVM_INFO /home/khang/Documents/SystemVerilog/Soc_RV32I/SoC/VERIFICATION/Monitor/cpu_monitor.sv(209) @ 3135000: uvm_test_top.env.agent.monitor [IF] PC=00000034  INSTR=ff7bc913  [XORI x18, x23, -9]            
# UVM_INFO /home/khang/Documents/SystemVerilog/Soc_RV32I/SoC/VERIFICATION/Monitor/cpu_monitor.sv(342) @ 3135000: uvm_test_top.env.agent.monitor [AXI_RD] CPU←DRAM  Addr=00000034 Data=53e0a823 RRESP=00
# UVM_INFO /home/khang/Documents/SystemVerilog/Soc_RV32I/SoC/VERIFICATION/Monitor/cpu_monitor.sv(274) @ 3145000: uvm_test_top.env.agent.monitor [WB] x18 <= fffffff7  (PC~00000034)
# UVM_INFO /home/khang/Documents/SystemVerilog/Soc_RV32I/SoC/VERIFICATION/Monitor/cpu_monitor.sv(274) @ 3155000: uvm_test_top.env.agent.monitor [WB] x18 <= fffffff7  (PC~00000034)
# UVM_INFO /home/khang/Documents/SystemVerilog/Soc_RV32I/SoC/VERIFICATION/Monitor/cpu_monitor.sv(274) @ 3165000: uvm_test_top.env.agent.monitor [WB] x18 <= fffffff7  (PC~00000034)
# UVM_INFO /home/khang/Documents/SystemVerilog/Soc_RV32I/SoC/VERIFICATION/Monitor/cpu_monitor.sv(209) @ 3175000: uvm_test_top.env.agent.monitor [IF] PC=00000028  INSTR=53e0a823  [SW   x30, 1342(x1)]            
# UVM_INFO /home/khang/Documents/SystemVerilog/Soc_RV32I/SoC/VERIFICATION/Monitor/cpu_monitor.sv(274) @ 3175000: uvm_test_top.env.agent.monitor [WB] x18 <= fffffff7  (PC~00000028)
# UVM_INFO /home/khang/Documents/SystemVerilog/Soc_RV32I/SoC/VERIFICATION/Monitor/cpu_monitor.sv(342) @ 3175000: uvm_test_top.env.agent.monitor [AXI_RD] CPU←DRAM  Addr=00000028 Data=ff1a8ee3 RRESP=00
# UVM_INFO /home/khang/Documents/SystemVerilog/Soc_RV32I/SoC/VERIFICATION/Monitor/cpu_monitor.sv(209) @ 3215000: uvm_test_top.env.agent.monitor [IF] PC=0000002c  INSTR=ff1a8ee3  [BEQ  x21, x17, ...]            
# UVM_INFO /home/khang/Documents/SystemVerilog/Soc_RV32I/SoC/VERIFICATION/Monitor/cpu_monitor.sv(342) @ 3215000: uvm_test_top.env.agent.monitor [AXI_RD] CPU←DRAM  Addr=0000002c Data=4b9cf793 RRESP=00
# UVM_INFO /home/khang/Documents/SystemVerilog/Soc_RV32I/SoC/VERIFICATION/Monitor/cpu_monitor.sv(209) @ 3255000: uvm_test_top.env.agent.monitor [IF] PC=00000030  INSTR=4b9cf793  [ANDI x15, x25, 1209]            
# UVM_INFO /home/khang/Documents/SystemVerilog/Soc_RV32I/SoC/VERIFICATION/Monitor/cpu_monitor.sv(342) @ 3255000: uvm_test_top.env.agent.monitor [AXI_RD] CPU←DRAM  Addr=00000030 Data=ff7bc913 RRESP=00
# UVM_INFO /home/khang/Documents/SystemVerilog/Soc_RV32I/SoC/VERIFICATION/Monitor/cpu_monitor.sv(245) @ 3265000: uvm_test_top.env.agent.monitor [MEM] STORE Addr=10000530 Data=00000000
# UVM_INFO /home/khang/Documents/SystemVerilog/Soc_RV32I/SoC/VERIFICATION/Monitor/cpu_monitor.sv(245) @ 3275000: uvm_test_top.env.agent.monitor [MEM] STORE Addr=10000530 Data=00000000
# [DRAM WRITE] addr=10000530 data=00000000
# UVM_INFO /home/khang/Documents/SystemVerilog/Soc_RV32I/SoC/VERIFICATION/Monitor/cpu_monitor.sv(245) @ 3285000: uvm_test_top.env.agent.monitor [MEM] STORE Addr=10000530 Data=00000000
# UVM_INFO /home/khang/Documents/SystemVerilog/Soc_RV32I/SoC/VERIFICATION/Monitor/cpu_monitor.sv(209) @ 3295000: uvm_test_top.env.agent.monitor [IF] PC=00000034  INSTR=ff7bc913  [XORI x18, x23, -9]            
# UVM_INFO /home/khang/Documents/SystemVerilog/Soc_RV32I/SoC/VERIFICATION/Monitor/cpu_monitor.sv(245) @ 3295000: uvm_test_top.env.agent.monitor [MEM] STORE Addr=10000530 Data=00000000
# UVM_INFO /home/khang/Documents/SystemVerilog/Soc_RV32I/SoC/VERIFICATION/Monitor/cpu_monitor.sv(313) @ 3295000: uvm_test_top.env.agent.monitor [AXI_WR] CPU→DRAM  Addr=10000530 Data=00000000 Strb=1111 BRESP=00
# UVM_INFO /home/khang/Documents/SystemVerilog/Soc_RV32I/SoC/VERIFICATION/Monitor/cpu_monitor.sv(209) @ 3335000: uvm_test_top.env.agent.monitor [IF] PC=00000028  INSTR=ff7bc913  [XORI x18, x23, -9]            
# UVM_INFO /home/khang/Documents/SystemVerilog/Soc_RV32I/SoC/VERIFICATION/Monitor/cpu_monitor.sv(342) @ 3335000: uvm_test_top.env.agent.monitor [AXI_RD] CPU←DRAM  Addr=00000028 Data=ff1a8ee3 RRESP=00
# UVM_INFO /home/khang/Documents/SystemVerilog/Soc_RV32I/SoC/VERIFICATION/Monitor/cpu_monitor.sv(209) @ 3375000: uvm_test_top.env.agent.monitor [IF] PC=0000002c  INSTR=ff1a8ee3  [BEQ  x21, x17, ...]            
# UVM_INFO /home/khang/Documents/SystemVerilog/Soc_RV32I/SoC/VERIFICATION/Monitor/cpu_monitor.sv(342) @ 3375000: uvm_test_top.env.agent.monitor [AXI_RD] CPU←DRAM  Addr=0000002c Data=4b9cf793 RRESP=00
# UVM_INFO /home/khang/Documents/SystemVerilog/Soc_RV32I/SoC/VERIFICATION/Monitor/cpu_monitor.sv(209) @ 3415000: uvm_test_top.env.agent.monitor [IF] PC=00000030  INSTR=4b9cf793  [ANDI x15, x25, 1209]            
# UVM_INFO /home/khang/Documents/SystemVerilog/Soc_RV32I/SoC/VERIFICATION/Monitor/cpu_monitor.sv(342) @ 3415000: uvm_test_top.env.agent.monitor [AXI_RD] CPU←DRAM  Addr=00000030 Data=ff7bc913 RRESP=00
# UVM_INFO /home/khang/Documents/SystemVerilog/Soc_RV32I/SoC/VERIFICATION/Monitor/cpu_monitor.sv(209) @ 3455000: uvm_test_top.env.agent.monitor [IF] PC=00000034  INSTR=ff7bc913  [XORI x18, x23, -9]            
# UVM_INFO /home/khang/Documents/SystemVerilog/Soc_RV32I/SoC/VERIFICATION/Monitor/cpu_monitor.sv(342) @ 3455000: uvm_test_top.env.agent.monitor [AXI_RD] CPU←DRAM  Addr=00000034 Data=53e0a823 RRESP=00
# UVM_INFO /home/khang/Documents/SystemVerilog/Soc_RV32I/SoC/VERIFICATION/Monitor/cpu_monitor.sv(274) @ 3465000: uvm_test_top.env.agent.monitor [WB] x18 <= fffffff7  (PC~00000034)
# UVM_INFO /home/khang/Documents/SystemVerilog/Soc_RV32I/SoC/VERIFICATION/Monitor/cpu_monitor.sv(274) @ 3475000: uvm_test_top.env.agent.monitor [WB] x18 <= fffffff7  (PC~00000034)
# UVM_INFO /home/khang/Documents/SystemVerilog/Soc_RV32I/SoC/VERIFICATION/Monitor/cpu_monitor.sv(274) @ 3485000: uvm_test_top.env.agent.monitor [WB] x18 <= fffffff7  (PC~00000034)
# UVM_INFO /home/khang/Documents/SystemVerilog/Soc_RV32I/SoC/VERIFICATION/Monitor/cpu_monitor.sv(209) @ 3495000: uvm_test_top.env.agent.monitor [IF] PC=00000028  INSTR=53e0a823  [SW   x30, 1342(x1)]            
# UVM_INFO /home/khang/Documents/SystemVerilog/Soc_RV32I/SoC/VERIFICATION/Monitor/cpu_monitor.sv(274) @ 3495000: uvm_test_top.env.agent.monitor [WB] x18 <= fffffff7  (PC~00000028)
# UVM_INFO /home/khang/Documents/SystemVerilog/Soc_RV32I/SoC/VERIFICATION/Monitor/cpu_monitor.sv(342) @ 3495000: uvm_test_top.env.agent.monitor [AXI_RD] CPU←DRAM  Addr=00000028 Data=ff1a8ee3 RRESP=00
# UVM_INFO /home/khang/Documents/SystemVerilog/Soc_RV32I/SoC/VERIFICATION/Monitor/cpu_monitor.sv(209) @ 3535000: uvm_test_top.env.agent.monitor [IF] PC=0000002c  INSTR=ff1a8ee3  [BEQ  x21, x17, ...]            
# UVM_INFO /home/khang/Documents/SystemVerilog/Soc_RV32I/SoC/VERIFICATION/Monitor/cpu_monitor.sv(342) @ 3535000: uvm_test_top.env.agent.monitor [AXI_RD] CPU←DRAM  Addr=0000002c Data=4b9cf793 RRESP=00
# UVM_INFO /home/khang/Documents/SystemVerilog/Soc_RV32I/SoC/VERIFICATION/Monitor/cpu_monitor.sv(209) @ 3575000: uvm_test_top.env.agent.monitor [IF] PC=00000030  INSTR=4b9cf793  [ANDI x15, x25, 1209]            
# UVM_INFO /home/khang/Documents/SystemVerilog/Soc_RV32I/SoC/VERIFICATION/Monitor/cpu_monitor.sv(342) @ 3575000: uvm_test_top.env.agent.monitor [AXI_RD] CPU←DRAM  Addr=00000030 Data=ff7bc913 RRESP=00
# UVM_INFO /home/khang/Documents/SystemVerilog/Soc_RV32I/SoC/VERIFICATION/Monitor/cpu_monitor.sv(245) @ 3585000: uvm_test_top.env.agent.monitor [MEM] STORE Addr=10000530 Data=00000000
# UVM_INFO /home/khang/Documents/SystemVerilog/Soc_RV32I/SoC/VERIFICATION/Monitor/cpu_monitor.sv(245) @ 3595000: uvm_test_top.env.agent.monitor [MEM] STORE Addr=10000530 Data=00000000
# [DRAM WRITE] addr=10000530 data=00000000
# UVM_INFO /home/khang/Documents/SystemVerilog/Soc_RV32I/SoC/VERIFICATION/Monitor/cpu_monitor.sv(245) @ 3605000: uvm_test_top.env.agent.monitor [MEM] STORE Addr=10000530 Data=00000000
# UVM_INFO /home/khang/Documents/SystemVerilog/Soc_RV32I/SoC/VERIFICATION/Monitor/cpu_monitor.sv(209) @ 3615000: uvm_test_top.env.agent.monitor [IF] PC=00000034  INSTR=ff7bc913  [XORI x18, x23, -9]            
# UVM_INFO /home/khang/Documents/SystemVerilog/Soc_RV32I/SoC/VERIFICATION/Monitor/cpu_monitor.sv(245) @ 3615000: uvm_test_top.env.agent.monitor [MEM] STORE Addr=10000530 Data=00000000
# UVM_INFO /home/khang/Documents/SystemVerilog/Soc_RV32I/SoC/VERIFICATION/Monitor/cpu_monitor.sv(313) @ 3615000: uvm_test_top.env.agent.monitor [AXI_WR] CPU→DRAM  Addr=10000530 Data=00000000 Strb=1111 BRESP=00
# UVM_INFO /home/khang/Documents/SystemVerilog/Soc_RV32I/SoC/VERIFICATION/Monitor/cpu_monitor.sv(209) @ 3655000: uvm_test_top.env.agent.monitor [IF] PC=00000028  INSTR=ff7bc913  [XORI x18, x23, -9]            
# UVM_INFO /home/khang/Documents/SystemVerilog/Soc_RV32I/SoC/VERIFICATION/Monitor/cpu_monitor.sv(342) @ 3655000: uvm_test_top.env.agent.monitor [AXI_RD] CPU←DRAM  Addr=00000028 Data=ff1a8ee3 RRESP=00
# UVM_INFO /home/khang/Documents/SystemVerilog/Soc_RV32I/SoC/VERIFICATION/Monitor/cpu_monitor.sv(209) @ 3695000: uvm_test_top.env.agent.monitor [IF] PC=0000002c  INSTR=ff1a8ee3  [BEQ  x21, x17, ...]            
# UVM_INFO /home/khang/Documents/SystemVerilog/Soc_RV32I/SoC/VERIFICATION/Monitor/cpu_monitor.sv(342) @ 3695000: uvm_test_top.env.agent.monitor [AXI_RD] CPU←DRAM  Addr=0000002c Data=4b9cf793 RRESP=00
# UVM_INFO /home/khang/Documents/SystemVerilog/Soc_RV32I/SoC/VERIFICATION/Monitor/cpu_monitor.sv(209) @ 3735000: uvm_test_top.env.agent.monitor [IF] PC=00000030  INSTR=4b9cf793  [ANDI x15, x25, 1209]            
# UVM_INFO /home/khang/Documents/SystemVerilog/Soc_RV32I/SoC/VERIFICATION/Monitor/cpu_monitor.sv(342) @ 3735000: uvm_test_top.env.agent.monitor [AXI_RD] CPU←DRAM  Addr=00000030 Data=ff7bc913 RRESP=00
# UVM_INFO /home/khang/Documents/SystemVerilog/Soc_RV32I/SoC/VERIFICATION/Monitor/cpu_monitor.sv(209) @ 3775000: uvm_test_top.env.agent.monitor [IF] PC=00000034  INSTR=ff7bc913  [XORI x18, x23, -9]            
# UVM_INFO /home/khang/Documents/SystemVerilog/Soc_RV32I/SoC/VERIFICATION/Monitor/cpu_monitor.sv(342) @ 3775000: uvm_test_top.env.agent.monitor [AXI_RD] CPU←DRAM  Addr=00000034 Data=53e0a823 RRESP=00
# UVM_INFO /home/khang/Documents/SystemVerilog/Soc_RV32I/SoC/VERIFICATION/Monitor/cpu_monitor.sv(274) @ 3785000: uvm_test_top.env.agent.monitor [WB] x18 <= fffffff7  (PC~00000034)
# UVM_INFO /home/khang/Documents/SystemVerilog/Soc_RV32I/SoC/VERIFICATION/Monitor/cpu_monitor.sv(274) @ 3795000: uvm_test_top.env.agent.monitor [WB] x18 <= fffffff7  (PC~00000034)
# UVM_INFO /home/khang/Documents/SystemVerilog/Soc_RV32I/SoC/VERIFICATION/Monitor/cpu_monitor.sv(274) @ 3805000: uvm_test_top.env.agent.monitor [WB] x18 <= fffffff7  (PC~00000034)
# UVM_INFO /home/khang/Documents/SystemVerilog/Soc_RV32I/SoC/VERIFICATION/Monitor/cpu_monitor.sv(209) @ 3815000: uvm_test_top.env.agent.monitor [IF] PC=00000028  INSTR=53e0a823  [SW   x30, 1342(x1)]            
# UVM_INFO /home/khang/Documents/SystemVerilog/Soc_RV32I/SoC/VERIFICATION/Monitor/cpu_monitor.sv(274) @ 3815000: uvm_test_top.env.agent.monitor [WB] x18 <= fffffff7  (PC~00000028)
# UVM_INFO /home/khang/Documents/SystemVerilog/Soc_RV32I/SoC/VERIFICATION/Monitor/cpu_monitor.sv(342) @ 3815000: uvm_test_top.env.agent.monitor [AXI_RD] CPU←DRAM  Addr=00000028 Data=ff1a8ee3 RRESP=00
# UVM_INFO /home/khang/Documents/SystemVerilog/Soc_RV32I/SoC/VERIFICATION/Monitor/cpu_monitor.sv(209) @ 3855000: uvm_test_top.env.agent.monitor [IF] PC=0000002c  INSTR=ff1a8ee3  [BEQ  x21, x17, ...]            
# UVM_INFO /home/khang/Documents/SystemVerilog/Soc_RV32I/SoC/VERIFICATION/Monitor/cpu_monitor.sv(342) @ 3855000: uvm_test_top.env.agent.monitor [AXI_RD] CPU←DRAM  Addr=0000002c Data=4b9cf793 RRESP=00
# UVM_INFO /home/khang/Documents/SystemVerilog/Soc_RV32I/SoC/VERIFICATION/Monitor/cpu_monitor.sv(209) @ 3895000: uvm_test_top.env.agent.monitor [IF] PC=00000030  INSTR=4b9cf793  [ANDI x15, x25, 1209]            
# UVM_INFO /home/khang/Documents/SystemVerilog/Soc_RV32I/SoC/VERIFICATION/Monitor/cpu_monitor.sv(342) @ 3895000: uvm_test_top.env.agent.monitor [AXI_RD] CPU←DRAM  Addr=00000030 Data=ff7bc913 RRESP=00
# UVM_INFO /home/khang/Documents/SystemVerilog/Soc_RV32I/SoC/VERIFICATION/Monitor/cpu_monitor.sv(245) @ 3905000: uvm_test_top.env.agent.monitor [MEM] STORE Addr=10000530 Data=00000000
# UVM_INFO /home/khang/Documents/SystemVerilog/Soc_RV32I/SoC/VERIFICATION/Monitor/cpu_monitor.sv(245) @ 3915000: uvm_test_top.env.agent.monitor [MEM] STORE Addr=10000530 Data=00000000
# [DRAM WRITE] addr=10000530 data=00000000
# UVM_INFO /home/khang/Documents/SystemVerilog/Soc_RV32I/SoC/VERIFICATION/Monitor/cpu_monitor.sv(245) @ 3925000: uvm_test_top.env.agent.monitor [MEM] STORE Addr=10000530 Data=00000000
# UVM_INFO /home/khang/Documents/SystemVerilog/Soc_RV32I/SoC/VERIFICATION/Monitor/cpu_monitor.sv(209) @ 3935000: uvm_test_top.env.agent.monitor [IF] PC=00000034  INSTR=ff7bc913  [XORI x18, x23, -9]            
# UVM_INFO /home/khang/Documents/SystemVerilog/Soc_RV32I/SoC/VERIFICATION/Monitor/cpu_monitor.sv(245) @ 3935000: uvm_test_top.env.agent.monitor [MEM] STORE Addr=10000530 Data=00000000
# UVM_INFO /home/khang/Documents/SystemVerilog/Soc_RV32I/SoC/VERIFICATION/Monitor/cpu_monitor.sv(313) @ 3935000: uvm_test_top.env.agent.monitor [AXI_WR] CPU→DRAM  Addr=10000530 Data=00000000 Strb=1111 BRESP=00
# UVM_INFO /home/khang/Documents/SystemVerilog/Soc_RV32I/SoC/VERIFICATION/Monitor/cpu_monitor.sv(209) @ 3975000: uvm_test_top.env.agent.monitor [IF] PC=00000028  INSTR=ff7bc913  [XORI x18, x23, -9]            
# UVM_INFO /home/khang/Documents/SystemVerilog/Soc_RV32I/SoC/VERIFICATION/Monitor/cpu_monitor.sv(342) @ 3975000: uvm_test_top.env.agent.monitor [AXI_RD] CPU←DRAM  Addr=00000028 Data=ff1a8ee3 RRESP=00
# UVM_INFO /home/khang/Documents/SystemVerilog/Soc_RV32I/SoC/VERIFICATION/Monitor/cpu_monitor.sv(209) @ 4015000: uvm_test_top.env.agent.monitor [IF] PC=0000002c  INSTR=ff1a8ee3  [BEQ  x21, x17, ...]            
# UVM_INFO /home/khang/Documents/SystemVerilog/Soc_RV32I/SoC/VERIFICATION/Monitor/cpu_monitor.sv(342) @ 4015000: uvm_test_top.env.agent.monitor [AXI_RD] CPU←DRAM  Addr=0000002c Data=4b9cf793 RRESP=00
# UVM_INFO /home/khang/Documents/SystemVerilog/Soc_RV32I/SoC/VERIFICATION/Monitor/cpu_monitor.sv(209) @ 4055000: uvm_test_top.env.agent.monitor [IF] PC=00000030  INSTR=4b9cf793  [ANDI x15, x25, 1209]            
# UVM_INFO /home/khang/Documents/SystemVerilog/Soc_RV32I/SoC/VERIFICATION/Monitor/cpu_monitor.sv(342) @ 4055000: uvm_test_top.env.agent.monitor [AXI_RD] CPU←DRAM  Addr=00000030 Data=ff7bc913 RRESP=00
# UVM_INFO /home/khang/Documents/SystemVerilog/Soc_RV32I/SoC/VERIFICATION/Monitor/cpu_monitor.sv(209) @ 4095000: uvm_test_top.env.agent.monitor [IF] PC=00000034  INSTR=ff7bc913  [XORI x18, x23, -9]            
# UVM_INFO /home/khang/Documents/SystemVerilog/Soc_RV32I/SoC/VERIFICATION/Monitor/cpu_monitor.sv(342) @ 4095000: uvm_test_top.env.agent.monitor [AXI_RD] CPU←DRAM  Addr=00000034 Data=53e0a823 RRESP=00
# UVM_INFO /home/khang/Documents/SystemVerilog/Soc_RV32I/SoC/VERIFICATION/Monitor/cpu_monitor.sv(274) @ 4105000: uvm_test_top.env.agent.monitor [WB] x18 <= fffffff7  (PC~00000034)
# UVM_INFO /home/khang/Documents/SystemVerilog/Soc_RV32I/SoC/VERIFICATION/Monitor/cpu_monitor.sv(274) @ 4115000: uvm_test_top.env.agent.monitor [WB] x18 <= fffffff7  (PC~00000034)
# UVM_INFO /home/khang/Documents/SystemVerilog/Soc_RV32I/SoC/VERIFICATION/Monitor/cpu_monitor.sv(274) @ 4125000: uvm_test_top.env.agent.monitor [WB] x18 <= fffffff7  (PC~00000034)
# UVM_INFO /home/khang/Documents/SystemVerilog/Soc_RV32I/SoC/VERIFICATION/Monitor/cpu_monitor.sv(209) @ 4135000: uvm_test_top.env.agent.monitor [IF] PC=00000028  INSTR=53e0a823  [SW   x30, 1342(x1)]            
# UVM_INFO /home/khang/Documents/SystemVerilog/Soc_RV32I/SoC/VERIFICATION/Monitor/cpu_monitor.sv(274) @ 4135000: uvm_test_top.env.agent.monitor [WB] x18 <= fffffff7  (PC~00000028)
# UVM_INFO /home/khang/Documents/SystemVerilog/Soc_RV32I/SoC/VERIFICATION/Monitor/cpu_monitor.sv(342) @ 4135000: uvm_test_top.env.agent.monitor [AXI_RD] CPU←DRAM  Addr=00000028 Data=ff1a8ee3 RRESP=00
# UVM_INFO /home/khang/Documents/SystemVerilog/Soc_RV32I/SoC/VERIFICATION/Monitor/cpu_monitor.sv(209) @ 4175000: uvm_test_top.env.agent.monitor [IF] PC=0000002c  INSTR=ff1a8ee3  [BEQ  x21, x17, ...]            
# UVM_INFO /home/khang/Documents/SystemVerilog/Soc_RV32I/SoC/VERIFICATION/Monitor/cpu_monitor.sv(342) @ 4175000: uvm_test_top.env.agent.monitor [AXI_RD] CPU←DRAM  Addr=0000002c Data=4b9cf793 RRESP=00
# UVM_INFO /home/khang/Documents/SystemVerilog/Soc_RV32I/SoC/VERIFICATION/Monitor/cpu_monitor.sv(209) @ 4215000: uvm_test_top.env.agent.monitor [IF] PC=00000030  INSTR=4b9cf793  [ANDI x15, x25, 1209]            
# UVM_INFO /home/khang/Documents/SystemVerilog/Soc_RV32I/SoC/VERIFICATION/Monitor/cpu_monitor.sv(342) @ 4215000: uvm_test_top.env.agent.monitor [AXI_RD] CPU←DRAM  Addr=00000030 Data=ff7bc913 RRESP=00
# UVM_INFO /home/khang/Documents/SystemVerilog/Soc_RV32I/SoC/VERIFICATION/Monitor/cpu_monitor.sv(245) @ 4225000: uvm_test_top.env.agent.monitor [MEM] STORE Addr=10000530 Data=00000000
# UVM_INFO /home/khang/Documents/SystemVerilog/Soc_RV32I/SoC/VERIFICATION/Monitor/cpu_monitor.sv(245) @ 4235000: uvm_test_top.env.agent.monitor [MEM] STORE Addr=10000530 Data=00000000
# [DRAM WRITE] addr=10000530 data=00000000
# UVM_INFO /home/khang/Documents/SystemVerilog/Soc_RV32I/SoC/VERIFICATION/Monitor/cpu_monitor.sv(245) @ 4245000: uvm_test_top.env.agent.monitor [MEM] STORE Addr=10000530 Data=00000000
# UVM_INFO /home/khang/Documents/SystemVerilog/Soc_RV32I/SoC/VERIFICATION/Monitor/cpu_monitor.sv(209) @ 4255000: uvm_test_top.env.agent.monitor [IF] PC=00000034  INSTR=ff7bc913  [XORI x18, x23, -9]            
# UVM_INFO /home/khang/Documents/SystemVerilog/Soc_RV32I/SoC/VERIFICATION/Monitor/cpu_monitor.sv(245) @ 4255000: uvm_test_top.env.agent.monitor [MEM] STORE Addr=10000530 Data=00000000
# UVM_INFO /home/khang/Documents/SystemVerilog/Soc_RV32I/SoC/VERIFICATION/Monitor/cpu_monitor.sv(313) @ 4255000: uvm_test_top.env.agent.monitor [AXI_WR] CPU→DRAM  Addr=10000530 Data=00000000 Strb=1111 BRESP=00
# UVM_INFO /home/khang/Documents/SystemVerilog/Soc_RV32I/SoC/VERIFICATION/Monitor/cpu_monitor.sv(209) @ 4295000: uvm_test_top.env.agent.monitor [IF] PC=00000028  INSTR=ff7bc913  [XORI x18, x23, -9]            
# UVM_INFO /home/khang/Documents/SystemVerilog/Soc_RV32I/SoC/VERIFICATION/Monitor/cpu_monitor.sv(342) @ 4295000: uvm_test_top.env.agent.monitor [AXI_RD] CPU←DRAM  Addr=00000028 Data=ff1a8ee3 RRESP=00
# UVM_INFO /home/khang/Documents/SystemVerilog/Soc_RV32I/SoC/VERIFICATION/Monitor/cpu_monitor.sv(209) @ 4335000: uvm_test_top.env.agent.monitor [IF] PC=0000002c  INSTR=ff1a8ee3  [BEQ  x21, x17, ...]            
# UVM_INFO /home/khang/Documents/SystemVerilog/Soc_RV32I/SoC/VERIFICATION/Monitor/cpu_monitor.sv(342) @ 4335000: uvm_test_top.env.agent.monitor [AXI_RD] CPU←DRAM  Addr=0000002c Data=4b9cf793 RRESP=00
# UVM_INFO /home/khang/Documents/SystemVerilog/Soc_RV32I/SoC/VERIFICATION/Monitor/cpu_monitor.sv(209) @ 4375000: uvm_test_top.env.agent.monitor [IF] PC=00000030  INSTR=4b9cf793  [ANDI x15, x25, 1209]            
# UVM_INFO /home/khang/Documents/SystemVerilog/Soc_RV32I/SoC/VERIFICATION/Monitor/cpu_monitor.sv(342) @ 4375000: uvm_test_top.env.agent.monitor [AXI_RD] CPU←DRAM  Addr=00000030 Data=ff7bc913 RRESP=00
# UVM_INFO /home/khang/Documents/SystemVerilog/Soc_RV32I/SoC/VERIFICATION/Monitor/cpu_monitor.sv(209) @ 4415000: uvm_test_top.env.agent.monitor [IF] PC=00000034  INSTR=ff7bc913  [XORI x18, x23, -9]            
# UVM_INFO /home/khang/Documents/SystemVerilog/Soc_RV32I/SoC/VERIFICATION/Monitor/cpu_monitor.sv(342) @ 4415000: uvm_test_top.env.agent.monitor [AXI_RD] CPU←DRAM  Addr=00000034 Data=53e0a823 RRESP=00
# UVM_INFO /home/khang/Documents/SystemVerilog/Soc_RV32I/SoC/VERIFICATION/Monitor/cpu_monitor.sv(274) @ 4425000: uvm_test_top.env.agent.monitor [WB] x18 <= fffffff7  (PC~00000034)
# UVM_INFO /home/khang/Documents/SystemVerilog/Soc_RV32I/SoC/VERIFICATION/Monitor/cpu_monitor.sv(274) @ 4435000: uvm_test_top.env.agent.monitor [WB] x18 <= fffffff7  (PC~00000034)
# UVM_INFO /home/khang/Documents/SystemVerilog/Soc_RV32I/SoC/VERIFICATION/Monitor/cpu_monitor.sv(274) @ 4445000: uvm_test_top.env.agent.monitor [WB] x18 <= fffffff7  (PC~00000034)
# UVM_INFO /home/khang/Documents/SystemVerilog/Soc_RV32I/SoC/VERIFICATION/Monitor/cpu_monitor.sv(209) @ 4455000: uvm_test_top.env.agent.monitor [IF] PC=00000028  INSTR=53e0a823  [SW   x30, 1342(x1)]            
# UVM_INFO /home/khang/Documents/SystemVerilog/Soc_RV32I/SoC/VERIFICATION/Monitor/cpu_monitor.sv(274) @ 4455000: uvm_test_top.env.agent.monitor [WB] x18 <= fffffff7  (PC~00000028)
# UVM_INFO /home/khang/Documents/SystemVerilog/Soc_RV32I/SoC/VERIFICATION/Monitor/cpu_monitor.sv(342) @ 4455000: uvm_test_top.env.agent.monitor [AXI_RD] CPU←DRAM  Addr=00000028 Data=ff1a8ee3 RRESP=00
# UVM_INFO /home/khang/Documents/SystemVerilog/Soc_RV32I/SoC/VERIFICATION/Monitor/cpu_monitor.sv(209) @ 4495000: uvm_test_top.env.agent.monitor [IF] PC=0000002c  INSTR=ff1a8ee3  [BEQ  x21, x17, ...]            
# UVM_INFO /home/khang/Documents/SystemVerilog/Soc_RV32I/SoC/VERIFICATION/Monitor/cpu_monitor.sv(342) @ 4495000: uvm_test_top.env.agent.monitor [AXI_RD] CPU←DRAM  Addr=0000002c Data=4b9cf793 RRESP=00
# UVM_INFO /home/khang/Documents/SystemVerilog/Soc_RV32I/SoC/VERIFICATION/Monitor/cpu_monitor.sv(209) @ 4535000: uvm_test_top.env.agent.monitor [IF] PC=00000030  INSTR=4b9cf793  [ANDI x15, x25, 1209]            
# UVM_INFO /home/khang/Documents/SystemVerilog/Soc_RV32I/SoC/VERIFICATION/Monitor/cpu_monitor.sv(342) @ 4535000: uvm_test_top.env.agent.monitor [AXI_RD] CPU←DRAM  Addr=00000030 Data=ff7bc913 RRESP=00
# UVM_INFO /home/khang/Documents/SystemVerilog/Soc_RV32I/SoC/VERIFICATION/Monitor/cpu_monitor.sv(245) @ 4545000: uvm_test_top.env.agent.monitor [MEM] STORE Addr=10000530 Data=00000000
# UVM_INFO /home/khang/Documents/SystemVerilog/Soc_RV32I/SoC/VERIFICATION/Monitor/cpu_monitor.sv(245) @ 4555000: uvm_test_top.env.agent.monitor [MEM] STORE Addr=10000530 Data=00000000
# [DRAM WRITE] addr=10000530 data=00000000
# UVM_INFO /home/khang/Documents/SystemVerilog/Soc_RV32I/SoC/VERIFICATION/Monitor/cpu_monitor.sv(245) @ 4565000: uvm_test_top.env.agent.monitor [MEM] STORE Addr=10000530 Data=00000000
# UVM_INFO /home/khang/Documents/SystemVerilog/Soc_RV32I/SoC/VERIFICATION/Monitor/cpu_monitor.sv(209) @ 4575000: uvm_test_top.env.agent.monitor [IF] PC=00000034  INSTR=ff7bc913  [XORI x18, x23, -9]            
# UVM_INFO /home/khang/Documents/SystemVerilog/Soc_RV32I/SoC/VERIFICATION/Monitor/cpu_monitor.sv(245) @ 4575000: uvm_test_top.env.agent.monitor [MEM] STORE Addr=10000530 Data=00000000
# UVM_INFO /home/khang/Documents/SystemVerilog/Soc_RV32I/SoC/VERIFICATION/Monitor/cpu_monitor.sv(313) @ 4575000: uvm_test_top.env.agent.monitor [AXI_WR] CPU→DRAM  Addr=10000530 Data=00000000 Strb=1111 BRESP=00
# UVM_INFO /home/khang/Documents/SystemVerilog/Soc_RV32I/SoC/VERIFICATION/Monitor/cpu_monitor.sv(209) @ 4615000: uvm_test_top.env.agent.monitor [IF] PC=00000028  INSTR=ff7bc913  [XORI x18, x23, -9]            
# UVM_INFO /home/khang/Documents/SystemVerilog/Soc_RV32I/SoC/VERIFICATION/Monitor/cpu_monitor.sv(342) @ 4615000: uvm_test_top.env.agent.monitor [AXI_RD] CPU←DRAM  Addr=00000028 Data=ff1a8ee3 RRESP=00
# UVM_INFO /home/khang/Documents/SystemVerilog/Soc_RV32I/SoC/VERIFICATION/Monitor/cpu_monitor.sv(209) @ 4655000: uvm_test_top.env.agent.monitor [IF] PC=0000002c  INSTR=ff1a8ee3  [BEQ  x21, x17, ...]            
# UVM_INFO /home/khang/Documents/SystemVerilog/Soc_RV32I/SoC/VERIFICATION/Monitor/cpu_monitor.sv(342) @ 4655000: uvm_test_top.env.agent.monitor [AXI_RD] CPU←DRAM  Addr=0000002c Data=4b9cf793 RRESP=00
# UVM_INFO /home/khang/Documents/SystemVerilog/Soc_RV32I/SoC/VERIFICATION/Monitor/cpu_monitor.sv(209) @ 4695000: uvm_test_top.env.agent.monitor [IF] PC=00000030  INSTR=4b9cf793  [ANDI x15, x25, 1209]            
# UVM_INFO /home/khang/Documents/SystemVerilog/Soc_RV32I/SoC/VERIFICATION/Monitor/cpu_monitor.sv(342) @ 4695000: uvm_test_top.env.agent.monitor [AXI_RD] CPU←DRAM  Addr=00000030 Data=ff7bc913 RRESP=00
# UVM_INFO /home/khang/Documents/SystemVerilog/Soc_RV32I/SoC/VERIFICATION/Monitor/cpu_monitor.sv(209) @ 4735000: uvm_test_top.env.agent.monitor [IF] PC=00000034  INSTR=ff7bc913  [XORI x18, x23, -9]            
# UVM_INFO /home/khang/Documents/SystemVerilog/Soc_RV32I/SoC/VERIFICATION/Monitor/cpu_monitor.sv(342) @ 4735000: uvm_test_top.env.agent.monitor [AXI_RD] CPU←DRAM  Addr=00000034 Data=53e0a823 RRESP=00
# UVM_INFO /home/khang/Documents/SystemVerilog/Soc_RV32I/SoC/VERIFICATION/Monitor/cpu_monitor.sv(274) @ 4745000: uvm_test_top.env.agent.monitor [WB] x18 <= fffffff7  (PC~00000034)
# UVM_INFO /home/khang/Documents/SystemVerilog/Soc_RV32I/SoC/VERIFICATION/Monitor/cpu_monitor.sv(274) @ 4755000: uvm_test_top.env.agent.monitor [WB] x18 <= fffffff7  (PC~00000034)
# UVM_INFO /home/khang/Documents/SystemVerilog/Soc_RV32I/SoC/VERIFICATION/Monitor/cpu_monitor.sv(274) @ 4765000: uvm_test_top.env.agent.monitor [WB] x18 <= fffffff7  (PC~00000034)
# UVM_INFO /home/khang/Documents/SystemVerilog/Soc_RV32I/SoC/VERIFICATION/Monitor/cpu_monitor.sv(209) @ 4775000: uvm_test_top.env.agent.monitor [IF] PC=00000028  INSTR=53e0a823  [SW   x30, 1342(x1)]            
# UVM_INFO /home/khang/Documents/SystemVerilog/Soc_RV32I/SoC/VERIFICATION/Monitor/cpu_monitor.sv(274) @ 4775000: uvm_test_top.env.agent.monitor [WB] x18 <= fffffff7  (PC~00000028)
# UVM_INFO /home/khang/Documents/SystemVerilog/Soc_RV32I/SoC/VERIFICATION/Monitor/cpu_monitor.sv(342) @ 4775000: uvm_test_top.env.agent.monitor [AXI_RD] CPU←DRAM  Addr=00000028 Data=ff1a8ee3 RRESP=00
# UVM_INFO /home/khang/Documents/SystemVerilog/Soc_RV32I/SoC/VERIFICATION/Monitor/cpu_monitor.sv(209) @ 4815000: uvm_test_top.env.agent.monitor [IF] PC=0000002c  INSTR=ff1a8ee3  [BEQ  x21, x17, ...]            
# UVM_INFO /home/khang/Documents/SystemVerilog/Soc_RV32I/SoC/VERIFICATION/Monitor/cpu_monitor.sv(342) @ 4815000: uvm_test_top.env.agent.monitor [AXI_RD] CPU←DRAM  Addr=0000002c Data=4b9cf793 RRESP=00
# UVM_INFO /home/khang/Documents/SystemVerilog/Soc_RV32I/SoC/VERIFICATION/Monitor/cpu_monitor.sv(209) @ 4855000: uvm_test_top.env.agent.monitor [IF] PC=00000030  INSTR=4b9cf793  [ANDI x15, x25, 1209]            
# UVM_INFO /home/khang/Documents/SystemVerilog/Soc_RV32I/SoC/VERIFICATION/Monitor/cpu_monitor.sv(342) @ 4855000: uvm_test_top.env.agent.monitor [AXI_RD] CPU←DRAM  Addr=00000030 Data=ff7bc913 RRESP=00
# UVM_INFO /home/khang/Documents/SystemVerilog/Soc_RV32I/SoC/VERIFICATION/Monitor/cpu_monitor.sv(245) @ 4865000: uvm_test_top.env.agent.monitor [MEM] STORE Addr=10000530 Data=00000000
# UVM_INFO /home/khang/Documents/SystemVerilog/Soc_RV32I/SoC/VERIFICATION/Monitor/cpu_monitor.sv(245) @ 4875000: uvm_test_top.env.agent.monitor [MEM] STORE Addr=10000530 Data=00000000
# [DRAM WRITE] addr=10000530 data=00000000
# UVM_INFO /home/khang/Documents/SystemVerilog/Soc_RV32I/SoC/VERIFICATION/Monitor/cpu_monitor.sv(245) @ 4885000: uvm_test_top.env.agent.monitor [MEM] STORE Addr=10000530 Data=00000000
# UVM_INFO /home/khang/Documents/SystemVerilog/Soc_RV32I/SoC/VERIFICATION/Monitor/cpu_monitor.sv(209) @ 4895000: uvm_test_top.env.agent.monitor [IF] PC=00000034  INSTR=ff7bc913  [XORI x18, x23, -9]            
# UVM_INFO /home/khang/Documents/SystemVerilog/Soc_RV32I/SoC/VERIFICATION/Monitor/cpu_monitor.sv(245) @ 4895000: uvm_test_top.env.agent.monitor [MEM] STORE Addr=10000530 Data=00000000
# UVM_INFO /home/khang/Documents/SystemVerilog/Soc_RV32I/SoC/VERIFICATION/Monitor/cpu_monitor.sv(313) @ 4895000: uvm_test_top.env.agent.monitor [AXI_WR] CPU→DRAM  Addr=10000530 Data=00000000 Strb=1111 BRESP=00
# UVM_INFO /home/khang/Documents/SystemVerilog/Soc_RV32I/SoC/VERIFICATION/Monitor/cpu_monitor.sv(209) @ 4935000: uvm_test_top.env.agent.monitor [IF] PC=00000028  INSTR=ff7bc913  [XORI x18, x23, -9]            
# UVM_INFO /home/khang/Documents/SystemVerilog/Soc_RV32I/SoC/VERIFICATION/Monitor/cpu_monitor.sv(342) @ 4935000: uvm_test_top.env.agent.monitor [AXI_RD] CPU←DRAM  Addr=00000028 Data=ff1a8ee3 RRESP=00
# UVM_INFO /home/khang/Documents/SystemVerilog/Soc_RV32I/SoC/VERIFICATION/Monitor/cpu_monitor.sv(209) @ 4975000: uvm_test_top.env.agent.monitor [IF] PC=0000002c  INSTR=ff1a8ee3  [BEQ  x21, x17, ...]            
# UVM_INFO /home/khang/Documents/SystemVerilog/Soc_RV32I/SoC/VERIFICATION/Monitor/cpu_monitor.sv(342) @ 4975000: uvm_test_top.env.agent.monitor [AXI_RD] CPU←DRAM  Addr=0000002c Data=4b9cf793 RRESP=00
# UVM_INFO /home/khang/Documents/SystemVerilog/Soc_RV32I/SoC/VERIFICATION/Monitor/cpu_monitor.sv(209) @ 5015000: uvm_test_top.env.agent.monitor [IF] PC=00000030  INSTR=4b9cf793  [ANDI x15, x25, 1209]            
# UVM_INFO /home/khang/Documents/SystemVerilog/Soc_RV32I/SoC/VERIFICATION/Monitor/cpu_monitor.sv(342) @ 5015000: uvm_test_top.env.agent.monitor [AXI_RD] CPU←DRAM  Addr=00000030 Data=ff7bc913 RRESP=00
# UVM_INFO /home/khang/Documents/SystemVerilog/Soc_RV32I/SoC/VERIFICATION/Monitor/cpu_monitor.sv(209) @ 5055000: uvm_test_top.env.agent.monitor [IF] PC=00000034  INSTR=ff7bc913  [XORI x18, x23, -9]            
# UVM_INFO /home/khang/Documents/SystemVerilog/Soc_RV32I/SoC/VERIFICATION/Monitor/cpu_monitor.sv(342) @ 5055000: uvm_test_top.env.agent.monitor [AXI_RD] CPU←DRAM  Addr=00000034 Data=53e0a823 RRESP=00
# UVM_INFO /home/khang/Documents/SystemVerilog/Soc_RV32I/SoC/VERIFICATION/Monitor/cpu_monitor.sv(274) @ 5065000: uvm_test_top.env.agent.monitor [WB] x18 <= fffffff7  (PC~00000034)
# UVM_INFO /home/khang/Documents/SystemVerilog/Soc_RV32I/SoC/VERIFICATION/Monitor/cpu_monitor.sv(274) @ 5075000: uvm_test_top.env.agent.monitor [WB] x18 <= fffffff7  (PC~00000034)
# UVM_INFO /home/khang/Documents/SystemVerilog/Soc_RV32I/SoC/VERIFICATION/Monitor/cpu_monitor.sv(274) @ 5085000: uvm_test_top.env.agent.monitor [WB] x18 <= fffffff7  (PC~00000034)
# UVM_INFO /home/khang/Documents/SystemVerilog/Soc_RV32I/SoC/VERIFICATION/Monitor/cpu_monitor.sv(209) @ 5095000: uvm_test_top.env.agent.monitor [IF] PC=00000028  INSTR=53e0a823  [SW   x30, 1342(x1)]            
# UVM_INFO /home/khang/Documents/SystemVerilog/Soc_RV32I/SoC/VERIFICATION/Monitor/cpu_monitor.sv(274) @ 5095000: uvm_test_top.env.agent.monitor [WB] x18 <= fffffff7  (PC~00000028)
# UVM_INFO /home/khang/Documents/SystemVerilog/Soc_RV32I/SoC/VERIFICATION/Monitor/cpu_monitor.sv(342) @ 5095000: uvm_test_top.env.agent.monitor [AXI_RD] CPU←DRAM  Addr=00000028 Data=ff1a8ee3 RRESP=00
# UVM_INFO /home/khang/Documents/SystemVerilog/Soc_RV32I/SoC/VERIFICATION/Monitor/cpu_monitor.sv(209) @ 5135000: uvm_test_top.env.agent.monitor [IF] PC=0000002c  INSTR=ff1a8ee3  [BEQ  x21, x17, ...]            
# UVM_INFO /home/khang/Documents/SystemVerilog/Soc_RV32I/SoC/VERIFICATION/Monitor/cpu_monitor.sv(342) @ 5135000: uvm_test_top.env.agent.monitor [AXI_RD] CPU←DRAM  Addr=0000002c Data=4b9cf793 RRESP=00
# UVM_INFO /home/khang/Documents/SystemVerilog/Soc_RV32I/SoC/VERIFICATION/Monitor/cpu_monitor.sv(209) @ 5175000: uvm_test_top.env.agent.monitor [IF] PC=00000030  INSTR=4b9cf793  [ANDI x15, x25, 1209]            
# UVM_INFO /home/khang/Documents/SystemVerilog/Soc_RV32I/SoC/VERIFICATION/Monitor/cpu_monitor.sv(342) @ 5175000: uvm_test_top.env.agent.monitor [AXI_RD] CPU←DRAM  Addr=00000030 Data=ff7bc913 RRESP=00
# UVM_INFO /home/khang/Documents/SystemVerilog/Soc_RV32I/SoC/VERIFICATION/Monitor/cpu_monitor.sv(245) @ 5185000: uvm_test_top.env.agent.monitor [MEM] STORE Addr=10000530 Data=00000000
# UVM_INFO /home/khang/Documents/SystemVerilog/Soc_RV32I/SoC/VERIFICATION/Monitor/cpu_monitor.sv(245) @ 5195000: uvm_test_top.env.agent.monitor [MEM] STORE Addr=10000530 Data=00000000
# [DRAM WRITE] addr=10000530 data=00000000
# UVM_INFO /home/khang/Documents/SystemVerilog/Soc_RV32I/SoC/VERIFICATION/Monitor/cpu_monitor.sv(245) @ 5205000: uvm_test_top.env.agent.monitor [MEM] STORE Addr=10000530 Data=00000000
# UVM_INFO /home/khang/Documents/SystemVerilog/Soc_RV32I/SoC/VERIFICATION/Monitor/cpu_monitor.sv(209) @ 5215000: uvm_test_top.env.agent.monitor [IF] PC=00000034  INSTR=ff7bc913  [XORI x18, x23, -9]            
# UVM_INFO /home/khang/Documents/SystemVerilog/Soc_RV32I/SoC/VERIFICATION/Monitor/cpu_monitor.sv(245) @ 5215000: uvm_test_top.env.agent.monitor [MEM] STORE Addr=10000530 Data=00000000
# UVM_INFO /home/khang/Documents/SystemVerilog/Soc_RV32I/SoC/VERIFICATION/Monitor/cpu_monitor.sv(313) @ 5215000: uvm_test_top.env.agent.monitor [AXI_WR] CPU→DRAM  Addr=10000530 Data=00000000 Strb=1111 BRESP=00
# UVM_INFO /home/khang/Documents/SystemVerilog/Soc_RV32I/SoC/VERIFICATION/Monitor/cpu_monitor.sv(209) @ 5255000: uvm_test_top.env.agent.monitor [IF] PC=00000028  INSTR=ff7bc913  [XORI x18, x23, -9]            
# UVM_INFO /home/khang/Documents/SystemVerilog/Soc_RV32I/SoC/VERIFICATION/Monitor/cpu_monitor.sv(342) @ 5255000: uvm_test_top.env.agent.monitor [AXI_RD] CPU←DRAM  Addr=00000028 Data=ff1a8ee3 RRESP=00
# UVM_INFO /home/khang/Documents/SystemVerilog/Soc_RV32I/SoC/VERIFICATION/Monitor/cpu_monitor.sv(209) @ 5295000: uvm_test_top.env.agent.monitor [IF] PC=0000002c  INSTR=ff1a8ee3  [BEQ  x21, x17, ...]            
# UVM_INFO /home/khang/Documents/SystemVerilog/Soc_RV32I/SoC/VERIFICATION/Monitor/cpu_monitor.sv(342) @ 5295000: uvm_test_top.env.agent.monitor [AXI_RD] CPU←DRAM  Addr=0000002c Data=4b9cf793 RRESP=00
# UVM_INFO /home/khang/Documents/SystemVerilog/Soc_RV32I/SoC/VERIFICATION/Monitor/cpu_monitor.sv(209) @ 5335000: uvm_test_top.env.agent.monitor [IF] PC=00000030  INSTR=4b9cf793  [ANDI x15, x25, 1209]            
# UVM_INFO /home/khang/Documents/SystemVerilog/Soc_RV32I/SoC/VERIFICATION/Monitor/cpu_monitor.sv(342) @ 5335000: uvm_test_top.env.agent.monitor [AXI_RD] CPU←DRAM  Addr=00000030 Data=ff7bc913 RRESP=00
# UVM_INFO /home/khang/Documents/SystemVerilog/Soc_RV32I/SoC/VERIFICATION/Monitor/cpu_monitor.sv(209) @ 5375000: uvm_test_top.env.agent.monitor [IF] PC=00000034  INSTR=ff7bc913  [XORI x18, x23, -9]            
# UVM_INFO /home/khang/Documents/SystemVerilog/Soc_RV32I/SoC/VERIFICATION/Monitor/cpu_monitor.sv(342) @ 5375000: uvm_test_top.env.agent.monitor [AXI_RD] CPU←DRAM  Addr=00000034 Data=53e0a823 RRESP=00
# UVM_INFO /home/khang/Documents/SystemVerilog/Soc_RV32I/SoC/VERIFICATION/Monitor/cpu_monitor.sv(274) @ 5385000: uvm_test_top.env.agent.monitor [WB] x18 <= fffffff7  (PC~00000034)
# UVM_INFO /home/khang/Documents/SystemVerilog/Soc_RV32I/SoC/VERIFICATION/Monitor/cpu_monitor.sv(274) @ 5395000: uvm_test_top.env.agent.monitor [WB] x18 <= fffffff7  (PC~00000034)
# UVM_INFO /home/khang/Documents/SystemVerilog/Soc_RV32I/SoC/VERIFICATION/Monitor/cpu_monitor.sv(274) @ 5405000: uvm_test_top.env.agent.monitor [WB] x18 <= fffffff7  (PC~00000034)
# UVM_INFO /home/khang/Documents/SystemVerilog/Soc_RV32I/SoC/VERIFICATION/Monitor/cpu_monitor.sv(209) @ 5415000: uvm_test_top.env.agent.monitor [IF] PC=00000028  INSTR=53e0a823  [SW   x30, 1342(x1)]            
# UVM_INFO /home/khang/Documents/SystemVerilog/Soc_RV32I/SoC/VERIFICATION/Monitor/cpu_monitor.sv(274) @ 5415000: uvm_test_top.env.agent.monitor [WB] x18 <= fffffff7  (PC~00000028)
# UVM_INFO /home/khang/Documents/SystemVerilog/Soc_RV32I/SoC/VERIFICATION/Monitor/cpu_monitor.sv(342) @ 5415000: uvm_test_top.env.agent.monitor [AXI_RD] CPU←DRAM  Addr=00000028 Data=ff1a8ee3 RRESP=00
# UVM_INFO /home/khang/Documents/SystemVerilog/Soc_RV32I/SoC/VERIFICATION/Monitor/cpu_monitor.sv(209) @ 5455000: uvm_test_top.env.agent.monitor [IF] PC=0000002c  INSTR=ff1a8ee3  [BEQ  x21, x17, ...]            
# UVM_INFO /home/khang/Documents/SystemVerilog/Soc_RV32I/SoC/VERIFICATION/Monitor/cpu_monitor.sv(342) @ 5455000: uvm_test_top.env.agent.monitor [AXI_RD] CPU←DRAM  Addr=0000002c Data=4b9cf793 RRESP=00
# UVM_INFO /home/khang/Documents/SystemVerilog/Soc_RV32I/SoC/VERIFICATION/Monitor/cpu_monitor.sv(209) @ 5495000: uvm_test_top.env.agent.monitor [IF] PC=00000030  INSTR=4b9cf793  [ANDI x15, x25, 1209]            
# UVM_INFO /home/khang/Documents/SystemVerilog/Soc_RV32I/SoC/VERIFICATION/Monitor/cpu_monitor.sv(342) @ 5495000: uvm_test_top.env.agent.monitor [AXI_RD] CPU←DRAM  Addr=00000030 Data=ff7bc913 RRESP=00
# UVM_INFO /home/khang/Documents/SystemVerilog/Soc_RV32I/SoC/VERIFICATION/Monitor/cpu_monitor.sv(245) @ 5505000: uvm_test_top.env.agent.monitor [MEM] STORE Addr=10000530 Data=00000000
# UVM_INFO /home/khang/Documents/SystemVerilog/Soc_RV32I/SoC/VERIFICATION/Monitor/cpu_monitor.sv(245) @ 5515000: uvm_test_top.env.agent.monitor [MEM] STORE Addr=10000530 Data=00000000
# [DRAM WRITE] addr=10000530 data=00000000
# UVM_INFO /home/khang/Documents/SystemVerilog/Soc_RV32I/SoC/VERIFICATION/Monitor/cpu_monitor.sv(245) @ 5525000: uvm_test_top.env.agent.monitor [MEM] STORE Addr=10000530 Data=00000000
# UVM_INFO /home/khang/Documents/SystemVerilog/Soc_RV32I/SoC/VERIFICATION/Monitor/cpu_monitor.sv(209) @ 5535000: uvm_test_top.env.agent.monitor [IF] PC=00000034  INSTR=ff7bc913  [XORI x18, x23, -9]            
# UVM_INFO /home/khang/Documents/SystemVerilog/Soc_RV32I/SoC/VERIFICATION/Monitor/cpu_monitor.sv(245) @ 5535000: uvm_test_top.env.agent.monitor [MEM] STORE Addr=10000530 Data=00000000
# UVM_INFO /home/khang/Documents/SystemVerilog/Soc_RV32I/SoC/VERIFICATION/Monitor/cpu_monitor.sv(313) @ 5535000: uvm_test_top.env.agent.monitor [AXI_WR] CPU→DRAM  Addr=10000530 Data=00000000 Strb=1111 BRESP=00
# UVM_INFO /home/khang/Documents/SystemVerilog/Soc_RV32I/SoC/VERIFICATION/Monitor/cpu_monitor.sv(209) @ 5575000: uvm_test_top.env.agent.monitor [IF] PC=00000028  INSTR=ff7bc913  [XORI x18, x23, -9]            
# UVM_INFO /home/khang/Documents/SystemVerilog/Soc_RV32I/SoC/VERIFICATION/Monitor/cpu_monitor.sv(342) @ 5575000: uvm_test_top.env.agent.monitor [AXI_RD] CPU←DRAM  Addr=00000028 Data=ff1a8ee3 RRESP=00
# UVM_INFO /home/khang/Documents/SystemVerilog/Soc_RV32I/SoC/VERIFICATION/Monitor/cpu_monitor.sv(209) @ 5615000: uvm_test_top.env.agent.monitor [IF] PC=0000002c  INSTR=ff1a8ee3  [BEQ  x21, x17, ...]            
# UVM_INFO /home/khang/Documents/SystemVerilog/Soc_RV32I/SoC/VERIFICATION/Monitor/cpu_monitor.sv(342) @ 5615000: uvm_test_top.env.agent.monitor [AXI_RD] CPU←DRAM  Addr=0000002c Data=4b9cf793 RRESP=00
# UVM_INFO /home/khang/Documents/SystemVerilog/Soc_RV32I/SoC/VERIFICATION/Monitor/cpu_monitor.sv(209) @ 5655000: uvm_test_top.env.agent.monitor [IF] PC=00000030  INSTR=4b9cf793  [ANDI x15, x25, 1209]            
# UVM_INFO /home/khang/Documents/SystemVerilog/Soc_RV32I/SoC/VERIFICATION/Monitor/cpu_monitor.sv(342) @ 5655000: uvm_test_top.env.agent.monitor [AXI_RD] CPU←DRAM  Addr=00000030 Data=ff7bc913 RRESP=00
# UVM_INFO /home/khang/Documents/SystemVerilog/Soc_RV32I/SoC/VERIFICATION/Monitor/cpu_monitor.sv(209) @ 5695000: uvm_test_top.env.agent.monitor [IF] PC=00000034  INSTR=ff7bc913  [XORI x18, x23, -9]            
# UVM_INFO /home/khang/Documents/SystemVerilog/Soc_RV32I/SoC/VERIFICATION/Monitor/cpu_monitor.sv(342) @ 5695000: uvm_test_top.env.agent.monitor [AXI_RD] CPU←DRAM  Addr=00000034 Data=53e0a823 RRESP=00
# UVM_INFO /home/khang/Documents/SystemVerilog/Soc_RV32I/SoC/VERIFICATION/Monitor/cpu_monitor.sv(274) @ 5705000: uvm_test_top.env.agent.monitor [WB] x18 <= fffffff7  (PC~00000034)
# UVM_INFO /home/khang/Documents/SystemVerilog/Soc_RV32I/SoC/VERIFICATION/Monitor/cpu_monitor.sv(274) @ 5715000: uvm_test_top.env.agent.monitor [WB] x18 <= fffffff7  (PC~00000034)
# UVM_INFO /home/khang/Documents/SystemVerilog/Soc_RV32I/SoC/VERIFICATION/Monitor/cpu_monitor.sv(274) @ 5725000: uvm_test_top.env.agent.monitor [WB] x18 <= fffffff7  (PC~00000034)
# UVM_INFO /home/khang/Documents/SystemVerilog/Soc_RV32I/SoC/VERIFICATION/Monitor/cpu_monitor.sv(209) @ 5735000: uvm_test_top.env.agent.monitor [IF] PC=00000028  INSTR=53e0a823  [SW   x30, 1342(x1)]            
# UVM_INFO /home/khang/Documents/SystemVerilog/Soc_RV32I/SoC/VERIFICATION/Monitor/cpu_monitor.sv(274) @ 5735000: uvm_test_top.env.agent.monitor [WB] x18 <= fffffff7  (PC~00000028)
# UVM_INFO /home/khang/Documents/SystemVerilog/Soc_RV32I/SoC/VERIFICATION/Monitor/cpu_monitor.sv(342) @ 5735000: uvm_test_top.env.agent.monitor [AXI_RD] CPU←DRAM  Addr=00000028 Data=ff1a8ee3 RRESP=00
# UVM_INFO /home/khang/Documents/SystemVerilog/Soc_RV32I/SoC/VERIFICATION/Monitor/cpu_monitor.sv(209) @ 5775000: uvm_test_top.env.agent.monitor [IF] PC=0000002c  INSTR=ff1a8ee3  [BEQ  x21, x17, ...]            
# UVM_INFO /home/khang/Documents/SystemVerilog/Soc_RV32I/SoC/VERIFICATION/Monitor/cpu_monitor.sv(342) @ 5775000: uvm_test_top.env.agent.monitor [AXI_RD] CPU←DRAM  Addr=0000002c Data=4b9cf793 RRESP=00
# UVM_INFO /home/khang/Documents/SystemVerilog/Soc_RV32I/SoC/VERIFICATION/Monitor/cpu_monitor.sv(209) @ 5815000: uvm_test_top.env.agent.monitor [IF] PC=00000030  INSTR=4b9cf793  [ANDI x15, x25, 1209]            
# UVM_INFO /home/khang/Documents/SystemVerilog/Soc_RV32I/SoC/VERIFICATION/Monitor/cpu_monitor.sv(342) @ 5815000: uvm_test_top.env.agent.monitor [AXI_RD] CPU←DRAM  Addr=00000030 Data=ff7bc913 RRESP=00
# UVM_INFO /home/khang/Documents/SystemVerilog/Soc_RV32I/SoC/VERIFICATION/Monitor/cpu_monitor.sv(245) @ 5825000: uvm_test_top.env.agent.monitor [MEM] STORE Addr=10000530 Data=00000000
# UVM_INFO /home/khang/Documents/SystemVerilog/Soc_RV32I/SoC/VERIFICATION/Monitor/cpu_monitor.sv(245) @ 5835000: uvm_test_top.env.agent.monitor [MEM] STORE Addr=10000530 Data=00000000
# [DRAM WRITE] addr=10000530 data=00000000
# UVM_INFO /home/khang/Documents/SystemVerilog/Soc_RV32I/SoC/VERIFICATION/Monitor/cpu_monitor.sv(245) @ 5845000: uvm_test_top.env.agent.monitor [MEM] STORE Addr=10000530 Data=00000000
# UVM_INFO /home/khang/Documents/SystemVerilog/Soc_RV32I/SoC/VERIFICATION/Monitor/cpu_monitor.sv(209) @ 5855000: uvm_test_top.env.agent.monitor [IF] PC=00000034  INSTR=ff7bc913  [XORI x18, x23, -9]            
# UVM_INFO /home/khang/Documents/SystemVerilog/Soc_RV32I/SoC/VERIFICATION/Monitor/cpu_monitor.sv(245) @ 5855000: uvm_test_top.env.agent.monitor [MEM] STORE Addr=10000530 Data=00000000
# UVM_INFO /home/khang/Documents/SystemVerilog/Soc_RV32I/SoC/VERIFICATION/Monitor/cpu_monitor.sv(313) @ 5855000: uvm_test_top.env.agent.monitor [AXI_WR] CPU→DRAM  Addr=10000530 Data=00000000 Strb=1111 BRESP=00
# UVM_INFO /home/khang/Documents/SystemVerilog/Soc_RV32I/SoC/VERIFICATION/Monitor/cpu_monitor.sv(209) @ 5895000: uvm_test_top.env.agent.monitor [IF] PC=00000028  INSTR=ff7bc913  [XORI x18, x23, -9]            
# UVM_INFO /home/khang/Documents/SystemVerilog/Soc_RV32I/SoC/VERIFICATION/Monitor/cpu_monitor.sv(342) @ 5895000: uvm_test_top.env.agent.monitor [AXI_RD] CPU←DRAM  Addr=00000028 Data=ff1a8ee3 RRESP=00
# UVM_INFO /home/khang/Documents/SystemVerilog/Soc_RV32I/SoC/VERIFICATION/Monitor/cpu_monitor.sv(209) @ 5935000: uvm_test_top.env.agent.monitor [IF] PC=0000002c  INSTR=ff1a8ee3  [BEQ  x21, x17, ...]            
# UVM_INFO /home/khang/Documents/SystemVerilog/Soc_RV32I/SoC/VERIFICATION/Monitor/cpu_monitor.sv(342) @ 5935000: uvm_test_top.env.agent.monitor [AXI_RD] CPU←DRAM  Addr=0000002c Data=4b9cf793 RRESP=00
# UVM_INFO /home/khang/Documents/SystemVerilog/Soc_RV32I/SoC/VERIFICATION/Monitor/cpu_monitor.sv(209) @ 5975000: uvm_test_top.env.agent.monitor [IF] PC=00000030  INSTR=4b9cf793  [ANDI x15, x25, 1209]            
# UVM_INFO /home/khang/Documents/SystemVerilog/Soc_RV32I/SoC/VERIFICATION/Monitor/cpu_monitor.sv(342) @ 5975000: uvm_test_top.env.agent.monitor [AXI_RD] CPU←DRAM  Addr=00000030 Data=ff7bc913 RRESP=00
# UVM_INFO /home/khang/Documents/SystemVerilog/Soc_RV32I/SoC/VERIFICATION/Monitor/cpu_monitor.sv(209) @ 6015000: uvm_test_top.env.agent.monitor [IF] PC=00000034  INSTR=ff7bc913  [XORI x18, x23, -9]            
