--- [SIM ONLY] axi_random_wr_rd_test ---
MODE = UVM_MASTER
Reading pref.tcl

# 2024.1

# vsim -c -L uvm -coverage -sv_seed 302938740 vopt_top "+UVM_TESTNAME=axi_random_wr_rd_test" "+UVM_MASTER" "+MEM_SEED=302938740" -do "run -all; quit" 
# Start time: 11:11:08 on May 13,2026
# //  Questa Sim-64
# //  Version 2024.1 linux_x86_64 Feb  1 2024
# //
# // Unpublished work. Copyright 2024 Siemens
# //
# // This material contains trade secrets or otherwise confidential information
# // owned by Siemens Industry Software Inc. or its affiliates (collectively,
# // "SISW"), or its licensors. Access to and use of this information is strictly
# // limited as set forth in the Customer's applicable agreements with SISW.
# //
# // This material may not be copied, distributed, or otherwise disclosed outside
# // of the Customer's facilities without the express written permission of SISW,
# // and may not be used in any way not expressly authorized by SISW.
# //
# Loading sv_std.std
# Loading work.clk_rst_inf(fast)
# Loading work.soc_inf(fast)
# Loading work.cpu_monitor_inf(fast)
# Loading mtiUvm.uvm_pkg(fast)
# Loading work.soc_pkg(fast)
# Loading mtiUvm.questa_uvm_pkg(fast)
# Loading work.top_tb(fast)
# Loading work.clk_rst_inf(fast__2)
# Loading work.soc_inf(fast__2)
# Loading work.cpu_monitor_inf(fast__2)
# Loading work.TOP(fast)
# Loading work.AXI_Master(fast)
# Loading work.CPU(fast)
# Loading work.pc_reg(fast)
# Loading work.IF_ID(fast)
# Loading work.ControlUnit(fast)
# Loading work.MainDecoder(fast)
# Loading work.ALUControl(fast)
# Loading work.RegFile(fast)
# Loading work.signExtend(fast)
# Loading work.ID_EX(fast)
# Loading work.ALU(fast)
# Loading work.EX_MEM(fast)
# Loading work.MEM_WB(fast)
# Loading work.HazardUnit(fast)
# Loading work.LSU(fast)
# Loading work.AXI4_Lite_Interconnect(fast)
# Loading work.RAM(fast)
# Loading work.RAM(fast__1)
# Loading work.Timer(fast)
# Loading work.UART(fast)
# Loading work.SPI(fast)
# ** Warning: (vsim-2685) [TFMPC] - Too few port connections for 'cr_if'.  Expected 2, found 0.
#    Time: 0 ps  Iteration: 0  Instance: /top_tb/cr_if File: /home/khang/Documents/SystemVerilog/Soc_RV32I/SoC/VERIFICATION/top_tb.sv Line: 13
# ** Warning: (vsim-3722) /home/khang/Documents/SystemVerilog/Soc_RV32I/SoC/VERIFICATION/top_tb.sv(13): [TFMPC] - Missing connection for port 'clk'.
# ** Warning: (vsim-3722) /home/khang/Documents/SystemVerilog/Soc_RV32I/SoC/VERIFICATION/top_tb.sv(13): [TFMPC] - Missing connection for port 'rstn'.
# Loading /tools/mq/2024.1/questasim/uvm-1.1d/linux_x86_64/uvm_dpi.so
# run -all
# ----------------------------------------------------------------
# UVM-1.1d
# (C) 2007-2013 Mentor Graphics Corporation
# (C) 2007-2013 Cadence Design Systems, Inc.
# (C) 2006-2013 Synopsys, Inc.
# (C) 2011-2013 Cypress Semiconductor Corp.
# ----------------------------------------------------------------
# 
#   ***********       IMPORTANT RELEASE NOTES         ************
# 
#   You are using a version of the UVM library that has been compiled
#   with `UVM_NO_DEPRECATED undefined.
#   See http://www.eda.org/svdb/view.php?id=3313 for more details.
# 
#   You are using a version of the UVM library that has been compiled
#   with `UVM_OBJECT_MUST_HAVE_CONSTRUCTOR undefined.
#   See http://www.eda.org/svdb/view.php?id=3770 for more details.
# 
#       (Specify +UVM_NO_RELNOTES to turn off this notice)
# 
# UVM_INFO verilog_src/questa_uvm_pkg-1.2/src/questa_uvm_pkg.sv(277) @ 0: reporter [Questa UVM] QUESTA_UVM-1.2.3
# UVM_INFO verilog_src/questa_uvm_pkg-1.2/src/questa_uvm_pkg.sv(278) @ 0: reporter [Questa UVM]  questa_uvm::init(+struct)
# [RAM] Loading file: instr.mem
# [RAM] mem[0] = 100000b7
# [RAM] mem[1] = 00d665b3
# [RAM] mem[2] = 016c6733
# [RAM] mem[3] = 01dbaa33
# [RAM] mem[4] = 406a8633
# [RAM] mem[5] = 4d80a223
# [RAM] mem[6] = 01e291b3
# [RAM] mem[7] = 00cd7fb3
# [RAM] mem[8] = 1700af83
# [RAM] mem[9] = fedffe6f
# [RAM] mem[10] = 32480493
# [RAM] mem[11] = 2340ab83
# [RAM] mem[12] = fe6b02e3
# [RAM] mem[13] = ccdf8393
# [RAM] mem[14] = 1f40a883
# [RAM] mem[15] = 01aafbb3
# [RAM] mem[16] = 00bc2bb3
# [RAM] mem[17] = 004666b3
# [RAM] mem[18] = 01d3ad33
# [RAM] mem[19] = fe5ff26f
# [RAM] mem[20] = 2ec0a103
# [RAM] mem[21] = 40358d33
# [RAM] mem[22] = 01ccf1b3
# [RAM] mem[23] = 292b0e13
# [RAM] mem[24] = 4080af03
# [RAM] mem[25] = fd720ae3
# [RAM] mem[26] = 012de6b3
# [RAM] mem[27] = 00bdc1b3
# [RAM] mem[28] = 00af6633
# [RAM] mem[29] = 010be8b3
# [RAM] mem[30] = 4ea0a623
# [RAM] mem[31] = e85efe93
# [RAM] mem[32] = 30b0a823
# [RAM] mem[33] = 4e40ae83
# [RAM] mem[34] = 01a6d733
# [RAM] mem[35] = 53c78113
# [RAM] mem[36] = bfda8f13
# [RAM] mem[37] = ff088ae3
# [RAM] mem[38] = ffdffe6f
# [RAM] mem[39] = 1e51e713
# [RAM] mem[40] = fec300e3
# [RAM] mem[41] = 01800bef
# [RAM] mem[42] = 3900a483
# [RAM] mem[43] = ff5502e3
# [RAM] mem[44] = 54c0a703
# [RAM] mem[45] = 45e0ac23
# [RAM] mem[46] = 24177213
# [RAM] mem[47] = 7e80ac23
# [RAM] mem[48] = 06c3ee13
# [RAM] mem[49] = 456e8f93
# [RAM] mem[50] = 41c153b3
# [RAM] mem[51] = 48c0a983
# [RAM] mem[52] = 8fc3c413
# [RAM] mem[53] = 00ac4733
# [RAM] mem[54] = 017edd33
# [RAM] mem[55] = 5770a023
# [RAM] mem[56] = a2b97413
# [RAM] mem[57] = 7680aa83
# [RAM] mem[58] = 4690a023
# [RAM] mem[59] = 6c80a783
# [RAM] mem[60] = 010b54b3
# [RAM] mem[61] = 0148e733
# [RAM] mem[62] = 1c6f8213
# [RAM] mem[63] = 02c00d6f
# [RAM] mem[64] = 0ac0aa83
# [RAM] mem[65] = 3983c493
# [RAM] mem[66] = 3f80a503
# [RAM] mem[67] = 06a56793
# [RAM] mem[68] = 06e0a623
# [RAM] mem[69] = 7420aa23
# [RAM] mem[70] = ffc68f93
# [RAM] mem[71] = 01521233
# [RAM] mem[72] = 41c0ae03
# [RAM] mem[73] = 006f75b3
# [RAM] mem[74] = 0122d233
# [RAM] mem[75] = 002e9333
# [RAM] mem[76] = 92410613
# [RAM] mem[77] = 00be73b3
# [RAM] mem[78] = 7c00a303
# [RAM] mem[79] = 6ec0a603
# [RAM] mem[80] = 7380ae23
# [RAM] mem[81] = 2e40af83
# [RAM] mem[82] = 10fcf993
# [RAM] mem[83] = bb454113
# [RAM] mem[84] = 01e511b3
# [RAM] mem[85] = 6380a203
# [RAM] mem[86] = 8d5f8393
# [RAM] mem[87] = 00e5d2b3
# [RAM] mem[88] = 3040a883
# [RAM] mem[89] = 3940a623
# [RAM] mem[90] = 008e98b3
# [RAM] mem[91] = 00d746b3
# [RAM] mem[92] = 3240a483
# [RAM] mem[93] = 00e21a33
# [RAM] mem[94] = 00f67933
# [RAM] mem[95] = 12c0ac83
# [RAM] mem[96] = 96f24e93
# [RAM] mem[97] = 00830533
# [RAM] mem[98] = 391b6313
# [RAM] mem[99] = 4390a823
# [RAM] No INIT_FILE specified
# [TB] Mode: UVM MASTER — driver controls AXI bus
# UVM_INFO @ 0: reporter [RNTST] Running test axi_random_wr_rd_test...
# ** Warning: (vsim-PLI-8707) No address specified on line 2 of file "instr.mem" 
# while loading into associative array using readmem command.    : /home/khang/Documents/SystemVerilog/Soc_RV32I/SoC/VERIFICATION/Scoreboard/axi_scoreboard.sv(31)
#    Time: 0 ps  Iteration: 8  Region: /uvm_pkg::uvm_phase::m_run_phases
# UVM_INFO /home/khang/Documents/SystemVerilog/Soc_RV32I/SoC/VERIFICATION/Sequence/axi_random_wr_rd.sv(23) @ 0: uvm_test_top.env.agent.sequencer@@seq [SEQ] --- STARTING SMART RANDOM TEST (ID 11, 12) ---
# UVM_INFO /home/khang/Documents/SystemVerilog/Soc_RV32I/SoC/VERIFICATION/Monitor/axi_monitor.sv(52) @ 65000: uvm_test_top.env.agent.monitor [MON_WR] Detected WRITE : Addr=10000000 Data=95b2f64f Strb=1111 Prot=xxx BResp=00
# UVM_INFO /home/khang/Documents/SystemVerilog/Soc_RV32I/SoC/VERIFICATION/Driver/axi_driver.sv(62) @ 75000: uvm_test_top.env.agent.driver [DRV] Write Done: Addr=10000000 Data=95b2f64f Prot=xxx
# UVM_INFO /home/khang/Documents/SystemVerilog/Soc_RV32I/SoC/VERIFICATION/Monitor/axi_monitor.sv(52) @ 115000: uvm_test_top.env.agent.monitor [MON_WR] Detected WRITE : Addr=10000004 Data=024b58f3 Strb=1111 Prot=xxx BResp=00
# UVM_INFO /home/khang/Documents/SystemVerilog/Soc_RV32I/SoC/VERIFICATION/Driver/axi_driver.sv(62) @ 125000: uvm_test_top.env.agent.driver [DRV] Write Done: Addr=10000004 Data=024b58f3 Prot=xxx
# UVM_INFO /home/khang/Documents/SystemVerilog/Soc_RV32I/SoC/VERIFICATION/Monitor/axi_monitor.sv(52) @ 165000: uvm_test_top.env.agent.monitor [MON_WR] Detected WRITE : Addr=10000008 Data=ed0db3f4 Strb=1111 Prot=xxx BResp=00
# UVM_INFO /home/khang/Documents/SystemVerilog/Soc_RV32I/SoC/VERIFICATION/Driver/axi_driver.sv(62) @ 175000: uvm_test_top.env.agent.driver [DRV] Write Done: Addr=10000008 Data=ed0db3f4 Prot=xxx
# UVM_INFO /home/khang/Documents/SystemVerilog/Soc_RV32I/SoC/VERIFICATION/Monitor/axi_monitor.sv(52) @ 215000: uvm_test_top.env.agent.monitor [MON_WR] Detected WRITE : Addr=1000000c Data=c29a58e5 Strb=1111 Prot=xxx BResp=00
# UVM_INFO /home/khang/Documents/SystemVerilog/Soc_RV32I/SoC/VERIFICATION/Driver/axi_driver.sv(62) @ 225000: uvm_test_top.env.agent.driver [DRV] Write Done: Addr=1000000c Data=c29a58e5 Prot=xxx
# UVM_INFO /home/khang/Documents/SystemVerilog/Soc_RV32I/SoC/VERIFICATION/Monitor/axi_monitor.sv(52) @ 265000: uvm_test_top.env.agent.monitor [MON_WR] Detected WRITE : Addr=10000010 Data=628f5259 Strb=1111 Prot=xxx BResp=00
# UVM_INFO /home/khang/Documents/SystemVerilog/Soc_RV32I/SoC/VERIFICATION/Driver/axi_driver.sv(62) @ 275000: uvm_test_top.env.agent.driver [DRV] Write Done: Addr=10000010 Data=628f5259 Prot=xxx
# UVM_INFO /home/khang/Documents/SystemVerilog/Soc_RV32I/SoC/VERIFICATION/Monitor/axi_monitor.sv(52) @ 315000: uvm_test_top.env.agent.monitor [MON_WR] Detected WRITE : Addr=10000014 Data=f6817987 Strb=1111 Prot=xxx BResp=00
# UVM_INFO /home/khang/Documents/SystemVerilog/Soc_RV32I/SoC/VERIFICATION/Driver/axi_driver.sv(62) @ 325000: uvm_test_top.env.agent.driver [DRV] Write Done: Addr=10000014 Data=f6817987 Prot=xxx
# UVM_INFO /home/khang/Documents/SystemVerilog/Soc_RV32I/SoC/VERIFICATION/Monitor/axi_monitor.sv(52) @ 365000: uvm_test_top.env.agent.monitor [MON_WR] Detected WRITE : Addr=10000018 Data=78d65541 Strb=1111 Prot=xxx BResp=00
# UVM_INFO /home/khang/Documents/SystemVerilog/Soc_RV32I/SoC/VERIFICATION/Driver/axi_driver.sv(62) @ 375000: uvm_test_top.env.agent.driver [DRV] Write Done: Addr=10000018 Data=78d65541 Prot=xxx
# UVM_INFO /home/khang/Documents/SystemVerilog/Soc_RV32I/SoC/VERIFICATION/Monitor/axi_monitor.sv(52) @ 415000: uvm_test_top.env.agent.monitor [MON_WR] Detected WRITE : Addr=1000001c Data=67204397 Strb=1111 Prot=xxx BResp=00
# UVM_INFO /home/khang/Documents/SystemVerilog/Soc_RV32I/SoC/VERIFICATION/Driver/axi_driver.sv(62) @ 425000: uvm_test_top.env.agent.driver [DRV] Write Done: Addr=1000001c Data=67204397 Prot=xxx
# UVM_INFO /home/khang/Documents/SystemVerilog/Soc_RV32I/SoC/VERIFICATION/Monitor/axi_monitor.sv(52) @ 465000: uvm_test_top.env.agent.monitor [MON_WR] Detected WRITE : Addr=10000020 Data=152b9658 Strb=1111 Prot=xxx BResp=00
# UVM_INFO /home/khang/Documents/SystemVerilog/Soc_RV32I/SoC/VERIFICATION/Driver/axi_driver.sv(62) @ 475000: uvm_test_top.env.agent.driver [DRV] Write Done: Addr=10000020 Data=152b9658 Prot=xxx
# UVM_INFO /home/khang/Documents/SystemVerilog/Soc_RV32I/SoC/VERIFICATION/Monitor/axi_monitor.sv(52) @ 515000: uvm_test_top.env.agent.monitor [MON_WR] Detected WRITE : Addr=10000024 Data=4750770c Strb=1111 Prot=xxx BResp=00
# UVM_INFO /home/khang/Documents/SystemVerilog/Soc_RV32I/SoC/VERIFICATION/Driver/axi_driver.sv(62) @ 525000: uvm_test_top.env.agent.driver [DRV] Write Done: Addr=10000024 Data=4750770c Prot=xxx
# UVM_INFO /home/khang/Documents/SystemVerilog/Soc_RV32I/SoC/VERIFICATION/Monitor/axi_monitor.sv(52) @ 565000: uvm_test_top.env.agent.monitor [MON_WR] Detected WRITE : Addr=10000028 Data=0db37f3e Strb=1111 Prot=xxx BResp=00
# UVM_INFO /home/khang/Documents/SystemVerilog/Soc_RV32I/SoC/VERIFICATION/Driver/axi_driver.sv(62) @ 575000: uvm_test_top.env.agent.driver [DRV] Write Done: Addr=10000028 Data=0db37f3e Prot=xxx
# UVM_INFO /home/khang/Documents/SystemVerilog/Soc_RV32I/SoC/VERIFICATION/Monitor/axi_monitor.sv(52) @ 615000: uvm_test_top.env.agent.monitor [MON_WR] Detected WRITE : Addr=1000002c Data=86d070f3 Strb=1111 Prot=xxx BResp=00
# UVM_INFO /home/khang/Documents/SystemVerilog/Soc_RV32I/SoC/VERIFICATION/Driver/axi_driver.sv(62) @ 625000: uvm_test_top.env.agent.driver [DRV] Write Done: Addr=1000002c Data=86d070f3 Prot=xxx
# UVM_INFO /home/khang/Documents/SystemVerilog/Soc_RV32I/SoC/VERIFICATION/Monitor/axi_monitor.sv(52) @ 665000: uvm_test_top.env.agent.monitor [MON_WR] Detected WRITE : Addr=10000030 Data=68457cbb Strb=1111 Prot=xxx BResp=00
# UVM_INFO /home/khang/Documents/SystemVerilog/Soc_RV32I/SoC/VERIFICATION/Driver/axi_driver.sv(62) @ 675000: uvm_test_top.env.agent.driver [DRV] Write Done: Addr=10000030 Data=68457cbb Prot=xxx
# UVM_INFO /home/khang/Documents/SystemVerilog/Soc_RV32I/SoC/VERIFICATION/Monitor/axi_monitor.sv(52) @ 715000: uvm_test_top.env.agent.monitor [MON_WR] Detected WRITE : Addr=10000034 Data=c1755dbc Strb=1111 Prot=xxx BResp=00
# UVM_INFO /home/khang/Documents/SystemVerilog/Soc_RV32I/SoC/VERIFICATION/Driver/axi_driver.sv(62) @ 725000: uvm_test_top.env.agent.driver [DRV] Write Done: Addr=10000034 Data=c1755dbc Prot=xxx
# UVM_INFO /home/khang/Documents/SystemVerilog/Soc_RV32I/SoC/VERIFICATION/Monitor/axi_monitor.sv(52) @ 765000: uvm_test_top.env.agent.monitor [MON_WR] Detected WRITE : Addr=10000038 Data=c11b0e07 Strb=1111 Prot=xxx BResp=00
# UVM_INFO /home/khang/Documents/SystemVerilog/Soc_RV32I/SoC/VERIFICATION/Driver/axi_driver.sv(62) @ 775000: uvm_test_top.env.agent.driver [DRV] Write Done: Addr=10000038 Data=c11b0e07 Prot=xxx
# UVM_INFO /home/khang/Documents/SystemVerilog/Soc_RV32I/SoC/VERIFICATION/Monitor/axi_monitor.sv(52) @ 815000: uvm_test_top.env.agent.monitor [MON_WR] Detected WRITE : Addr=1000003c Data=1ee540d4 Strb=1111 Prot=xxx BResp=00
# UVM_INFO /home/khang/Documents/SystemVerilog/Soc_RV32I/SoC/VERIFICATION/Driver/axi_driver.sv(62) @ 825000: uvm_test_top.env.agent.driver [DRV] Write Done: Addr=1000003c Data=1ee540d4 Prot=xxx
# UVM_INFO /home/khang/Documents/SystemVerilog/Soc_RV32I/SoC/VERIFICATION/Monitor/axi_monitor.sv(52) @ 865000: uvm_test_top.env.agent.monitor [MON_WR] Detected WRITE : Addr=10000040 Data=83c5be40 Strb=1111 Prot=xxx BResp=00
# UVM_INFO /home/khang/Documents/SystemVerilog/Soc_RV32I/SoC/VERIFICATION/Driver/axi_driver.sv(62) @ 875000: uvm_test_top.env.agent.driver [DRV] Write Done: Addr=10000040 Data=83c5be40 Prot=xxx
# UVM_INFO /home/khang/Documents/SystemVerilog/Soc_RV32I/SoC/VERIFICATION/Monitor/axi_monitor.sv(52) @ 915000: uvm_test_top.env.agent.monitor [MON_WR] Detected WRITE : Addr=10000044 Data=b1d7c4f0 Strb=1111 Prot=xxx BResp=00
# UVM_INFO /home/khang/Documents/SystemVerilog/Soc_RV32I/SoC/VERIFICATION/Driver/axi_driver.sv(62) @ 925000: uvm_test_top.env.agent.driver [DRV] Write Done: Addr=10000044 Data=b1d7c4f0 Prot=xxx
# UVM_INFO /home/khang/Documents/SystemVerilog/Soc_RV32I/SoC/VERIFICATION/Monitor/axi_monitor.sv(52) @ 965000: uvm_test_top.env.agent.monitor [MON_WR] Detected WRITE : Addr=10000048 Data=6ecc8fe2 Strb=1111 Prot=xxx BResp=00
# UVM_INFO /home/khang/Documents/SystemVerilog/Soc_RV32I/SoC/VERIFICATION/Driver/axi_driver.sv(62) @ 975000: uvm_test_top.env.agent.driver [DRV] Write Done: Addr=10000048 Data=6ecc8fe2 Prot=xxx
# UVM_INFO /home/khang/Documents/SystemVerilog/Soc_RV32I/SoC/VERIFICATION/Monitor/axi_monitor.sv(52) @ 1015000: uvm_test_top.env.agent.monitor [MON_WR] Detected WRITE : Addr=1000004c Data=5b0dd199 Strb=1111 Prot=xxx BResp=00
# UVM_INFO /home/khang/Documents/SystemVerilog/Soc_RV32I/SoC/VERIFICATION/Driver/axi_driver.sv(62) @ 1025000: uvm_test_top.env.agent.driver [DRV] Write Done: Addr=1000004c Data=5b0dd199 Prot=xxx
# UVM_INFO /home/khang/Documents/SystemVerilog/Soc_RV32I/SoC/VERIFICATION/Monitor/axi_monitor.sv(52) @ 1065000: uvm_test_top.env.agent.monitor [MON_WR] Detected WRITE : Addr=10000050 Data=365880d3 Strb=1111 Prot=xxx BResp=00
# UVM_INFO /home/khang/Documents/SystemVerilog/Soc_RV32I/SoC/VERIFICATION/Driver/axi_driver.sv(62) @ 1075000: uvm_test_top.env.agent.driver [DRV] Write Done: Addr=10000050 Data=365880d3 Prot=xxx
# UVM_INFO /home/khang/Documents/SystemVerilog/Soc_RV32I/SoC/VERIFICATION/Monitor/axi_monitor.sv(52) @ 1115000: uvm_test_top.env.agent.monitor [MON_WR] Detected WRITE : Addr=10000054 Data=28066803 Strb=1111 Prot=xxx BResp=00
# UVM_INFO /home/khang/Documents/SystemVerilog/Soc_RV32I/SoC/VERIFICATION/Driver/axi_driver.sv(62) @ 1125000: uvm_test_top.env.agent.driver [DRV] Write Done: Addr=10000054 Data=28066803 Prot=xxx
# UVM_INFO /home/khang/Documents/SystemVerilog/Soc_RV32I/SoC/VERIFICATION/Monitor/axi_monitor.sv(52) @ 1165000: uvm_test_top.env.agent.monitor [MON_WR] Detected WRITE : Addr=10000058 Data=0fb81714 Strb=1111 Prot=xxx BResp=00
# UVM_INFO /home/khang/Documents/SystemVerilog/Soc_RV32I/SoC/VERIFICATION/Driver/axi_driver.sv(62) @ 1175000: uvm_test_top.env.agent.driver [DRV] Write Done: Addr=10000058 Data=0fb81714 Prot=xxx
# UVM_INFO /home/khang/Documents/SystemVerilog/Soc_RV32I/SoC/VERIFICATION/Monitor/axi_monitor.sv(52) @ 1215000: uvm_test_top.env.agent.monitor [MON_WR] Detected WRITE : Addr=1000005c Data=f917b8a2 Strb=1111 Prot=xxx BResp=00
# UVM_INFO /home/khang/Documents/SystemVerilog/Soc_RV32I/SoC/VERIFICATION/Driver/axi_driver.sv(62) @ 1225000: uvm_test_top.env.agent.driver [DRV] Write Done: Addr=1000005c Data=f917b8a2 Prot=xxx
# UVM_INFO /home/khang/Documents/SystemVerilog/Soc_RV32I/SoC/VERIFICATION/Monitor/axi_monitor.sv(52) @ 1265000: uvm_test_top.env.agent.monitor [MON_WR] Detected WRITE : Addr=10000060 Data=4f119bac Strb=1111 Prot=xxx BResp=00
# UVM_INFO /home/khang/Documents/SystemVerilog/Soc_RV32I/SoC/VERIFICATION/Driver/axi_driver.sv(62) @ 1275000: uvm_test_top.env.agent.driver [DRV] Write Done: Addr=10000060 Data=4f119bac Prot=xxx
# UVM_INFO /home/khang/Documents/SystemVerilog/Soc_RV32I/SoC/VERIFICATION/Monitor/axi_monitor.sv(52) @ 1315000: uvm_test_top.env.agent.monitor [MON_WR] Detected WRITE : Addr=10000064 Data=991dfe94 Strb=1111 Prot=xxx BResp=00
# UVM_INFO /home/khang/Documents/SystemVerilog/Soc_RV32I/SoC/VERIFICATION/Driver/axi_driver.sv(62) @ 1325000: uvm_test_top.env.agent.driver [DRV] Write Done: Addr=10000064 Data=991dfe94 Prot=xxx
# UVM_INFO /home/khang/Documents/SystemVerilog/Soc_RV32I/SoC/VERIFICATION/Monitor/axi_monitor.sv(52) @ 1365000: uvm_test_top.env.agent.monitor [MON_WR] Detected WRITE : Addr=10000068 Data=d21c3e82 Strb=1111 Prot=xxx BResp=00
# UVM_INFO /home/khang/Documents/SystemVerilog/Soc_RV32I/SoC/VERIFICATION/Driver/axi_driver.sv(62) @ 1375000: uvm_test_top.env.agent.driver [DRV] Write Done: Addr=10000068 Data=d21c3e82 Prot=xxx
# UVM_INFO /home/khang/Documents/SystemVerilog/Soc_RV32I/SoC/VERIFICATION/Monitor/axi_monitor.sv(52) @ 1415000: uvm_test_top.env.agent.monitor [MON_WR] Detected WRITE : Addr=1000006c Data=b14c1528 Strb=1111 Prot=xxx BResp=00
# UVM_INFO /home/khang/Documents/SystemVerilog/Soc_RV32I/SoC/VERIFICATION/Driver/axi_driver.sv(62) @ 1425000: uvm_test_top.env.agent.driver [DRV] Write Done: Addr=1000006c Data=b14c1528 Prot=xxx
# UVM_INFO /home/khang/Documents/SystemVerilog/Soc_RV32I/SoC/VERIFICATION/Monitor/axi_monitor.sv(52) @ 1465000: uvm_test_top.env.agent.monitor [MON_WR] Detected WRITE : Addr=10000070 Data=56e1ec3a Strb=1111 Prot=xxx BResp=00
# UVM_INFO /home/khang/Documents/SystemVerilog/Soc_RV32I/SoC/VERIFICATION/Driver/axi_driver.sv(62) @ 1475000: uvm_test_top.env.agent.driver [DRV] Write Done: Addr=10000070 Data=56e1ec3a Prot=xxx
# UVM_INFO /home/khang/Documents/SystemVerilog/Soc_RV32I/SoC/VERIFICATION/Monitor/axi_monitor.sv(52) @ 1515000: uvm_test_top.env.agent.monitor [MON_WR] Detected WRITE : Addr=10000074 Data=d667766a Strb=1111 Prot=xxx BResp=00
# UVM_INFO /home/khang/Documents/SystemVerilog/Soc_RV32I/SoC/VERIFICATION/Driver/axi_driver.sv(62) @ 1525000: uvm_test_top.env.agent.driver [DRV] Write Done: Addr=10000074 Data=d667766a Prot=xxx
# UVM_INFO /home/khang/Documents/SystemVerilog/Soc_RV32I/SoC/VERIFICATION/Monitor/axi_monitor.sv(52) @ 1565000: uvm_test_top.env.agent.monitor [MON_WR] Detected WRITE : Addr=10000078 Data=0c938749 Strb=1111 Prot=xxx BResp=00
# UVM_INFO /home/khang/Documents/SystemVerilog/Soc_RV32I/SoC/VERIFICATION/Driver/axi_driver.sv(62) @ 1575000: uvm_test_top.env.agent.driver [DRV] Write Done: Addr=10000078 Data=0c938749 Prot=xxx
# UVM_INFO /home/khang/Documents/SystemVerilog/Soc_RV32I/SoC/VERIFICATION/Monitor/axi_monitor.sv(52) @ 1615000: uvm_test_top.env.agent.monitor [MON_WR] Detected WRITE : Addr=1000007c Data=2932cc54 Strb=1111 Prot=xxx BResp=00
# UVM_INFO /home/khang/Documents/SystemVerilog/Soc_RV32I/SoC/VERIFICATION/Driver/axi_driver.sv(62) @ 1625000: uvm_test_top.env.agent.driver [DRV] Write Done: Addr=1000007c Data=2932cc54 Prot=xxx
# UVM_INFO /home/khang/Documents/SystemVerilog/Soc_RV32I/SoC/VERIFICATION/Monitor/axi_monitor.sv(52) @ 1665000: uvm_test_top.env.agent.monitor [MON_WR] Detected WRITE : Addr=10000080 Data=f4250825 Strb=1111 Prot=xxx BResp=00
# UVM_INFO /home/khang/Documents/SystemVerilog/Soc_RV32I/SoC/VERIFICATION/Driver/axi_driver.sv(62) @ 1675000: uvm_test_top.env.agent.driver [DRV] Write Done: Addr=10000080 Data=f4250825 Prot=xxx
# UVM_INFO /home/khang/Documents/SystemVerilog/Soc_RV32I/SoC/VERIFICATION/Monitor/axi_monitor.sv(52) @ 1715000: uvm_test_top.env.agent.monitor [MON_WR] Detected WRITE : Addr=10000084 Data=79fcdf4a Strb=1111 Prot=xxx BResp=00
# UVM_INFO /home/khang/Documents/SystemVerilog/Soc_RV32I/SoC/VERIFICATION/Driver/axi_driver.sv(62) @ 1725000: uvm_test_top.env.agent.driver [DRV] Write Done: Addr=10000084 Data=79fcdf4a Prot=xxx
# UVM_INFO /home/khang/Documents/SystemVerilog/Soc_RV32I/SoC/VERIFICATION/Monitor/axi_monitor.sv(52) @ 1765000: uvm_test_top.env.agent.monitor [MON_WR] Detected WRITE : Addr=10000088 Data=fc09bb6f Strb=1111 Prot=xxx BResp=00
# UVM_INFO /home/khang/Documents/SystemVerilog/Soc_RV32I/SoC/VERIFICATION/Driver/axi_driver.sv(62) @ 1775000: uvm_test_top.env.agent.driver [DRV] Write Done: Addr=10000088 Data=fc09bb6f Prot=xxx
# UVM_INFO /home/khang/Documents/SystemVerilog/Soc_RV32I/SoC/VERIFICATION/Monitor/axi_monitor.sv(52) @ 1815000: uvm_test_top.env.agent.monitor [MON_WR] Detected WRITE : Addr=1000008c Data=f6fcceb3 Strb=1111 Prot=xxx BResp=00
# UVM_INFO /home/khang/Documents/SystemVerilog/Soc_RV32I/SoC/VERIFICATION/Driver/axi_driver.sv(62) @ 1825000: uvm_test_top.env.agent.driver [DRV] Write Done: Addr=1000008c Data=f6fcceb3 Prot=xxx
# UVM_INFO /home/khang/Documents/SystemVerilog/Soc_RV32I/SoC/VERIFICATION/Monitor/axi_monitor.sv(52) @ 1865000: uvm_test_top.env.agent.monitor [MON_WR] Detected WRITE : Addr=10000090 Data=bda0a4f2 Strb=1111 Prot=xxx BResp=00
# UVM_INFO /home/khang/Documents/SystemVerilog/Soc_RV32I/SoC/VERIFICATION/Driver/axi_driver.sv(62) @ 1875000: uvm_test_top.env.agent.driver [DRV] Write Done: Addr=10000090 Data=bda0a4f2 Prot=xxx
# UVM_INFO /home/khang/Documents/SystemVerilog/Soc_RV32I/SoC/VERIFICATION/Monitor/axi_monitor.sv(52) @ 1915000: uvm_test_top.env.agent.monitor [MON_WR] Detected WRITE : Addr=10000094 Data=38dd209b Strb=1111 Prot=xxx BResp=00
# UVM_INFO /home/khang/Documents/SystemVerilog/Soc_RV32I/SoC/VERIFICATION/Driver/axi_driver.sv(62) @ 1925000: uvm_test_top.env.agent.driver [DRV] Write Done: Addr=10000094 Data=38dd209b Prot=xxx
# UVM_INFO /home/khang/Documents/SystemVerilog/Soc_RV32I/SoC/VERIFICATION/Monitor/axi_monitor.sv(52) @ 1965000: uvm_test_top.env.agent.monitor [MON_WR] Detected WRITE : Addr=10000098 Data=8f959628 Strb=1111 Prot=xxx BResp=00
# UVM_INFO /home/khang/Documents/SystemVerilog/Soc_RV32I/SoC/VERIFICATION/Driver/axi_driver.sv(62) @ 1975000: uvm_test_top.env.agent.driver [DRV] Write Done: Addr=10000098 Data=8f959628 Prot=xxx
# UVM_INFO /home/khang/Documents/SystemVerilog/Soc_RV32I/SoC/VERIFICATION/Monitor/axi_monitor.sv(52) @ 2015000: uvm_test_top.env.agent.monitor [MON_WR] Detected WRITE : Addr=1000009c Data=7906e39d Strb=1111 Prot=xxx BResp=00
# UVM_INFO /home/khang/Documents/SystemVerilog/Soc_RV32I/SoC/VERIFICATION/Driver/axi_driver.sv(62) @ 2025000: uvm_test_top.env.agent.driver [DRV] Write Done: Addr=1000009c Data=7906e39d Prot=xxx
# UVM_INFO /home/khang/Documents/SystemVerilog/Soc_RV32I/SoC/VERIFICATION/Monitor/axi_monitor.sv(52) @ 2065000: uvm_test_top.env.agent.monitor [MON_WR] Detected WRITE : Addr=100000a0 Data=57a68e8e Strb=1111 Prot=xxx BResp=00
# UVM_INFO /home/khang/Documents/SystemVerilog/Soc_RV32I/SoC/VERIFICATION/Driver/axi_driver.sv(62) @ 2075000: uvm_test_top.env.agent.driver [DRV] Write Done: Addr=100000a0 Data=57a68e8e Prot=xxx
# UVM_INFO /home/khang/Documents/SystemVerilog/Soc_RV32I/SoC/VERIFICATION/Monitor/axi_monitor.sv(52) @ 2115000: uvm_test_top.env.agent.monitor [MON_WR] Detected WRITE : Addr=100000a4 Data=1f5fb18f Strb=1111 Prot=xxx BResp=00
# UVM_INFO /home/khang/Documents/SystemVerilog/Soc_RV32I/SoC/VERIFICATION/Driver/axi_driver.sv(62) @ 2125000: uvm_test_top.env.agent.driver [DRV] Write Done: Addr=100000a4 Data=1f5fb18f Prot=xxx
# UVM_INFO /home/khang/Documents/SystemVerilog/Soc_RV32I/SoC/VERIFICATION/Monitor/axi_monitor.sv(52) @ 2165000: uvm_test_top.env.agent.monitor [MON_WR] Detected WRITE : Addr=100000a8 Data=3dfb6edf Strb=1111 Prot=xxx BResp=00
# UVM_INFO /home/khang/Documents/SystemVerilog/Soc_RV32I/SoC/VERIFICATION/Driver/axi_driver.sv(62) @ 2175000: uvm_test_top.env.agent.driver [DRV] Write Done: Addr=100000a8 Data=3dfb6edf Prot=xxx
# UVM_INFO /home/khang/Documents/SystemVerilog/Soc_RV32I/SoC/VERIFICATION/Monitor/axi_monitor.sv(52) @ 2215000: uvm_test_top.env.agent.monitor [MON_WR] Detected WRITE : Addr=100000ac Data=fd842d27 Strb=1111 Prot=xxx BResp=00
# UVM_INFO /home/khang/Documents/SystemVerilog/Soc_RV32I/SoC/VERIFICATION/Driver/axi_driver.sv(62) @ 2225000: uvm_test_top.env.agent.driver [DRV] Write Done: Addr=100000ac Data=fd842d27 Prot=xxx
# UVM_INFO /home/khang/Documents/SystemVerilog/Soc_RV32I/SoC/VERIFICATION/Monitor/axi_monitor.sv(52) @ 2265000: uvm_test_top.env.agent.monitor [MON_WR] Detected WRITE : Addr=100000b0 Data=3521834c Strb=1111 Prot=xxx BResp=00
# UVM_INFO /home/khang/Documents/SystemVerilog/Soc_RV32I/SoC/VERIFICATION/Driver/axi_driver.sv(62) @ 2275000: uvm_test_top.env.agent.driver [DRV] Write Done: Addr=100000b0 Data=3521834c Prot=xxx
# UVM_INFO /home/khang/Documents/SystemVerilog/Soc_RV32I/SoC/VERIFICATION/Monitor/axi_monitor.sv(52) @ 2315000: uvm_test_top.env.agent.monitor [MON_WR] Detected WRITE : Addr=100000b4 Data=f68048f3 Strb=1111 Prot=xxx BResp=00
# UVM_INFO /home/khang/Documents/SystemVerilog/Soc_RV32I/SoC/VERIFICATION/Driver/axi_driver.sv(62) @ 2325000: uvm_test_top.env.agent.driver [DRV] Write Done: Addr=100000b4 Data=f68048f3 Prot=xxx
# UVM_INFO /home/khang/Documents/SystemVerilog/Soc_RV32I/SoC/VERIFICATION/Monitor/axi_monitor.sv(52) @ 2365000: uvm_test_top.env.agent.monitor [MON_WR] Detected WRITE : Addr=100000b8 Data=edb30a6e Strb=1111 Prot=xxx BResp=00
# UVM_INFO /home/khang/Documents/SystemVerilog/Soc_RV32I/SoC/VERIFICATION/Driver/axi_driver.sv(62) @ 2375000: uvm_test_top.env.agent.driver [DRV] Write Done: Addr=100000b8 Data=edb30a6e Prot=xxx
# UVM_INFO /home/khang/Documents/SystemVerilog/Soc_RV32I/SoC/VERIFICATION/Monitor/axi_monitor.sv(52) @ 2415000: uvm_test_top.env.agent.monitor [MON_WR] Detected WRITE : Addr=100000bc Data=f590ac30 Strb=1111 Prot=xxx BResp=00
# UVM_INFO /home/khang/Documents/SystemVerilog/Soc_RV32I/SoC/VERIFICATION/Driver/axi_driver.sv(62) @ 2425000: uvm_test_top.env.agent.driver [DRV] Write Done: Addr=100000bc Data=f590ac30 Prot=xxx
# UVM_INFO /home/khang/Documents/SystemVerilog/Soc_RV32I/SoC/VERIFICATION/Monitor/axi_monitor.sv(52) @ 2465000: uvm_test_top.env.agent.monitor [MON_WR] Detected WRITE : Addr=100000c0 Data=4b71a220 Strb=1111 Prot=xxx BResp=00
# UVM_INFO /home/khang/Documents/SystemVerilog/Soc_RV32I/SoC/VERIFICATION/Driver/axi_driver.sv(62) @ 2475000: uvm_test_top.env.agent.driver [DRV] Write Done: Addr=100000c0 Data=4b71a220 Prot=xxx
# UVM_INFO /home/khang/Documents/SystemVerilog/Soc_RV32I/SoC/VERIFICATION/Monitor/axi_monitor.sv(52) @ 2515000: uvm_test_top.env.agent.monitor [MON_WR] Detected WRITE : Addr=100000c4 Data=221193dc Strb=1111 Prot=xxx BResp=00
# UVM_INFO /home/khang/Documents/SystemVerilog/Soc_RV32I/SoC/VERIFICATION/Driver/axi_driver.sv(62) @ 2525000: uvm_test_top.env.agent.driver [DRV] Write Done: Addr=100000c4 Data=221193dc Prot=xxx
# UVM_INFO /home/khang/Documents/SystemVerilog/Soc_RV32I/SoC/VERIFICATION/Monitor/axi_monitor.sv(52) @ 2565000: uvm_test_top.env.agent.monitor [MON_WR] Detected WRITE : Addr=100000c8 Data=ea70c4fd Strb=1111 Prot=xxx BResp=00
# UVM_INFO /home/khang/Documents/SystemVerilog/Soc_RV32I/SoC/VERIFICATION/Driver/axi_driver.sv(62) @ 2575000: uvm_test_top.env.agent.driver [DRV] Write Done: Addr=100000c8 Data=ea70c4fd Prot=xxx
# UVM_INFO /home/khang/Documents/SystemVerilog/Soc_RV32I/SoC/VERIFICATION/Monitor/axi_monitor.sv(52) @ 2615000: uvm_test_top.env.agent.monitor [MON_WR] Detected WRITE : Addr=100000cc Data=dd04c308 Strb=1111 Prot=xxx BResp=00
# UVM_INFO /home/khang/Documents/SystemVerilog/Soc_RV32I/SoC/VERIFICATION/Driver/axi_driver.sv(62) @ 2625000: uvm_test_top.env.agent.driver [DRV] Write Done: Addr=100000cc Data=dd04c308 Prot=xxx
# UVM_INFO /home/khang/Documents/SystemVerilog/Soc_RV32I/SoC/VERIFICATION/Monitor/axi_monitor.sv(52) @ 2665000: uvm_test_top.env.agent.monitor [MON_WR] Detected WRITE : Addr=100000d0 Data=ecffdd40 Strb=1111 Prot=xxx BResp=00
# UVM_INFO /home/khang/Documents/SystemVerilog/Soc_RV32I/SoC/VERIFICATION/Driver/axi_driver.sv(62) @ 2675000: uvm_test_top.env.agent.driver [DRV] Write Done: Addr=100000d0 Data=ecffdd40 Prot=xxx
# UVM_INFO /home/khang/Documents/SystemVerilog/Soc_RV32I/SoC/VERIFICATION/Monitor/axi_monitor.sv(52) @ 2715000: uvm_test_top.env.agent.monitor [MON_WR] Detected WRITE : Addr=100000d4 Data=77e1396a Strb=1111 Prot=xxx BResp=00
# UVM_INFO /home/khang/Documents/SystemVerilog/Soc_RV32I/SoC/VERIFICATION/Driver/axi_driver.sv(62) @ 2725000: uvm_test_top.env.agent.driver [DRV] Write Done: Addr=100000d4 Data=77e1396a Prot=xxx
# UVM_INFO /home/khang/Documents/SystemVerilog/Soc_RV32I/SoC/VERIFICATION/Monitor/axi_monitor.sv(52) @ 2765000: uvm_test_top.env.agent.monitor [MON_WR] Detected WRITE : Addr=100000d8 Data=74c7923b Strb=1111 Prot=xxx BResp=00
# UVM_INFO /home/khang/Documents/SystemVerilog/Soc_RV32I/SoC/VERIFICATION/Driver/axi_driver.sv(62) @ 2775000: uvm_test_top.env.agent.driver [DRV] Write Done: Addr=100000d8 Data=74c7923b Prot=xxx
# UVM_INFO /home/khang/Documents/SystemVerilog/Soc_RV32I/SoC/VERIFICATION/Monitor/axi_monitor.sv(52) @ 2815000: uvm_test_top.env.agent.monitor [MON_WR] Detected WRITE : Addr=100000dc Data=dc352465 Strb=1111 Prot=xxx BResp=00
# UVM_INFO /home/khang/Documents/SystemVerilog/Soc_RV32I/SoC/VERIFICATION/Driver/axi_driver.sv(62) @ 2825000: uvm_test_top.env.agent.driver [DRV] Write Done: Addr=100000dc Data=dc352465 Prot=xxx
# UVM_INFO /home/khang/Documents/SystemVerilog/Soc_RV32I/SoC/VERIFICATION/Monitor/axi_monitor.sv(52) @ 2865000: uvm_test_top.env.agent.monitor [MON_WR] Detected WRITE : Addr=100000e0 Data=3ca1f179 Strb=1111 Prot=xxx BResp=00
# UVM_INFO /home/khang/Documents/SystemVerilog/Soc_RV32I/SoC/VERIFICATION/Driver/axi_driver.sv(62) @ 2875000: uvm_test_top.env.agent.driver [DRV] Write Done: Addr=100000e0 Data=3ca1f179 Prot=xxx
# UVM_INFO /home/khang/Documents/SystemVerilog/Soc_RV32I/SoC/VERIFICATION/Monitor/axi_monitor.sv(52) @ 2915000: uvm_test_top.env.agent.monitor [MON_WR] Detected WRITE : Addr=100000e4 Data=6a376f13 Strb=1111 Prot=xxx BResp=00
# UVM_INFO /home/khang/Documents/SystemVerilog/Soc_RV32I/SoC/VERIFICATION/Driver/axi_driver.sv(62) @ 2925000: uvm_test_top.env.agent.driver [DRV] Write Done: Addr=100000e4 Data=6a376f13 Prot=xxx
# UVM_INFO /home/khang/Documents/SystemVerilog/Soc_RV32I/SoC/VERIFICATION/Monitor/axi_monitor.sv(52) @ 2965000: uvm_test_top.env.agent.monitor [MON_WR] Detected WRITE : Addr=100000e8 Data=c9cf0a3c Strb=1111 Prot=xxx BResp=00
# UVM_INFO /home/khang/Documents/SystemVerilog/Soc_RV32I/SoC/VERIFICATION/Driver/axi_driver.sv(62) @ 2975000: uvm_test_top.env.agent.driver [DRV] Write Done: Addr=100000e8 Data=c9cf0a3c Prot=xxx
# UVM_INFO /home/khang/Documents/SystemVerilog/Soc_RV32I/SoC/VERIFICATION/Monitor/axi_monitor.sv(52) @ 3015000: uvm_test_top.env.agent.monitor [MON_WR] Detected WRITE : Addr=100000ec Data=b343438b Strb=1111 Prot=xxx BResp=00
# UVM_INFO /home/khang/Documents/SystemVerilog/Soc_RV32I/SoC/VERIFICATION/Driver/axi_driver.sv(62) @ 3025000: uvm_test_top.env.agent.driver [DRV] Write Done: Addr=100000ec Data=b343438b Prot=xxx
# UVM_INFO /home/khang/Documents/SystemVerilog/Soc_RV32I/SoC/VERIFICATION/Monitor/axi_monitor.sv(52) @ 3065000: uvm_test_top.env.agent.monitor [MON_WR] Detected WRITE : Addr=100000f0 Data=0da5f086 Strb=1111 Prot=xxx BResp=00
# UVM_INFO /home/khang/Documents/SystemVerilog/Soc_RV32I/SoC/VERIFICATION/Driver/axi_driver.sv(62) @ 3075000: uvm_test_top.env.agent.driver [DRV] Write Done: Addr=100000f0 Data=0da5f086 Prot=xxx
# UVM_INFO /home/khang/Documents/SystemVerilog/Soc_RV32I/SoC/VERIFICATION/Monitor/axi_monitor.sv(52) @ 3115000: uvm_test_top.env.agent.monitor [MON_WR] Detected WRITE : Addr=100000f4 Data=25a6e879 Strb=1111 Prot=xxx BResp=00
# UVM_INFO /home/khang/Documents/SystemVerilog/Soc_RV32I/SoC/VERIFICATION/Driver/axi_driver.sv(62) @ 3125000: uvm_test_top.env.agent.driver [DRV] Write Done: Addr=100000f4 Data=25a6e879 Prot=xxx
# UVM_INFO /home/khang/Documents/SystemVerilog/Soc_RV32I/SoC/VERIFICATION/Monitor/axi_monitor.sv(52) @ 3165000: uvm_test_top.env.agent.monitor [MON_WR] Detected WRITE : Addr=100000f8 Data=38d9478c Strb=1111 Prot=xxx BResp=00
# UVM_INFO /home/khang/Documents/SystemVerilog/Soc_RV32I/SoC/VERIFICATION/Driver/axi_driver.sv(62) @ 3175000: uvm_test_top.env.agent.driver [DRV] Write Done: Addr=100000f8 Data=38d9478c Prot=xxx
# UVM_INFO /home/khang/Documents/SystemVerilog/Soc_RV32I/SoC/VERIFICATION/Monitor/axi_monitor.sv(52) @ 3215000: uvm_test_top.env.agent.monitor [MON_WR] Detected WRITE : Addr=100000fc Data=83a90b01 Strb=1111 Prot=xxx BResp=00
# UVM_INFO /home/khang/Documents/SystemVerilog/Soc_RV32I/SoC/VERIFICATION/Driver/axi_driver.sv(62) @ 3225000: uvm_test_top.env.agent.driver [DRV] Write Done: Addr=100000fc Data=83a90b01 Prot=xxx
# UVM_INFO /home/khang/Documents/SystemVerilog/Soc_RV32I/SoC/VERIFICATION/Monitor/axi_monitor.sv(52) @ 3265000: uvm_test_top.env.agent.monitor [MON_WR] Detected WRITE : Addr=10000100 Data=91f152cc Strb=1111 Prot=xxx BResp=00
# UVM_INFO /home/khang/Documents/SystemVerilog/Soc_RV32I/SoC/VERIFICATION/Driver/axi_driver.sv(62) @ 3275000: uvm_test_top.env.agent.driver [DRV] Write Done: Addr=10000100 Data=91f152cc Prot=xxx
# UVM_INFO /home/khang/Documents/SystemVerilog/Soc_RV32I/SoC/VERIFICATION/Monitor/axi_monitor.sv(52) @ 3315000: uvm_test_top.env.agent.monitor [MON_WR] Detected WRITE : Addr=10000104 Data=a16dcfef Strb=1111 Prot=xxx BResp=00
# UVM_INFO /home/khang/Documents/SystemVerilog/Soc_RV32I/SoC/VERIFICATION/Driver/axi_driver.sv(62) @ 3325000: uvm_test_top.env.agent.driver [DRV] Write Done: Addr=10000104 Data=a16dcfef Prot=xxx
# UVM_INFO /home/khang/Documents/SystemVerilog/Soc_RV32I/SoC/VERIFICATION/Monitor/axi_monitor.sv(52) @ 3365000: uvm_test_top.env.agent.monitor [MON_WR] Detected WRITE : Addr=10000108 Data=185d4cd3 Strb=1111 Prot=xxx BResp=00
# UVM_INFO /home/khang/Documents/SystemVerilog/Soc_RV32I/SoC/VERIFICATION/Driver/axi_driver.sv(62) @ 3375000: uvm_test_top.env.agent.driver [DRV] Write Done: Addr=10000108 Data=185d4cd3 Prot=xxx
# UVM_INFO /home/khang/Documents/SystemVerilog/Soc_RV32I/SoC/VERIFICATION/Monitor/axi_monitor.sv(52) @ 3415000: uvm_test_top.env.agent.monitor [MON_WR] Detected WRITE : Addr=1000010c Data=968f5c61 Strb=1111 Prot=xxx BResp=00
# UVM_INFO /home/khang/Documents/SystemVerilog/Soc_RV32I/SoC/VERIFICATION/Driver/axi_driver.sv(62) @ 3425000: uvm_test_top.env.agent.driver [DRV] Write Done: Addr=1000010c Data=968f5c61 Prot=xxx
# UVM_INFO /home/khang/Documents/SystemVerilog/Soc_RV32I/SoC/VERIFICATION/Monitor/axi_monitor.sv(52) @ 3465000: uvm_test_top.env.agent.monitor [MON_WR] Detected WRITE : Addr=10000110 Data=cc8c0add Strb=1111 Prot=xxx BResp=00
# UVM_INFO /home/khang/Documents/SystemVerilog/Soc_RV32I/SoC/VERIFICATION/Driver/axi_driver.sv(62) @ 3475000: uvm_test_top.env.agent.driver [DRV] Write Done: Addr=10000110 Data=cc8c0add Prot=xxx
# UVM_INFO /home/khang/Documents/SystemVerilog/Soc_RV32I/SoC/VERIFICATION/Monitor/axi_monitor.sv(52) @ 3515000: uvm_test_top.env.agent.monitor [MON_WR] Detected WRITE : Addr=10000114 Data=220a99b6 Strb=1111 Prot=xxx BResp=00
# UVM_INFO /home/khang/Documents/SystemVerilog/Soc_RV32I/SoC/VERIFICATION/Driver/axi_driver.sv(62) @ 3525000: uvm_test_top.env.agent.driver [DRV] Write Done: Addr=10000114 Data=220a99b6 Prot=xxx
# UVM_INFO /home/khang/Documents/SystemVerilog/Soc_RV32I/SoC/VERIFICATION/Monitor/axi_monitor.sv(52) @ 3565000: uvm_test_top.env.agent.monitor [MON_WR] Detected WRITE : Addr=10000118 Data=58e81987 Strb=1111 Prot=xxx BResp=00
# UVM_INFO /home/khang/Documents/SystemVerilog/Soc_RV32I/SoC/VERIFICATION/Driver/axi_driver.sv(62) @ 3575000: uvm_test_top.env.agent.driver [DRV] Write Done: Addr=10000118 Data=58e81987 Prot=xxx
# UVM_INFO /home/khang/Documents/SystemVerilog/Soc_RV32I/SoC/VERIFICATION/Monitor/axi_monitor.sv(52) @ 3615000: uvm_test_top.env.agent.monitor [MON_WR] Detected WRITE : Addr=1000011c Data=33ec2195 Strb=1111 Prot=xxx BResp=00
# UVM_INFO /home/khang/Documents/SystemVerilog/Soc_RV32I/SoC/VERIFICATION/Driver/axi_driver.sv(62) @ 3625000: uvm_test_top.env.agent.driver [DRV] Write Done: Addr=1000011c Data=33ec2195 Prot=xxx
# UVM_INFO /home/khang/Documents/SystemVerilog/Soc_RV32I/SoC/VERIFICATION/Monitor/axi_monitor.sv(52) @ 3665000: uvm_test_top.env.agent.monitor [MON_WR] Detected WRITE : Addr=10000120 Data=5054fc96 Strb=1111 Prot=xxx BResp=00
# UVM_INFO /home/khang/Documents/SystemVerilog/Soc_RV32I/SoC/VERIFICATION/Driver/axi_driver.sv(62) @ 3675000: uvm_test_top.env.agent.driver [DRV] Write Done: Addr=10000120 Data=5054fc96 Prot=xxx
# UVM_INFO /home/khang/Documents/SystemVerilog/Soc_RV32I/SoC/VERIFICATION/Monitor/axi_monitor.sv(52) @ 3715000: uvm_test_top.env.agent.monitor [MON_WR] Detected WRITE : Addr=10000124 Data=df17f333 Strb=1111 Prot=xxx BResp=00
# UVM_INFO /home/khang/Documents/SystemVerilog/Soc_RV32I/SoC/VERIFICATION/Driver/axi_driver.sv(62) @ 3725000: uvm_test_top.env.agent.driver [DRV] Write Done: Addr=10000124 Data=df17f333 Prot=xxx
# UVM_INFO /home/khang/Documents/SystemVerilog/Soc_RV32I/SoC/VERIFICATION/Monitor/axi_monitor.sv(52) @ 3765000: uvm_test_top.env.agent.monitor [MON_WR] Detected WRITE : Addr=10000128 Data=47e64f79 Strb=1111 Prot=xxx BResp=00
# UVM_INFO /home/khang/Documents/SystemVerilog/Soc_RV32I/SoC/VERIFICATION/Driver/axi_driver.sv(62) @ 3775000: uvm_test_top.env.agent.driver [DRV] Write Done: Addr=10000128 Data=47e64f79 Prot=xxx
# UVM_INFO /home/khang/Documents/SystemVerilog/Soc_RV32I/SoC/VERIFICATION/Monitor/axi_monitor.sv(52) @ 3815000: uvm_test_top.env.agent.monitor [MON_WR] Detected WRITE : Addr=1000012c Data=86913f75 Strb=1111 Prot=xxx BResp=00
# UVM_INFO /home/khang/Documents/SystemVerilog/Soc_RV32I/SoC/VERIFICATION/Driver/axi_driver.sv(62) @ 3825000: uvm_test_top.env.agent.driver [DRV] Write Done: Addr=1000012c Data=86913f75 Prot=xxx
# UVM_INFO /home/khang/Documents/SystemVerilog/Soc_RV32I/SoC/VERIFICATION/Monitor/axi_monitor.sv(52) @ 3865000: uvm_test_top.env.agent.monitor [MON_WR] Detected WRITE : Addr=10000130 Data=8faf0a6a Strb=1111 Prot=xxx BResp=00
# UVM_INFO /home/khang/Documents/SystemVerilog/Soc_RV32I/SoC/VERIFICATION/Driver/axi_driver.sv(62) @ 3875000: uvm_test_top.env.agent.driver [DRV] Write Done: Addr=10000130 Data=8faf0a6a Prot=xxx
# UVM_INFO /home/khang/Documents/SystemVerilog/Soc_RV32I/SoC/VERIFICATION/Monitor/axi_monitor.sv(52) @ 3915000: uvm_test_top.env.agent.monitor [MON_WR] Detected WRITE : Addr=10000134 Data=f4d7642f Strb=1111 Prot=xxx BResp=00
# UVM_INFO /home/khang/Documents/SystemVerilog/Soc_RV32I/SoC/VERIFICATION/Driver/axi_driver.sv(62) @ 3925000: uvm_test_top.env.agent.driver [DRV] Write Done: Addr=10000134 Data=f4d7642f Prot=xxx
# UVM_INFO /home/khang/Documents/SystemVerilog/Soc_RV32I/SoC/VERIFICATION/Monitor/axi_monitor.sv(52) @ 3965000: uvm_test_top.env.agent.monitor [MON_WR] Detected WRITE : Addr=10000138 Data=329b4524 Strb=1111 Prot=xxx BResp=00
# UVM_INFO /home/khang/Documents/SystemVerilog/Soc_RV32I/SoC/VERIFICATION/Driver/axi_driver.sv(62) @ 3975000: uvm_test_top.env.agent.driver [DRV] Write Done: Addr=10000138 Data=329b4524 Prot=xxx
# UVM_INFO /home/khang/Documents/SystemVerilog/Soc_RV32I/SoC/VERIFICATION/Monitor/axi_monitor.sv(52) @ 4015000: uvm_test_top.env.agent.monitor [MON_WR] Detected WRITE : Addr=1000013c Data=fabd531f Strb=1111 Prot=xxx BResp=00
# UVM_INFO /home/khang/Documents/SystemVerilog/Soc_RV32I/SoC/VERIFICATION/Driver/axi_driver.sv(62) @ 4025000: uvm_test_top.env.agent.driver [DRV] Write Done: Addr=1000013c Data=fabd531f Prot=xxx
# UVM_INFO /home/khang/Documents/SystemVerilog/Soc_RV32I/SoC/VERIFICATION/Monitor/axi_monitor.sv(52) @ 4065000: uvm_test_top.env.agent.monitor [MON_WR] Detected WRITE : Addr=10000140 Data=bea02d06 Strb=1111 Prot=xxx BResp=00
# UVM_INFO /home/khang/Documents/SystemVerilog/Soc_RV32I/SoC/VERIFICATION/Driver/axi_driver.sv(62) @ 4075000: uvm_test_top.env.agent.driver [DRV] Write Done: Addr=10000140 Data=bea02d06 Prot=xxx
# UVM_INFO /home/khang/Documents/SystemVerilog/Soc_RV32I/SoC/VERIFICATION/Monitor/axi_monitor.sv(52) @ 4115000: uvm_test_top.env.agent.monitor [MON_WR] Detected WRITE : Addr=10000144 Data=021d3909 Strb=1111 Prot=xxx BResp=00
# UVM_INFO /home/khang/Documents/SystemVerilog/Soc_RV32I/SoC/VERIFICATION/Driver/axi_driver.sv(62) @ 4125000: uvm_test_top.env.agent.driver [DRV] Write Done: Addr=10000144 Data=021d3909 Prot=xxx
# UVM_INFO /home/khang/Documents/SystemVerilog/Soc_RV32I/SoC/VERIFICATION/Monitor/axi_monitor.sv(52) @ 4165000: uvm_test_top.env.agent.monitor [MON_WR] Detected WRITE : Addr=10000148 Data=e11bbf83 Strb=1111 Prot=xxx BResp=00
# UVM_INFO /home/khang/Documents/SystemVerilog/Soc_RV32I/SoC/VERIFICATION/Driver/axi_driver.sv(62) @ 4175000: uvm_test_top.env.agent.driver [DRV] Write Done: Addr=10000148 Data=e11bbf83 Prot=xxx
# UVM_INFO /home/khang/Documents/SystemVerilog/Soc_RV32I/SoC/VERIFICATION/Monitor/axi_monitor.sv(52) @ 4215000: uvm_test_top.env.agent.monitor [MON_WR] Detected WRITE : Addr=1000014c Data=ebc3f570 Strb=1111 Prot=xxx BResp=00
# UVM_INFO /home/khang/Documents/SystemVerilog/Soc_RV32I/SoC/VERIFICATION/Driver/axi_driver.sv(62) @ 4225000: uvm_test_top.env.agent.driver [DRV] Write Done: Addr=1000014c Data=ebc3f570 Prot=xxx
# UVM_INFO /home/khang/Documents/SystemVerilog/Soc_RV32I/SoC/VERIFICATION/Monitor/axi_monitor.sv(52) @ 4265000: uvm_test_top.env.agent.monitor [MON_WR] Detected WRITE : Addr=10000150 Data=f2f01cba Strb=1111 Prot=xxx BResp=00
# UVM_INFO /home/khang/Documents/SystemVerilog/Soc_RV32I/SoC/VERIFICATION/Driver/axi_driver.sv(62) @ 4275000: uvm_test_top.env.agent.driver [DRV] Write Done: Addr=10000150 Data=f2f01cba Prot=xxx
# UVM_INFO /home/khang/Documents/SystemVerilog/Soc_RV32I/SoC/VERIFICATION/Monitor/axi_monitor.sv(52) @ 4315000: uvm_test_top.env.agent.monitor [MON_WR] Detected WRITE : Addr=10000154 Data=04502ba5 Strb=1111 Prot=xxx BResp=00
# UVM_INFO /home/khang/Documents/SystemVerilog/Soc_RV32I/SoC/VERIFICATION/Driver/axi_driver.sv(62) @ 4325000: uvm_test_top.env.agent.driver [DRV] Write Done: Addr=10000154 Data=04502ba5 Prot=xxx
# UVM_INFO /home/khang/Documents/SystemVerilog/Soc_RV32I/SoC/VERIFICATION/Monitor/axi_monitor.sv(52) @ 4365000: uvm_test_top.env.agent.monitor [MON_WR] Detected WRITE : Addr=10000158 Data=b66afacd Strb=1111 Prot=xxx BResp=00
# UVM_INFO /home/khang/Documents/SystemVerilog/Soc_RV32I/SoC/VERIFICATION/Driver/axi_driver.sv(62) @ 4375000: uvm_test_top.env.agent.driver [DRV] Write Done: Addr=10000158 Data=b66afacd Prot=xxx
# UVM_INFO /home/khang/Documents/SystemVerilog/Soc_RV32I/SoC/VERIFICATION/Monitor/axi_monitor.sv(52) @ 4415000: uvm_test_top.env.agent.monitor [MON_WR] Detected WRITE : Addr=1000015c Data=48dafd84 Strb=1111 Prot=xxx BResp=00
# UVM_INFO /home/khang/Documents/SystemVerilog/Soc_RV32I/SoC/VERIFICATION/Driver/axi_driver.sv(62) @ 4425000: uvm_test_top.env.agent.driver [DRV] Write Done: Addr=1000015c Data=48dafd84 Prot=xxx
# UVM_INFO /home/khang/Documents/SystemVerilog/Soc_RV32I/SoC/VERIFICATION/Monitor/axi_monitor.sv(52) @ 4465000: uvm_test_top.env.agent.monitor [MON_WR] Detected WRITE : Addr=10000160 Data=1972a124 Strb=1111 Prot=xxx BResp=00
# UVM_INFO /home/khang/Documents/SystemVerilog/Soc_RV32I/SoC/VERIFICATION/Driver/axi_driver.sv(62) @ 4475000: uvm_test_top.env.agent.driver [DRV] Write Done: Addr=10000160 Data=1972a124 Prot=xxx
# UVM_INFO /home/khang/Documents/SystemVerilog/Soc_RV32I/SoC/VERIFICATION/Monitor/axi_monitor.sv(52) @ 4515000: uvm_test_top.env.agent.monitor [MON_WR] Detected WRITE : Addr=10000164 Data=5c3e2bc5 Strb=1111 Prot=xxx BResp=00
# UVM_INFO /home/khang/Documents/SystemVerilog/Soc_RV32I/SoC/VERIFICATION/Driver/axi_driver.sv(62) @ 4525000: uvm_test_top.env.agent.driver [DRV] Write Done: Addr=10000164 Data=5c3e2bc5 Prot=xxx
# UVM_INFO /home/khang/Documents/SystemVerilog/Soc_RV32I/SoC/VERIFICATION/Monitor/axi_monitor.sv(52) @ 4565000: uvm_test_top.env.agent.monitor [MON_WR] Detected WRITE : Addr=10000168 Data=65be20da Strb=1111 Prot=xxx BResp=00
# UVM_INFO /home/khang/Documents/SystemVerilog/Soc_RV32I/SoC/VERIFICATION/Driver/axi_driver.sv(62) @ 4575000: uvm_test_top.env.agent.driver [DRV] Write Done: Addr=10000168 Data=65be20da Prot=xxx
# UVM_INFO /home/khang/Documents/SystemVerilog/Soc_RV32I/SoC/VERIFICATION/Monitor/axi_monitor.sv(52) @ 4615000: uvm_test_top.env.agent.monitor [MON_WR] Detected WRITE : Addr=1000016c Data=a29ded69 Strb=1111 Prot=xxx BResp=00
# UVM_INFO /home/khang/Documents/SystemVerilog/Soc_RV32I/SoC/VERIFICATION/Driver/axi_driver.sv(62) @ 4625000: uvm_test_top.env.agent.driver [DRV] Write Done: Addr=1000016c Data=a29ded69 Prot=xxx
# UVM_INFO /home/khang/Documents/SystemVerilog/Soc_RV32I/SoC/VERIFICATION/Monitor/axi_monitor.sv(52) @ 4665000: uvm_test_top.env.agent.monitor [MON_WR] Detected WRITE : Addr=10000170 Data=a835a137 Strb=1111 Prot=xxx BResp=00
# UVM_INFO /home/khang/Documents/SystemVerilog/Soc_RV32I/SoC/VERIFICATION/Driver/axi_driver.sv(62) @ 4675000: uvm_test_top.env.agent.driver [DRV] Write Done: Addr=10000170 Data=a835a137 Prot=xxx
# UVM_INFO /home/khang/Documents/SystemVerilog/Soc_RV32I/SoC/VERIFICATION/Monitor/axi_monitor.sv(52) @ 4715000: uvm_test_top.env.agent.monitor [MON_WR] Detected WRITE : Addr=10000174 Data=9b4e3478 Strb=1111 Prot=xxx BResp=00
# UVM_INFO /home/khang/Documents/SystemVerilog/Soc_RV32I/SoC/VERIFICATION/Driver/axi_driver.sv(62) @ 4725000: uvm_test_top.env.agent.driver [DRV] Write Done: Addr=10000174 Data=9b4e3478 Prot=xxx
# UVM_INFO /home/khang/Documents/SystemVerilog/Soc_RV32I/SoC/VERIFICATION/Monitor/axi_monitor.sv(52) @ 4765000: uvm_test_top.env.agent.monitor [MON_WR] Detected WRITE : Addr=10000178 Data=e7f6f01d Strb=1111 Prot=xxx BResp=00
# UVM_INFO /home/khang/Documents/SystemVerilog/Soc_RV32I/SoC/VERIFICATION/Driver/axi_driver.sv(62) @ 4775000: uvm_test_top.env.agent.driver [DRV] Write Done: Addr=10000178 Data=e7f6f01d Prot=xxx
# UVM_INFO /home/khang/Documents/SystemVerilog/Soc_RV32I/SoC/VERIFICATION/Monitor/axi_monitor.sv(52) @ 4815000: uvm_test_top.env.agent.monitor [MON_WR] Detected WRITE : Addr=1000017c Data=6ea2d41f Strb=1111 Prot=xxx BResp=00
# UVM_INFO /home/khang/Documents/SystemVerilog/Soc_RV32I/SoC/VERIFICATION/Driver/axi_driver.sv(62) @ 4825000: uvm_test_top.env.agent.driver [DRV] Write Done: Addr=1000017c Data=6ea2d41f Prot=xxx
# UVM_INFO /home/khang/Documents/SystemVerilog/Soc_RV32I/SoC/VERIFICATION/Monitor/axi_monitor.sv(52) @ 4865000: uvm_test_top.env.agent.monitor [MON_WR] Detected WRITE : Addr=10000180 Data=294e4b39 Strb=1111 Prot=xxx BResp=00
# UVM_INFO /home/khang/Documents/SystemVerilog/Soc_RV32I/SoC/VERIFICATION/Driver/axi_driver.sv(62) @ 4875000: uvm_test_top.env.agent.driver [DRV] Write Done: Addr=10000180 Data=294e4b39 Prot=xxx
# UVM_INFO /home/khang/Documents/SystemVerilog/Soc_RV32I/SoC/VERIFICATION/Monitor/axi_monitor.sv(52) @ 4915000: uvm_test_top.env.agent.monitor [MON_WR] Detected WRITE : Addr=10000184 Data=f1a1cfac Strb=1111 Prot=xxx BResp=00
# UVM_INFO /home/khang/Documents/SystemVerilog/Soc_RV32I/SoC/VERIFICATION/Driver/axi_driver.sv(62) @ 4925000: uvm_test_top.env.agent.driver [DRV] Write Done: Addr=10000184 Data=f1a1cfac Prot=xxx
# UVM_INFO /home/khang/Documents/SystemVerilog/Soc_RV32I/SoC/VERIFICATION/Monitor/axi_monitor.sv(52) @ 4965000: uvm_test_top.env.agent.monitor [MON_WR] Detected WRITE : Addr=10000188 Data=5f8f7856 Strb=1111 Prot=xxx BResp=00
# UVM_INFO /home/khang/Documents/SystemVerilog/Soc_RV32I/SoC/VERIFICATION/Driver/axi_driver.sv(62) @ 4975000: uvm_test_top.env.agent.driver [DRV] Write Done: Addr=10000188 Data=5f8f7856 Prot=xxx
# UVM_INFO /home/khang/Documents/SystemVerilog/Soc_RV32I/SoC/VERIFICATION/Monitor/axi_monitor.sv(52) @ 5015000: uvm_test_top.env.agent.monitor [MON_WR] Detected WRITE : Addr=1000018c Data=4bc7e357 Strb=1111 Prot=xxx BResp=00
# UVM_INFO /home/khang/Documents/SystemVerilog/Soc_RV32I/SoC/VERIFICATION/Driver/axi_driver.sv(62) @ 5025000: uvm_test_top.env.agent.driver [DRV] Write Done: Addr=1000018c Data=4bc7e357 Prot=xxx
# UVM_INFO /home/khang/Documents/SystemVerilog/Soc_RV32I/SoC/VERIFICATION/Monitor/axi_monitor.sv(52) @ 5065000: uvm_test_top.env.agent.monitor [MON_WR] Detected WRITE : Addr=10000190 Data=0d3cea58 Strb=1111 Prot=xxx BResp=00
# UVM_INFO /home/khang/Documents/SystemVerilog/Soc_RV32I/SoC/VERIFICATION/Driver/axi_driver.sv(62) @ 5075000: uvm_test_top.env.agent.driver [DRV] Write Done: Addr=10000190 Data=0d3cea58 Prot=xxx
# UVM_INFO /home/khang/Documents/SystemVerilog/Soc_RV32I/SoC/VERIFICATION/Monitor/axi_monitor.sv(52) @ 5115000: uvm_test_top.env.agent.monitor [MON_WR] Detected WRITE : Addr=10000194 Data=c38b7947 Strb=1111 Prot=xxx BResp=00
# UVM_INFO /home/khang/Documents/SystemVerilog/Soc_RV32I/SoC/VERIFICATION/Driver/axi_driver.sv(62) @ 5125000: uvm_test_top.env.agent.driver [DRV] Write Done: Addr=10000194 Data=c38b7947 Prot=xxx
# UVM_INFO /home/khang/Documents/SystemVerilog/Soc_RV32I/SoC/VERIFICATION/Monitor/axi_monitor.sv(52) @ 5165000: uvm_test_top.env.agent.monitor [MON_WR] Detected WRITE : Addr=10000198 Data=6b5447b4 Strb=1111 Prot=xxx BResp=00
# UVM_INFO /home/khang/Documents/SystemVerilog/Soc_RV32I/SoC/VERIFICATION/Driver/axi_driver.sv(62) @ 5175000: uvm_test_top.env.agent.driver [DRV] Write Done: Addr=10000198 Data=6b5447b4 Prot=xxx
# UVM_INFO /home/khang/Documents/SystemVerilog/Soc_RV32I/SoC/VERIFICATION/Monitor/axi_monitor.sv(52) @ 5215000: uvm_test_top.env.agent.monitor [MON_WR] Detected WRITE : Addr=1000019c Data=e47c4481 Strb=1111 Prot=xxx BResp=00
# UVM_INFO /home/khang/Documents/SystemVerilog/Soc_RV32I/SoC/VERIFICATION/Driver/axi_driver.sv(62) @ 5225000: uvm_test_top.env.agent.driver [DRV] Write Done: Addr=1000019c Data=e47c4481 Prot=xxx
# UVM_INFO /home/khang/Documents/SystemVerilog/Soc_RV32I/SoC/VERIFICATION/Monitor/axi_monitor.sv(52) @ 5265000: uvm_test_top.env.agent.monitor [MON_WR] Detected WRITE : Addr=100001a0 Data=c5777626 Strb=1111 Prot=xxx BResp=00
# UVM_INFO /home/khang/Documents/SystemVerilog/Soc_RV32I/SoC/VERIFICATION/Driver/axi_driver.sv(62) @ 5275000: uvm_test_top.env.agent.driver [DRV] Write Done: Addr=100001a0 Data=c5777626 Prot=xxx
# UVM_INFO /home/khang/Documents/SystemVerilog/Soc_RV32I/SoC/VERIFICATION/Monitor/axi_monitor.sv(52) @ 5315000: uvm_test_top.env.agent.monitor [MON_WR] Detected WRITE : Addr=100001a4 Data=725d2fcc Strb=1111 Prot=xxx BResp=00
# UVM_INFO /home/khang/Documents/SystemVerilog/Soc_RV32I/SoC/VERIFICATION/Driver/axi_driver.sv(62) @ 5325000: uvm_test_top.env.agent.driver [DRV] Write Done: Addr=100001a4 Data=725d2fcc Prot=xxx
# UVM_INFO /home/khang/Documents/SystemVerilog/Soc_RV32I/SoC/VERIFICATION/Monitor/axi_monitor.sv(52) @ 5365000: uvm_test_top.env.agent.monitor [MON_WR] Detected WRITE : Addr=100001a8 Data=5de0ab71 Strb=1111 Prot=xxx BResp=00
# UVM_INFO /home/khang/Documents/SystemVerilog/Soc_RV32I/SoC/VERIFICATION/Driver/axi_driver.sv(62) @ 5375000: uvm_test_top.env.agent.driver [DRV] Write Done: Addr=100001a8 Data=5de0ab71 Prot=xxx
# UVM_INFO /home/khang/Documents/SystemVerilog/Soc_RV32I/SoC/VERIFICATION/Monitor/axi_monitor.sv(52) @ 5415000: uvm_test_top.env.agent.monitor [MON_WR] Detected WRITE : Addr=100001ac Data=13260d1d Strb=1111 Prot=xxx BResp=00
# UVM_INFO /home/khang/Documents/SystemVerilog/Soc_RV32I/SoC/VERIFICATION/Driver/axi_driver.sv(62) @ 5425000: uvm_test_top.env.agent.driver [DRV] Write Done: Addr=100001ac Data=13260d1d Prot=xxx
# UVM_INFO /home/khang/Documents/SystemVerilog/Soc_RV32I/SoC/VERIFICATION/Monitor/axi_monitor.sv(52) @ 5465000: uvm_test_top.env.agent.monitor [MON_WR] Detected WRITE : Addr=100001b0 Data=c6fd1639 Strb=1111 Prot=xxx BResp=00
# UVM_INFO /home/khang/Documents/SystemVerilog/Soc_RV32I/SoC/VERIFICATION/Driver/axi_driver.sv(62) @ 5475000: uvm_test_top.env.agent.driver [DRV] Write Done: Addr=100001b0 Data=c6fd1639 Prot=xxx
# UVM_INFO /home/khang/Documents/SystemVerilog/Soc_RV32I/SoC/VERIFICATION/Monitor/axi_monitor.sv(52) @ 5515000: uvm_test_top.env.agent.monitor [MON_WR] Detected WRITE : Addr=100001b4 Data=aead3fa7 Strb=1111 Prot=xxx BResp=00
# UVM_INFO /home/khang/Documents/SystemVerilog/Soc_RV32I/SoC/VERIFICATION/Driver/axi_driver.sv(62) @ 5525000: uvm_test_top.env.agent.driver [DRV] Write Done: Addr=100001b4 Data=aead3fa7 Prot=xxx
# UVM_INFO /home/khang/Documents/SystemVerilog/Soc_RV32I/SoC/VERIFICATION/Monitor/axi_monitor.sv(52) @ 5565000: uvm_test_top.env.agent.monitor [MON_WR] Detected WRITE : Addr=100001b8 Data=879912bb Strb=1111 Prot=xxx BResp=00
# UVM_INFO /home/khang/Documents/SystemVerilog/Soc_RV32I/SoC/VERIFICATION/Driver/axi_driver.sv(62) @ 5575000: uvm_test_top.env.agent.driver [DRV] Write Done: Addr=100001b8 Data=879912bb Prot=xxx
# UVM_INFO /home/khang/Documents/SystemVerilog/Soc_RV32I/SoC/VERIFICATION/Monitor/axi_monitor.sv(52) @ 5615000: uvm_test_top.env.agent.monitor [MON_WR] Detected WRITE : Addr=100001bc Data=a17cb67b Strb=1111 Prot=xxx BResp=00
# UVM_INFO /home/khang/Documents/SystemVerilog/Soc_RV32I/SoC/VERIFICATION/Driver/axi_driver.sv(62) @ 5625000: uvm_test_top.env.agent.driver [DRV] Write Done: Addr=100001bc Data=a17cb67b Prot=xxx
# UVM_INFO /home/khang/Documents/SystemVerilog/Soc_RV32I/SoC/VERIFICATION/Monitor/axi_monitor.sv(52) @ 5665000: uvm_test_top.env.agent.monitor [MON_WR] Detected WRITE : Addr=100001c0 Data=2268ded8 Strb=1111 Prot=xxx BResp=00
# UVM_INFO /home/khang/Documents/SystemVerilog/Soc_RV32I/SoC/VERIFICATION/Driver/axi_driver.sv(62) @ 5675000: uvm_test_top.env.agent.driver [DRV] Write Done: Addr=100001c0 Data=2268ded8 Prot=xxx
# UVM_INFO /home/khang/Documents/SystemVerilog/Soc_RV32I/SoC/VERIFICATION/Monitor/axi_monitor.sv(52) @ 5715000: uvm_test_top.env.agent.monitor [MON_WR] Detected WRITE : Addr=100001c4 Data=05f5424d Strb=1111 Prot=xxx BResp=00
# UVM_INFO /home/khang/Documents/SystemVerilog/Soc_RV32I/SoC/VERIFICATION/Driver/axi_driver.sv(62) @ 5725000: uvm_test_top.env.agent.driver [DRV] Write Done: Addr=100001c4 Data=05f5424d Prot=xxx
# UVM_INFO /home/khang/Documents/SystemVerilog/Soc_RV32I/SoC/VERIFICATION/Monitor/axi_monitor.sv(52) @ 5765000: uvm_test_top.env.agent.monitor [MON_WR] Detected WRITE : Addr=100001c8 Data=30258caf Strb=1111 Prot=xxx BResp=00
# UVM_INFO /home/khang/Documents/SystemVerilog/Soc_RV32I/SoC/VERIFICATION/Driver/axi_driver.sv(62) @ 5775000: uvm_test_top.env.agent.driver [DRV] Write Done: Addr=100001c8 Data=30258caf Prot=xxx
# UVM_INFO /home/khang/Documents/SystemVerilog/Soc_RV32I/SoC/VERIFICATION/Monitor/axi_monitor.sv(52) @ 5815000: uvm_test_top.env.agent.monitor [MON_WR] Detected WRITE : Addr=100001cc Data=5d724198 Strb=1111 Prot=xxx BResp=00
# UVM_INFO /home/khang/Documents/SystemVerilog/Soc_RV32I/SoC/VERIFICATION/Driver/axi_driver.sv(62) @ 5825000: uvm_test_top.env.agent.driver [DRV] Write Done: Addr=100001cc Data=5d724198 Prot=xxx
# UVM_INFO /home/khang/Documents/SystemVerilog/Soc_RV32I/SoC/VERIFICATION/Monitor/axi_monitor.sv(52) @ 5865000: uvm_test_top.env.agent.monitor [MON_WR] Detected WRITE : Addr=100001d0 Data=980ab49b Strb=1111 Prot=xxx BResp=00
# UVM_INFO /home/khang/Documents/SystemVerilog/Soc_RV32I/SoC/VERIFICATION/Driver/axi_driver.sv(62) @ 5875000: uvm_test_top.env.agent.driver [DRV] Write Done: Addr=100001d0 Data=980ab49b Prot=xxx
# UVM_INFO /home/khang/Documents/SystemVerilog/Soc_RV32I/SoC/VERIFICATION/Monitor/axi_monitor.sv(52) @ 5915000: uvm_test_top.env.agent.monitor [MON_WR] Detected WRITE : Addr=100001d4 Data=f65f3319 Strb=1111 Prot=xxx BResp=00
# UVM_INFO /home/khang/Documents/SystemVerilog/Soc_RV32I/SoC/VERIFICATION/Driver/axi_driver.sv(62) @ 5925000: uvm_test_top.env.agent.driver [DRV] Write Done: Addr=100001d4 Data=f65f3319 Prot=xxx
# UVM_INFO /home/khang/Documents/SystemVerilog/Soc_RV32I/SoC/VERIFICATION/Monitor/axi_monitor.sv(52) @ 5965000: uvm_test_top.env.agent.monitor [MON_WR] Detected WRITE : Addr=100001d8 Data=2ff6c60c Strb=1111 Prot=xxx BResp=00
# UVM_INFO /home/khang/Documents/SystemVerilog/Soc_RV32I/SoC/VERIFICATION/Driver/axi_driver.sv(62) @ 5975000: uvm_test_top.env.agent.driver [DRV] Write Done: Addr=100001d8 Data=2ff6c60c Prot=xxx
# UVM_INFO /home/khang/Documents/SystemVerilog/Soc_RV32I/SoC/VERIFICATION/Monitor/axi_monitor.sv(52) @ 6015000: uvm_test_top.env.agent.monitor [MON_WR] Detected WRITE : Addr=100001dc Data=1ae10e4d Strb=1111 Prot=xxx BResp=00
# UVM_INFO /home/khang/Documents/SystemVerilog/Soc_RV32I/SoC/VERIFICATION/Driver/axi_driver.sv(62) @ 6025000: uvm_test_top.env.agent.driver [DRV] Write Done: Addr=100001dc Data=1ae10e4d Prot=xxx
# UVM_INFO /home/khang/Documents/SystemVerilog/Soc_RV32I/SoC/VERIFICATION/Monitor/axi_monitor.sv(52) @ 6065000: uvm_test_top.env.agent.monitor [MON_WR] Detected WRITE : Addr=100001e0 Data=6a5d6bc8 Strb=1111 Prot=xxx BResp=00
# UVM_INFO /home/khang/Documents/SystemVerilog/Soc_RV32I/SoC/VERIFICATION/Driver/axi_driver.sv(62) @ 6075000: uvm_test_top.env.agent.driver [DRV] Write Done: Addr=100001e0 Data=6a5d6bc8 Prot=xxx
# UVM_INFO /home/khang/Documents/SystemVerilog/Soc_RV32I/SoC/VERIFICATION/Monitor/axi_monitor.sv(52) @ 6115000: uvm_test_top.env.agent.monitor [MON_WR] Detected WRITE : Addr=100001e4 Data=3fe70672 Strb=1111 Prot=xxx BResp=00
# UVM_INFO /home/khang/Documents/SystemVerilog/Soc_RV32I/SoC/VERIFICATION/Driver/axi_driver.sv(62) @ 6125000: uvm_test_top.env.agent.driver [DRV] Write Done: Addr=100001e4 Data=3fe70672 Prot=xxx
# UVM_INFO /home/khang/Documents/SystemVerilog/Soc_RV32I/SoC/VERIFICATION/Monitor/axi_monitor.sv(52) @ 6165000: uvm_test_top.env.agent.monitor [MON_WR] Detected WRITE : Addr=100001e8 Data=4c22aa8a Strb=1111 Prot=xxx BResp=00
# UVM_INFO /home/khang/Documents/SystemVerilog/Soc_RV32I/SoC/VERIFICATION/Driver/axi_driver.sv(62) @ 6175000: uvm_test_top.env.agent.driver [DRV] Write Done: Addr=100001e8 Data=4c22aa8a Prot=xxx
# UVM_INFO /home/khang/Documents/SystemVerilog/Soc_RV32I/SoC/VERIFICATION/Monitor/axi_monitor.sv(52) @ 6215000: uvm_test_top.env.agent.monitor [MON_WR] Detected WRITE : Addr=100001ec Data=c0a6fae3 Strb=1111 Prot=xxx BResp=00
# UVM_INFO /home/khang/Documents/SystemVerilog/Soc_RV32I/SoC/VERIFICATION/Driver/axi_driver.sv(62) @ 6225000: uvm_test_top.env.agent.driver [DRV] Write Done: Addr=100001ec Data=c0a6fae3 Prot=xxx
# UVM_INFO /home/khang/Documents/SystemVerilog/Soc_RV32I/SoC/VERIFICATION/Monitor/axi_monitor.sv(52) @ 6265000: uvm_test_top.env.agent.monitor [MON_WR] Detected WRITE : Addr=100001f0 Data=8fd69ed6 Strb=1111 Prot=xxx BResp=00
# UVM_INFO /home/khang/Documents/SystemVerilog/Soc_RV32I/SoC/VERIFICATION/Driver/axi_driver.sv(62) @ 6275000: uvm_test_top.env.agent.driver [DRV] Write Done: Addr=100001f0 Data=8fd69ed6 Prot=xxx
# UVM_INFO /home/khang/Documents/SystemVerilog/Soc_RV32I/SoC/VERIFICATION/Monitor/axi_monitor.sv(52) @ 6315000: uvm_test_top.env.agent.monitor [MON_WR] Detected WRITE : Addr=100001f4 Data=fb865a9f Strb=1111 Prot=xxx BResp=00
# UVM_INFO /home/khang/Documents/SystemVerilog/Soc_RV32I/SoC/VERIFICATION/Driver/axi_driver.sv(62) @ 6325000: uvm_test_top.env.agent.driver [DRV] Write Done: Addr=100001f4 Data=fb865a9f Prot=xxx
# UVM_INFO /home/khang/Documents/SystemVerilog/Soc_RV32I/SoC/VERIFICATION/Monitor/axi_monitor.sv(52) @ 6365000: uvm_test_top.env.agent.monitor [MON_WR] Detected WRITE : Addr=100001f8 Data=4d472e94 Strb=1111 Prot=xxx BResp=00
# UVM_INFO /home/khang/Documents/SystemVerilog/Soc_RV32I/SoC/VERIFICATION/Driver/axi_driver.sv(62) @ 6375000: uvm_test_top.env.agent.driver [DRV] Write Done: Addr=100001f8 Data=4d472e94 Prot=xxx
# UVM_INFO /home/khang/Documents/SystemVerilog/Soc_RV32I/SoC/VERIFICATION/Monitor/axi_monitor.sv(52) @ 6415000: uvm_test_top.env.agent.monitor [MON_WR] Detected WRITE : Addr=100001fc Data=aed73aff Strb=1111 Prot=xxx BResp=00
# UVM_INFO /home/khang/Documents/SystemVerilog/Soc_RV32I/SoC/VERIFICATION/Driver/axi_driver.sv(62) @ 6425000: uvm_test_top.env.agent.driver [DRV] Write Done: Addr=100001fc Data=aed73aff Prot=xxx
# UVM_INFO /home/khang/Documents/SystemVerilog/Soc_RV32I/SoC/VERIFICATION/Monitor/axi_monitor.sv(52) @ 6465000: uvm_test_top.env.agent.monitor [MON_WR] Detected WRITE : Addr=10000200 Data=5a69c1e5 Strb=1111 Prot=xxx BResp=00
# UVM_INFO /home/khang/Documents/SystemVerilog/Soc_RV32I/SoC/VERIFICATION/Driver/axi_driver.sv(62) @ 6475000: uvm_test_top.env.agent.driver [DRV] Write Done: Addr=10000200 Data=5a69c1e5 Prot=xxx
# UVM_INFO /home/khang/Documents/SystemVerilog/Soc_RV32I/SoC/VERIFICATION/Monitor/axi_monitor.sv(52) @ 6515000: uvm_test_top.env.agent.monitor [MON_WR] Detected WRITE : Addr=10000204 Data=10a4020b Strb=1111 Prot=xxx BResp=00
# UVM_INFO /home/khang/Documents/SystemVerilog/Soc_RV32I/SoC/VERIFICATION/Driver/axi_driver.sv(62) @ 6525000: uvm_test_top.env.agent.driver [DRV] Write Done: Addr=10000204 Data=10a4020b Prot=xxx
# UVM_INFO /home/khang/Documents/SystemVerilog/Soc_RV32I/SoC/VERIFICATION/Monitor/axi_monitor.sv(52) @ 6565000: uvm_test_top.env.agent.monitor [MON_WR] Detected WRITE : Addr=10000208 Data=1c9109e7 Strb=1111 Prot=xxx BResp=00
# UVM_INFO /home/khang/Documents/SystemVerilog/Soc_RV32I/SoC/VERIFICATION/Driver/axi_driver.sv(62) @ 6575000: uvm_test_top.env.agent.driver [DRV] Write Done: Addr=10000208 Data=1c9109e7 Prot=xxx
# UVM_INFO /home/khang/Documents/SystemVerilog/Soc_RV32I/SoC/VERIFICATION/Monitor/axi_monitor.sv(52) @ 6615000: uvm_test_top.env.agent.monitor [MON_WR] Detected WRITE : Addr=1000020c Data=51920f93 Strb=1111 Prot=xxx BResp=00
# UVM_INFO /home/khang/Documents/SystemVerilog/Soc_RV32I/SoC/VERIFICATION/Driver/axi_driver.sv(62) @ 6625000: uvm_test_top.env.agent.driver [DRV] Write Done: Addr=1000020c Data=51920f93 Prot=xxx
# UVM_INFO /home/khang/Documents/SystemVerilog/Soc_RV32I/SoC/VERIFICATION/Monitor/axi_monitor.sv(52) @ 6665000: uvm_test_top.env.agent.monitor [MON_WR] Detected WRITE : Addr=10000210 Data=fc329dd1 Strb=1111 Prot=xxx BResp=00
# UVM_INFO /home/khang/Documents/SystemVerilog/Soc_RV32I/SoC/VERIFICATION/Driver/axi_driver.sv(62) @ 6675000: uvm_test_top.env.agent.driver [DRV] Write Done: Addr=10000210 Data=fc329dd1 Prot=xxx
# UVM_INFO /home/khang/Documents/SystemVerilog/Soc_RV32I/SoC/VERIFICATION/Monitor/axi_monitor.sv(52) @ 6715000: uvm_test_top.env.agent.monitor [MON_WR] Detected WRITE : Addr=10000214 Data=33027647 Strb=1111 Prot=xxx BResp=00
# UVM_INFO /home/khang/Documents/SystemVerilog/Soc_RV32I/SoC/VERIFICATION/Driver/axi_driver.sv(62) @ 6725000: uvm_test_top.env.agent.driver [DRV] Write Done: Addr=10000214 Data=33027647 Prot=xxx
# UVM_INFO /home/khang/Documents/SystemVerilog/Soc_RV32I/SoC/VERIFICATION/Monitor/axi_monitor.sv(52) @ 6765000: uvm_test_top.env.agent.monitor [MON_WR] Detected WRITE : Addr=10000218 Data=9a91a254 Strb=1111 Prot=xxx BResp=00
# UVM_INFO /home/khang/Documents/SystemVerilog/Soc_RV32I/SoC/VERIFICATION/Driver/axi_driver.sv(62) @ 6775000: uvm_test_top.env.agent.driver [DRV] Write Done: Addr=10000218 Data=9a91a254 Prot=xxx
# UVM_INFO /home/khang/Documents/SystemVerilog/Soc_RV32I/SoC/VERIFICATION/Monitor/axi_monitor.sv(52) @ 6815000: uvm_test_top.env.agent.monitor [MON_WR] Detected WRITE : Addr=1000021c Data=e527db10 Strb=1111 Prot=xxx BResp=00
# UVM_INFO /home/khang/Documents/SystemVerilog/Soc_RV32I/SoC/VERIFICATION/Driver/axi_driver.sv(62) @ 6825000: uvm_test_top.env.agent.driver [DRV] Write Done: Addr=1000021c Data=e527db10 Prot=xxx
# UVM_INFO /home/khang/Documents/SystemVerilog/Soc_RV32I/SoC/VERIFICATION/Monitor/axi_monitor.sv(52) @ 6865000: uvm_test_top.env.agent.monitor [MON_WR] Detected WRITE : Addr=10000220 Data=04f53ae8 Strb=1111 Prot=xxx BResp=00
# UVM_INFO /home/khang/Documents/SystemVerilog/Soc_RV32I/SoC/VERIFICATION/Driver/axi_driver.sv(62) @ 6875000: uvm_test_top.env.agent.driver [DRV] Write Done: Addr=10000220 Data=04f53ae8 Prot=xxx
# UVM_INFO /home/khang/Documents/SystemVerilog/Soc_RV32I/SoC/VERIFICATION/Monitor/axi_monitor.sv(52) @ 6915000: uvm_test_top.env.agent.monitor [MON_WR] Detected WRITE : Addr=10000224 Data=334f91c2 Strb=1111 Prot=xxx BResp=00
# UVM_INFO /home/khang/Documents/SystemVerilog/Soc_RV32I/SoC/VERIFICATION/Driver/axi_driver.sv(62) @ 6925000: uvm_test_top.env.agent.driver [DRV] Write Done: Addr=10000224 Data=334f91c2 Prot=xxx
# UVM_INFO /home/khang/Documents/SystemVerilog/Soc_RV32I/SoC/VERIFICATION/Monitor/axi_monitor.sv(52) @ 6965000: uvm_test_top.env.agent.monitor [MON_WR] Detected WRITE : Addr=10000228 Data=e58ffb0d Strb=1111 Prot=xxx BResp=00
# UVM_INFO /home/khang/Documents/SystemVerilog/Soc_RV32I/SoC/VERIFICATION/Driver/axi_driver.sv(62) @ 6975000: uvm_test_top.env.agent.driver [DRV] Write Done: Addr=10000228 Data=e58ffb0d Prot=xxx
# UVM_INFO /home/khang/Documents/SystemVerilog/Soc_RV32I/SoC/VERIFICATION/Monitor/axi_monitor.sv(52) @ 7015000: uvm_test_top.env.agent.monitor [MON_WR] Detected WRITE : Addr=1000022c Data=b96eb505 Strb=1111 Prot=xxx BResp=00
# UVM_INFO /home/khang/Documents/SystemVerilog/Soc_RV32I/SoC/VERIFICATION/Driver/axi_driver.sv(62) @ 7025000: uvm_test_top.env.agent.driver [DRV] Write Done: Addr=1000022c Data=b96eb505 Prot=xxx
# UVM_INFO /home/khang/Documents/SystemVerilog/Soc_RV32I/SoC/VERIFICATION/Monitor/axi_monitor.sv(52) @ 7065000: uvm_test_top.env.agent.monitor [MON_WR] Detected WRITE : Addr=10000230 Data=dc35c18a Strb=1111 Prot=xxx BResp=00
# UVM_INFO /home/khang/Documents/SystemVerilog/Soc_RV32I/SoC/VERIFICATION/Driver/axi_driver.sv(62) @ 7075000: uvm_test_top.env.agent.driver [DRV] Write Done: Addr=10000230 Data=dc35c18a Prot=xxx
# UVM_INFO /home/khang/Documents/SystemVerilog/Soc_RV32I/SoC/VERIFICATION/Monitor/axi_monitor.sv(52) @ 7115000: uvm_test_top.env.agent.monitor [MON_WR] Detected WRITE : Addr=10000234 Data=1952f347 Strb=1111 Prot=xxx BResp=00
# UVM_INFO /home/khang/Documents/SystemVerilog/Soc_RV32I/SoC/VERIFICATION/Driver/axi_driver.sv(62) @ 7125000: uvm_test_top.env.agent.driver [DRV] Write Done: Addr=10000234 Data=1952f347 Prot=xxx
# UVM_INFO /home/khang/Documents/SystemVerilog/Soc_RV32I/SoC/VERIFICATION/Monitor/axi_monitor.sv(52) @ 7165000: uvm_test_top.env.agent.monitor [MON_WR] Detected WRITE : Addr=10000238 Data=60a6525a Strb=1111 Prot=xxx BResp=00
# UVM_INFO /home/khang/Documents/SystemVerilog/Soc_RV32I/SoC/VERIFICATION/Driver/axi_driver.sv(62) @ 7175000: uvm_test_top.env.agent.driver [DRV] Write Done: Addr=10000238 Data=60a6525a Prot=xxx
# UVM_INFO /home/khang/Documents/SystemVerilog/Soc_RV32I/SoC/VERIFICATION/Monitor/axi_monitor.sv(52) @ 7215000: uvm_test_top.env.agent.monitor [MON_WR] Detected WRITE : Addr=1000023c Data=1e5cede4 Strb=1111 Prot=xxx BResp=00
# UVM_INFO /home/khang/Documents/SystemVerilog/Soc_RV32I/SoC/VERIFICATION/Driver/axi_driver.sv(62) @ 7225000: uvm_test_top.env.agent.driver [DRV] Write Done: Addr=1000023c Data=1e5cede4 Prot=xxx
# UVM_INFO /home/khang/Documents/SystemVerilog/Soc_RV32I/SoC/VERIFICATION/Monitor/axi_monitor.sv(52) @ 7265000: uvm_test_top.env.agent.monitor [MON_WR] Detected WRITE : Addr=10000240 Data=247f6451 Strb=1111 Prot=xxx BResp=00
# UVM_INFO /home/khang/Documents/SystemVerilog/Soc_RV32I/SoC/VERIFICATION/Driver/axi_driver.sv(62) @ 7275000: uvm_test_top.env.agent.driver [DRV] Write Done: Addr=10000240 Data=247f6451 Prot=xxx
# UVM_INFO /home/khang/Documents/SystemVerilog/Soc_RV32I/SoC/VERIFICATION/Monitor/axi_monitor.sv(52) @ 7315000: uvm_test_top.env.agent.monitor [MON_WR] Detected WRITE : Addr=10000244 Data=dc464e1b Strb=1111 Prot=xxx BResp=00
# UVM_INFO /home/khang/Documents/SystemVerilog/Soc_RV32I/SoC/VERIFICATION/Driver/axi_driver.sv(62) @ 7325000: uvm_test_top.env.agent.driver [DRV] Write Done: Addr=10000244 Data=dc464e1b Prot=xxx
# UVM_INFO /home/khang/Documents/SystemVerilog/Soc_RV32I/SoC/VERIFICATION/Monitor/axi_monitor.sv(52) @ 7365000: uvm_test_top.env.agent.monitor [MON_WR] Detected WRITE : Addr=10000248 Data=39118dac Strb=1111 Prot=xxx BResp=00
# UVM_INFO /home/khang/Documents/SystemVerilog/Soc_RV32I/SoC/VERIFICATION/Driver/axi_driver.sv(62) @ 7375000: uvm_test_top.env.agent.driver [DRV] Write Done: Addr=10000248 Data=39118dac Prot=xxx
# UVM_INFO /home/khang/Documents/SystemVerilog/Soc_RV32I/SoC/VERIFICATION/Monitor/axi_monitor.sv(52) @ 7415000: uvm_test_top.env.agent.monitor [MON_WR] Detected WRITE : Addr=1000024c Data=a3b944f2 Strb=1111 Prot=xxx BResp=00
# UVM_INFO /home/khang/Documents/SystemVerilog/Soc_RV32I/SoC/VERIFICATION/Driver/axi_driver.sv(62) @ 7425000: uvm_test_top.env.agent.driver [DRV] Write Done: Addr=1000024c Data=a3b944f2 Prot=xxx
# UVM_INFO /home/khang/Documents/SystemVerilog/Soc_RV32I/SoC/VERIFICATION/Monitor/axi_monitor.sv(52) @ 7465000: uvm_test_top.env.agent.monitor [MON_WR] Detected WRITE : Addr=10000250 Data=e412d252 Strb=1111 Prot=xxx BResp=00
# UVM_INFO /home/khang/Documents/SystemVerilog/Soc_RV32I/SoC/VERIFICATION/Driver/axi_driver.sv(62) @ 7475000: uvm_test_top.env.agent.driver [DRV] Write Done: Addr=10000250 Data=e412d252 Prot=xxx
# UVM_INFO /home/khang/Documents/SystemVerilog/Soc_RV32I/SoC/VERIFICATION/Monitor/axi_monitor.sv(52) @ 7515000: uvm_test_top.env.agent.monitor [MON_WR] Detected WRITE : Addr=10000254 Data=fef98e60 Strb=1111 Prot=xxx BResp=00
# UVM_INFO /home/khang/Documents/SystemVerilog/Soc_RV32I/SoC/VERIFICATION/Driver/axi_driver.sv(62) @ 7525000: uvm_test_top.env.agent.driver [DRV] Write Done: Addr=10000254 Data=fef98e60 Prot=xxx
# UVM_INFO /home/khang/Documents/SystemVerilog/Soc_RV32I/SoC/VERIFICATION/Monitor/axi_monitor.sv(52) @ 7565000: uvm_test_top.env.agent.monitor [MON_WR] Detected WRITE : Addr=10000258 Data=041365cf Strb=1111 Prot=xxx BResp=00
# UVM_INFO /home/khang/Documents/SystemVerilog/Soc_RV32I/SoC/VERIFICATION/Driver/axi_driver.sv(62) @ 7575000: uvm_test_top.env.agent.driver [DRV] Write Done: Addr=10000258 Data=041365cf Prot=xxx
# UVM_INFO /home/khang/Documents/SystemVerilog/Soc_RV32I/SoC/VERIFICATION/Monitor/axi_monitor.sv(52) @ 7615000: uvm_test_top.env.agent.monitor [MON_WR] Detected WRITE : Addr=1000025c Data=ec445ab5 Strb=1111 Prot=xxx BResp=00
# UVM_INFO /home/khang/Documents/SystemVerilog/Soc_RV32I/SoC/VERIFICATION/Driver/axi_driver.sv(62) @ 7625000: uvm_test_top.env.agent.driver [DRV] Write Done: Addr=1000025c Data=ec445ab5 Prot=xxx
# UVM_INFO /home/khang/Documents/SystemVerilog/Soc_RV32I/SoC/VERIFICATION/Monitor/axi_monitor.sv(52) @ 7665000: uvm_test_top.env.agent.monitor [MON_WR] Detected WRITE : Addr=10000260 Data=ba61ef53 Strb=1111 Prot=xxx BResp=00
# UVM_INFO /home/khang/Documents/SystemVerilog/Soc_RV32I/SoC/VERIFICATION/Driver/axi_driver.sv(62) @ 7675000: uvm_test_top.env.agent.driver [DRV] Write Done: Addr=10000260 Data=ba61ef53 Prot=xxx
# UVM_INFO /home/khang/Documents/SystemVerilog/Soc_RV32I/SoC/VERIFICATION/Monitor/axi_monitor.sv(52) @ 7715000: uvm_test_top.env.agent.monitor [MON_WR] Detected WRITE : Addr=10000264 Data=6e23dd1f Strb=1111 Prot=xxx BResp=00
# UVM_INFO /home/khang/Documents/SystemVerilog/Soc_RV32I/SoC/VERIFICATION/Driver/axi_driver.sv(62) @ 7725000: uvm_test_top.env.agent.driver [DRV] Write Done: Addr=10000264 Data=6e23dd1f Prot=xxx
# UVM_INFO /home/khang/Documents/SystemVerilog/Soc_RV32I/SoC/VERIFICATION/Monitor/axi_monitor.sv(52) @ 7765000: uvm_test_top.env.agent.monitor [MON_WR] Detected WRITE : Addr=10000268 Data=f461083a Strb=1111 Prot=xxx BResp=00
# UVM_INFO /home/khang/Documents/SystemVerilog/Soc_RV32I/SoC/VERIFICATION/Driver/axi_driver.sv(62) @ 7775000: uvm_test_top.env.agent.driver [DRV] Write Done: Addr=10000268 Data=f461083a Prot=xxx
# UVM_INFO /home/khang/Documents/SystemVerilog/Soc_RV32I/SoC/VERIFICATION/Monitor/axi_monitor.sv(52) @ 7815000: uvm_test_top.env.agent.monitor [MON_WR] Detected WRITE : Addr=1000026c Data=d5ce1811 Strb=1111 Prot=xxx BResp=00
# UVM_INFO /home/khang/Documents/SystemVerilog/Soc_RV32I/SoC/VERIFICATION/Driver/axi_driver.sv(62) @ 7825000: uvm_test_top.env.agent.driver [DRV] Write Done: Addr=1000026c Data=d5ce1811 Prot=xxx
# UVM_INFO /home/khang/Documents/SystemVerilog/Soc_RV32I/SoC/VERIFICATION/Monitor/axi_monitor.sv(52) @ 7865000: uvm_test_top.env.agent.monitor [MON_WR] Detected WRITE : Addr=10000270 Data=5c7ceea8 Strb=1111 Prot=xxx BResp=00
# UVM_INFO /home/khang/Documents/SystemVerilog/Soc_RV32I/SoC/VERIFICATION/Driver/axi_driver.sv(62) @ 7875000: uvm_test_top.env.agent.driver [DRV] Write Done: Addr=10000270 Data=5c7ceea8 Prot=xxx
# UVM_INFO /home/khang/Documents/SystemVerilog/Soc_RV32I/SoC/VERIFICATION/Monitor/axi_monitor.sv(52) @ 7915000: uvm_test_top.env.agent.monitor [MON_WR] Detected WRITE : Addr=10000274 Data=037dca96 Strb=1111 Prot=xxx BResp=00
# UVM_INFO /home/khang/Documents/SystemVerilog/Soc_RV32I/SoC/VERIFICATION/Driver/axi_driver.sv(62) @ 7925000: uvm_test_top.env.agent.driver [DRV] Write Done: Addr=10000274 Data=037dca96 Prot=xxx
# UVM_INFO /home/khang/Documents/SystemVerilog/Soc_RV32I/SoC/VERIFICATION/Monitor/axi_monitor.sv(52) @ 7965000: uvm_test_top.env.agent.monitor [MON_WR] Detected WRITE : Addr=10000278 Data=3aee8d97 Strb=1111 Prot=xxx BResp=00
# UVM_INFO /home/khang/Documents/SystemVerilog/Soc_RV32I/SoC/VERIFICATION/Driver/axi_driver.sv(62) @ 7975000: uvm_test_top.env.agent.driver [DRV] Write Done: Addr=10000278 Data=3aee8d97 Prot=xxx
# UVM_INFO /home/khang/Documents/SystemVerilog/Soc_RV32I/SoC/VERIFICATION/Monitor/axi_monitor.sv(52) @ 8015000: uvm_test_top.env.agent.monitor [MON_WR] Detected WRITE : Addr=1000027c Data=21e61944 Strb=1111 Prot=xxx BResp=00
# UVM_INFO /home/khang/Documents/SystemVerilog/Soc_RV32I/SoC/VERIFICATION/Driver/axi_driver.sv(62) @ 8025000: uvm_test_top.env.agent.driver [DRV] Write Done: Addr=1000027c Data=21e61944 Prot=xxx
# UVM_INFO /home/khang/Documents/SystemVerilog/Soc_RV32I/SoC/VERIFICATION/Monitor/axi_monitor.sv(52) @ 8065000: uvm_test_top.env.agent.monitor [MON_WR] Detected WRITE : Addr=10000280 Data=5f6b4caa Strb=1111 Prot=xxx BResp=00
# UVM_INFO /home/khang/Documents/SystemVerilog/Soc_RV32I/SoC/VERIFICATION/Driver/axi_driver.sv(62) @ 8075000: uvm_test_top.env.agent.driver [DRV] Write Done: Addr=10000280 Data=5f6b4caa Prot=xxx
# UVM_INFO /home/khang/Documents/SystemVerilog/Soc_RV32I/SoC/VERIFICATION/Monitor/axi_monitor.sv(52) @ 8115000: uvm_test_top.env.agent.monitor [MON_WR] Detected WRITE : Addr=10000284 Data=00c7c0f0 Strb=1111 Prot=xxx BResp=00
# UVM_INFO /home/khang/Documents/SystemVerilog/Soc_RV32I/SoC/VERIFICATION/Driver/axi_driver.sv(62) @ 8125000: uvm_test_top.env.agent.driver [DRV] Write Done: Addr=10000284 Data=00c7c0f0 Prot=xxx
# UVM_INFO /home/khang/Documents/SystemVerilog/Soc_RV32I/SoC/VERIFICATION/Monitor/axi_monitor.sv(52) @ 8165000: uvm_test_top.env.agent.monitor [MON_WR] Detected WRITE : Addr=10000288 Data=52794a46 Strb=1111 Prot=xxx BResp=00
# UVM_INFO /home/khang/Documents/SystemVerilog/Soc_RV32I/SoC/VERIFICATION/Driver/axi_driver.sv(62) @ 8175000: uvm_test_top.env.agent.driver [DRV] Write Done: Addr=10000288 Data=52794a46 Prot=xxx
# UVM_INFO /home/khang/Documents/SystemVerilog/Soc_RV32I/SoC/VERIFICATION/Monitor/axi_monitor.sv(52) @ 8215000: uvm_test_top.env.agent.monitor [MON_WR] Detected WRITE : Addr=1000028c Data=b9c2f960 Strb=1111 Prot=xxx BResp=00
# UVM_INFO /home/khang/Documents/SystemVerilog/Soc_RV32I/SoC/VERIFICATION/Driver/axi_driver.sv(62) @ 8225000: uvm_test_top.env.agent.driver [DRV] Write Done: Addr=1000028c Data=b9c2f960 Prot=xxx
# UVM_INFO /home/khang/Documents/SystemVerilog/Soc_RV32I/SoC/VERIFICATION/Monitor/axi_monitor.sv(52) @ 8265000: uvm_test_top.env.agent.monitor [MON_WR] Detected WRITE : Addr=10000290 Data=b033adb5 Strb=1111 Prot=xxx BResp=00
# UVM_INFO /home/khang/Documents/SystemVerilog/Soc_RV32I/SoC/VERIFICATION/Driver/axi_driver.sv(62) @ 8275000: uvm_test_top.env.agent.driver [DRV] Write Done: Addr=10000290 Data=b033adb5 Prot=xxx
# UVM_INFO /home/khang/Documents/SystemVerilog/Soc_RV32I/SoC/VERIFICATION/Monitor/axi_monitor.sv(52) @ 8315000: uvm_test_top.env.agent.monitor [MON_WR] Detected WRITE : Addr=10000294 Data=3d87f3f8 Strb=1111 Prot=xxx BResp=00
# UVM_INFO /home/khang/Documents/SystemVerilog/Soc_RV32I/SoC/VERIFICATION/Driver/axi_driver.sv(62) @ 8325000: uvm_test_top.env.agent.driver [DRV] Write Done: Addr=10000294 Data=3d87f3f8 Prot=xxx
# UVM_INFO /home/khang/Documents/SystemVerilog/Soc_RV32I/SoC/VERIFICATION/Monitor/axi_monitor.sv(52) @ 8365000: uvm_test_top.env.agent.monitor [MON_WR] Detected WRITE : Addr=10000298 Data=1f38095d Strb=1111 Prot=xxx BResp=00
# UVM_INFO /home/khang/Documents/SystemVerilog/Soc_RV32I/SoC/VERIFICATION/Driver/axi_driver.sv(62) @ 8375000: uvm_test_top.env.agent.driver [DRV] Write Done: Addr=10000298 Data=1f38095d Prot=xxx
# UVM_INFO /home/khang/Documents/SystemVerilog/Soc_RV32I/SoC/VERIFICATION/Monitor/axi_monitor.sv(52) @ 8415000: uvm_test_top.env.agent.monitor [MON_WR] Detected WRITE : Addr=1000029c Data=4e7d9e71 Strb=1111 Prot=xxx BResp=00
# UVM_INFO /home/khang/Documents/SystemVerilog/Soc_RV32I/SoC/VERIFICATION/Driver/axi_driver.sv(62) @ 8425000: uvm_test_top.env.agent.driver [DRV] Write Done: Addr=1000029c Data=4e7d9e71 Prot=xxx
# UVM_INFO /home/khang/Documents/SystemVerilog/Soc_RV32I/SoC/VERIFICATION/Monitor/axi_monitor.sv(52) @ 8465000: uvm_test_top.env.agent.monitor [MON_WR] Detected WRITE : Addr=100002a0 Data=81687544 Strb=1111 Prot=xxx BResp=00
# UVM_INFO /home/khang/Documents/SystemVerilog/Soc_RV32I/SoC/VERIFICATION/Driver/axi_driver.sv(62) @ 8475000: uvm_test_top.env.agent.driver [DRV] Write Done: Addr=100002a0 Data=81687544 Prot=xxx
# UVM_INFO /home/khang/Documents/SystemVerilog/Soc_RV32I/SoC/VERIFICATION/Monitor/axi_monitor.sv(52) @ 8515000: uvm_test_top.env.agent.monitor [MON_WR] Detected WRITE : Addr=100002a4 Data=962362a4 Strb=1111 Prot=xxx BResp=00
# UVM_INFO /home/khang/Documents/SystemVerilog/Soc_RV32I/SoC/VERIFICATION/Driver/axi_driver.sv(62) @ 8525000: uvm_test_top.env.agent.driver [DRV] Write Done: Addr=100002a4 Data=962362a4 Prot=xxx
# UVM_INFO /home/khang/Documents/SystemVerilog/Soc_RV32I/SoC/VERIFICATION/Monitor/axi_monitor.sv(52) @ 8565000: uvm_test_top.env.agent.monitor [MON_WR] Detected WRITE : Addr=100002a8 Data=0af32d44 Strb=1111 Prot=xxx BResp=00
# UVM_INFO /home/khang/Documents/SystemVerilog/Soc_RV32I/SoC/VERIFICATION/Driver/axi_driver.sv(62) @ 8575000: uvm_test_top.env.agent.driver [DRV] Write Done: Addr=100002a8 Data=0af32d44 Prot=xxx
# UVM_INFO /home/khang/Documents/SystemVerilog/Soc_RV32I/SoC/VERIFICATION/Monitor/axi_monitor.sv(52) @ 8615000: uvm_test_top.env.agent.monitor [MON_WR] Detected WRITE : Addr=100002ac Data=de684f60 Strb=1111 Prot=xxx BResp=00
# UVM_INFO /home/khang/Documents/SystemVerilog/Soc_RV32I/SoC/VERIFICATION/Driver/axi_driver.sv(62) @ 8625000: uvm_test_top.env.agent.driver [DRV] Write Done: Addr=100002ac Data=de684f60 Prot=xxx
# UVM_INFO /home/khang/Documents/SystemVerilog/Soc_RV32I/SoC/VERIFICATION/Monitor/axi_monitor.sv(52) @ 8665000: uvm_test_top.env.agent.monitor [MON_WR] Detected WRITE : Addr=100002b0 Data=050fcecd Strb=1111 Prot=xxx BResp=00
# UVM_INFO /home/khang/Documents/SystemVerilog/Soc_RV32I/SoC/VERIFICATION/Driver/axi_driver.sv(62) @ 8675000: uvm_test_top.env.agent.driver [DRV] Write Done: Addr=100002b0 Data=050fcecd Prot=xxx
# UVM_INFO /home/khang/Documents/SystemVerilog/Soc_RV32I/SoC/VERIFICATION/Monitor/axi_monitor.sv(52) @ 8715000: uvm_test_top.env.agent.monitor [MON_WR] Detected WRITE : Addr=100002b4 Data=9be3cd5a Strb=1111 Prot=xxx BResp=00
# UVM_INFO /home/khang/Documents/SystemVerilog/Soc_RV32I/SoC/VERIFICATION/Driver/axi_driver.sv(62) @ 8725000: uvm_test_top.env.agent.driver [DRV] Write Done: Addr=100002b4 Data=9be3cd5a Prot=xxx
# UVM_INFO /home/khang/Documents/SystemVerilog/Soc_RV32I/SoC/VERIFICATION/Monitor/axi_monitor.sv(52) @ 8765000: uvm_test_top.env.agent.monitor [MON_WR] Detected WRITE : Addr=100002b8 Data=e4f66eaa Strb=1111 Prot=xxx BResp=00
# UVM_INFO /home/khang/Documents/SystemVerilog/Soc_RV32I/SoC/VERIFICATION/Driver/axi_driver.sv(62) @ 8775000: uvm_test_top.env.agent.driver [DRV] Write Done: Addr=100002b8 Data=e4f66eaa Prot=xxx
# UVM_INFO /home/khang/Documents/SystemVerilog/Soc_RV32I/SoC/VERIFICATION/Monitor/axi_monitor.sv(52) @ 8815000: uvm_test_top.env.agent.monitor [MON_WR] Detected WRITE : Addr=100002bc Data=a84b33dc Strb=1111 Prot=xxx BResp=00
# UVM_INFO /home/khang/Documents/SystemVerilog/Soc_RV32I/SoC/VERIFICATION/Driver/axi_driver.sv(62) @ 8825000: uvm_test_top.env.agent.driver [DRV] Write Done: Addr=100002bc Data=a84b33dc Prot=xxx
# UVM_INFO /home/khang/Documents/SystemVerilog/Soc_RV32I/SoC/VERIFICATION/Monitor/axi_monitor.sv(52) @ 8865000: uvm_test_top.env.agent.monitor [MON_WR] Detected WRITE : Addr=100002c0 Data=4037acb6 Strb=1111 Prot=xxx BResp=00
# UVM_INFO /home/khang/Documents/SystemVerilog/Soc_RV32I/SoC/VERIFICATION/Driver/axi_driver.sv(62) @ 8875000: uvm_test_top.env.agent.driver [DRV] Write Done: Addr=100002c0 Data=4037acb6 Prot=xxx
# UVM_INFO /home/khang/Documents/SystemVerilog/Soc_RV32I/SoC/VERIFICATION/Monitor/axi_monitor.sv(52) @ 8915000: uvm_test_top.env.agent.monitor [MON_WR] Detected WRITE : Addr=100002c4 Data=8dc26f7c Strb=1111 Prot=xxx BResp=00
# UVM_INFO /home/khang/Documents/SystemVerilog/Soc_RV32I/SoC/VERIFICATION/Driver/axi_driver.sv(62) @ 8925000: uvm_test_top.env.agent.driver [DRV] Write Done: Addr=100002c4 Data=8dc26f7c Prot=xxx
# UVM_INFO /home/khang/Documents/SystemVerilog/Soc_RV32I/SoC/VERIFICATION/Monitor/axi_monitor.sv(52) @ 8965000: uvm_test_top.env.agent.monitor [MON_WR] Detected WRITE : Addr=100002c8 Data=ef1e218c Strb=1111 Prot=xxx BResp=00
# UVM_INFO /home/khang/Documents/SystemVerilog/Soc_RV32I/SoC/VERIFICATION/Driver/axi_driver.sv(62) @ 8975000: uvm_test_top.env.agent.driver [DRV] Write Done: Addr=100002c8 Data=ef1e218c Prot=xxx
# UVM_INFO /home/khang/Documents/SystemVerilog/Soc_RV32I/SoC/VERIFICATION/Monitor/axi_monitor.sv(52) @ 9015000: uvm_test_top.env.agent.monitor [MON_WR] Detected WRITE : Addr=100002cc Data=e226b400 Strb=1111 Prot=xxx BResp=00
# UVM_INFO /home/khang/Documents/SystemVerilog/Soc_RV32I/SoC/VERIFICATION/Driver/axi_driver.sv(62) @ 9025000: uvm_test_top.env.agent.driver [DRV] Write Done: Addr=100002cc Data=e226b400 Prot=xxx
# UVM_INFO /home/khang/Documents/SystemVerilog/Soc_RV32I/SoC/VERIFICATION/Monitor/axi_monitor.sv(52) @ 9065000: uvm_test_top.env.agent.monitor [MON_WR] Detected WRITE : Addr=100002d0 Data=046f3d1c Strb=1111 Prot=xxx BResp=00
# UVM_INFO /home/khang/Documents/SystemVerilog/Soc_RV32I/SoC/VERIFICATION/Driver/axi_driver.sv(62) @ 9075000: uvm_test_top.env.agent.driver [DRV] Write Done: Addr=100002d0 Data=046f3d1c Prot=xxx
# UVM_INFO /home/khang/Documents/SystemVerilog/Soc_RV32I/SoC/VERIFICATION/Monitor/axi_monitor.sv(52) @ 9115000: uvm_test_top.env.agent.monitor [MON_WR] Detected WRITE : Addr=100002d4 Data=8225b293 Strb=1111 Prot=xxx BResp=00
# UVM_INFO /home/khang/Documents/SystemVerilog/Soc_RV32I/SoC/VERIFICATION/Driver/axi_driver.sv(62) @ 9125000: uvm_test_top.env.agent.driver [DRV] Write Done: Addr=100002d4 Data=8225b293 Prot=xxx
# UVM_INFO /home/khang/Documents/SystemVerilog/Soc_RV32I/SoC/VERIFICATION/Monitor/axi_monitor.sv(52) @ 9165000: uvm_test_top.env.agent.monitor [MON_WR] Detected WRITE : Addr=100002d8 Data=230936f1 Strb=1111 Prot=xxx BResp=00
# UVM_INFO /home/khang/Documents/SystemVerilog/Soc_RV32I/SoC/VERIFICATION/Driver/axi_driver.sv(62) @ 9175000: uvm_test_top.env.agent.driver [DRV] Write Done: Addr=100002d8 Data=230936f1 Prot=xxx
# UVM_INFO /home/khang/Documents/SystemVerilog/Soc_RV32I/SoC/VERIFICATION/Monitor/axi_monitor.sv(52) @ 9215000: uvm_test_top.env.agent.monitor [MON_WR] Detected WRITE : Addr=100002dc Data=15527bd6 Strb=1111 Prot=xxx BResp=00
# UVM_INFO /home/khang/Documents/SystemVerilog/Soc_RV32I/SoC/VERIFICATION/Driver/axi_driver.sv(62) @ 9225000: uvm_test_top.env.agent.driver [DRV] Write Done: Addr=100002dc Data=15527bd6 Prot=xxx
# UVM_INFO /home/khang/Documents/SystemVerilog/Soc_RV32I/SoC/VERIFICATION/Monitor/axi_monitor.sv(52) @ 9265000: uvm_test_top.env.agent.monitor [MON_WR] Detected WRITE : Addr=100002e0 Data=3642314a Strb=1111 Prot=xxx BResp=00
# UVM_INFO /home/khang/Documents/SystemVerilog/Soc_RV32I/SoC/VERIFICATION/Driver/axi_driver.sv(62) @ 9275000: uvm_test_top.env.agent.driver [DRV] Write Done: Addr=100002e0 Data=3642314a Prot=xxx
# UVM_INFO /home/khang/Documents/SystemVerilog/Soc_RV32I/SoC/VERIFICATION/Monitor/axi_monitor.sv(52) @ 9315000: uvm_test_top.env.agent.monitor [MON_WR] Detected WRITE : Addr=100002e4 Data=7e611ee8 Strb=1111 Prot=xxx BResp=00
# UVM_INFO /home/khang/Documents/SystemVerilog/Soc_RV32I/SoC/VERIFICATION/Driver/axi_driver.sv(62) @ 9325000: uvm_test_top.env.agent.driver [DRV] Write Done: Addr=100002e4 Data=7e611ee8 Prot=xxx
# UVM_INFO /home/khang/Documents/SystemVerilog/Soc_RV32I/SoC/VERIFICATION/Monitor/axi_monitor.sv(52) @ 9365000: uvm_test_top.env.agent.monitor [MON_WR] Detected WRITE : Addr=100002e8 Data=934cf0f6 Strb=1111 Prot=xxx BResp=00
# UVM_INFO /home/khang/Documents/SystemVerilog/Soc_RV32I/SoC/VERIFICATION/Driver/axi_driver.sv(62) @ 9375000: uvm_test_top.env.agent.driver [DRV] Write Done: Addr=100002e8 Data=934cf0f6 Prot=xxx
# UVM_INFO /home/khang/Documents/SystemVerilog/Soc_RV32I/SoC/VERIFICATION/Monitor/axi_monitor.sv(52) @ 9415000: uvm_test_top.env.agent.monitor [MON_WR] Detected WRITE : Addr=100002ec Data=a07ade45 Strb=1111 Prot=xxx BResp=00
# UVM_INFO /home/khang/Documents/SystemVerilog/Soc_RV32I/SoC/VERIFICATION/Driver/axi_driver.sv(62) @ 9425000: uvm_test_top.env.agent.driver [DRV] Write Done: Addr=100002ec Data=a07ade45 Prot=xxx
# UVM_INFO /home/khang/Documents/SystemVerilog/Soc_RV32I/SoC/VERIFICATION/Monitor/axi_monitor.sv(52) @ 9465000: uvm_test_top.env.agent.monitor [MON_WR] Detected WRITE : Addr=100002f0 Data=0ce345b5 Strb=1111 Prot=xxx BResp=00
# UVM_INFO /home/khang/Documents/SystemVerilog/Soc_RV32I/SoC/VERIFICATION/Driver/axi_driver.sv(62) @ 9475000: uvm_test_top.env.agent.driver [DRV] Write Done: Addr=100002f0 Data=0ce345b5 Prot=xxx
# UVM_INFO /home/khang/Documents/SystemVerilog/Soc_RV32I/SoC/VERIFICATION/Monitor/axi_monitor.sv(52) @ 9515000: uvm_test_top.env.agent.monitor [MON_WR] Detected WRITE : Addr=100002f4 Data=a944d9ec Strb=1111 Prot=xxx BResp=00
# UVM_INFO /home/khang/Documents/SystemVerilog/Soc_RV32I/SoC/VERIFICATION/Driver/axi_driver.sv(62) @ 9525000: uvm_test_top.env.agent.driver [DRV] Write Done: Addr=100002f4 Data=a944d9ec Prot=xxx
# UVM_INFO /home/khang/Documents/SystemVerilog/Soc_RV32I/SoC/VERIFICATION/Monitor/axi_monitor.sv(52) @ 9565000: uvm_test_top.env.agent.monitor [MON_WR] Detected WRITE : Addr=100002f8 Data=4e83f115 Strb=1111 Prot=xxx BResp=00
# UVM_INFO /home/khang/Documents/SystemVerilog/Soc_RV32I/SoC/VERIFICATION/Driver/axi_driver.sv(62) @ 9575000: uvm_test_top.env.agent.driver [DRV] Write Done: Addr=100002f8 Data=4e83f115 Prot=xxx
# UVM_INFO /home/khang/Documents/SystemVerilog/Soc_RV32I/SoC/VERIFICATION/Monitor/axi_monitor.sv(52) @ 9615000: uvm_test_top.env.agent.monitor [MON_WR] Detected WRITE : Addr=100002fc Data=3b83d3cc Strb=1111 Prot=xxx BResp=00
# UVM_INFO /home/khang/Documents/SystemVerilog/Soc_RV32I/SoC/VERIFICATION/Driver/axi_driver.sv(62) @ 9625000: uvm_test_top.env.agent.driver [DRV] Write Done: Addr=100002fc Data=3b83d3cc Prot=xxx
# UVM_INFO /home/khang/Documents/SystemVerilog/Soc_RV32I/SoC/VERIFICATION/Monitor/axi_monitor.sv(52) @ 9665000: uvm_test_top.env.agent.monitor [MON_WR] Detected WRITE : Addr=10000300 Data=cfa72cb7 Strb=1111 Prot=xxx BResp=00
# UVM_INFO /home/khang/Documents/SystemVerilog/Soc_RV32I/SoC/VERIFICATION/Driver/axi_driver.sv(62) @ 9675000: uvm_test_top.env.agent.driver [DRV] Write Done: Addr=10000300 Data=cfa72cb7 Prot=xxx
# UVM_INFO /home/khang/Documents/SystemVerilog/Soc_RV32I/SoC/VERIFICATION/Monitor/axi_monitor.sv(52) @ 9715000: uvm_test_top.env.agent.monitor [MON_WR] Detected WRITE : Addr=10000304 Data=93510480 Strb=1111 Prot=xxx BResp=00
# UVM_INFO /home/khang/Documents/SystemVerilog/Soc_RV32I/SoC/VERIFICATION/Driver/axi_driver.sv(62) @ 9725000: uvm_test_top.env.agent.driver [DRV] Write Done: Addr=10000304 Data=93510480 Prot=xxx
# UVM_INFO /home/khang/Documents/SystemVerilog/Soc_RV32I/SoC/VERIFICATION/Monitor/axi_monitor.sv(52) @ 9765000: uvm_test_top.env.agent.monitor [MON_WR] Detected WRITE : Addr=10000308 Data=4761fb56 Strb=1111 Prot=xxx BResp=00
# UVM_INFO /home/khang/Documents/SystemVerilog/Soc_RV32I/SoC/VERIFICATION/Driver/axi_driver.sv(62) @ 9775000: uvm_test_top.env.agent.driver [DRV] Write Done: Addr=10000308 Data=4761fb56 Prot=xxx
# UVM_INFO /home/khang/Documents/SystemVerilog/Soc_RV32I/SoC/VERIFICATION/Monitor/axi_monitor.sv(52) @ 9815000: uvm_test_top.env.agent.monitor [MON_WR] Detected WRITE : Addr=1000030c Data=f856cf9e Strb=1111 Prot=xxx BResp=00
# UVM_INFO /home/khang/Documents/SystemVerilog/Soc_RV32I/SoC/VERIFICATION/Driver/axi_driver.sv(62) @ 9825000: uvm_test_top.env.agent.driver [DRV] Write Done: Addr=1000030c Data=f856cf9e Prot=xxx
# UVM_INFO /home/khang/Documents/SystemVerilog/Soc_RV32I/SoC/VERIFICATION/Monitor/axi_monitor.sv(52) @ 9865000: uvm_test_top.env.agent.monitor [MON_WR] Detected WRITE : Addr=10000310 Data=0a446c10 Strb=1111 Prot=xxx BResp=00
# UVM_INFO /home/khang/Documents/SystemVerilog/Soc_RV32I/SoC/VERIFICATION/Driver/axi_driver.sv(62) @ 9875000: uvm_test_top.env.agent.driver [DRV] Write Done: Addr=10000310 Data=0a446c10 Prot=xxx
# UVM_INFO /home/khang/Documents/SystemVerilog/Soc_RV32I/SoC/VERIFICATION/Monitor/axi_monitor.sv(52) @ 9915000: uvm_test_top.env.agent.monitor [MON_WR] Detected WRITE : Addr=10000314 Data=e0502332 Strb=1111 Prot=xxx BResp=00
# UVM_INFO /home/khang/Documents/SystemVerilog/Soc_RV32I/SoC/VERIFICATION/Driver/axi_driver.sv(62) @ 9925000: uvm_test_top.env.agent.driver [DRV] Write Done: Addr=10000314 Data=e0502332 Prot=xxx
# UVM_INFO /home/khang/Documents/SystemVerilog/Soc_RV32I/SoC/VERIFICATION/Monitor/axi_monitor.sv(52) @ 9965000: uvm_test_top.env.agent.monitor [MON_WR] Detected WRITE : Addr=10000318 Data=61fe7dbc Strb=1111 Prot=xxx BResp=00
# UVM_INFO /home/khang/Documents/SystemVerilog/Soc_RV32I/SoC/VERIFICATION/Driver/axi_driver.sv(62) @ 9975000: uvm_test_top.env.agent.driver [DRV] Write Done: Addr=10000318 Data=61fe7dbc Prot=xxx
# UVM_INFO /home/khang/Documents/SystemVerilog/Soc_RV32I/SoC/VERIFICATION/Monitor/axi_monitor.sv(52) @ 10015000: uvm_test_top.env.agent.monitor [MON_WR] Detected WRITE : Addr=1000031c Data=bc9ea9dd Strb=1111 Prot=xxx BResp=00
# UVM_INFO /home/khang/Documents/SystemVerilog/Soc_RV32I/SoC/VERIFICATION/Driver/axi_driver.sv(62) @ 10025000: uvm_test_top.env.agent.driver [DRV] Write Done: Addr=1000031c Data=bc9ea9dd Prot=xxx
# UVM_INFO /home/khang/Documents/SystemVerilog/Soc_RV32I/SoC/VERIFICATION/Monitor/axi_monitor.sv(52) @ 10065000: uvm_test_top.env.agent.monitor [MON_WR] Detected WRITE : Addr=10000320 Data=a73c5dc7 Strb=1111 Prot=xxx BResp=00
# UVM_INFO /home/khang/Documents/SystemVerilog/Soc_RV32I/SoC/VERIFICATION/Driver/axi_driver.sv(62) @ 10075000: uvm_test_top.env.agent.driver [DRV] Write Done: Addr=10000320 Data=a73c5dc7 Prot=xxx
# UVM_INFO /home/khang/Documents/SystemVerilog/Soc_RV32I/SoC/VERIFICATION/Monitor/axi_monitor.sv(52) @ 10115000: uvm_test_top.env.agent.monitor [MON_WR] Detected WRITE : Addr=10000324 Data=89780484 Strb=1111 Prot=xxx BResp=00
# UVM_INFO /home/khang/Documents/SystemVerilog/Soc_RV32I/SoC/VERIFICATION/Driver/axi_driver.sv(62) @ 10125000: uvm_test_top.env.agent.driver [DRV] Write Done: Addr=10000324 Data=89780484 Prot=xxx
# UVM_INFO /home/khang/Documents/SystemVerilog/Soc_RV32I/SoC/VERIFICATION/Monitor/axi_monitor.sv(52) @ 10165000: uvm_test_top.env.agent.monitor [MON_WR] Detected WRITE : Addr=10000328 Data=30011789 Strb=1111 Prot=xxx BResp=00
# UVM_INFO /home/khang/Documents/SystemVerilog/Soc_RV32I/SoC/VERIFICATION/Driver/axi_driver.sv(62) @ 10175000: uvm_test_top.env.agent.driver [DRV] Write Done: Addr=10000328 Data=30011789 Prot=xxx
# UVM_INFO /home/khang/Documents/SystemVerilog/Soc_RV32I/SoC/VERIFICATION/Monitor/axi_monitor.sv(52) @ 10215000: uvm_test_top.env.agent.monitor [MON_WR] Detected WRITE : Addr=1000032c Data=7623209e Strb=1111 Prot=xxx BResp=00
# UVM_INFO /home/khang/Documents/SystemVerilog/Soc_RV32I/SoC/VERIFICATION/Driver/axi_driver.sv(62) @ 10225000: uvm_test_top.env.agent.driver [DRV] Write Done: Addr=1000032c Data=7623209e Prot=xxx
# UVM_INFO /home/khang/Documents/SystemVerilog/Soc_RV32I/SoC/VERIFICATION/Monitor/axi_monitor.sv(52) @ 10265000: uvm_test_top.env.agent.monitor [MON_WR] Detected WRITE : Addr=10000330 Data=5831924c Strb=1111 Prot=xxx BResp=00
# UVM_INFO /home/khang/Documents/SystemVerilog/Soc_RV32I/SoC/VERIFICATION/Driver/axi_driver.sv(62) @ 10275000: uvm_test_top.env.agent.driver [DRV] Write Done: Addr=10000330 Data=5831924c Prot=xxx
# UVM_INFO /home/khang/Documents/SystemVerilog/Soc_RV32I/SoC/VERIFICATION/Monitor/axi_monitor.sv(52) @ 10315000: uvm_test_top.env.agent.monitor [MON_WR] Detected WRITE : Addr=10000334 Data=565d8fe4 Strb=1111 Prot=xxx BResp=00
# UVM_INFO /home/khang/Documents/SystemVerilog/Soc_RV32I/SoC/VERIFICATION/Driver/axi_driver.sv(62) @ 10325000: uvm_test_top.env.agent.driver [DRV] Write Done: Addr=10000334 Data=565d8fe4 Prot=xxx
# UVM_INFO /home/khang/Documents/SystemVerilog/Soc_RV32I/SoC/VERIFICATION/Monitor/axi_monitor.sv(52) @ 10365000: uvm_test_top.env.agent.monitor [MON_WR] Detected WRITE : Addr=10000338 Data=b66c99a5 Strb=1111 Prot=xxx BResp=00
# UVM_INFO /home/khang/Documents/SystemVerilog/Soc_RV32I/SoC/VERIFICATION/Driver/axi_driver.sv(62) @ 10375000: uvm_test_top.env.agent.driver [DRV] Write Done: Addr=10000338 Data=b66c99a5 Prot=xxx
# UVM_INFO /home/khang/Documents/SystemVerilog/Soc_RV32I/SoC/VERIFICATION/Monitor/axi_monitor.sv(52) @ 10415000: uvm_test_top.env.agent.monitor [MON_WR] Detected WRITE : Addr=1000033c Data=41a7d596 Strb=1111 Prot=xxx BResp=00
# UVM_INFO /home/khang/Documents/SystemVerilog/Soc_RV32I/SoC/VERIFICATION/Driver/axi_driver.sv(62) @ 10425000: uvm_test_top.env.agent.driver [DRV] Write Done: Addr=1000033c Data=41a7d596 Prot=xxx
# UVM_INFO /home/khang/Documents/SystemVerilog/Soc_RV32I/SoC/VERIFICATION/Monitor/axi_monitor.sv(52) @ 10465000: uvm_test_top.env.agent.monitor [MON_WR] Detected WRITE : Addr=10000340 Data=0c800778 Strb=1111 Prot=xxx BResp=00
# UVM_INFO /home/khang/Documents/SystemVerilog/Soc_RV32I/SoC/VERIFICATION/Driver/axi_driver.sv(62) @ 10475000: uvm_test_top.env.agent.driver [DRV] Write Done: Addr=10000340 Data=0c800778 Prot=xxx
# UVM_INFO /home/khang/Documents/SystemVerilog/Soc_RV32I/SoC/VERIFICATION/Monitor/axi_monitor.sv(52) @ 10515000: uvm_test_top.env.agent.monitor [MON_WR] Detected WRITE : Addr=10000344 Data=45188783 Strb=1111 Prot=xxx BResp=00
# UVM_INFO /home/khang/Documents/SystemVerilog/Soc_RV32I/SoC/VERIFICATION/Driver/axi_driver.sv(62) @ 10525000: uvm_test_top.env.agent.driver [DRV] Write Done: Addr=10000344 Data=45188783 Prot=xxx
# UVM_INFO /home/khang/Documents/SystemVerilog/Soc_RV32I/SoC/VERIFICATION/Monitor/axi_monitor.sv(52) @ 10565000: uvm_test_top.env.agent.monitor [MON_WR] Detected WRITE : Addr=10000348 Data=29929344 Strb=1111 Prot=xxx BResp=00
# UVM_INFO /home/khang/Documents/SystemVerilog/Soc_RV32I/SoC/VERIFICATION/Driver/axi_driver.sv(62) @ 10575000: uvm_test_top.env.agent.driver [DRV] Write Done: Addr=10000348 Data=29929344 Prot=xxx
# UVM_INFO /home/khang/Documents/SystemVerilog/Soc_RV32I/SoC/VERIFICATION/Monitor/axi_monitor.sv(52) @ 10615000: uvm_test_top.env.agent.monitor [MON_WR] Detected WRITE : Addr=1000034c Data=cdb16211 Strb=1111 Prot=xxx BResp=00
# UVM_INFO /home/khang/Documents/SystemVerilog/Soc_RV32I/SoC/VERIFICATION/Driver/axi_driver.sv(62) @ 10625000: uvm_test_top.env.agent.driver [DRV] Write Done: Addr=1000034c Data=cdb16211 Prot=xxx
# UVM_INFO /home/khang/Documents/SystemVerilog/Soc_RV32I/SoC/VERIFICATION/Monitor/axi_monitor.sv(52) @ 10665000: uvm_test_top.env.agent.monitor [MON_WR] Detected WRITE : Addr=10000350 Data=459bad41 Strb=1111 Prot=xxx BResp=00
# UVM_INFO /home/khang/Documents/SystemVerilog/Soc_RV32I/SoC/VERIFICATION/Driver/axi_driver.sv(62) @ 10675000: uvm_test_top.env.agent.driver [DRV] Write Done: Addr=10000350 Data=459bad41 Prot=xxx
# UVM_INFO /home/khang/Documents/SystemVerilog/Soc_RV32I/SoC/VERIFICATION/Monitor/axi_monitor.sv(52) @ 10715000: uvm_test_top.env.agent.monitor [MON_WR] Detected WRITE : Addr=10000354 Data=0e26f4da Strb=1111 Prot=xxx BResp=00
# UVM_INFO /home/khang/Documents/SystemVerilog/Soc_RV32I/SoC/VERIFICATION/Driver/axi_driver.sv(62) @ 10725000: uvm_test_top.env.agent.driver [DRV] Write Done: Addr=10000354 Data=0e26f4da Prot=xxx
# UVM_INFO /home/khang/Documents/SystemVerilog/Soc_RV32I/SoC/VERIFICATION/Monitor/axi_monitor.sv(52) @ 10765000: uvm_test_top.env.agent.monitor [MON_WR] Detected WRITE : Addr=10000358 Data=c9a1459a Strb=1111 Prot=xxx BResp=00
# UVM_INFO /home/khang/Documents/SystemVerilog/Soc_RV32I/SoC/VERIFICATION/Driver/axi_driver.sv(62) @ 10775000: uvm_test_top.env.agent.driver [DRV] Write Done: Addr=10000358 Data=c9a1459a Prot=xxx
# UVM_INFO /home/khang/Documents/SystemVerilog/Soc_RV32I/SoC/VERIFICATION/Monitor/axi_monitor.sv(52) @ 10815000: uvm_test_top.env.agent.monitor [MON_WR] Detected WRITE : Addr=1000035c Data=c4bbeb7c Strb=1111 Prot=xxx BResp=00
# UVM_INFO /home/khang/Documents/SystemVerilog/Soc_RV32I/SoC/VERIFICATION/Driver/axi_driver.sv(62) @ 10825000: uvm_test_top.env.agent.driver [DRV] Write Done: Addr=1000035c Data=c4bbeb7c Prot=xxx
# UVM_INFO /home/khang/Documents/SystemVerilog/Soc_RV32I/SoC/VERIFICATION/Monitor/axi_monitor.sv(52) @ 10865000: uvm_test_top.env.agent.monitor [MON_WR] Detected WRITE : Addr=10000360 Data=95b1ed75 Strb=1111 Prot=xxx BResp=00
# UVM_INFO /home/khang/Documents/SystemVerilog/Soc_RV32I/SoC/VERIFICATION/Driver/axi_driver.sv(62) @ 10875000: uvm_test_top.env.agent.driver [DRV] Write Done: Addr=10000360 Data=95b1ed75 Prot=xxx
# UVM_INFO /home/khang/Documents/SystemVerilog/Soc_RV32I/SoC/VERIFICATION/Monitor/axi_monitor.sv(52) @ 10915000: uvm_test_top.env.agent.monitor [MON_WR] Detected WRITE : Addr=10000364 Data=2bd070c6 Strb=1111 Prot=xxx BResp=00
# UVM_INFO /home/khang/Documents/SystemVerilog/Soc_RV32I/SoC/VERIFICATION/Driver/axi_driver.sv(62) @ 10925000: uvm_test_top.env.agent.driver [DRV] Write Done: Addr=10000364 Data=2bd070c6 Prot=xxx
# UVM_INFO /home/khang/Documents/SystemVerilog/Soc_RV32I/SoC/VERIFICATION/Monitor/axi_monitor.sv(52) @ 10965000: uvm_test_top.env.agent.monitor [MON_WR] Detected WRITE : Addr=10000368 Data=8bea825c Strb=1111 Prot=xxx BResp=00
# UVM_INFO /home/khang/Documents/SystemVerilog/Soc_RV32I/SoC/VERIFICATION/Driver/axi_driver.sv(62) @ 10975000: uvm_test_top.env.agent.driver [DRV] Write Done: Addr=10000368 Data=8bea825c Prot=xxx
# UVM_INFO /home/khang/Documents/SystemVerilog/Soc_RV32I/SoC/VERIFICATION/Monitor/axi_monitor.sv(52) @ 11015000: uvm_test_top.env.agent.monitor [MON_WR] Detected WRITE : Addr=1000036c Data=90f1487d Strb=1111 Prot=xxx BResp=00
# UVM_INFO /home/khang/Documents/SystemVerilog/Soc_RV32I/SoC/VERIFICATION/Driver/axi_driver.sv(62) @ 11025000: uvm_test_top.env.agent.driver [DRV] Write Done: Addr=1000036c Data=90f1487d Prot=xxx
# UVM_INFO /home/khang/Documents/SystemVerilog/Soc_RV32I/SoC/VERIFICATION/Monitor/axi_monitor.sv(52) @ 11065000: uvm_test_top.env.agent.monitor [MON_WR] Detected WRITE : Addr=10000370 Data=5744baad Strb=1111 Prot=xxx BResp=00
# UVM_INFO /home/khang/Documents/SystemVerilog/Soc_RV32I/SoC/VERIFICATION/Driver/axi_driver.sv(62) @ 11075000: uvm_test_top.env.agent.driver [DRV] Write Done: Addr=10000370 Data=5744baad Prot=xxx
