--- [SIM ONLY] cpu_test ---
MODE = CPU_MASTER
Reading C:/app/QuestaSim/tcl/vsim/pref.tcl 

# 10.2c

# vsim +UVM_TESTNAME=cpu_test +CPU_MASTER +MEM_SEED=3173297497 -coverage -do {run -all; quit} -c -sv_seed 3173297497 vopt_top 
# //  Questa Sim-64
# //  Version 10.2c Unknown Platform Jul 19 2013
# //
# //  Copyright 1991-2013 Mentor Graphics Corporation
# //  All Rights Reserved.
# //
# //  THIS WORK CONTAINS TRADE SECRET AND PROPRIETARY INFORMATION
# //  WHICH IS THE PROPERTY OF MENTOR GRAPHICS CORPORATION OR ITS
# //  LICENSORS AND IS SUBJECT TO LICENSE TERMS.
# //
# Loading sv_std.std
# Loading mtiUvm.uvm_pkg
# Loading work.soc_pkg(fast)
# Loading work.top_tb(fast)
# Loading work.clk_rst_inf(fast)
# Loading work.soc_inf(fast)
# Loading work.cpu_monitor_inf(fast)
# Loading work.TOP(fast)
# Loading work.AXI_Master(fast)
# Loading work.CPU(fast)
# Loading work.pc_reg(fast)
# Loading work.IF_ID(fast)
# Loading work.ControlUnit(fast)
# Loading work.MainDecoder(fast)
# Loading work.ALUControl(fast)
# Loading work.RegFile(fast)
# Loading work.signExtend(fast)
# Loading work.ID_EX(fast)
# Loading work.ALU(fast)
# Loading work.EX_MEM(fast)
# Loading work.MEM_WB(fast)
# Loading work.HazardUnit(fast)
# Loading work.LSU(fast)
# Loading work.AXI4_Lite_Interconnect(fast)
# Loading work.IRAM(fast)
# Loading work.DRAM(fast)
# Loading work.Timer(fast)
# Loading work.UART(fast)
# Loading work.SPI(fast)
# Loading mtiUvm.questa_uvm_pkg(fast)
# Loading C:/app/QuestaSim/uvm-1.1d\win64\uvm_dpi.dll
# run -all 
# ----------------------------------------------------------------
# UVM-1.1d
# (C) 2007-2013 Mentor Graphics Corporation
# (C) 2007-2013 Cadence Design Systems, Inc.
# (C) 2006-2013 Synopsys, Inc.
# (C) 2011-2013 Cypress Semiconductor Corp.
# ----------------------------------------------------------------
# 
#   ***********       IMPORTANT RELEASE NOTES         ************
# 
#   You are using a version of the UVM library that has been compiled
#   with `UVM_NO_DEPRECATED undefined.
#   See http://www.eda.org/svdb/view.php?id=3313 for more details.
# 
#   You are using a version of the UVM library that has been compiled
#   with `UVM_OBJECT_MUST_HAVE_CONSTRUCTOR undefined.
#   See http://www.eda.org/svdb/view.php?id=3770 for more details.
# 
#       (Specify +UVM_NO_RELNOTES to turn off this notice)
# 
# UVM_INFO verilog_src/questa_uvm_pkg-1.2/src/questa_uvm_pkg.sv(215) @ 0: reporter [Questa UVM] QUESTA_UVM-1.2.2
# UVM_INFO verilog_src/questa_uvm_pkg-1.2/src/questa_uvm_pkg.sv(217) @ 0: reporter [Questa UVM]  questa_uvm::init(+struct)
# [IRAM] Loading file: instr.mem
# [IRAM] mem[0] = 100000b7
# [IRAM] mem[1] = 20000137
# [IRAM] mem[2] = 300001b7
# [IRAM] mem[3] = 40000237
# [IRAM] mem[4] = 00601263
# [IRAM] mem[5] = 00e9f7b3
# [IRAM] mem[6] = 00b1a623
# [IRAM] mem[7] = 0640a783
# [IRAM] mem[8] = 01712223
# [IRAM] mem[9] = 0040096f
# [IRAM] mem[10] = e8d6e693
# [IRAM] mem[11] = 0191a023
# [IRAM] mem[12] = 00005263
# [IRAM] mem[13] = 00822623
# [IRAM] mem[14] = 3180a423
# [IRAM] mem[15] = 01601263
# [IRAM] mem[16] = 00c1ad03
# [IRAM] mem[17] = 0121a623
# [IRAM] mem[18] = 01312223
# [IRAM] mem[19] = 00022003
# [IRAM] mem[20] = 00c22f83
# [IRAM] mem[21] = 00812003
# [IRAM] mem[22] = 00005263
# [IRAM] mem[23] = 0081a003
# [IRAM] mem[24] = 00000263
# [IRAM] mem[25] = 00501263
# [IRAM] mem[26] = 00012c03
# [IRAM] mem[27] = 00822003
# [IRAM] mem[28] = 01a1a023
# [IRAM] mem[29] = 00e1a623
# [IRAM] mem[30] = 005b46b3
# [IRAM] mem[31] = 00422e83
# [IRAM] mem[32] = 00412483
# [IRAM] mem[33] = 8583af93
# [IRAM] mem[34] = 01212023
# [IRAM] mem[35] = 3af78c13
# [IRAM] mem[36] = 58a0a223
# [IRAM] mem[37] = 00e04263
# [IRAM] mem[38] = 00000263
# [IRAM] mem[39] = 01006263
# [IRAM] mem[40] = 01801263
# [IRAM] mem[41] = 00007263
# [IRAM] mem[42] = 00000263
# [IRAM] mem[43] = b3f68393
# [IRAM] mem[44] = 00000263
# [IRAM] mem[45] = 01348e33
# [IRAM] mem[46] = 00812003
# [IRAM] mem[47] = 01dd0833
# [IRAM] mem[48] = 0191a023
# [IRAM] mem[49] = 00506263
# [IRAM] mem[50] = 01045f33
# [IRAM] mem[51] = 014ceb33
# [IRAM] mem[52] = 00904263
# [IRAM] mem[53] = 00422b83
# [IRAM] mem[54] = 2670a823
# [IRAM] mem[55] = 5a40a903
# [IRAM] mem[56] = 18c0a503
# [IRAM] mem[57] = 0081a003
# [IRAM] mem[58] = 01922023
# [IRAM] mem[59] = 01612223
# [IRAM] mem[60] = 010ccb33
# [IRAM] mem[61] = 00007263
# [IRAM] mem[62] = 00822003
# [IRAM] mem[63] = 01c06263
# [IRAM] mem[64] = 00812003
# [IRAM] mem[65] = 00812003
# [IRAM] mem[66] = 00007263
# [IRAM] mem[67] = 00007263
# [IRAM] mem[68] = 00e22223
# [IRAM] mem[69] = 81bf8693
# [IRAM] mem[70] = fbcae693
# [IRAM] mem[71] = 00000263
# [IRAM] mem[72] = 00012b03
# [IRAM] mem[73] = 00022003
# [IRAM] mem[74] = 01d12023
# [IRAM] mem[75] = 00012303
# [IRAM] mem[76] = 01422223
# [IRAM] mem[77] = 01c01263
# [IRAM] mem[78] = 0117f333
# [IRAM] mem[79] = 102ee293
# [IRAM] mem[80] = 50fd4993
# [IRAM] mem[81] = 00c22a83
# [IRAM] mem[82] = 0041a003
# [IRAM] mem[83] = 6740a223
# [IRAM] mem[84] = 01237933
# [IRAM] mem[85] = 00012d83
# [IRAM] mem[86] = 01212223
# [IRAM] mem[87] = 00005263
# [IRAM] mem[88] = 0cc0a383
# [IRAM] mem[89] = b713ed13
# [IRAM] mem[90] = 0081a003
# [IRAM] mem[91] = 00be4cb3
# [IRAM] mem[92] = 2fb0a223
# [IRAM] mem[93] = 00005263
# [IRAM] mem[94] = d2ae2c93
# [IRAM] mem[95] = 00822623
# [IRAM] mem[96] = 00412803
# [IRAM] mem[97] = 01b12023
# [IRAM] mem[98] = 01bdf5b3
# [IRAM] mem[99] = 004003ef
# [IRAM] mem[100] = 01122223
# [IRAM] mem[101] = 01a6de33
# [IRAM] mem[102] = ebe84c93
# [IRAM] mem[103] = 00012c03
# [IRAM] mem[104] = 00022003
# [IRAM] mem[105] = 0e248793
# [IRAM] mem[106] = 01206263
# [IRAM] mem[107] = 0041a003
# [IRAM] mem[108] = 01aa5b33
# [IRAM] mem[109] = 0041a003
# [IRAM] mem[110] = 01712023
# [IRAM] mem[111] = 1480aa03
# [IRAM] mem[112] = 00412d03
# [IRAM] mem[113] = 41468733
# [IRAM] mem[114] = 00c1a403
# [IRAM] mem[115] = 6d00a983
# [IRAM] mem[116] = 5840aa03
# [IRAM] mem[117] = 010bffb3
# [IRAM] mem[118] = 0181a623
# [IRAM] mem[119] = 00c06263
# [IRAM] mem[120] = 6800a303
# [IRAM] mem[121] = afdcf293
# [IRAM] mem[122] = 019bca33
# [IRAM] mem[123] = 01ba1833
# [IRAM] mem[124] = 00012783
# [IRAM] mem[125] = 00812003
# [IRAM] mem[126] = 0081a623
# [IRAM] mem[127] = 29a57293
# [IRAM] mem[128] = 0188e3b3
# [IRAM] mem[129] = 12794313
# [IRAM] mem[130] = 0041a003
# [IRAM] mem[131] = 0041a003
# [IRAM] mem[132] = 00a04263
# [IRAM] mem[133] = 00000263
# [IRAM] mem[134] = 31e0a423
# [IRAM] mem[135] = 010f7d33
# [IRAM] mem[136] = 00c1ab03
# [IRAM] mem[137] = 00f04263
# [IRAM] mem[138] = 00e12023
# [IRAM] mem[139] = 01c3de33
# [IRAM] mem[140] = 0041a003
# [IRAM] mem[141] = 00822003
# [IRAM] mem[142] = 004006ef
# [IRAM] mem[143] = 0081a003
# [IRAM] mem[144] = 01b06263
# [IRAM] mem[145] = 008a29b3
# [IRAM] mem[146] = 00422303
# [IRAM] mem[147] = 00dac533
# [IRAM] mem[148] = 01112223
# [IRAM] mem[149] = 00b06263
# [IRAM] mem[150] = 41acdcb3
# [IRAM] mem[151] = 00007263
# [IRAM] mem[152] = 00b1a623
# [IRAM] mem[153] = d7a68c13
# [IRAM] mem[154] = 0121a023
# [IRAM] mem[155] = 0081a003
# [IRAM] mem[156] = 0040036f
# [IRAM] mem[157] = 01f9dfb3
# [IRAM] mem[158] = 00e22623
# [IRAM] mem[159] = 00412e83
# [IRAM] mem[160] = 41b358b3
# [IRAM] mem[161] = 01012023
# [IRAM] mem[162] = 01122023
# [IRAM] mem[163] = 004003ef
# [IRAM] mem[164] = 00c1a703
# [IRAM] mem[165] = 004007ef
# [IRAM] mem[166] = 00822023
# [IRAM] mem[167] = 00501263
# [IRAM] mem[168] = 00005263
# [IRAM] mem[169] = 00c12223
# [IRAM] mem[170] = 5c236f93
# [IRAM] mem[171] = fb09af93
# [IRAM] mem[172] = 00400eef
# [IRAM] mem[173] = 006d94b3
# [IRAM] mem[174] = 0081a003
# [IRAM] mem[175] = 00812003
# [IRAM] mem[176] = 01a805b3
# [IRAM] mem[177] = 00007263
# [IRAM] mem[178] = 00005263
# [IRAM] mem[179] = 00c7df33
# [IRAM] mem[180] = 00400a6f
# [IRAM] mem[181] = 41f55a33
# [IRAM] mem[182] = 0680ad03
# [IRAM] mem[183] = 00b6d833
# [IRAM] mem[184] = 01204263
# [IRAM] mem[185] = 00000263
# [IRAM] mem[186] = 00412a03
# [IRAM] mem[187] = 01104263
# [IRAM] mem[188] = 01a1a023
# [IRAM] mem[189] = 00c1ac83
# [IRAM] mem[190] = 01350e33
# [IRAM] mem[191] = 0114d4b3
# [IRAM] mem[192] = 00412f83
# [IRAM] mem[193] = 5340aa23
# [IRAM] mem[194] = 00c1a583
# [IRAM] mem[195] = 2ae3ac93
# [IRAM] mem[196] = 01e1a023
# [IRAM] mem[197] = 01804263
# [IRAM] mem[198] = 5eb98313
# [IRAM] mem[199] = 00007263
# [IRAM] Loaded 200 instruction words
# [TB] Mode: CPU MASTER â?? CPU drives AXI, UVM observes
# UVM_INFO @ 0: reporter [RNTST] Running test cpu_test...
# UVM_INFO C:/Documents/DoAnThietKeViMach/Project/SoC/VERIFICATION/Scoreboard/cpu_scoreboard.sv(175) @ 0: uvm_test_top.env.scoreboard [SCB] Loaded expected registers from: expected.mem
# UVM_INFO C:/Documents/DoAnThietKeViMach/Project/SoC/VERIFICATION/Test/cpu_test.sv(55) @ 0: uvm_test_top [TEST] Program has 200 instructions, end PC = 00000320
# UVM_INFO C:/Documents/DoAnThietKeViMach/Project/SoC/VERIFICATION/Monitor/cpu_monitor.sv(200) @ 35000: uvm_test_top.env.agent.monitor [CPU_MON] === CPU Monitor started == watching pipeline ===
# UVM_INFO C:/Documents/DoAnThietKeViMach/Project/SoC/VERIFICATION/Monitor/cpu_monitor.sv(202) @ 35000: uvm_test_top.env.agent.monitor [CPU_MON] ============================================================
# UVM_INFO C:/Documents/DoAnThietKeViMach/Project/SoC/VERIFICATION/Test/cpu_test.sv(62) @ 55000: uvm_test_top [TEST] Reset released â?? CPU executing from IRAM
# UVM_INFO C:/Documents/DoAnThietKeViMach/Project/SoC/VERIFICATION/Monitor/cpu_monitor.sv(364) @ 55000: uvm_test_top.env.agent.monitor [AXI_RD] CPU <- IRAM  Addr=00000000 Data=100000b7 RRESP=00
# UVM_INFO C:/Documents/DoAnThietKeViMach/Project/SoC/VERIFICATION/Monitor/cpu_monitor.sv(364) @ 95000: uvm_test_top.env.agent.monitor [AXI_RD] CPU <- IRAM  Addr=00000004 Data=20000137 RRESP=00
# UVM_INFO C:/Documents/DoAnThietKeViMach/Project/SoC/VERIFICATION/Monitor/cpu_monitor.sv(234) @ 95000: uvm_test_top.env.agent.monitor [IF] PC=00000004  INSTR=20000137  [LUI  x2, 0x20000]            
# UVM_INFO C:/Documents/DoAnThietKeViMach/Project/SoC/VERIFICATION/Monitor/cpu_monitor.sv(364) @ 135000: uvm_test_top.env.agent.monitor [AXI_RD] CPU <- IRAM  Addr=00000008 Data=300001b7 RRESP=00
# UVM_INFO C:/Documents/DoAnThietKeViMach/Project/SoC/VERIFICATION/Monitor/cpu_monitor.sv(234) @ 135000: uvm_test_top.env.agent.monitor [IF] PC=00000008  INSTR=300001b7  [LUI  x3, 0x30000]            
# UVM_INFO C:/Documents/DoAnThietKeViMach/Project/SoC/VERIFICATION/Monitor/cpu_monitor.sv(364) @ 175000: uvm_test_top.env.agent.monitor [AXI_RD] CPU <- IRAM  Addr=0000000c Data=40000237 RRESP=00
# UVM_INFO C:/Documents/DoAnThietKeViMach/Project/SoC/VERIFICATION/Monitor/cpu_monitor.sv(234) @ 175000: uvm_test_top.env.agent.monitor [IF] PC=0000000c  INSTR=40000237  [LUI  x4, 0x40000]            
# UVM_INFO C:/Documents/DoAnThietKeViMach/Project/SoC/VERIFICATION/Monitor/cpu_monitor.sv(296) @ 185000: uvm_test_top.env.agent.monitor [WB] x01 <= 10000000  (PC~0000000c)
# UVM_INFO C:/Documents/DoAnThietKeViMach/Project/SoC/VERIFICATION/Monitor/cpu_monitor.sv(296) @ 195000: uvm_test_top.env.agent.monitor [WB] x01 <= 10000000  (PC~0000000c)
# UVM_INFO C:/Documents/DoAnThietKeViMach/Project/SoC/VERIFICATION/Monitor/cpu_monitor.sv(296) @ 205000: uvm_test_top.env.agent.monitor [WB] x01 <= 10000000  (PC~0000000c)
# UVM_INFO C:/Documents/DoAnThietKeViMach/Project/SoC/VERIFICATION/Monitor/cpu_monitor.sv(364) @ 215000: uvm_test_top.env.agent.monitor [AXI_RD] CPU <- IRAM  Addr=00000010 Data=00601263 RRESP=00
# UVM_INFO C:/Documents/DoAnThietKeViMach/Project/SoC/VERIFICATION/Monitor/cpu_monitor.sv(234) @ 215000: uvm_test_top.env.agent.monitor [IF] PC=00000010  INSTR=00601263  [BNE  x0, x6, ...]            
# UVM_INFO C:/Documents/DoAnThietKeViMach/Project/SoC/VERIFICATION/Monitor/cpu_monitor.sv(296) @ 215000: uvm_test_top.env.agent.monitor [WB] x01 <= 10000000  (PC~00000010)
# UVM_INFO C:/Documents/DoAnThietKeViMach/Project/SoC/VERIFICATION/Monitor/cpu_monitor.sv(296) @ 225000: uvm_test_top.env.agent.monitor [WB] x02 <= 20000000  (PC~00000010)
# UVM_INFO C:/Documents/DoAnThietKeViMach/Project/SoC/VERIFICATION/Monitor/cpu_monitor.sv(296) @ 235000: uvm_test_top.env.agent.monitor [WB] x02 <= 20000000  (PC~00000010)
# UVM_INFO C:/Documents/DoAnThietKeViMach/Project/SoC/VERIFICATION/Monitor/cpu_monitor.sv(296) @ 245000: uvm_test_top.env.agent.monitor [WB] x02 <= 20000000  (PC~00000010)
# UVM_INFO C:/Documents/DoAnThietKeViMach/Project/SoC/VERIFICATION/Monitor/cpu_monitor.sv(364) @ 255000: uvm_test_top.env.agent.monitor [AXI_RD] CPU <- IRAM  Addr=00000014 Data=00e9f7b3 RRESP=00
# UVM_INFO C:/Documents/DoAnThietKeViMach/Project/SoC/VERIFICATION/Monitor/cpu_monitor.sv(234) @ 255000: uvm_test_top.env.agent.monitor [IF] PC=00000014  INSTR=00e9f7b3  [AND  x15, x19, x14]            
# UVM_INFO C:/Documents/DoAnThietKeViMach/Project/SoC/VERIFICATION/Monitor/cpu_monitor.sv(296) @ 255000: uvm_test_top.env.agent.monitor [WB] x02 <= 20000000  (PC~00000014)
# UVM_INFO C:/Documents/DoAnThietKeViMach/Project/SoC/VERIFICATION/Monitor/cpu_monitor.sv(296) @ 265000: uvm_test_top.env.agent.monitor [WB] x03 <= 30000000  (PC~00000014)
# UVM_INFO C:/Documents/DoAnThietKeViMach/Project/SoC/VERIFICATION/Monitor/cpu_monitor.sv(296) @ 275000: uvm_test_top.env.agent.monitor [WB] x03 <= 30000000  (PC~00000014)
# UVM_INFO C:/Documents/DoAnThietKeViMach/Project/SoC/VERIFICATION/Monitor/cpu_monitor.sv(296) @ 285000: uvm_test_top.env.agent.monitor [WB] x03 <= 30000000  (PC~00000014)
# UVM_INFO C:/Documents/DoAnThietKeViMach/Project/SoC/VERIFICATION/Monitor/cpu_monitor.sv(364) @ 295000: uvm_test_top.env.agent.monitor [AXI_RD] CPU <- IRAM  Addr=00000018 Data=00b1a623 RRESP=00
# UVM_INFO C:/Documents/DoAnThietKeViMach/Project/SoC/VERIFICATION/Monitor/cpu_monitor.sv(234) @ 295000: uvm_test_top.env.agent.monitor [IF] PC=00000018  INSTR=00b1a623  [SW   x11, 11(x3)]            
# UVM_INFO C:/Documents/DoAnThietKeViMach/Project/SoC/VERIFICATION/Monitor/cpu_monitor.sv(296) @ 295000: uvm_test_top.env.agent.monitor [WB] x03 <= 30000000  (PC~00000018)
# UVM_INFO C:/Documents/DoAnThietKeViMach/Project/SoC/VERIFICATION/Monitor/cpu_monitor.sv(296) @ 305000: uvm_test_top.env.agent.monitor [WB] x04 <= 40000000  (PC~00000018)
# UVM_INFO C:/Documents/DoAnThietKeViMach/Project/SoC/VERIFICATION/Monitor/cpu_monitor.sv(296) @ 315000: uvm_test_top.env.agent.monitor [WB] x04 <= 40000000  (PC~00000018)
# UVM_INFO C:/Documents/DoAnThietKeViMach/Project/SoC/VERIFICATION/Monitor/cpu_monitor.sv(296) @ 325000: uvm_test_top.env.agent.monitor [WB] x04 <= 40000000  (PC~00000018)
# UVM_INFO C:/Documents/DoAnThietKeViMach/Project/SoC/VERIFICATION/Monitor/cpu_monitor.sv(364) @ 335000: uvm_test_top.env.agent.monitor [AXI_RD] CPU <- IRAM  Addr=0000001c Data=0640a783 RRESP=00
# UVM_INFO C:/Documents/DoAnThietKeViMach/Project/SoC/VERIFICATION/Monitor/cpu_monitor.sv(234) @ 335000: uvm_test_top.env.agent.monitor [IF] PC=0000001c  INSTR=0640a783  [LW   x15, 100(x1)]            
# UVM_INFO C:/Documents/DoAnThietKeViMach/Project/SoC/VERIFICATION/Monitor/cpu_monitor.sv(296) @ 335000: uvm_test_top.env.agent.monitor [WB] x04 <= 40000000  (PC~0000001c)
# UVM_INFO C:/Documents/DoAnThietKeViMach/Project/SoC/VERIFICATION/Monitor/cpu_monitor.sv(364) @ 375000: uvm_test_top.env.agent.monitor [AXI_RD] CPU <- IRAM  Addr=00000020 Data=01712223 RRESP=00
# UVM_INFO C:/Documents/DoAnThietKeViMach/Project/SoC/VERIFICATION/Monitor/cpu_monitor.sv(234) @ 375000: uvm_test_top.env.agent.monitor [IF] PC=00000020  INSTR=01712223  [SW   x23, 23(x2)]            
# UVM_INFO C:/Documents/DoAnThietKeViMach/Project/SoC/VERIFICATION/Monitor/cpu_monitor.sv(268) @ 385000: uvm_test_top.env.agent.monitor [MEM] STORE Addr=3000000c Data=00000000
# UVM_INFO C:/Documents/DoAnThietKeViMach/Project/SoC/VERIFICATION/Monitor/cpu_monitor.sv(268) @ 395000: uvm_test_top.env.agent.monitor [MEM] STORE Addr=3000000c Data=00000000
# UVM_INFO C:/Documents/DoAnThietKeViMach/Project/SoC/VERIFICATION/Monitor/cpu_monitor.sv(268) @ 405000: uvm_test_top.env.agent.monitor [MEM] STORE Addr=3000000c Data=00000000
# UVM_INFO C:/Documents/DoAnThietKeViMach/Project/SoC/VERIFICATION/Monitor/cpu_monitor.sv(335) @ 415000: uvm_test_top.env.agent.monitor [AXI_WR] CPU -> UART  Addr=3000000c Data=00000000 Strb=1111 BRESP=00
# UVM_INFO C:/Documents/DoAnThietKeViMach/Project/SoC/VERIFICATION/Scoreboard/cpu_scoreboard.sv(246) @ 415000: uvm_test_top.env.scoreboard [SCB_PERIPH] [UART] WRITE Addr=3000000c Data=00000000
# UVM_INFO C:/Documents/DoAnThietKeViMach/Project/SoC/VERIFICATION/Monitor/cpu_monitor.sv(268) @ 415000: uvm_test_top.env.agent.monitor [MEM] STORE Addr=3000000c Data=00000000
# UVM_INFO C:/Documents/DoAnThietKeViMach/Project/SoC/VERIFICATION/Monitor/cpu_monitor.sv(296) @ 415000: uvm_test_top.env.agent.monitor [WB] x15 <= 00000000  (PC~00000020)
# UVM_INFO C:/Documents/DoAnThietKeViMach/Project/SoC/VERIFICATION/Monitor/cpu_monitor.sv(268) @ 425000: uvm_test_top.env.agent.monitor [MEM] STORE Addr=3000000c Data=00000000
# UVM_INFO C:/Documents/DoAnThietKeViMach/Project/SoC/VERIFICATION/Monitor/cpu_monitor.sv(296) @ 425000: uvm_test_top.env.agent.monitor [WB] x15 <= 00000000  (PC~00000020)
# UVM_INFO C:/Documents/DoAnThietKeViMach/Project/SoC/VERIFICATION/Monitor/cpu_monitor.sv(268) @ 435000: uvm_test_top.env.agent.monitor [MEM] STORE Addr=3000000c Data=00000000
# UVM_INFO C:/Documents/DoAnThietKeViMach/Project/SoC/VERIFICATION/Monitor/cpu_monitor.sv(296) @ 435000: uvm_test_top.env.agent.monitor [WB] x15 <= 00000000  (PC~00000020)
# UVM_INFO C:/Documents/DoAnThietKeViMach/Project/SoC/VERIFICATION/Monitor/cpu_monitor.sv(268) @ 445000: uvm_test_top.env.agent.monitor [MEM] STORE Addr=3000000c Data=00000000
# UVM_INFO C:/Documents/DoAnThietKeViMach/Project/SoC/VERIFICATION/Monitor/cpu_monitor.sv(296) @ 445000: uvm_test_top.env.agent.monitor [WB] x15 <= 00000000  (PC~00000020)
# UVM_INFO C:/Documents/DoAnThietKeViMach/Project/SoC/VERIFICATION/Monitor/cpu_monitor.sv(364) @ 455000: uvm_test_top.env.agent.monitor [AXI_RD] CPU <- IRAM  Addr=00000024 Data=0040096f RRESP=00
# UVM_INFO C:/Documents/DoAnThietKeViMach/Project/SoC/VERIFICATION/Monitor/cpu_monitor.sv(234) @ 455000: uvm_test_top.env.agent.monitor [IF] PC=00000024  INSTR=0040096f  [JAL  x18, ...]            
# UVM_INFO C:/Documents/DoAnThietKeViMach/Project/SoC/VERIFICATION/Monitor/cpu_monitor.sv(268) @ 455000: uvm_test_top.env.agent.monitor [MEM] STORE Addr=3000000c Data=00000000
# UVM_INFO C:/Documents/DoAnThietKeViMach/Project/SoC/VERIFICATION/Monitor/cpu_monitor.sv(296) @ 455000: uvm_test_top.env.agent.monitor [WB] x15 <= 00000000  (PC~00000024)
# [DRAM READ] addr=10000064 data=00000000
# UVM_INFO C:/Documents/DoAnThietKeViMach/Project/SoC/VERIFICATION/Monitor/cpu_monitor.sv(364) @ 495000: uvm_test_top.env.agent.monitor [AXI_RD] CPU <- DRAM  Addr=10000064 Data=00000000 RRESP=00
# UVM_INFO C:/Documents/DoAnThietKeViMach/Project/SoC/VERIFICATION/Scoreboard/cpu_scoreboard.sv(126) @ 495000: uvm_test_top.env.scoreboard [SCB_PASS] [DRAM] READ PASS Addr=10000064 Expected=00000000 Got=00000000
# UVM_INFO C:/Documents/DoAnThietKeViMach/Project/SoC/VERIFICATION/Monitor/cpu_monitor.sv(364) @ 535000: uvm_test_top.env.agent.monitor [AXI_RD] CPU <- IRAM  Addr=00000028 Data=e8d6e693 RRESP=00
# UVM_INFO C:/Documents/DoAnThietKeViMach/Project/SoC/VERIFICATION/Monitor/cpu_monitor.sv(234) @ 535000: uvm_test_top.env.agent.monitor [IF] PC=00000028  INSTR=e8d6e693  [ORI  x13, x13, -371]            
# UVM_INFO C:/Documents/DoAnThietKeViMach/Project/SoC/VERIFICATION/Monitor/cpu_monitor.sv(268) @ 545000: uvm_test_top.env.agent.monitor [MEM] STORE Addr=20000004 Data=00000000
# UVM_INFO C:/Documents/DoAnThietKeViMach/Project/SoC/VERIFICATION/Monitor/cpu_monitor.sv(268) @ 555000: uvm_test_top.env.agent.monitor [MEM] STORE Addr=20000004 Data=00000000
# UVM_INFO C:/Documents/DoAnThietKeViMach/Project/SoC/VERIFICATION/Monitor/cpu_monitor.sv(268) @ 565000: uvm_test_top.env.agent.monitor [MEM] STORE Addr=20000004 Data=00000000
# UVM_INFO C:/Documents/DoAnThietKeViMach/Project/SoC/VERIFICATION/Monitor/cpu_monitor.sv(268) @ 575000: uvm_test_top.env.agent.monitor [MEM] STORE Addr=20000004 Data=00000000
# UVM_INFO C:/Documents/DoAnThietKeViMach/Project/SoC/VERIFICATION/Monitor/cpu_monitor.sv(335) @ 585000: uvm_test_top.env.agent.monitor [AXI_WR] CPU -> TIMER  Addr=20000004 Data=00000000 Strb=1111 BRESP=00
# UVM_INFO C:/Documents/DoAnThietKeViMach/Project/SoC/VERIFICATION/Scoreboard/cpu_scoreboard.sv(246) @ 585000: uvm_test_top.env.scoreboard [SCB_PERIPH] [TIMER] WRITE Addr=20000004 Data=00000000
# UVM_INFO C:/Documents/DoAnThietKeViMach/Project/SoC/VERIFICATION/Monitor/cpu_monitor.sv(268) @ 585000: uvm_test_top.env.agent.monitor [MEM] STORE Addr=20000004 Data=00000000
# UVM_INFO C:/Documents/DoAnThietKeViMach/Project/SoC/VERIFICATION/Monitor/cpu_monitor.sv(296) @ 585000: uvm_test_top.env.agent.monitor [WB] x15 <= 00000000  (PC~00000028)
# UVM_INFO C:/Documents/DoAnThietKeViMach/Project/SoC/VERIFICATION/Monitor/cpu_monitor.sv(268) @ 595000: uvm_test_top.env.agent.monitor [MEM] STORE Addr=20000004 Data=00000000
# UVM_INFO C:/Documents/DoAnThietKeViMach/Project/SoC/VERIFICATION/Monitor/cpu_monitor.sv(296) @ 595000: uvm_test_top.env.agent.monitor [WB] x15 <= 00000000  (PC~00000028)
# UVM_INFO C:/Documents/DoAnThietKeViMach/Project/SoC/VERIFICATION/Monitor/cpu_monitor.sv(268) @ 605000: uvm_test_top.env.agent.monitor [MEM] STORE Addr=20000004 Data=00000000
# UVM_INFO C:/Documents/DoAnThietKeViMach/Project/SoC/VERIFICATION/Monitor/cpu_monitor.sv(296) @ 605000: uvm_test_top.env.agent.monitor [WB] x15 <= 00000000  (PC~00000028)
# UVM_INFO C:/Documents/DoAnThietKeViMach/Project/SoC/VERIFICATION/Monitor/cpu_monitor.sv(268) @ 615000: uvm_test_top.env.agent.monitor [MEM] STORE Addr=20000004 Data=00000000
# UVM_INFO C:/Documents/DoAnThietKeViMach/Project/SoC/VERIFICATION/Monitor/cpu_monitor.sv(296) @ 615000: uvm_test_top.env.agent.monitor [WB] x15 <= 00000000  (PC~00000028)
# UVM_INFO C:/Documents/DoAnThietKeViMach/Project/SoC/VERIFICATION/Monitor/cpu_monitor.sv(364) @ 625000: uvm_test_top.env.agent.monitor [AXI_RD] CPU <- IRAM  Addr=0000002c Data=0191a023 RRESP=00
# UVM_INFO C:/Documents/DoAnThietKeViMach/Project/SoC/VERIFICATION/Monitor/cpu_monitor.sv(234) @ 625000: uvm_test_top.env.agent.monitor [IF] PC=0000002c  INSTR=0191a023  [SW   x25, 25(x3)]            
# UVM_INFO C:/Documents/DoAnThietKeViMach/Project/SoC/VERIFICATION/Monitor/cpu_monitor.sv(268) @ 625000: uvm_test_top.env.agent.monitor [MEM] STORE Addr=20000004 Data=00000000
# UVM_INFO C:/Documents/DoAnThietKeViMach/Project/SoC/VERIFICATION/Monitor/cpu_monitor.sv(296) @ 625000: uvm_test_top.env.agent.monitor [WB] x15 <= 00000000  (PC~0000002c)
# UVM_INFO C:/Documents/DoAnThietKeViMach/Project/SoC/VERIFICATION/Monitor/cpu_monitor.sv(364) @ 665000: uvm_test_top.env.agent.monitor [AXI_RD] CPU <- IRAM  Addr=00000028 Data=e8d6e693 RRESP=00
# UVM_INFO C:/Documents/DoAnThietKeViMach/Project/SoC/VERIFICATION/Monitor/cpu_monitor.sv(234) @ 665000: uvm_test_top.env.agent.monitor [IF] PC=00000028  INSTR=e8d6e693  [ORI  x13, x13, -371]            
# UVM_INFO C:/Documents/DoAnThietKeViMach/Project/SoC/VERIFICATION/Monitor/cpu_monitor.sv(296) @ 675000: uvm_test_top.env.agent.monitor [WB] x18 <= 00000028  (PC~00000028)
# UVM_INFO C:/Documents/DoAnThietKeViMach/Project/SoC/VERIFICATION/Monitor/cpu_monitor.sv(296) @ 685000: uvm_test_top.env.agent.monitor [WB] x18 <= 00000028  (PC~00000028)
# UVM_INFO C:/Documents/DoAnThietKeViMach/Project/SoC/VERIFICATION/Monitor/cpu_monitor.sv(296) @ 695000: uvm_test_top.env.agent.monitor [WB] x18 <= 00000028  (PC~00000028)
# UVM_INFO C:/Documents/DoAnThietKeViMach/Project/SoC/VERIFICATION/Monitor/cpu_monitor.sv(364) @ 705000: uvm_test_top.env.agent.monitor [AXI_RD] CPU <- IRAM  Addr=0000002c Data=0191a023 RRESP=00
# UVM_INFO C:/Documents/DoAnThietKeViMach/Project/SoC/VERIFICATION/Monitor/cpu_monitor.sv(234) @ 705000: uvm_test_top.env.agent.monitor [IF] PC=0000002c  INSTR=0191a023  [SW   x25, 25(x3)]            
# UVM_INFO C:/Documents/DoAnThietKeViMach/Project/SoC/VERIFICATION/Monitor/cpu_monitor.sv(296) @ 705000: uvm_test_top.env.agent.monitor [WB] x18 <= 00000028  (PC~0000002c)
# UVM_INFO C:/Documents/DoAnThietKeViMach/Project/SoC/VERIFICATION/Monitor/cpu_monitor.sv(364) @ 745000: uvm_test_top.env.agent.monitor [AXI_RD] CPU <- IRAM  Addr=00000030 Data=00005263 RRESP=00
# UVM_INFO C:/Documents/DoAnThietKeViMach/Project/SoC/VERIFICATION/Monitor/cpu_monitor.sv(234) @ 745000: uvm_test_top.env.agent.monitor [IF] PC=00000030  INSTR=00005263  [BGE  x0, x0, ...]            
# UVM_INFO C:/Documents/DoAnThietKeViMach/Project/SoC/VERIFICATION/Monitor/cpu_monitor.sv(364) @ 785000: uvm_test_top.env.agent.monitor [AXI_RD] CPU <- IRAM  Addr=00000034 Data=00822623 RRESP=00
# UVM_INFO C:/Documents/DoAnThietKeViMach/Project/SoC/VERIFICATION/Monitor/cpu_monitor.sv(234) @ 785000: uvm_test_top.env.agent.monitor [IF] PC=00000034  INSTR=00822623  [SW   x8, 8(x4)]            
# UVM_INFO C:/Documents/DoAnThietKeViMach/Project/SoC/VERIFICATION/Monitor/cpu_monitor.sv(268) @ 795000: uvm_test_top.env.agent.monitor [MEM] STORE Addr=30000000 Data=00000000
# UVM_INFO C:/Documents/DoAnThietKeViMach/Project/SoC/VERIFICATION/Monitor/cpu_monitor.sv(268) @ 805000: uvm_test_top.env.agent.monitor [MEM] STORE Addr=30000000 Data=00000000
# UVM_INFO C:/Documents/DoAnThietKeViMach/Project/SoC/VERIFICATION/Monitor/cpu_monitor.sv(268) @ 815000: uvm_test_top.env.agent.monitor [MEM] STORE Addr=30000000 Data=00000000
# UVM_INFO C:/Documents/DoAnThietKeViMach/Project/SoC/VERIFICATION/Monitor/cpu_monitor.sv(335) @ 825000: uvm_test_top.env.agent.monitor [AXI_WR] CPU -> UART  Addr=30000000 Data=00000000 Strb=1111 BRESP=00
# UVM_INFO C:/Documents/DoAnThietKeViMach/Project/SoC/VERIFICATION/Scoreboard/cpu_scoreboard.sv(246) @ 825000: uvm_test_top.env.scoreboard [SCB_PERIPH] [UART] WRITE Addr=30000000 Data=00000000
# UVM_INFO C:/Documents/DoAnThietKeViMach/Project/SoC/VERIFICATION/Monitor/cpu_monitor.sv(268) @ 825000: uvm_test_top.env.agent.monitor [MEM] STORE Addr=30000000 Data=00000000
# UVM_INFO C:/Documents/DoAnThietKeViMach/Project/SoC/VERIFICATION/Monitor/cpu_monitor.sv(296) @ 825000: uvm_test_top.env.agent.monitor [WB] x13 <= fffffe8d  (PC~00000034)
# UVM_INFO C:/Documents/DoAnThietKeViMach/Project/SoC/VERIFICATION/Monitor/cpu_monitor.sv(268) @ 835000: uvm_test_top.env.agent.monitor [MEM] STORE Addr=30000000 Data=00000000
# UVM_INFO C:/Documents/DoAnThietKeViMach/Project/SoC/VERIFICATION/Monitor/cpu_monitor.sv(296) @ 835000: uvm_test_top.env.agent.monitor [WB] x13 <= fffffe8d  (PC~00000034)
# UVM_INFO C:/Documents/DoAnThietKeViMach/Project/SoC/VERIFICATION/Monitor/cpu_monitor.sv(268) @ 845000: uvm_test_top.env.agent.monitor [MEM] STORE Addr=30000000 Data=00000000
# UVM_INFO C:/Documents/DoAnThietKeViMach/Project/SoC/VERIFICATION/Monitor/cpu_monitor.sv(296) @ 845000: uvm_test_top.env.agent.monitor [WB] x13 <= fffffe8d  (PC~00000034)
# UVM_INFO C:/Documents/DoAnThietKeViMach/Project/SoC/VERIFICATION/Monitor/cpu_monitor.sv(268) @ 855000: uvm_test_top.env.agent.monitor [MEM] STORE Addr=30000000 Data=00000000
# UVM_INFO C:/Documents/DoAnThietKeViMach/Project/SoC/VERIFICATION/Monitor/cpu_monitor.sv(296) @ 855000: uvm_test_top.env.agent.monitor [WB] x13 <= fffffe8d  (PC~00000034)
# UVM_INFO C:/Documents/DoAnThietKeViMach/Project/SoC/VERIFICATION/Monitor/cpu_monitor.sv(364) @ 865000: uvm_test_top.env.agent.monitor [AXI_RD] CPU <- IRAM  Addr=00000038 Data=3180a423 RRESP=00
# UVM_INFO C:/Documents/DoAnThietKeViMach/Project/SoC/VERIFICATION/Monitor/cpu_monitor.sv(234) @ 865000: uvm_test_top.env.agent.monitor [IF] PC=00000038  INSTR=3180a423  [SW   x24, 792(x1)]            
# UVM_INFO C:/Documents/DoAnThietKeViMach/Project/SoC/VERIFICATION/Monitor/cpu_monitor.sv(268) @ 865000: uvm_test_top.env.agent.monitor [MEM] STORE Addr=30000000 Data=00000000
# UVM_INFO C:/Documents/DoAnThietKeViMach/Project/SoC/VERIFICATION/Monitor/cpu_monitor.sv(296) @ 865000: uvm_test_top.env.agent.monitor [WB] x13 <= fffffe8d  (PC~00000038)
# UVM_INFO C:/Documents/DoAnThietKeViMach/Project/SoC/VERIFICATION/Monitor/cpu_monitor.sv(364) @ 905000: uvm_test_top.env.agent.monitor [AXI_RD] CPU <- IRAM  Addr=00000034 Data=00822623 RRESP=00
# UVM_INFO C:/Documents/DoAnThietKeViMach/Project/SoC/VERIFICATION/Monitor/cpu_monitor.sv(234) @ 905000: uvm_test_top.env.agent.monitor [IF] PC=00000034  INSTR=00822623  [SW   x8, 8(x4)]            
# UVM_INFO C:/Documents/DoAnThietKeViMach/Project/SoC/VERIFICATION/Monitor/cpu_monitor.sv(364) @ 945000: uvm_test_top.env.agent.monitor [AXI_RD] CPU <- IRAM  Addr=00000038 Data=3180a423 RRESP=00
# UVM_INFO C:/Documents/DoAnThietKeViMach/Project/SoC/VERIFICATION/Monitor/cpu_monitor.sv(234) @ 945000: uvm_test_top.env.agent.monitor [IF] PC=00000038  INSTR=3180a423  [SW   x24, 792(x1)]            
# UVM_INFO C:/Documents/DoAnThietKeViMach/Project/SoC/VERIFICATION/Monitor/cpu_monitor.sv(364) @ 985000: uvm_test_top.env.agent.monitor [AXI_RD] CPU <- IRAM  Addr=0000003c Data=01601263 RRESP=00
# UVM_INFO C:/Documents/DoAnThietKeViMach/Project/SoC/VERIFICATION/Monitor/cpu_monitor.sv(234) @ 985000: uvm_test_top.env.agent.monitor [IF] PC=0000003c  INSTR=01601263  [BNE  x0, x22, ...]            
# UVM_INFO C:/Documents/DoAnThietKeViMach/Project/SoC/VERIFICATION/Monitor/cpu_monitor.sv(268) @ 995000: uvm_test_top.env.agent.monitor [MEM] STORE Addr=4000000c Data=00000000
# UVM_INFO C:/Documents/DoAnThietKeViMach/Project/SoC/VERIFICATION/Monitor/cpu_monitor.sv(268) @ 1005000: uvm_test_top.env.agent.monitor [MEM] STORE Addr=4000000c Data=00000000
# UVM_INFO C:/Documents/DoAnThietKeViMach/Project/SoC/VERIFICATION/Monitor/cpu_monitor.sv(268) @ 1015000: uvm_test_top.env.agent.monitor [MEM] STORE Addr=4000000c Data=00000000
# UVM_INFO C:/Documents/DoAnThietKeViMach/Project/SoC/VERIFICATION/Monitor/cpu_monitor.sv(335) @ 1025000: uvm_test_top.env.agent.monitor [AXI_WR] CPU -> SPI  Addr=4000000c Data=00000000 Strb=1111 BRESP=00
# UVM_INFO C:/Documents/DoAnThietKeViMach/Project/SoC/VERIFICATION/Scoreboard/cpu_scoreboard.sv(246) @ 1025000: uvm_test_top.env.scoreboard [SCB_PERIPH] [SPI] WRITE Addr=4000000c Data=00000000
# UVM_INFO C:/Documents/DoAnThietKeViMach/Project/SoC/VERIFICATION/Monitor/cpu_monitor.sv(268) @ 1025000: uvm_test_top.env.agent.monitor [MEM] STORE Addr=4000000c Data=00000000
# UVM_INFO C:/Documents/DoAnThietKeViMach/Project/SoC/VERIFICATION/Monitor/cpu_monitor.sv(268) @ 1035000: uvm_test_top.env.agent.monitor [MEM] STORE Addr=4000000c Data=00000000
# UVM_INFO C:/Documents/DoAnThietKeViMach/Project/SoC/VERIFICATION/Monitor/cpu_monitor.sv(268) @ 1045000: uvm_test_top.env.agent.monitor [MEM] STORE Addr=4000000c Data=00000000
# UVM_INFO C:/Documents/DoAnThietKeViMach/Project/SoC/VERIFICATION/Monitor/cpu_monitor.sv(268) @ 1055000: uvm_test_top.env.agent.monitor [MEM] STORE Addr=4000000c Data=00000000
# UVM_INFO C:/Documents/DoAnThietKeViMach/Project/SoC/VERIFICATION/Monitor/cpu_monitor.sv(364) @ 1065000: uvm_test_top.env.agent.monitor [AXI_RD] CPU <- IRAM  Addr=00000040 Data=00c1ad03 RRESP=00
# UVM_INFO C:/Documents/DoAnThietKeViMach/Project/SoC/VERIFICATION/Monitor/cpu_monitor.sv(234) @ 1065000: uvm_test_top.env.agent.monitor [IF] PC=00000040  INSTR=00c1ad03  [LW   x26, 12(x3)]            
# UVM_INFO C:/Documents/DoAnThietKeViMach/Project/SoC/VERIFICATION/Monitor/cpu_monitor.sv(268) @ 1065000: uvm_test_top.env.agent.monitor [MEM] STORE Addr=4000000c Data=00000000
# UVM_INFO C:/Documents/DoAnThietKeViMach/Project/SoC/VERIFICATION/Monitor/cpu_monitor.sv(268) @ 1075000: uvm_test_top.env.agent.monitor [MEM] STORE Addr=10000308 Data=00000000
# UVM_INFO C:/Documents/DoAnThietKeViMach/Project/SoC/VERIFICATION/Monitor/cpu_monitor.sv(268) @ 1085000: uvm_test_top.env.agent.monitor [MEM] STORE Addr=10000308 Data=00000000
# [DRAM WRITE] addr=10000308 data=00000000
# UVM_INFO C:/Documents/DoAnThietKeViMach/Project/SoC/VERIFICATION/Monitor/cpu_monitor.sv(268) @ 1095000: uvm_test_top.env.agent.monitor [MEM] STORE Addr=10000308 Data=00000000
# UVM_INFO C:/Documents/DoAnThietKeViMach/Project/SoC/VERIFICATION/Monitor/cpu_monitor.sv(335) @ 1105000: uvm_test_top.env.agent.monitor [AXI_WR] CPU -> DRAM  Addr=10000308 Data=00000000 Strb=1111 BRESP=00
# UVM_INFO C:/Documents/DoAnThietKeViMach/Project/SoC/VERIFICATION/Monitor/cpu_monitor.sv(268) @ 1105000: uvm_test_top.env.agent.monitor [MEM] STORE Addr=10000308 Data=00000000
# UVM_INFO C:/Documents/DoAnThietKeViMach/Project/SoC/VERIFICATION/Monitor/cpu_monitor.sv(268) @ 1115000: uvm_test_top.env.agent.monitor [MEM] STORE Addr=10000308 Data=00000000
# UVM_INFO C:/Documents/DoAnThietKeViMach/Project/SoC/VERIFICATION/Monitor/cpu_monitor.sv(268) @ 1125000: uvm_test_top.env.agent.monitor [MEM] STORE Addr=10000308 Data=00000000
# UVM_INFO C:/Documents/DoAnThietKeViMach/Project/SoC/VERIFICATION/Monitor/cpu_monitor.sv(268) @ 1135000: uvm_test_top.env.agent.monitor [MEM] STORE Addr=10000308 Data=00000000
# UVM_INFO C:/Documents/DoAnThietKeViMach/Project/SoC/VERIFICATION/Monitor/cpu_monitor.sv(364) @ 1145000: uvm_test_top.env.agent.monitor [AXI_RD] CPU <- IRAM  Addr=00000044 Data=0121a623 RRESP=00
# UVM_INFO C:/Documents/DoAnThietKeViMach/Project/SoC/VERIFICATION/Monitor/cpu_monitor.sv(234) @ 1145000: uvm_test_top.env.agent.monitor [IF] PC=00000044  INSTR=0121a623  [SW   x18, 18(x3)]            
# UVM_INFO C:/Documents/DoAnThietKeViMach/Project/SoC/VERIFICATION/Monitor/cpu_monitor.sv(268) @ 1145000: uvm_test_top.env.agent.monitor [MEM] STORE Addr=10000308 Data=00000000
# UVM_INFO C:/Documents/DoAnThietKeViMach/Project/SoC/VERIFICATION/Monitor/cpu_monitor.sv(364) @ 1185000: uvm_test_top.env.agent.monitor [AXI_RD] CPU <- IRAM  Addr=00000048 Data=01312223 RRESP=00
# UVM_INFO C:/Documents/DoAnThietKeViMach/Project/SoC/VERIFICATION/Monitor/cpu_monitor.sv(234) @ 1185000: uvm_test_top.env.agent.monitor [IF] PC=00000048  INSTR=01312223  [SW   x19, 19(x2)]            
# UVM_INFO C:/Documents/DoAnThietKeViMach/Project/SoC/VERIFICATION/Monitor/cpu_monitor.sv(364) @ 1225000: uvm_test_top.env.agent.monitor [AXI_RD] CPU <- UART  Addr=3000000c Data=00000000 RRESP=00
# UVM_INFO C:/Documents/DoAnThietKeViMach/Project/SoC/VERIFICATION/Scoreboard/cpu_scoreboard.sv(126) @ 1225000: uvm_test_top.env.scoreboard [SCB_PASS] [UART] READ PASS Addr=3000000c Expected=00000000 Got=00000000
# UVM_INFO C:/Documents/DoAnThietKeViMach/Project/SoC/VERIFICATION/Monitor/cpu_monitor.sv(364) @ 1265000: uvm_test_top.env.agent.monitor [AXI_RD] CPU <- IRAM  Addr=0000004c Data=00022003 RRESP=00
# UVM_INFO C:/Documents/DoAnThietKeViMach/Project/SoC/VERIFICATION/Monitor/cpu_monitor.sv(234) @ 1265000: uvm_test_top.env.agent.monitor [IF] PC=0000004c  INSTR=00022003  [LW   x0, 0(x4)]            
# UVM_INFO C:/Documents/DoAnThietKeViMach/Project/SoC/VERIFICATION/Monitor/cpu_monitor.sv(268) @ 1275000: uvm_test_top.env.agent.monitor [MEM] STORE Addr=3000000c Data=00000028
# UVM_INFO C:/Documents/DoAnThietKeViMach/Project/SoC/VERIFICATION/Monitor/cpu_monitor.sv(268) @ 1285000: uvm_test_top.env.agent.monitor [MEM] STORE Addr=3000000c Data=00000028
# UVM_INFO C:/Documents/DoAnThietKeViMach/Project/SoC/VERIFICATION/Monitor/cpu_monitor.sv(268) @ 1295000: uvm_test_top.env.agent.monitor [MEM] STORE Addr=3000000c Data=00000028
# UVM_INFO C:/Documents/DoAnThietKeViMach/Project/SoC/VERIFICATION/Monitor/cpu_monitor.sv(335) @ 1305000: uvm_test_top.env.agent.monitor [AXI_WR] CPU -> UART  Addr=3000000c Data=00000028 Strb=1111 BRESP=00
# UVM_INFO C:/Documents/DoAnThietKeViMach/Project/SoC/VERIFICATION/Scoreboard/cpu_scoreboard.sv(246) @ 1305000: uvm_test_top.env.scoreboard [SCB_PERIPH] [UART] WRITE Addr=3000000c Data=00000028
# UVM_INFO C:/Documents/DoAnThietKeViMach/Project/SoC/VERIFICATION/Monitor/cpu_monitor.sv(268) @ 1305000: uvm_test_top.env.agent.monitor [MEM] STORE Addr=3000000c Data=00000028
# UVM_INFO C:/Documents/DoAnThietKeViMach/Project/SoC/VERIFICATION/Monitor/cpu_monitor.sv(296) @ 1305000: uvm_test_top.env.agent.monitor [WB] x26 <= 00000000  (PC~0000004c)
# UVM_INFO C:/Documents/DoAnThietKeViMach/Project/SoC/VERIFICATION/Monitor/cpu_monitor.sv(268) @ 1315000: uvm_test_top.env.agent.monitor [MEM] STORE Addr=3000000c Data=00000028
# UVM_INFO C:/Documents/DoAnThietKeViMach/Project/SoC/VERIFICATION/Monitor/cpu_monitor.sv(296) @ 1315000: uvm_test_top.env.agent.monitor [WB] x26 <= 00000000  (PC~0000004c)
# UVM_INFO C:/Documents/DoAnThietKeViMach/Project/SoC/VERIFICATION/Monitor/cpu_monitor.sv(268) @ 1325000: uvm_test_top.env.agent.monitor [MEM] STORE Addr=3000000c Data=00000028
# UVM_INFO C:/Documents/DoAnThietKeViMach/Project/SoC/VERIFICATION/Monitor/cpu_monitor.sv(296) @ 1325000: uvm_test_top.env.agent.monitor [WB] x26 <= 00000000  (PC~0000004c)
# UVM_INFO C:/Documents/DoAnThietKeViMach/Project/SoC/VERIFICATION/Monitor/cpu_monitor.sv(268) @ 1335000: uvm_test_top.env.agent.monitor [MEM] STORE Addr=3000000c Data=00000028
# UVM_INFO C:/Documents/DoAnThietKeViMach/Project/SoC/VERIFICATION/Monitor/cpu_monitor.sv(296) @ 1335000: uvm_test_top.env.agent.monitor [WB] x26 <= 00000000  (PC~0000004c)
# UVM_INFO C:/Documents/DoAnThietKeViMach/Project/SoC/VERIFICATION/Monitor/cpu_monitor.sv(364) @ 1345000: uvm_test_top.env.agent.monitor [AXI_RD] CPU <- IRAM  Addr=00000050 Data=00c22f83 RRESP=00
# UVM_INFO C:/Documents/DoAnThietKeViMach/Project/SoC/VERIFICATION/Monitor/cpu_monitor.sv(234) @ 1345000: uvm_test_top.env.agent.monitor [IF] PC=00000050  INSTR=00c22f83  [LW   x31, 12(x4)]            
# UVM_INFO C:/Documents/DoAnThietKeViMach/Project/SoC/VERIFICATION/Monitor/cpu_monitor.sv(268) @ 1345000: uvm_test_top.env.agent.monitor [MEM] STORE Addr=3000000c Data=00000028
# UVM_INFO C:/Documents/DoAnThietKeViMach/Project/SoC/VERIFICATION/Monitor/cpu_monitor.sv(296) @ 1345000: uvm_test_top.env.agent.monitor [WB] x26 <= 00000000  (PC~00000050)
# UVM_INFO C:/Documents/DoAnThietKeViMach/Project/SoC/VERIFICATION/Monitor/cpu_monitor.sv(268) @ 1355000: uvm_test_top.env.agent.monitor [MEM] STORE Addr=20000004 Data=00000000
# UVM_INFO C:/Documents/DoAnThietKeViMach/Project/SoC/VERIFICATION/Monitor/cpu_monitor.sv(268) @ 1365000: uvm_test_top.env.agent.monitor [MEM] STORE Addr=20000004 Data=00000000
# UVM_INFO C:/Documents/DoAnThietKeViMach/Project/SoC/VERIFICATION/Monitor/cpu_monitor.sv(268) @ 1375000: uvm_test_top.env.agent.monitor [MEM] STORE Addr=20000004 Data=00000000
# UVM_INFO C:/Documents/DoAnThietKeViMach/Project/SoC/VERIFICATION/Monitor/cpu_monitor.sv(268) @ 1385000: uvm_test_top.env.agent.monitor [MEM] STORE Addr=20000004 Data=00000000
# UVM_INFO C:/Documents/DoAnThietKeViMach/Project/SoC/VERIFICATION/Monitor/cpu_monitor.sv(335) @ 1395000: uvm_test_top.env.agent.monitor [AXI_WR] CPU -> TIMER  Addr=20000004 Data=00000000 Strb=1111 BRESP=00
# UVM_INFO C:/Documents/DoAnThietKeViMach/Project/SoC/VERIFICATION/Scoreboard/cpu_scoreboard.sv(246) @ 1395000: uvm_test_top.env.scoreboard [SCB_PERIPH] [TIMER] WRITE Addr=20000004 Data=00000000
# UVM_INFO C:/Documents/DoAnThietKeViMach/Project/SoC/VERIFICATION/Monitor/cpu_monitor.sv(268) @ 1395000: uvm_test_top.env.agent.monitor [MEM] STORE Addr=20000004 Data=00000000
# UVM_INFO C:/Documents/DoAnThietKeViMach/Project/SoC/VERIFICATION/Monitor/cpu_monitor.sv(268) @ 1405000: uvm_test_top.env.agent.monitor [MEM] STORE Addr=20000004 Data=00000000
# UVM_INFO C:/Documents/DoAnThietKeViMach/Project/SoC/VERIFICATION/Monitor/cpu_monitor.sv(268) @ 1415000: uvm_test_top.env.agent.monitor [MEM] STORE Addr=20000004 Data=00000000
# UVM_INFO C:/Documents/DoAnThietKeViMach/Project/SoC/VERIFICATION/Monitor/cpu_monitor.sv(268) @ 1425000: uvm_test_top.env.agent.monitor [MEM] STORE Addr=20000004 Data=00000000
# UVM_INFO C:/Documents/DoAnThietKeViMach/Project/SoC/VERIFICATION/Monitor/cpu_monitor.sv(364) @ 1435000: uvm_test_top.env.agent.monitor [AXI_RD] CPU <- IRAM  Addr=00000054 Data=00812003 RRESP=00
# UVM_INFO C:/Documents/DoAnThietKeViMach/Project/SoC/VERIFICATION/Monitor/cpu_monitor.sv(234) @ 1435000: uvm_test_top.env.agent.monitor [IF] PC=00000054  INSTR=00812003  [LW   x0, 8(x2)]            
# UVM_INFO C:/Documents/DoAnThietKeViMach/Project/SoC/VERIFICATION/Monitor/cpu_monitor.sv(268) @ 1435000: uvm_test_top.env.agent.monitor [MEM] STORE Addr=20000004 Data=00000000
# UVM_INFO C:/Documents/DoAnThietKeViMach/Project/SoC/VERIFICATION/Monitor/cpu_monitor.sv(364) @ 1475000: uvm_test_top.env.agent.monitor [AXI_RD] CPU <- SPI  Addr=40000000 Data=00000000 RRESP=00
# UVM_INFO C:/Documents/DoAnThietKeViMach/Project/SoC/VERIFICATION/Scoreboard/cpu_scoreboard.sv(252) @ 1475000: uvm_test_top.env.scoreboard [SCB_PERIPH] [SPI] READ Addr=40000000 Data=00000000 (volatile, compare skipped)
# UVM_INFO C:/Documents/DoAnThietKeViMach/Project/SoC/VERIFICATION/Monitor/cpu_monitor.sv(364) @ 1515000: uvm_test_top.env.agent.monitor [AXI_RD] CPU <- IRAM  Addr=00000058 Data=00005263 RRESP=00
# UVM_INFO C:/Documents/DoAnThietKeViMach/Project/SoC/VERIFICATION/Monitor/cpu_monitor.sv(234) @ 1515000: uvm_test_top.env.agent.monitor [IF] PC=00000058  INSTR=00005263  [BGE  x0, x0, ...]            
# UVM_INFO C:/Documents/DoAnThietKeViMach/Project/SoC/VERIFICATION/Monitor/cpu_monitor.sv(364) @ 1555000: uvm_test_top.env.agent.monitor [AXI_RD] CPU <- SPI  Addr=4000000c Data=00000000 RRESP=00
# UVM_INFO C:/Documents/DoAnThietKeViMach/Project/SoC/VERIFICATION/Scoreboard/cpu_scoreboard.sv(126) @ 1555000: uvm_test_top.env.scoreboard [SCB_PASS] [SPI] READ PASS Addr=4000000c Expected=00000000 Got=00000000
# UVM_INFO C:/Documents/DoAnThietKeViMach/Project/SoC/VERIFICATION/Monitor/cpu_monitor.sv(364) @ 1595000: uvm_test_top.env.agent.monitor [AXI_RD] CPU <- IRAM  Addr=0000005c Data=0081a003 RRESP=00
# UVM_INFO C:/Documents/DoAnThietKeViMach/Project/SoC/VERIFICATION/Monitor/cpu_monitor.sv(364) @ 1635000: uvm_test_top.env.agent.monitor [AXI_RD] CPU <- TIMER  Addr=20000008 Data=00000000 RRESP=00
# UVM_INFO C:/Documents/DoAnThietKeViMach/Project/SoC/VERIFICATION/Scoreboard/cpu_scoreboard.sv(252) @ 1635000: uvm_test_top.env.scoreboard [SCB_PERIPH] [TIMER] READ Addr=20000008 Data=00000000 (volatile, compare skipped)
# UVM_INFO C:/Documents/DoAnThietKeViMach/Project/SoC/VERIFICATION/Monitor/cpu_monitor.sv(296) @ 1635000: uvm_test_top.env.agent.monitor [WB] x31 <= 00000000  (PC~00000058)
# UVM_INFO C:/Documents/DoAnThietKeViMach/Project/SoC/VERIFICATION/Monitor/cpu_monitor.sv(296) @ 1645000: uvm_test_top.env.agent.monitor [WB] x31 <= 00000000  (PC~00000058)
# UVM_INFO C:/Documents/DoAnThietKeViMach/Project/SoC/VERIFICATION/Monitor/cpu_monitor.sv(296) @ 1655000: uvm_test_top.env.agent.monitor [WB] x31 <= 00000000  (PC~00000058)
# UVM_INFO C:/Documents/DoAnThietKeViMach/Project/SoC/VERIFICATION/Monitor/cpu_monitor.sv(296) @ 1665000: uvm_test_top.env.agent.monitor [WB] x31 <= 00000000  (PC~00000058)
# UVM_INFO C:/Documents/DoAnThietKeViMach/Project/SoC/VERIFICATION/Monitor/cpu_monitor.sv(364) @ 1675000: uvm_test_top.env.agent.monitor [AXI_RD] CPU <- IRAM  Addr=0000005c Data=0081a003 RRESP=00
# UVM_INFO C:/Documents/DoAnThietKeViMach/Project/SoC/VERIFICATION/Monitor/cpu_monitor.sv(234) @ 1675000: uvm_test_top.env.agent.monitor [IF] PC=0000005c  INSTR=0081a003  [LW   x0, 8(x3)]            
# UVM_INFO C:/Documents/DoAnThietKeViMach/Project/SoC/VERIFICATION/Monitor/cpu_monitor.sv(296) @ 1675000: uvm_test_top.env.agent.monitor [WB] x31 <= 00000000  (PC~0000005c)
# UVM_INFO C:/Documents/DoAnThietKeViMach/Project/SoC/VERIFICATION/Monitor/cpu_monitor.sv(364) @ 1715000: uvm_test_top.env.agent.monitor [AXI_RD] CPU <- IRAM  Addr=00000060 Data=00000263 RRESP=00
# UVM_INFO C:/Documents/DoAnThietKeViMach/Project/SoC/VERIFICATION/Monitor/cpu_monitor.sv(234) @ 1715000: uvm_test_top.env.agent.monitor [IF] PC=00000060  INSTR=00000263  [BEQ  x0, x0, ...]            
# UVM_INFO C:/Documents/DoAnThietKeViMach/Project/SoC/VERIFICATION/Monitor/cpu_monitor.sv(364) @ 1755000: uvm_test_top.env.agent.monitor [AXI_RD] CPU <- IRAM  Addr=0000005c Data=0081a003 RRESP=00
# UVM_INFO C:/Documents/DoAnThietKeViMach/Project/SoC/VERIFICATION/Monitor/cpu_monitor.sv(234) @ 1755000: uvm_test_top.env.agent.monitor [IF] PC=0000005c  INSTR=0081a003  [LW   x0, 8(x3)]            
# UVM_INFO C:/Documents/DoAnThietKeViMach/Project/SoC/VERIFICATION/Monitor/cpu_monitor.sv(364) @ 1795000: uvm_test_top.env.agent.monitor [AXI_RD] CPU <- IRAM  Addr=00000060 Data=00000263 RRESP=00
# UVM_INFO C:/Documents/DoAnThietKeViMach/Project/SoC/VERIFICATION/Monitor/cpu_monitor.sv(234) @ 1795000: uvm_test_top.env.agent.monitor [IF] PC=00000060  INSTR=00000263  [BEQ  x0, x0, ...]            
# UVM_INFO C:/Documents/DoAnThietKeViMach/Project/SoC/VERIFICATION/Monitor/cpu_monitor.sv(364) @ 1835000: uvm_test_top.env.agent.monitor [AXI_RD] CPU <- IRAM  Addr=00000064 Data=00501263 RRESP=00
# UVM_INFO C:/Documents/DoAnThietKeViMach/Project/SoC/VERIFICATION/Monitor/cpu_monitor.sv(364) @ 1875000: uvm_test_top.env.agent.monitor [AXI_RD] CPU <- UART  Addr=30000008 Data=00000000 RRESP=00
# UVM_INFO C:/Documents/DoAnThietKeViMach/Project/SoC/VERIFICATION/Scoreboard/cpu_scoreboard.sv(252) @ 1875000: uvm_test_top.env.scoreboard [SCB_PERIPH] [UART] READ Addr=30000008 Data=00000000 (volatile, compare skipped)
# UVM_INFO C:/Documents/DoAnThietKeViMach/Project/SoC/VERIFICATION/Monitor/cpu_monitor.sv(364) @ 1915000: uvm_test_top.env.agent.monitor [AXI_RD] CPU <- IRAM  Addr=00000064 Data=00501263 RRESP=00
# UVM_INFO C:/Documents/DoAnThietKeViMach/Project/SoC/VERIFICATION/Monitor/cpu_monitor.sv(234) @ 1915000: uvm_test_top.env.agent.monitor [IF] PC=00000064  INSTR=00501263  [BNE  x0, x5, ...]            
# UVM_INFO C:/Documents/DoAnThietKeViMach/Project/SoC/VERIFICATION/Monitor/cpu_monitor.sv(364) @ 1955000: uvm_test_top.env.agent.monitor [AXI_RD] CPU <- IRAM  Addr=00000068 Data=00012c03 RRESP=00
# UVM_INFO C:/Documents/DoAnThietKeViMach/Project/SoC/VERIFICATION/Monitor/cpu_monitor.sv(234) @ 1955000: uvm_test_top.env.agent.monitor [IF] PC=00000068  INSTR=00012c03  [LW   x24, 0(x2)]            
# UVM_INFO C:/Documents/DoAnThietKeViMach/Project/SoC/VERIFICATION/Monitor/cpu_monitor.sv(364) @ 1995000: uvm_test_top.env.agent.monitor [AXI_RD] CPU <- IRAM  Addr=00000064 Data=00501263 RRESP=00
# UVM_INFO C:/Documents/DoAnThietKeViMach/Project/SoC/VERIFICATION/Monitor/cpu_monitor.sv(234) @ 1995000: uvm_test_top.env.agent.monitor [IF] PC=00000064  INSTR=00501263  [BNE  x0, x5, ...]            
# UVM_INFO C:/Documents/DoAnThietKeViMach/Project/SoC/VERIFICATION/Monitor/cpu_monitor.sv(364) @ 2035000: uvm_test_top.env.agent.monitor [AXI_RD] CPU <- IRAM  Addr=00000068 Data=00012c03 RRESP=00
# UVM_INFO C:/Documents/DoAnThietKeViMach/Project/SoC/VERIFICATION/Monitor/cpu_monitor.sv(234) @ 2035000: uvm_test_top.env.agent.monitor [IF] PC=00000068  INSTR=00012c03  [LW   x24, 0(x2)]            
# UVM_INFO C:/Documents/DoAnThietKeViMach/Project/SoC/VERIFICATION/Monitor/cpu_monitor.sv(364) @ 2075000: uvm_test_top.env.agent.monitor [AXI_RD] CPU <- IRAM  Addr=0000006c Data=00822003 RRESP=00
# UVM_INFO C:/Documents/DoAnThietKeViMach/Project/SoC/VERIFICATION/Monitor/cpu_monitor.sv(234) @ 2075000: uvm_test_top.env.agent.monitor [IF] PC=0000006c  INSTR=00822003  [LW   x0, 8(x4)]            
# UVM_INFO C:/Documents/DoAnThietKeViMach/Project/SoC/VERIFICATION/Monitor/cpu_monitor.sv(364) @ 2115000: uvm_test_top.env.agent.monitor [AXI_RD] CPU <- IRAM  Addr=00000070 Data=01a1a023 RRESP=00
# UVM_INFO C:/Documents/DoAnThietKeViMach/Project/SoC/VERIFICATION/Monitor/cpu_monitor.sv(234) @ 2115000: uvm_test_top.env.agent.monitor [IF] PC=00000070  INSTR=01a1a023  [SW   x26, 26(x3)]            
# UVM_INFO C:/Documents/DoAnThietKeViMach/Project/SoC/VERIFICATION/Monitor/cpu_monitor.sv(364) @ 2155000: uvm_test_top.env.agent.monitor [AXI_RD] CPU <- TIMER  Addr=20000000 Data=00000000 RRESP=00
# UVM_INFO C:/Documents/DoAnThietKeViMach/Project/SoC/VERIFICATION/Scoreboard/cpu_scoreboard.sv(126) @ 2155000: uvm_test_top.env.scoreboard [SCB_PASS] [TIMER] READ PASS Addr=20000000 Expected=00000000 Got=00000000
# UVM_INFO C:/Documents/DoAnThietKeViMach/Project/SoC/VERIFICATION/Monitor/cpu_monitor.sv(364) @ 2195000: uvm_test_top.env.agent.monitor [AXI_RD] CPU <- IRAM  Addr=00000074 Data=00e1a623 RRESP=00
# UVM_INFO C:/Documents/DoAnThietKeViMach/Project/SoC/VERIFICATION/Monitor/cpu_monitor.sv(234) @ 2195000: uvm_test_top.env.agent.monitor [IF] PC=00000074  INSTR=00e1a623  [SW   x14, 14(x3)]            
# UVM_INFO C:/Documents/DoAnThietKeViMach/Project/SoC/VERIFICATION/Monitor/cpu_monitor.sv(364) @ 2235000: uvm_test_top.env.agent.monitor [AXI_RD] CPU <- SPI  Addr=40000008 Data=00000000 RRESP=00
# UVM_INFO C:/Documents/DoAnThietKeViMach/Project/SoC/VERIFICATION/Scoreboard/cpu_scoreboard.sv(252) @ 2235000: uvm_test_top.env.scoreboard [SCB_PERIPH] [SPI] READ Addr=40000008 Data=00000000 (volatile, compare skipped)
# UVM_INFO C:/Documents/DoAnThietKeViMach/Project/SoC/VERIFICATION/Monitor/cpu_monitor.sv(296) @ 2235000: uvm_test_top.env.agent.monitor [WB] x24 <= 00000000  (PC~00000074)
# UVM_INFO C:/Documents/DoAnThietKeViMach/Project/SoC/VERIFICATION/Monitor/cpu_monitor.sv(296) @ 2245000: uvm_test_top.env.agent.monitor [WB] x24 <= 00000000  (PC~00000074)
# UVM_INFO C:/Documents/DoAnThietKeViMach/Project/SoC/VERIFICATION/Monitor/cpu_monitor.sv(296) @ 2255000: uvm_test_top.env.agent.monitor [WB] x24 <= 00000000  (PC~00000074)
# UVM_INFO C:/Documents/DoAnThietKeViMach/Project/SoC/VERIFICATION/Monitor/cpu_monitor.sv(296) @ 2265000: uvm_test_top.env.agent.monitor [WB] x24 <= 00000000  (PC~00000074)
# UVM_INFO C:/Documents/DoAnThietKeViMach/Project/SoC/VERIFICATION/Monitor/cpu_monitor.sv(364) @ 2275000: uvm_test_top.env.agent.monitor [AXI_RD] CPU <- IRAM  Addr=00000078 Data=005b46b3 RRESP=00
# UVM_INFO C:/Documents/DoAnThietKeViMach/Project/SoC/VERIFICATION/Monitor/cpu_monitor.sv(234) @ 2275000: uvm_test_top.env.agent.monitor [IF] PC=00000078  INSTR=005b46b3  [XOR  x13, x22, x5]            
# UVM_INFO C:/Documents/DoAnThietKeViMach/Project/SoC/VERIFICATION/Monitor/cpu_monitor.sv(296) @ 2275000: uvm_test_top.env.agent.monitor [WB] x24 <= 00000000  (PC~00000078)
# UVM_INFO C:/Documents/DoAnThietKeViMach/Project/SoC/VERIFICATION/Monitor/cpu_monitor.sv(268) @ 2285000: uvm_test_top.env.agent.monitor [MEM] STORE Addr=30000000 Data=00000000
# UVM_INFO C:/Documents/DoAnThietKeViMach/Project/SoC/VERIFICATION/Monitor/cpu_monitor.sv(268) @ 2295000: uvm_test_top.env.agent.monitor [MEM] STORE Addr=30000000 Data=00000000
# UVM_INFO C:/Documents/DoAnThietKeViMach/Project/SoC/VERIFICATION/Monitor/cpu_monitor.sv(268) @ 2305000: uvm_test_top.env.agent.monitor [MEM] STORE Addr=30000000 Data=00000000
# UVM_INFO C:/Documents/DoAnThietKeViMach/Project/SoC/VERIFICATION/Monitor/cpu_monitor.sv(335) @ 2315000: uvm_test_top.env.agent.monitor [AXI_WR] CPU -> UART  Addr=30000000 Data=00000000 Strb=1111 BRESP=00
# UVM_INFO C:/Documents/DoAnThietKeViMach/Project/SoC/VERIFICATION/Scoreboard/cpu_scoreboard.sv(246) @ 2315000: uvm_test_top.env.scoreboard [SCB_PERIPH] [UART] WRITE Addr=30000000 Data=00000000
# UVM_INFO C:/Documents/DoAnThietKeViMach/Project/SoC/VERIFICATION/Monitor/cpu_monitor.sv(268) @ 2315000: uvm_test_top.env.agent.monitor [MEM] STORE Addr=30000000 Data=00000000
# UVM_INFO C:/Documents/DoAnThietKeViMach/Project/SoC/VERIFICATION/Monitor/cpu_monitor.sv(268) @ 2325000: uvm_test_top.env.agent.monitor [MEM] STORE Addr=30000000 Data=00000000
# UVM_INFO C:/Documents/DoAnThietKeViMach/Project/SoC/VERIFICATION/Monitor/cpu_monitor.sv(268) @ 2335000: uvm_test_top.env.agent.monitor [MEM] STORE Addr=30000000 Data=00000000
# UVM_INFO C:/Documents/DoAnThietKeViMach/Project/SoC/VERIFICATION/Monitor/cpu_monitor.sv(268) @ 2345000: uvm_test_top.env.agent.monitor [MEM] STORE Addr=30000000 Data=00000000
# UVM_INFO C:/Documents/DoAnThietKeViMach/Project/SoC/VERIFICATION/Monitor/cpu_monitor.sv(364) @ 2355000: uvm_test_top.env.agent.monitor [AXI_RD] CPU <- IRAM  Addr=0000007c Data=00422e83 RRESP=00
# UVM_INFO C:/Documents/DoAnThietKeViMach/Project/SoC/VERIFICATION/Monitor/cpu_monitor.sv(234) @ 2355000: uvm_test_top.env.agent.monitor [IF] PC=0000007c  INSTR=00422e83  [LW   x29, 4(x4)]            
# UVM_INFO C:/Documents/DoAnThietKeViMach/Project/SoC/VERIFICATION/Monitor/cpu_monitor.sv(268) @ 2355000: uvm_test_top.env.agent.monitor [MEM] STORE Addr=30000000 Data=00000000
# UVM_INFO C:/Documents/DoAnThietKeViMach/Project/SoC/VERIFICATION/Monitor/cpu_monitor.sv(268) @ 2365000: uvm_test_top.env.agent.monitor [MEM] STORE Addr=3000000c Data=00000000
# UVM_INFO C:/Documents/DoAnThietKeViMach/Project/SoC/VERIFICATION/Monitor/cpu_monitor.sv(268) @ 2375000: uvm_test_top.env.agent.monitor [MEM] STORE Addr=3000000c Data=00000000
# UVM_INFO C:/Documents/DoAnThietKeViMach/Project/SoC/VERIFICATION/Monitor/cpu_monitor.sv(268) @ 2385000: uvm_test_top.env.agent.monitor [MEM] STORE Addr=3000000c Data=00000000
# UVM_INFO C:/Documents/DoAnThietKeViMach/Project/SoC/VERIFICATION/Monitor/cpu_monitor.sv(335) @ 2395000: uvm_test_top.env.agent.monitor [AXI_WR] CPU -> UART  Addr=3000000c Data=00000000 Strb=1111 BRESP=00
# UVM_INFO C:/Documents/DoAnThietKeViMach/Project/SoC/VERIFICATION/Scoreboard/cpu_scoreboard.sv(246) @ 2395000: uvm_test_top.env.scoreboard [SCB_PERIPH] [UART] WRITE Addr=3000000c Data=00000000
# UVM_INFO C:/Documents/DoAnThietKeViMach/Project/SoC/VERIFICATION/Monitor/cpu_monitor.sv(268) @ 2395000: uvm_test_top.env.agent.monitor [MEM] STORE Addr=3000000c Data=00000000
# UVM_INFO C:/Documents/DoAnThietKeViMach/Project/SoC/VERIFICATION/Monitor/cpu_monitor.sv(268) @ 2405000: uvm_test_top.env.agent.monitor [MEM] STORE Addr=3000000c Data=00000000
# UVM_INFO C:/Documents/DoAnThietKeViMach/Project/SoC/VERIFICATION/Monitor/cpu_monitor.sv(268) @ 2415000: uvm_test_top.env.agent.monitor [MEM] STORE Addr=3000000c Data=00000000
# UVM_INFO C:/Documents/DoAnThietKeViMach/Project/SoC/VERIFICATION/Monitor/cpu_monitor.sv(268) @ 2425000: uvm_test_top.env.agent.monitor [MEM] STORE Addr=3000000c Data=00000000
# UVM_INFO C:/Documents/DoAnThietKeViMach/Project/SoC/VERIFICATION/Monitor/cpu_monitor.sv(364) @ 2435000: uvm_test_top.env.agent.monitor [AXI_RD] CPU <- IRAM  Addr=00000080 Data=00412483 RRESP=00
# UVM_INFO C:/Documents/DoAnThietKeViMach/Project/SoC/VERIFICATION/Monitor/cpu_monitor.sv(234) @ 2435000: uvm_test_top.env.agent.monitor [IF] PC=00000080  INSTR=00412483  [LW   x9, 4(x2)]            
# UVM_INFO C:/Documents/DoAnThietKeViMach/Project/SoC/VERIFICATION/Monitor/cpu_monitor.sv(268) @ 2435000: uvm_test_top.env.agent.monitor [MEM] STORE Addr=3000000c Data=00000000
# UVM_INFO C:/Documents/DoAnThietKeViMach/Project/SoC/VERIFICATION/Monitor/cpu_monitor.sv(364) @ 2475000: uvm_test_top.env.agent.monitor [AXI_RD] CPU <- IRAM  Addr=00000084 Data=8583af93 RRESP=00
# UVM_INFO C:/Documents/DoAnThietKeViMach/Project/SoC/VERIFICATION/Monitor/cpu_monitor.sv(234) @ 2475000: uvm_test_top.env.agent.monitor [IF] PC=00000084  INSTR=8583af93  [I-?? x31, x7, -1960]            
# UVM_INFO C:/Documents/DoAnThietKeViMach/Project/SoC/VERIFICATION/Monitor/cpu_monitor.sv(364) @ 2515000: uvm_test_top.env.agent.monitor [AXI_RD] CPU <- SPI  Addr=40000004 Data=00000008 RRESP=00
# UVM_INFO C:/Documents/DoAnThietKeViMach/Project/SoC/VERIFICATION/Scoreboard/cpu_scoreboard.sv(126) @ 2515000: uvm_test_top.env.scoreboard [SCB_PASS] [SPI] READ PASS Addr=40000004 Expected=00000008 Got=00000008
# UVM_INFO C:/Documents/DoAnThietKeViMach/Project/SoC/VERIFICATION/Monitor/cpu_monitor.sv(296) @ 2515000: uvm_test_top.env.agent.monitor [WB] x13 <= 00000000  (PC~00000084)
# UVM_INFO C:/Documents/DoAnThietKeViMach/Project/SoC/VERIFICATION/Monitor/cpu_monitor.sv(296) @ 2525000: uvm_test_top.env.agent.monitor [WB] x13 <= 00000000  (PC~00000084)
# UVM_INFO C:/Documents/DoAnThietKeViMach/Project/SoC/VERIFICATION/Monitor/cpu_monitor.sv(296) @ 2535000: uvm_test_top.env.agent.monitor [WB] x13 <= 00000000  (PC~00000084)
# UVM_INFO C:/Documents/DoAnThietKeViMach/Project/SoC/VERIFICATION/Monitor/cpu_monitor.sv(296) @ 2545000: uvm_test_top.env.agent.monitor [WB] x13 <= 00000000  (PC~00000084)
# UVM_INFO C:/Documents/DoAnThietKeViMach/Project/SoC/VERIFICATION/Monitor/cpu_monitor.sv(364) @ 2555000: uvm_test_top.env.agent.monitor [AXI_RD] CPU <- IRAM  Addr=00000088 Data=01212023 RRESP=00
# UVM_INFO C:/Documents/DoAnThietKeViMach/Project/SoC/VERIFICATION/Monitor/cpu_monitor.sv(234) @ 2555000: uvm_test_top.env.agent.monitor [IF] PC=00000088  INSTR=01212023  [SW   x18, 18(x2)]            
# UVM_INFO C:/Documents/DoAnThietKeViMach/Project/SoC/VERIFICATION/Monitor/cpu_monitor.sv(296) @ 2555000: uvm_test_top.env.agent.monitor [WB] x13 <= 00000000  (PC~00000088)
# UVM_INFO C:/Documents/DoAnThietKeViMach/Project/SoC/VERIFICATION/Monitor/cpu_monitor.sv(364) @ 2595000: uvm_test_top.env.agent.monitor [AXI_RD] CPU <- TIMER  Addr=20000004 Data=00000000 RRESP=00
# UVM_INFO C:/Documents/DoAnThietKeViMach/Project/SoC/VERIFICATION/Scoreboard/cpu_scoreboard.sv(126) @ 2595000: uvm_test_top.env.scoreboard [SCB_PASS] [TIMER] READ PASS Addr=20000004 Expected=00000000 Got=00000000
# UVM_INFO C:/Documents/DoAnThietKeViMach/Project/SoC/VERIFICATION/Monitor/cpu_monitor.sv(296) @ 2595000: uvm_test_top.env.agent.monitor [WB] x29 <= 00000008  (PC~00000088)
# UVM_INFO C:/Documents/DoAnThietKeViMach/Project/SoC/VERIFICATION/Monitor/cpu_monitor.sv(296) @ 2605000: uvm_test_top.env.agent.monitor [WB] x29 <= 00000008  (PC~00000088)
# UVM_INFO C:/Documents/DoAnThietKeViMach/Project/SoC/VERIFICATION/Monitor/cpu_monitor.sv(296) @ 2615000: uvm_test_top.env.agent.monitor [WB] x29 <= 00000008  (PC~00000088)
# UVM_INFO C:/Documents/DoAnThietKeViMach/Project/SoC/VERIFICATION/Monitor/cpu_monitor.sv(296) @ 2625000: uvm_test_top.env.agent.monitor [WB] x29 <= 00000008  (PC~00000088)
# UVM_INFO C:/Documents/DoAnThietKeViMach/Project/SoC/VERIFICATION/Monitor/cpu_monitor.sv(364) @ 2635000: uvm_test_top.env.agent.monitor [AXI_RD] CPU <- IRAM  Addr=0000008c Data=3af78c13 RRESP=00
# UVM_INFO C:/Documents/DoAnThietKeViMach/Project/SoC/VERIFICATION/Monitor/cpu_monitor.sv(234) @ 2635000: uvm_test_top.env.agent.monitor [IF] PC=0000008c  INSTR=3af78c13  [ADDI x24, x15, 943]            
# UVM_INFO C:/Documents/DoAnThietKeViMach/Project/SoC/VERIFICATION/Monitor/cpu_monitor.sv(296) @ 2635000: uvm_test_top.env.agent.monitor [WB] x29 <= 00000008  (PC~0000008c)
# UVM_INFO C:/Documents/DoAnThietKeViMach/Project/SoC/VERIFICATION/Monitor/cpu_monitor.sv(296) @ 2645000: uvm_test_top.env.agent.monitor [WB] x09 <= 00000000  (PC~0000008c)
# UVM_INFO C:/Documents/DoAnThietKeViMach/Project/SoC/VERIFICATION/Monitor/cpu_monitor.sv(296) @ 2655000: uvm_test_top.env.agent.monitor [WB] x09 <= 00000000  (PC~0000008c)
# UVM_INFO C:/Documents/DoAnThietKeViMach/Project/SoC/VERIFICATION/Monitor/cpu_monitor.sv(296) @ 2665000: uvm_test_top.env.agent.monitor [WB] x09 <= 00000000  (PC~0000008c)
# UVM_INFO C:/Documents/DoAnThietKeViMach/Project/SoC/VERIFICATION/Monitor/cpu_monitor.sv(364) @ 2675000: uvm_test_top.env.agent.monitor [AXI_RD] CPU <- IRAM  Addr=00000090 Data=58a0a223 RRESP=00
# UVM_INFO C:/Documents/DoAnThietKeViMach/Project/SoC/VERIFICATION/Monitor/cpu_monitor.sv(234) @ 2675000: uvm_test_top.env.agent.monitor [IF] PC=00000090  INSTR=58a0a223  [SW   x10, 1418(x1)]            
# UVM_INFO C:/Documents/DoAnThietKeViMach/Project/SoC/VERIFICATION/Monitor/cpu_monitor.sv(296) @ 2675000: uvm_test_top.env.agent.monitor [WB] x09 <= 00000000  (PC~00000090)
# UVM_INFO C:/Documents/DoAnThietKeViMach/Project/SoC/VERIFICATION/Monitor/cpu_monitor.sv(268) @ 2685000: uvm_test_top.env.agent.monitor [MEM] STORE Addr=20000000 Data=00000028
# UVM_INFO C:/Documents/DoAnThietKeViMach/Project/SoC/VERIFICATION/Monitor/cpu_monitor.sv(268) @ 2695000: uvm_test_top.env.agent.monitor [MEM] STORE Addr=20000000 Data=00000028
# UVM_INFO C:/Documents/DoAnThietKeViMach/Project/SoC/VERIFICATION/Monitor/cpu_monitor.sv(268) @ 2705000: uvm_test_top.env.agent.monitor [MEM] STORE Addr=20000000 Data=00000028
# UVM_INFO C:/Documents/DoAnThietKeViMach/Project/SoC/VERIFICATION/Monitor/cpu_monitor.sv(268) @ 2715000: uvm_test_top.env.agent.monitor [MEM] STORE Addr=20000000 Data=00000028
# UVM_INFO C:/Documents/DoAnThietKeViMach/Project/SoC/VERIFICATION/Monitor/cpu_monitor.sv(335) @ 2725000: uvm_test_top.env.agent.monitor [AXI_WR] CPU -> TIMER  Addr=20000000 Data=00000028 Strb=1111 BRESP=00
# UVM_INFO C:/Documents/DoAnThietKeViMach/Project/SoC/VERIFICATION/Scoreboard/cpu_scoreboard.sv(246) @ 2725000: uvm_test_top.env.scoreboard [SCB_PERIPH] [TIMER] WRITE Addr=20000000 Data=00000028
# UVM_INFO C:/Documents/DoAnThietKeViMach/Project/SoC/VERIFICATION/Monitor/cpu_monitor.sv(268) @ 2725000: uvm_test_top.env.agent.monitor [MEM] STORE Addr=20000000 Data=00000028
# UVM_INFO C:/Documents/DoAnThietKeViMach/Project/SoC/VERIFICATION/Monitor/cpu_monitor.sv(296) @ 2725000: uvm_test_top.env.agent.monitor [WB] x31 <= 00000000  (PC~00000090)
# UVM_INFO C:/Documents/DoAnThietKeViMach/Project/SoC/VERIFICATION/Monitor/cpu_monitor.sv(268) @ 2735000: uvm_test_top.env.agent.monitor [MEM] STORE Addr=20000000 Data=00000028
# UVM_INFO C:/Documents/DoAnThietKeViMach/Project/SoC/VERIFICATION/Monitor/cpu_monitor.sv(296) @ 2735000: uvm_test_top.env.agent.monitor [WB] x31 <= 00000000  (PC~00000090)
# UVM_INFO C:/Documents/DoAnThietKeViMach/Project/SoC/VERIFICATION/Monitor/cpu_monitor.sv(268) @ 2745000: uvm_test_top.env.agent.monitor [MEM] STORE Addr=20000000 Data=00000028
# UVM_INFO C:/Documents/DoAnThietKeViMach/Project/SoC/VERIFICATION/Monitor/cpu_monitor.sv(296) @ 2745000: uvm_test_top.env.agent.monitor [WB] x31 <= 00000000  (PC~00000090)
# UVM_INFO C:/Documents/DoAnThietKeViMach/Project/SoC/VERIFICATION/Monitor/cpu_monitor.sv(268) @ 2755000: uvm_test_top.env.agent.monitor [MEM] STORE Addr=20000000 Data=00000028
# UVM_INFO C:/Documents/DoAnThietKeViMach/Project/SoC/VERIFICATION/Monitor/cpu_monitor.sv(296) @ 2755000: uvm_test_top.env.agent.monitor [WB] x31 <= 00000000  (PC~00000090)
# UVM_INFO C:/Documents/DoAnThietKeViMach/Project/SoC/VERIFICATION/Monitor/cpu_monitor.sv(364) @ 2765000: uvm_test_top.env.agent.monitor [AXI_RD] CPU <- IRAM  Addr=00000094 Data=00e04263 RRESP=00
# UVM_INFO C:/Documents/DoAnThietKeViMach/Project/SoC/VERIFICATION/Monitor/cpu_monitor.sv(234) @ 2765000: uvm_test_top.env.agent.monitor [IF] PC=00000094  INSTR=00e04263  [BLT  x0, x14, ...]            
# UVM_INFO C:/Documents/DoAnThietKeViMach/Project/SoC/VERIFICATION/Monitor/cpu_monitor.sv(268) @ 2765000: uvm_test_top.env.agent.monitor [MEM] STORE Addr=20000000 Data=00000028
# UVM_INFO C:/Documents/DoAnThietKeViMach/Project/SoC/VERIFICATION/Monitor/cpu_monitor.sv(296) @ 2765000: uvm_test_top.env.agent.monitor [WB] x31 <= 00000000  (PC~00000094)
# UVM_INFO C:/Documents/DoAnThietKeViMach/Project/SoC/VERIFICATION/Monitor/cpu_monitor.sv(364) @ 2805000: uvm_test_top.env.agent.monitor [AXI_RD] CPU <- IRAM  Addr=00000098 Data=00000263 RRESP=00
# UVM_INFO C:/Documents/DoAnThietKeViMach/Project/SoC/VERIFICATION/Monitor/cpu_monitor.sv(234) @ 2805000: uvm_test_top.env.agent.monitor [IF] PC=00000098  INSTR=00000263  [BEQ  x0, x0, ...]            
# UVM_INFO C:/Documents/DoAnThietKeViMach/Project/SoC/VERIFICATION/Monitor/cpu_monitor.sv(268) @ 2815000: uvm_test_top.env.agent.monitor [MEM] STORE Addr=10000584 Data=00000000
# UVM_INFO C:/Documents/DoAnThietKeViMach/Project/SoC/VERIFICATION/Monitor/cpu_monitor.sv(268) @ 2825000: uvm_test_top.env.agent.monitor [MEM] STORE Addr=10000584 Data=00000000
# [DRAM WRITE] addr=10000584 data=00000000
# UVM_INFO C:/Documents/DoAnThietKeViMach/Project/SoC/VERIFICATION/Monitor/cpu_monitor.sv(268) @ 2835000: uvm_test_top.env.agent.monitor [MEM] STORE Addr=10000584 Data=00000000
# UVM_INFO C:/Documents/DoAnThietKeViMach/Project/SoC/VERIFICATION/Monitor/cpu_monitor.sv(335) @ 2845000: uvm_test_top.env.agent.monitor [AXI_WR] CPU -> DRAM  Addr=10000584 Data=00000000 Strb=1111 BRESP=00
# UVM_INFO C:/Documents/DoAnThietKeViMach/Project/SoC/VERIFICATION/Monitor/cpu_monitor.sv(268) @ 2845000: uvm_test_top.env.agent.monitor [MEM] STORE Addr=10000584 Data=00000000
# UVM_INFO C:/Documents/DoAnThietKeViMach/Project/SoC/VERIFICATION/Monitor/cpu_monitor.sv(296) @ 2845000: uvm_test_top.env.agent.monitor [WB] x24 <= 000003af  (PC~00000098)
# UVM_INFO C:/Documents/DoAnThietKeViMach/Project/SoC/VERIFICATION/Monitor/cpu_monitor.sv(268) @ 2855000: uvm_test_top.env.agent.monitor [MEM] STORE Addr=10000584 Data=00000000
# UVM_INFO C:/Documents/DoAnThietKeViMach/Project/SoC/VERIFICATION/Monitor/cpu_monitor.sv(296) @ 2855000: uvm_test_top.env.agent.monitor [WB] x24 <= 000003af  (PC~00000098)
# UVM_INFO C:/Documents/DoAnThietKeViMach/Project/SoC/VERIFICATION/Monitor/cpu_monitor.sv(268) @ 2865000: uvm_test_top.env.agent.monitor [MEM] STORE Addr=10000584 Data=00000000
# UVM_INFO C:/Documents/DoAnThietKeViMach/Project/SoC/VERIFICATION/Monitor/cpu_monitor.sv(296) @ 2865000: uvm_test_top.env.agent.monitor [WB] x24 <= 000003af  (PC~00000098)
# UVM_INFO C:/Documents/DoAnThietKeViMach/Project/SoC/VERIFICATION/Monitor/cpu_monitor.sv(268) @ 2875000: uvm_test_top.env.agent.monitor [MEM] STORE Addr=10000584 Data=00000000
# UVM_INFO C:/Documents/DoAnThietKeViMach/Project/SoC/VERIFICATION/Monitor/cpu_monitor.sv(296) @ 2875000: uvm_test_top.env.agent.monitor [WB] x24 <= 000003af  (PC~00000098)
# UVM_INFO C:/Documents/DoAnThietKeViMach/Project/SoC/VERIFICATION/Monitor/cpu_monitor.sv(364) @ 2885000: uvm_test_top.env.agent.monitor [AXI_RD] CPU <- IRAM  Addr=0000009c Data=01006263 RRESP=00
# UVM_INFO C:/Documents/DoAnThietKeViMach/Project/SoC/VERIFICATION/Monitor/cpu_monitor.sv(234) @ 2885000: uvm_test_top.env.agent.monitor [IF] PC=0000009c  INSTR=01006263  [BR?? x0, x16, ...]            
# UVM_INFO C:/Documents/DoAnThietKeViMach/Project/SoC/VERIFICATION/Monitor/cpu_monitor.sv(268) @ 2885000: uvm_test_top.env.agent.monitor [MEM] STORE Addr=10000584 Data=00000000
# UVM_INFO C:/Documents/DoAnThietKeViMach/Project/SoC/VERIFICATION/Monitor/cpu_monitor.sv(296) @ 2885000: uvm_test_top.env.agent.monitor [WB] x24 <= 000003af  (PC~0000009c)
# UVM_INFO C:/Documents/DoAnThietKeViMach/Project/SoC/VERIFICATION/Monitor/cpu_monitor.sv(364) @ 2925000: uvm_test_top.env.agent.monitor [AXI_RD] CPU <- IRAM  Addr=000000a0 Data=01801263 RRESP=00
# UVM_INFO C:/Documents/DoAnThietKeViMach/Project/SoC/VERIFICATION/Monitor/cpu_monitor.sv(234) @ 2925000: uvm_test_top.env.agent.monitor [IF] PC=000000a0  INSTR=01801263  [BNE  x0, x24, ...]            
# UVM_INFO C:/Documents/DoAnThietKeViMach/Project/SoC/VERIFICATION/Monitor/cpu_monitor.sv(364) @ 2965000: uvm_test_top.env.agent.monitor [AXI_RD] CPU <- IRAM  Addr=0000009c Data=01006263 RRESP=00
# UVM_INFO C:/Documents/DoAnThietKeViMach/Project/SoC/VERIFICATION/Monitor/cpu_monitor.sv(234) @ 2965000: uvm_test_top.env.agent.monitor [IF] PC=0000009c  INSTR=01006263  [BR?? x0, x16, ...]            
# UVM_INFO C:/Documents/DoAnThietKeViMach/Project/SoC/VERIFICATION/Monitor/cpu_monitor.sv(364) @ 3005000: uvm_test_top.env.agent.monitor [AXI_RD] CPU <- IRAM  Addr=000000a0 Data=01801263 RRESP=00
# UVM_INFO C:/Documents/DoAnThietKeViMach/Project/SoC/VERIFICATION/Monitor/cpu_monitor.sv(234) @ 3005000: uvm_test_top.env.agent.monitor [IF] PC=000000a0  INSTR=01801263  [BNE  x0, x24, ...]            
# UVM_INFO C:/Documents/DoAnThietKeViMach/Project/SoC/VERIFICATION/Monitor/cpu_monitor.sv(364) @ 3045000: uvm_test_top.env.agent.monitor [AXI_RD] CPU <- IRAM  Addr=000000a4 Data=00007263 RRESP=00
# UVM_INFO C:/Documents/DoAnThietKeViMach/Project/SoC/VERIFICATION/Monitor/cpu_monitor.sv(234) @ 3045000: uvm_test_top.env.agent.monitor [IF] PC=000000a4  INSTR=00007263  [BR?? x0, x0, ...]            
# UVM_INFO C:/Documents/DoAnThietKeViMach/Project/SoC/VERIFICATION/Monitor/cpu_monitor.sv(364) @ 3085000: uvm_test_top.env.agent.monitor [AXI_RD] CPU <- IRAM  Addr=000000a8 Data=00000263 RRESP=00
# UVM_INFO C:/Documents/DoAnThietKeViMach/Project/SoC/VERIFICATION/Monitor/cpu_monitor.sv(234) @ 3085000: uvm_test_top.env.agent.monitor [IF] PC=000000a8  INSTR=00000263  [BEQ  x0, x0, ...]            
# UVM_INFO C:/Documents/DoAnThietKeViMach/Project/SoC/VERIFICATION/Monitor/cpu_monitor.sv(364) @ 3125000: uvm_test_top.env.agent.monitor [AXI_RD] CPU <- IRAM  Addr=000000a4 Data=00007263 RRESP=00
# UVM_INFO C:/Documents/DoAnThietKeViMach/Project/SoC/VERIFICATION/Monitor/cpu_monitor.sv(234) @ 3125000: uvm_test_top.env.agent.monitor [IF] PC=000000a4  INSTR=00007263  [BR?? x0, x0, ...]            
# UVM_INFO C:/Documents/DoAnThietKeViMach/Project/SoC/VERIFICATION/Monitor/cpu_monitor.sv(364) @ 3165000: uvm_test_top.env.agent.monitor [AXI_RD] CPU <- IRAM  Addr=000000a8 Data=00000263 RRESP=00
# UVM_INFO C:/Documents/DoAnThietKeViMach/Project/SoC/VERIFICATION/Monitor/cpu_monitor.sv(234) @ 3165000: uvm_test_top.env.agent.monitor [IF] PC=000000a8  INSTR=00000263  [BEQ  x0, x0, ...]            
# UVM_INFO C:/Documents/DoAnThietKeViMach/Project/SoC/VERIFICATION/Monitor/cpu_monitor.sv(364) @ 3205000: uvm_test_top.env.agent.monitor [AXI_RD] CPU <- IRAM  Addr=000000ac Data=b3f68393 RRESP=00
# UVM_INFO C:/Documents/DoAnThietKeViMach/Project/SoC/VERIFICATION/Monitor/cpu_monitor.sv(234) @ 3205000: uvm_test_top.env.agent.monitor [IF] PC=000000ac  INSTR=b3f68393  [ADDI x7, x13, -1217]            
# UVM_INFO C:/Documents/DoAnThietKeViMach/Project/SoC/VERIFICATION/Monitor/cpu_monitor.sv(364) @ 3245000: uvm_test_top.env.agent.monitor [AXI_RD] CPU <- IRAM  Addr=000000a8 Data=00000263 RRESP=00
# UVM_INFO C:/Documents/DoAnThietKeViMach/Project/SoC/VERIFICATION/Monitor/cpu_monitor.sv(234) @ 3245000: uvm_test_top.env.agent.monitor [IF] PC=000000a8  INSTR=00000263  [BEQ  x0, x0, ...]            
# UVM_INFO C:/Documents/DoAnThietKeViMach/Project/SoC/VERIFICATION/Monitor/cpu_monitor.sv(364) @ 3285000: uvm_test_top.env.agent.monitor [AXI_RD] CPU <- IRAM  Addr=000000ac Data=b3f68393 RRESP=00
# UVM_INFO C:/Documents/DoAnThietKeViMach/Project/SoC/VERIFICATION/Monitor/cpu_monitor.sv(234) @ 3285000: uvm_test_top.env.agent.monitor [IF] PC=000000ac  INSTR=b3f68393  [ADDI x7, x13, -1217]            
# UVM_INFO C:/Documents/DoAnThietKeViMach/Project/SoC/VERIFICATION/Monitor/cpu_monitor.sv(364) @ 3325000: uvm_test_top.env.agent.monitor [AXI_RD] CPU <- IRAM  Addr=000000b0 Data=00000263 RRESP=00
# UVM_INFO C:/Documents/DoAnThietKeViMach/Project/SoC/VERIFICATION/Monitor/cpu_monitor.sv(234) @ 3325000: uvm_test_top.env.agent.monitor [IF] PC=000000b0  INSTR=00000263  [BEQ  x0, x0, ...]            
# UVM_INFO C:/Documents/DoAnThietKeViMach/Project/SoC/VERIFICATION/Monitor/cpu_monitor.sv(364) @ 3365000: uvm_test_top.env.agent.monitor [AXI_RD] CPU <- IRAM  Addr=000000ac Data=b3f68393 RRESP=00
# UVM_INFO C:/Documents/DoAnThietKeViMach/Project/SoC/VERIFICATION/Monitor/cpu_monitor.sv(234) @ 3365000: uvm_test_top.env.agent.monitor [IF] PC=000000ac  INSTR=b3f68393  [ADDI x7, x13, -1217]            
# UVM_INFO C:/Documents/DoAnThietKeViMach/Project/SoC/VERIFICATION/Monitor/cpu_monitor.sv(364) @ 3405000: uvm_test_top.env.agent.monitor [AXI_RD] CPU <- IRAM  Addr=000000b0 Data=00000263 RRESP=00
# UVM_INFO C:/Documents/DoAnThietKeViMach/Project/SoC/VERIFICATION/Monitor/cpu_monitor.sv(234) @ 3405000: uvm_test_top.env.agent.monitor [IF] PC=000000b0  INSTR=00000263  [BEQ  x0, x0, ...]            
# UVM_INFO C:/Documents/DoAnThietKeViMach/Project/SoC/VERIFICATION/Monitor/cpu_monitor.sv(364) @ 3445000: uvm_test_top.env.agent.monitor [AXI_RD] CPU <- IRAM  Addr=000000b4 Data=01348e33 RRESP=00
# UVM_INFO C:/Documents/DoAnThietKeViMach/Project/SoC/VERIFICATION/Monitor/cpu_monitor.sv(234) @ 3445000: uvm_test_top.env.agent.monitor [IF] PC=000000b4  INSTR=01348e33  [ADD  x28, x9, x19]            
# UVM_INFO C:/Documents/DoAnThietKeViMach/Project/SoC/VERIFICATION/Monitor/cpu_monitor.sv(364) @ 3485000: uvm_test_top.env.agent.monitor [AXI_RD] CPU <- IRAM  Addr=000000b8 Data=00812003 RRESP=00
# UVM_INFO C:/Documents/DoAnThietKeViMach/Project/SoC/VERIFICATION/Monitor/cpu_monitor.sv(234) @ 3485000: uvm_test_top.env.agent.monitor [IF] PC=000000b8  INSTR=00812003  [LW   x0, 8(x2)]            
# UVM_INFO C:/Documents/DoAnThietKeViMach/Project/SoC/VERIFICATION/Monitor/cpu_monitor.sv(296) @ 3495000: uvm_test_top.env.agent.monitor [WB] x07 <= fffffb3f  (PC~000000b8)
# UVM_INFO C:/Documents/DoAnThietKeViMach/Project/SoC/VERIFICATION/Monitor/cpu_monitor.sv(296) @ 3505000: uvm_test_top.env.agent.monitor [WB] x07 <= fffffb3f  (PC~000000b8)
# UVM_INFO C:/Documents/DoAnThietKeViMach/Project/SoC/VERIFICATION/Monitor/cpu_monitor.sv(296) @ 3515000: uvm_test_top.env.agent.monitor [WB] x07 <= fffffb3f  (PC~000000b8)
# UVM_INFO C:/Documents/DoAnThietKeViMach/Project/SoC/VERIFICATION/Monitor/cpu_monitor.sv(364) @ 3525000: uvm_test_top.env.agent.monitor [AXI_RD] CPU <- IRAM  Addr=000000b4 Data=01348e33 RRESP=00
# UVM_INFO C:/Documents/DoAnThietKeViMach/Project/SoC/VERIFICATION/Monitor/cpu_monitor.sv(234) @ 3525000: uvm_test_top.env.agent.monitor [IF] PC=000000b4  INSTR=01348e33  [ADD  x28, x9, x19]            
# UVM_INFO C:/Documents/DoAnThietKeViMach/Project/SoC/VERIFICATION/Monitor/cpu_monitor.sv(296) @ 3525000: uvm_test_top.env.agent.monitor [WB] x07 <= fffffb3f  (PC~000000b4)
# UVM_INFO C:/Documents/DoAnThietKeViMach/Project/SoC/VERIFICATION/Monitor/cpu_monitor.sv(364) @ 3565000: uvm_test_top.env.agent.monitor [AXI_RD] CPU <- IRAM  Addr=000000b8 Data=00812003 RRESP=00
# UVM_INFO C:/Documents/DoAnThietKeViMach/Project/SoC/VERIFICATION/Monitor/cpu_monitor.sv(234) @ 3565000: uvm_test_top.env.agent.monitor [IF] PC=000000b8  INSTR=00812003  [LW   x0, 8(x2)]            
# UVM_INFO C:/Documents/DoAnThietKeViMach/Project/SoC/VERIFICATION/Monitor/cpu_monitor.sv(364) @ 3605000: uvm_test_top.env.agent.monitor [AXI_RD] CPU <- IRAM  Addr=000000bc Data=01dd0833 RRESP=00
# UVM_INFO C:/Documents/DoAnThietKeViMach/Project/SoC/VERIFICATION/Monitor/cpu_monitor.sv(234) @ 3605000: uvm_test_top.env.agent.monitor [IF] PC=000000bc  INSTR=01dd0833  [ADD  x16, x26, x29]            
# UVM_INFO C:/Documents/DoAnThietKeViMach/Project/SoC/VERIFICATION/Monitor/cpu_monitor.sv(364) @ 3645000: uvm_test_top.env.agent.monitor [AXI_RD] CPU <- IRAM  Addr=000000c0 Data=0191a023 RRESP=00
# UVM_INFO C:/Documents/DoAnThietKeViMach/Project/SoC/VERIFICATION/Monitor/cpu_monitor.sv(234) @ 3645000: uvm_test_top.env.agent.monitor [IF] PC=000000c0  INSTR=0191a023  [SW   x25, 25(x3)]            
# UVM_INFO C:/Documents/DoAnThietKeViMach/Project/SoC/VERIFICATION/Monitor/cpu_monitor.sv(364) @ 3685000: uvm_test_top.env.agent.monitor [AXI_RD] CPU <- TIMER  Addr=20000008 Data=00000000 RRESP=00
# UVM_INFO C:/Documents/DoAnThietKeViMach/Project/SoC/VERIFICATION/Scoreboard/cpu_scoreboard.sv(252) @ 3685000: uvm_test_top.env.scoreboard [SCB_PERIPH] [TIMER] READ Addr=20000008 Data=00000000 (volatile, compare skipped)
# UVM_INFO C:/Documents/DoAnThietKeViMach/Project/SoC/VERIFICATION/Monitor/cpu_monitor.sv(296) @ 3685000: uvm_test_top.env.agent.monitor [WB] x28 <= 00000000  (PC~000000c0)
# UVM_INFO C:/Documents/DoAnThietKeViMach/Project/SoC/VERIFICATION/Monitor/cpu_monitor.sv(296) @ 3695000: uvm_test_top.env.agent.monitor [WB] x28 <= 00000000  (PC~000000c0)
# UVM_INFO C:/Documents/DoAnThietKeViMach/Project/SoC/VERIFICATION/Monitor/cpu_monitor.sv(296) @ 3705000: uvm_test_top.env.agent.monitor [WB] x28 <= 00000000  (PC~000000c0)
# UVM_INFO C:/Documents/DoAnThietKeViMach/Project/SoC/VERIFICATION/Monitor/cpu_monitor.sv(296) @ 3715000: uvm_test_top.env.agent.monitor [WB] x28 <= 00000000  (PC~000000c0)
# UVM_INFO C:/Documents/DoAnThietKeViMach/Project/SoC/VERIFICATION/Monitor/cpu_monitor.sv(364) @ 3725000: uvm_test_top.env.agent.monitor [AXI_RD] CPU <- IRAM  Addr=000000c4 Data=00506263 RRESP=00
# UVM_INFO C:/Documents/DoAnThietKeViMach/Project/SoC/VERIFICATION/Monitor/cpu_monitor.sv(234) @ 3725000: uvm_test_top.env.agent.monitor [IF] PC=000000c4  INSTR=00506263  [BR?? x0, x5, ...]            
# UVM_INFO C:/Documents/DoAnThietKeViMach/Project/SoC/VERIFICATION/Monitor/cpu_monitor.sv(296) @ 3725000: uvm_test_top.env.agent.monitor [WB] x28 <= 00000000  (PC~000000c4)
# UVM_INFO C:/Documents/DoAnThietKeViMach/Project/SoC/VERIFICATION/Monitor/cpu_monitor.sv(364) @ 3765000: uvm_test_top.env.agent.monitor [AXI_RD] CPU <- IRAM  Addr=000000c8 Data=01045f33 RRESP=00
# UVM_INFO C:/Documents/DoAnThietKeViMach/Project/SoC/VERIFICATION/Monitor/cpu_monitor.sv(234) @ 3765000: uvm_test_top.env.agent.monitor [IF] PC=000000c8  INSTR=01045f33  [SRL  x30, x8, x16]            
# UVM_INFO C:/Documents/DoAnThietKeViMach/Project/SoC/VERIFICATION/Monitor/cpu_monitor.sv(268) @ 3775000: uvm_test_top.env.agent.monitor [MEM] STORE Addr=30000000 Data=00000000
# UVM_INFO C:/Documents/DoAnThietKeViMach/Project/SoC/VERIFICATION/Monitor/cpu_monitor.sv(268) @ 3785000: uvm_test_top.env.agent.monitor [MEM] STORE Addr=30000000 Data=00000000
# UVM_INFO C:/Documents/DoAnThietKeViMach/Project/SoC/VERIFICATION/Monitor/cpu_monitor.sv(268) @ 3795000: uvm_test_top.env.agent.monitor [MEM] STORE Addr=30000000 Data=00000000
# UVM_INFO C:/Documents/DoAnThietKeViMach/Project/SoC/VERIFICATION/Monitor/cpu_monitor.sv(335) @ 3805000: uvm_test_top.env.agent.monitor [AXI_WR] CPU -> UART  Addr=30000000 Data=00000000 Strb=1111 BRESP=00
# UVM_INFO C:/Documents/DoAnThietKeViMach/Project/SoC/VERIFICATION/Scoreboard/cpu_scoreboard.sv(246) @ 3805000: uvm_test_top.env.scoreboard [SCB_PERIPH] [UART] WRITE Addr=30000000 Data=00000000
# UVM_INFO C:/Documents/DoAnThietKeViMach/Project/SoC/VERIFICATION/Monitor/cpu_monitor.sv(268) @ 3805000: uvm_test_top.env.agent.monitor [MEM] STORE Addr=30000000 Data=00000000
# UVM_INFO C:/Documents/DoAnThietKeViMach/Project/SoC/VERIFICATION/Monitor/cpu_monitor.sv(296) @ 3805000: uvm_test_top.env.agent.monitor [WB] x16 <= 00000008  (PC~000000c8)
# UVM_INFO C:/Documents/DoAnThietKeViMach/Project/SoC/VERIFICATION/Monitor/cpu_monitor.sv(268) @ 3815000: uvm_test_top.env.agent.monitor [MEM] STORE Addr=30000000 Data=00000000
# UVM_INFO C:/Documents/DoAnThietKeViMach/Project/SoC/VERIFICATION/Monitor/cpu_monitor.sv(296) @ 3815000: uvm_test_top.env.agent.monitor [WB] x16 <= 00000008  (PC~000000c8)
# UVM_INFO C:/Documents/DoAnThietKeViMach/Project/SoC/VERIFICATION/Monitor/cpu_monitor.sv(268) @ 3825000: uvm_test_top.env.agent.monitor [MEM] STORE Addr=30000000 Data=00000000
# UVM_INFO C:/Documents/DoAnThietKeViMach/Project/SoC/VERIFICATION/Monitor/cpu_monitor.sv(296) @ 3825000: uvm_test_top.env.agent.monitor [WB] x16 <= 00000008  (PC~000000c8)
# UVM_INFO C:/Documents/DoAnThietKeViMach/Project/SoC/VERIFICATION/Monitor/cpu_monitor.sv(268) @ 3835000: uvm_test_top.env.agent.monitor [MEM] STORE Addr=30000000 Data=00000000
# UVM_INFO C:/Documents/DoAnThietKeViMach/Project/SoC/VERIFICATION/Monitor/cpu_monitor.sv(296) @ 3835000: uvm_test_top.env.agent.monitor [WB] x16 <= 00000008  (PC~000000c8)
# UVM_INFO C:/Documents/DoAnThietKeViMach/Project/SoC/VERIFICATION/Monitor/cpu_monitor.sv(364) @ 3845000: uvm_test_top.env.agent.monitor [AXI_RD] CPU <- IRAM  Addr=000000cc Data=014ceb33 RRESP=00
# UVM_INFO C:/Documents/DoAnThietKeViMach/Project/SoC/VERIFICATION/Monitor/cpu_monitor.sv(234) @ 3845000: uvm_test_top.env.agent.monitor [IF] PC=000000cc  INSTR=014ceb33  [OR   x22, x25, x20]            
# UVM_INFO C:/Documents/DoAnThietKeViMach/Project/SoC/VERIFICATION/Monitor/cpu_monitor.sv(268) @ 3845000: uvm_test_top.env.agent.monitor [MEM] STORE Addr=30000000 Data=00000000
# UVM_INFO C:/Documents/DoAnThietKeViMach/Project/SoC/VERIFICATION/Monitor/cpu_monitor.sv(296) @ 3845000: uvm_test_top.env.agent.monitor [WB] x16 <= 00000008  (PC~000000cc)
# UVM_INFO C:/Documents/DoAnThietKeViMach/Project/SoC/VERIFICATION/Monitor/cpu_monitor.sv(364) @ 3885000: uvm_test_top.env.agent.monitor [AXI_RD] CPU <- IRAM  Addr=000000d0 Data=00904263 RRESP=00
# UVM_INFO C:/Documents/DoAnThietKeViMach/Project/SoC/VERIFICATION/Monitor/cpu_monitor.sv(234) @ 3885000: uvm_test_top.env.agent.monitor [IF] PC=000000d0  INSTR=00904263  [BLT  x0, x9, ...]            
# UVM_INFO C:/Documents/DoAnThietKeViMach/Project/SoC/VERIFICATION/Monitor/cpu_monitor.sv(364) @ 3925000: uvm_test_top.env.agent.monitor [AXI_RD] CPU <- IRAM  Addr=000000d4 Data=00422b83 RRESP=00
# UVM_INFO C:/Documents/DoAnThietKeViMach/Project/SoC/VERIFICATION/Monitor/cpu_monitor.sv(234) @ 3925000: uvm_test_top.env.agent.monitor [IF] PC=000000d4  INSTR=00422b83  [LW   x23, 4(x4)]            
# UVM_INFO C:/Documents/DoAnThietKeViMach/Project/SoC/VERIFICATION/Monitor/cpu_monitor.sv(296) @ 3935000: uvm_test_top.env.agent.monitor [WB] x30 <= 00000000  (PC~000000d4)
# UVM_INFO C:/Documents/DoAnThietKeViMach/Project/SoC/VERIFICATION/Monitor/cpu_monitor.sv(296) @ 3945000: uvm_test_top.env.agent.monitor [WB] x30 <= 00000000  (PC~000000d4)
# UVM_INFO C:/Documents/DoAnThietKeViMach/Project/SoC/VERIFICATION/Monitor/cpu_monitor.sv(296) @ 3955000: uvm_test_top.env.agent.monitor [WB] x30 <= 00000000  (PC~000000d4)
# UVM_INFO C:/Documents/DoAnThietKeViMach/Project/SoC/VERIFICATION/Monitor/cpu_monitor.sv(364) @ 3965000: uvm_test_top.env.agent.monitor [AXI_RD] CPU <- IRAM  Addr=000000d8 Data=2670a823 RRESP=00
# UVM_INFO C:/Documents/DoAnThietKeViMach/Project/SoC/VERIFICATION/Monitor/cpu_monitor.sv(234) @ 3965000: uvm_test_top.env.agent.monitor [IF] PC=000000d8  INSTR=2670a823  [SW   x7, 615(x1)]            
# UVM_INFO C:/Documents/DoAnThietKeViMach/Project/SoC/VERIFICATION/Monitor/cpu_monitor.sv(296) @ 3965000: uvm_test_top.env.agent.monitor [WB] x30 <= 00000000  (PC~000000d8)
# UVM_INFO C:/Documents/DoAnThietKeViMach/Project/SoC/VERIFICATION/Monitor/cpu_monitor.sv(296) @ 3975000: uvm_test_top.env.agent.monitor [WB] x22 <= 00000000  (PC~000000d8)
# UVM_INFO C:/Documents/DoAnThietKeViMach/Project/SoC/VERIFICATION/Monitor/cpu_monitor.sv(296) @ 3985000: uvm_test_top.env.agent.monitor [WB] x22 <= 00000000  (PC~000000d8)
# UVM_INFO C:/Documents/DoAnThietKeViMach/Project/SoC/VERIFICATION/Monitor/cpu_monitor.sv(296) @ 3995000: uvm_test_top.env.agent.monitor [WB] x22 <= 00000000  (PC~000000d8)
# UVM_INFO C:/Documents/DoAnThietKeViMach/Project/SoC/VERIFICATION/Monitor/cpu_monitor.sv(364) @ 4005000: uvm_test_top.env.agent.monitor [AXI_RD] CPU <- IRAM  Addr=000000dc Data=5a40a903 RRESP=00
# UVM_INFO C:/Documents/DoAnThietKeViMach/Project/SoC/VERIFICATION/Monitor/cpu_monitor.sv(234) @ 4005000: uvm_test_top.env.agent.monitor [IF] PC=000000dc  INSTR=5a40a903  [LW   x18, 1444(x1)]            
# UVM_INFO C:/Documents/DoAnThietKeViMach/Project/SoC/VERIFICATION/Monitor/cpu_monitor.sv(296) @ 4005000: uvm_test_top.env.agent.monitor [WB] x22 <= 00000000  (PC~000000dc)
# UVM_INFO C:/Documents/DoAnThietKeViMach/Project/SoC/VERIFICATION/Monitor/cpu_monitor.sv(364) @ 4045000: uvm_test_top.env.agent.monitor [AXI_RD] CPU <- SPI  Addr=40000004 Data=00000008 RRESP=00
# UVM_INFO C:/Documents/DoAnThietKeViMach/Project/SoC/VERIFICATION/Scoreboard/cpu_scoreboard.sv(126) @ 4045000: uvm_test_top.env.scoreboard [SCB_PASS] [SPI] READ PASS Addr=40000004 Expected=00000008 Got=00000008
# UVM_INFO C:/Documents/DoAnThietKeViMach/Project/SoC/VERIFICATION/Monitor/cpu_monitor.sv(364) @ 4085000: uvm_test_top.env.agent.monitor [AXI_RD] CPU <- IRAM  Addr=000000e0 Data=18c0a503 RRESP=00
# UVM_INFO C:/Documents/DoAnThietKeViMach/Project/SoC/VERIFICATION/Monitor/cpu_monitor.sv(234) @ 4085000: uvm_test_top.env.agent.monitor [IF] PC=000000e0  INSTR=18c0a503  [LW   x10, 396(x1)]            
# UVM_INFO C:/Documents/DoAnThietKeViMach/Project/SoC/VERIFICATION/Monitor/cpu_monitor.sv(268) @ 4095000: uvm_test_top.env.agent.monitor [MEM] STORE Addr=10000270 Data=fffffb3f
# UVM_INFO C:/Documents/DoAnThietKeViMach/Project/SoC/VERIFICATION/Monitor/cpu_monitor.sv(268) @ 4105000: uvm_test_top.env.agent.monitor [MEM] STORE Addr=10000270 Data=fffffb3f
# [DRAM WRITE] addr=10000270 data=fffffb3f
# UVM_INFO C:/Documents/DoAnThietKeViMach/Project/SoC/VERIFICATION/Monitor/cpu_monitor.sv(268) @ 4115000: uvm_test_top.env.agent.monitor [MEM] STORE Addr=10000270 Data=fffffb3f
# UVM_INFO C:/Documents/DoAnThietKeViMach/Project/SoC/VERIFICATION/Monitor/cpu_monitor.sv(335) @ 4125000: uvm_test_top.env.agent.monitor [AXI_WR] CPU -> DRAM  Addr=10000270 Data=fffffb3f Strb=1111 BRESP=00
# UVM_INFO C:/Documents/DoAnThietKeViMach/Project/SoC/VERIFICATION/Monitor/cpu_monitor.sv(268) @ 4125000: uvm_test_top.env.agent.monitor [MEM] STORE Addr=10000270 Data=fffffb3f
# UVM_INFO C:/Documents/DoAnThietKeViMach/Project/SoC/VERIFICATION/Monitor/cpu_monitor.sv(296) @ 4125000: uvm_test_top.env.agent.monitor [WB] x23 <= 00000008  (PC~000000e0)
# UVM_INFO C:/Documents/DoAnThietKeViMach/Project/SoC/VERIFICATION/Monitor/cpu_monitor.sv(268) @ 4135000: uvm_test_top.env.agent.monitor [MEM] STORE Addr=10000270 Data=fffffb3f
# UVM_INFO C:/Documents/DoAnThietKeViMach/Project/SoC/VERIFICATION/Monitor/cpu_monitor.sv(296) @ 4135000: uvm_test_top.env.agent.monitor [WB] x23 <= 00000008  (PC~000000e0)
# UVM_INFO C:/Documents/DoAnThietKeViMach/Project/SoC/VERIFICATION/Monitor/cpu_monitor.sv(268) @ 4145000: uvm_test_top.env.agent.monitor [MEM] STORE Addr=10000270 Data=fffffb3f
# UVM_INFO C:/Documents/DoAnThietKeViMach/Project/SoC/VERIFICATION/Monitor/cpu_monitor.sv(296) @ 4145000: uvm_test_top.env.agent.monitor [WB] x23 <= 00000008  (PC~000000e0)
# UVM_INFO C:/Documents/DoAnThietKeViMach/Project/SoC/VERIFICATION/Monitor/cpu_monitor.sv(268) @ 4155000: uvm_test_top.env.agent.monitor [MEM] STORE Addr=10000270 Data=fffffb3f
# UVM_INFO C:/Documents/DoAnThietKeViMach/Project/SoC/VERIFICATION/Monitor/cpu_monitor.sv(296) @ 4155000: uvm_test_top.env.agent.monitor [WB] x23 <= 00000008  (PC~000000e0)
# UVM_INFO C:/Documents/DoAnThietKeViMach/Project/SoC/VERIFICATION/Monitor/cpu_monitor.sv(364) @ 4165000: uvm_test_top.env.agent.monitor [AXI_RD] CPU <- IRAM  Addr=000000e4 Data=0081a003 RRESP=00
# UVM_INFO C:/Documents/DoAnThietKeViMach/Project/SoC/VERIFICATION/Monitor/cpu_monitor.sv(234) @ 4165000: uvm_test_top.env.agent.monitor [IF] PC=000000e4  INSTR=0081a003  [LW   x0, 8(x3)]            
# UVM_INFO C:/Documents/DoAnThietKeViMach/Project/SoC/VERIFICATION/Monitor/cpu_monitor.sv(268) @ 4165000: uvm_test_top.env.agent.monitor [MEM] STORE Addr=10000270 Data=fffffb3f
# UVM_INFO C:/Documents/DoAnThietKeViMach/Project/SoC/VERIFICATION/Monitor/cpu_monitor.sv(296) @ 4165000: uvm_test_top.env.agent.monitor [WB] x23 <= 00000008  (PC~000000e4)
# [DRAM READ] addr=100005a4 data=00000000
# UVM_INFO C:/Documents/DoAnThietKeViMach/Project/SoC/VERIFICATION/Monitor/cpu_monitor.sv(364) @ 4205000: uvm_test_top.env.agent.monitor [AXI_RD] CPU <- DRAM  Addr=100005a4 Data=00000000 RRESP=00
# UVM_INFO C:/Documents/DoAnThietKeViMach/Project/SoC/VERIFICATION/Scoreboard/cpu_scoreboard.sv(126) @ 4205000: uvm_test_top.env.scoreboard [SCB_PASS] [DRAM] READ PASS Addr=100005a4 Expected=00000000 Got=00000000
# UVM_INFO C:/Documents/DoAnThietKeViMach/Project/SoC/VERIFICATION/Monitor/cpu_monitor.sv(364) @ 4245000: uvm_test_top.env.agent.monitor [AXI_RD] CPU <- IRAM  Addr=000000e8 Data=01922023 RRESP=00
# UVM_INFO C:/Documents/DoAnThietKeViMach/Project/SoC/VERIFICATION/Monitor/cpu_monitor.sv(234) @ 4245000: uvm_test_top.env.agent.monitor [IF] PC=000000e8  INSTR=01922023  [SW   x25, 25(x4)]            
# [DRAM READ] addr=1000018c data=00000000
# UVM_INFO C:/Documents/DoAnThietKeViMach/Project/SoC/VERIFICATION/Monitor/cpu_monitor.sv(364) @ 4285000: uvm_test_top.env.agent.monitor [AXI_RD] CPU <- DRAM  Addr=1000018c Data=00000000 RRESP=00
# UVM_INFO C:/Documents/DoAnThietKeViMach/Project/SoC/VERIFICATION/Scoreboard/cpu_scoreboard.sv(126) @ 4285000: uvm_test_top.env.scoreboard [SCB_PASS] [DRAM] READ PASS Addr=1000018c Expected=00000000 Got=00000000
# UVM_INFO C:/Documents/DoAnThietKeViMach/Project/SoC/VERIFICATION/Monitor/cpu_monitor.sv(296) @ 4285000: uvm_test_top.env.agent.monitor [WB] x18 <= 00000000  (PC~000000e8)
# UVM_INFO C:/Documents/DoAnThietKeViMach/Project/SoC/VERIFICATION/Monitor/cpu_monitor.sv(296) @ 4295000: uvm_test_top.env.agent.monitor [WB] x18 <= 00000000  (PC~000000e8)
# UVM_INFO C:/Documents/DoAnThietKeViMach/Project/SoC/VERIFICATION/Monitor/cpu_monitor.sv(296) @ 4305000: uvm_test_top.env.agent.monitor [WB] x18 <= 00000000  (PC~000000e8)
# UVM_INFO C:/Documents/DoAnThietKeViMach/Project/SoC/VERIFICATION/Monitor/cpu_monitor.sv(296) @ 4315000: uvm_test_top.env.agent.monitor [WB] x18 <= 00000000  (PC~000000e8)
# UVM_INFO C:/Documents/DoAnThietKeViMach/Project/SoC/VERIFICATION/Monitor/cpu_monitor.sv(364) @ 4325000: uvm_test_top.env.agent.monitor [AXI_RD] CPU <- IRAM  Addr=000000ec Data=01612223 RRESP=00
# UVM_INFO C:/Documents/DoAnThietKeViMach/Project/SoC/VERIFICATION/Monitor/cpu_monitor.sv(234) @ 4325000: uvm_test_top.env.agent.monitor [IF] PC=000000ec  INSTR=01612223  [SW   x22, 22(x2)]            
# UVM_INFO C:/Documents/DoAnThietKeViMach/Project/SoC/VERIFICATION/Monitor/cpu_monitor.sv(296) @ 4325000: uvm_test_top.env.agent.monitor [WB] x18 <= 00000000  (PC~000000ec)
# UVM_INFO C:/Documents/DoAnThietKeViMach/Project/SoC/VERIFICATION/Monitor/cpu_monitor.sv(364) @ 4365000: uvm_test_top.env.agent.monitor [AXI_RD] CPU <- UART  Addr=30000008 Data=00000000 RRESP=00
# UVM_INFO C:/Documents/DoAnThietKeViMach/Project/SoC/VERIFICATION/Scoreboard/cpu_scoreboard.sv(252) @ 4365000: uvm_test_top.env.scoreboard [SCB_PERIPH] [UART] READ Addr=30000008 Data=00000000 (volatile, compare skipped)
# UVM_INFO C:/Documents/DoAnThietKeViMach/Project/SoC/VERIFICATION/Monitor/cpu_monitor.sv(296) @ 4365000: uvm_test_top.env.agent.monitor [WB] x10 <= 00000000  (PC~000000ec)
# UVM_INFO C:/Documents/DoAnThietKeViMach/Project/SoC/VERIFICATION/Monitor/cpu_monitor.sv(296) @ 4375000: uvm_test_top.env.agent.monitor [WB] x10 <= 00000000  (PC~000000ec)
# UVM_INFO C:/Documents/DoAnThietKeViMach/Project/SoC/VERIFICATION/Monitor/cpu_monitor.sv(296) @ 4385000: uvm_test_top.env.agent.monitor [WB] x10 <= 00000000  (PC~000000ec)
# UVM_INFO C:/Documents/DoAnThietKeViMach/Project/SoC/VERIFICATION/Monitor/cpu_monitor.sv(296) @ 4395000: uvm_test_top.env.agent.monitor [WB] x10 <= 00000000  (PC~000000ec)
# UVM_INFO C:/Documents/DoAnThietKeViMach/Project/SoC/VERIFICATION/Monitor/cpu_monitor.sv(364) @ 4405000: uvm_test_top.env.agent.monitor [AXI_RD] CPU <- IRAM  Addr=000000f0 Data=010ccb33 RRESP=00
# UVM_INFO C:/Documents/DoAnThietKeViMach/Project/SoC/VERIFICATION/Monitor/cpu_monitor.sv(234) @ 4405000: uvm_test_top.env.agent.monitor [IF] PC=000000f0  INSTR=010ccb33  [XOR  x22, x25, x16]            
# UVM_INFO C:/Documents/DoAnThietKeViMach/Project/SoC/VERIFICATION/Monitor/cpu_monitor.sv(296) @ 4405000: uvm_test_top.env.agent.monitor [WB] x10 <= 00000000  (PC~000000f0)
# UVM_INFO C:/Documents/DoAnThietKeViMach/Project/SoC/VERIFICATION/Monitor/cpu_monitor.sv(268) @ 4415000: uvm_test_top.env.agent.monitor [MEM] STORE Addr=40000000 Data=00000000
# UVM_INFO C:/Documents/DoAnThietKeViMach/Project/SoC/VERIFICATION/Monitor/cpu_monitor.sv(268) @ 4425000: uvm_test_top.env.agent.monitor [MEM] STORE Addr=40000000 Data=00000000
# UVM_INFO C:/Documents/DoAnThietKeViMach/Project/SoC/VERIFICATION/Monitor/cpu_monitor.sv(268) @ 4435000: uvm_test_top.env.agent.monitor [MEM] STORE Addr=40000000 Data=00000000
# UVM_INFO C:/Documents/DoAnThietKeViMach/Project/SoC/VERIFICATION/Monitor/cpu_monitor.sv(335) @ 4445000: uvm_test_top.env.agent.monitor [AXI_WR] CPU -> SPI  Addr=40000000 Data=00000000 Strb=1111 BRESP=00
# UVM_INFO C:/Documents/DoAnThietKeViMach/Project/SoC/VERIFICATION/Scoreboard/cpu_scoreboard.sv(246) @ 4445000: uvm_test_top.env.scoreboard [SCB_PERIPH] [SPI] WRITE Addr=40000000 Data=00000000
# UVM_INFO C:/Documents/DoAnThietKeViMach/Project/SoC/VERIFICATION/Monitor/cpu_monitor.sv(268) @ 4445000: uvm_test_top.env.agent.monitor [MEM] STORE Addr=40000000 Data=00000000
# UVM_INFO C:/Documents/DoAnThietKeViMach/Project/SoC/VERIFICATION/Monitor/cpu_monitor.sv(268) @ 4455000: uvm_test_top.env.agent.monitor [MEM] STORE Addr=40000000 Data=00000000
# UVM_INFO C:/Documents/DoAnThietKeViMach/Project/SoC/VERIFICATION/Monitor/cpu_monitor.sv(268) @ 4465000: uvm_test_top.env.agent.monitor [MEM] STORE Addr=40000000 Data=00000000
# UVM_INFO C:/Documents/DoAnThietKeViMach/Project/SoC/VERIFICATION/Monitor/cpu_monitor.sv(268) @ 4475000: uvm_test_top.env.agent.monitor [MEM] STORE Addr=40000000 Data=00000000
# UVM_INFO C:/Documents/DoAnThietKeViMach/Project/SoC/VERIFICATION/Monitor/cpu_monitor.sv(364) @ 4485000: uvm_test_top.env.agent.monitor [AXI_RD] CPU <- IRAM  Addr=000000f4 Data=00007263 RRESP=00
# UVM_INFO C:/Documents/DoAnThietKeViMach/Project/SoC/VERIFICATION/Monitor/cpu_monitor.sv(234) @ 4485000: uvm_test_top.env.agent.monitor [IF] PC=000000f4  INSTR=00007263  [BR?? x0, x0, ...]            
# UVM_INFO C:/Documents/DoAnThietKeViMach/Project/SoC/VERIFICATION/Monitor/cpu_monitor.sv(268) @ 4485000: uvm_test_top.env.agent.monitor [MEM] STORE Addr=40000000 Data=00000000
# UVM_INFO C:/Documents/DoAnThietKeViMach/Project/SoC/VERIFICATION/Monitor/cpu_monitor.sv(268) @ 4495000: uvm_test_top.env.agent.monitor [MEM] STORE Addr=20000004 Data=00000000
# UVM_INFO C:/Documents/DoAnThietKeViMach/Project/SoC/VERIFICATION/Monitor/cpu_monitor.sv(268) @ 4505000: uvm_test_top.env.agent.monitor [MEM] STORE Addr=20000004 Data=00000000
# UVM_INFO C:/Documents/DoAnThietKeViMach/Project/SoC/VERIFICATION/Monitor/cpu_monitor.sv(268) @ 4515000: uvm_test_top.env.agent.monitor [MEM] STORE Addr=20000004 Data=00000000
# UVM_INFO C:/Documents/DoAnThietKeViMach/Project/SoC/VERIFICATION/Monitor/cpu_monitor.sv(268) @ 4525000: uvm_test_top.env.agent.monitor [MEM] STORE Addr=20000004 Data=00000000
# UVM_INFO C:/Documents/DoAnThietKeViMach/Project/SoC/VERIFICATION/Monitor/cpu_monitor.sv(335) @ 4535000: uvm_test_top.env.agent.monitor [AXI_WR] CPU -> TIMER  Addr=20000004 Data=00000000 Strb=1111 BRESP=00
# UVM_INFO C:/Documents/DoAnThietKeViMach/Project/SoC/VERIFICATION/Scoreboard/cpu_scoreboard.sv(246) @ 4535000: uvm_test_top.env.scoreboard [SCB_PERIPH] [TIMER] WRITE Addr=20000004 Data=00000000
# UVM_INFO C:/Documents/DoAnThietKeViMach/Project/SoC/VERIFICATION/Monitor/cpu_monitor.sv(268) @ 4535000: uvm_test_top.env.agent.monitor [MEM] STORE Addr=20000004 Data=00000000
# UVM_INFO C:/Documents/DoAnThietKeViMach/Project/SoC/VERIFICATION/Monitor/cpu_monitor.sv(268) @ 4545000: uvm_test_top.env.agent.monitor [MEM] STORE Addr=20000004 Data=00000000
# UVM_INFO C:/Documents/DoAnThietKeViMach/Project/SoC/VERIFICATION/Monitor/cpu_monitor.sv(268) @ 4555000: uvm_test_top.env.agent.monitor [MEM] STORE Addr=20000004 Data=00000000
# UVM_INFO C:/Documents/DoAnThietKeViMach/Project/SoC/VERIFICATION/Monitor/cpu_monitor.sv(268) @ 4565000: uvm_test_top.env.agent.monitor [MEM] STORE Addr=20000004 Data=00000000
# UVM_INFO C:/Documents/DoAnThietKeViMach/Project/SoC/VERIFICATION/Monitor/cpu_monitor.sv(364) @ 4575000: uvm_test_top.env.agent.monitor [AXI_RD] CPU <- IRAM  Addr=000000f8 Data=00822003 RRESP=00
# UVM_INFO C:/Documents/DoAnThietKeViMach/Project/SoC/VERIFICATION/Monitor/cpu_monitor.sv(234) @ 4575000: uvm_test_top.env.agent.monitor [IF] PC=000000f8  INSTR=00822003  [LW   x0, 8(x4)]            
# UVM_INFO C:/Documents/DoAnThietKeViMach/Project/SoC/VERIFICATION/Monitor/cpu_monitor.sv(268) @ 4575000: uvm_test_top.env.agent.monitor [MEM] STORE Addr=20000004 Data=00000000
# UVM_INFO C:/Documents/DoAnThietKeViMach/Project/SoC/VERIFICATION/Monitor/cpu_monitor.sv(364) @ 4615000: uvm_test_top.env.agent.monitor [AXI_RD] CPU <- IRAM  Addr=000000fc Data=01c06263 RRESP=00
# UVM_INFO C:/Documents/DoAnThietKeViMach/Project/SoC/VERIFICATION/Monitor/cpu_monitor.sv(234) @ 4615000: uvm_test_top.env.agent.monitor [IF] PC=000000fc  INSTR=01c06263  [BR?? x0, x28, ...]            
# UVM_INFO C:/Documents/DoAnThietKeViMach/Project/SoC/VERIFICATION/Monitor/cpu_monitor.sv(296) @ 4625000: uvm_test_top.env.agent.monitor [WB] x22 <= 00000008  (PC~000000fc)
# UVM_INFO C:/Documents/DoAnThietKeViMach/Project/SoC/VERIFICATION/Monitor/cpu_monitor.sv(296) @ 4635000: uvm_test_top.env.agent.monitor [WB] x22 <= 00000008  (PC~000000fc)
# UVM_INFO C:/Documents/DoAnThietKeViMach/Project/SoC/VERIFICATION/Monitor/cpu_monitor.sv(296) @ 4645000: uvm_test_top.env.agent.monitor [WB] x22 <= 00000008  (PC~000000fc)
# UVM_INFO C:/Documents/DoAnThietKeViMach/Project/SoC/VERIFICATION/Monitor/cpu_monitor.sv(364) @ 4655000: uvm_test_top.env.agent.monitor [AXI_RD] CPU <- IRAM  Addr=000000f8 Data=00822003 RRESP=00
# UVM_INFO C:/Documents/DoAnThietKeViMach/Project/SoC/VERIFICATION/Monitor/cpu_monitor.sv(234) @ 4655000: uvm_test_top.env.agent.monitor [IF] PC=000000f8  INSTR=00822003  [LW   x0, 8(x4)]            
# UVM_INFO C:/Documents/DoAnThietKeViMach/Project/SoC/VERIFICATION/Monitor/cpu_monitor.sv(296) @ 4655000: uvm_test_top.env.agent.monitor [WB] x22 <= 00000008  (PC~000000f8)
# UVM_INFO C:/Documents/DoAnThietKeViMach/Project/SoC/VERIFICATION/Monitor/cpu_monitor.sv(364) @ 4695000: uvm_test_top.env.agent.monitor [AXI_RD] CPU <- IRAM  Addr=000000fc Data=01c06263 RRESP=00
# UVM_INFO C:/Documents/DoAnThietKeViMach/Project/SoC/VERIFICATION/Monitor/cpu_monitor.sv(234) @ 4695000: uvm_test_top.env.agent.monitor [IF] PC=000000fc  INSTR=01c06263  [BR?? x0, x28, ...]            
# UVM_INFO C:/Documents/DoAnThietKeViMach/Project/SoC/VERIFICATION/Monitor/cpu_monitor.sv(364) @ 4735000: uvm_test_top.env.agent.monitor [AXI_RD] CPU <- IRAM  Addr=00000100 Data=00812003 RRESP=00
# UVM_INFO C:/Documents/DoAnThietKeViMach/Project/SoC/VERIFICATION/Monitor/cpu_monitor.sv(364) @ 4775000: uvm_test_top.env.agent.monitor [AXI_RD] CPU <- SPI  Addr=40000008 Data=00000000 RRESP=00
# UVM_INFO C:/Documents/DoAnThietKeViMach/Project/SoC/VERIFICATION/Scoreboard/cpu_scoreboard.sv(252) @ 4775000: uvm_test_top.env.scoreboard [SCB_PERIPH] [SPI] READ Addr=40000008 Data=00000000 (volatile, compare skipped)
# UVM_INFO C:/Documents/DoAnThietKeViMach/Project/SoC/VERIFICATION/Monitor/cpu_monitor.sv(364) @ 4815000: uvm_test_top.env.agent.monitor [AXI_RD] CPU <- IRAM  Addr=00000100 Data=00812003 RRESP=00
# UVM_INFO C:/Documents/DoAnThietKeViMach/Project/SoC/VERIFICATION/Monitor/cpu_monitor.sv(234) @ 4815000: uvm_test_top.env.agent.monitor [IF] PC=00000100  INSTR=00812003  [LW   x0, 8(x2)]            
# UVM_INFO C:/Documents/DoAnThietKeViMach/Project/SoC/VERIFICATION/Monitor/cpu_monitor.sv(364) @ 4855000: uvm_test_top.env.agent.monitor [AXI_RD] CPU <- IRAM  Addr=00000104 Data=00812003 RRESP=00
# UVM_INFO C:/Documents/DoAnThietKeViMach/Project/SoC/VERIFICATION/Monitor/cpu_monitor.sv(234) @ 4855000: uvm_test_top.env.agent.monitor [IF] PC=00000104  INSTR=00812003  [LW   x0, 8(x2)]            
# UVM_INFO C:/Documents/DoAnThietKeViMach/Project/SoC/VERIFICATION/Monitor/cpu_monitor.sv(364) @ 4895000: uvm_test_top.env.agent.monitor [AXI_RD] CPU <- IRAM  Addr=00000108 Data=00007263 RRESP=00
# UVM_INFO C:/Documents/DoAnThietKeViMach/Project/SoC/VERIFICATION/Monitor/cpu_monitor.sv(234) @ 4895000: uvm_test_top.env.agent.monitor [IF] PC=00000108  INSTR=00007263  [BR?? x0, x0, ...]            
# UVM_INFO C:/Documents/DoAnThietKeViMach/Project/SoC/VERIFICATION/Monitor/cpu_monitor.sv(364) @ 4935000: uvm_test_top.env.agent.monitor [AXI_RD] CPU <- TIMER  Addr=20000008 Data=00000000 RRESP=00
# UVM_INFO C:/Documents/DoAnThietKeViMach/Project/SoC/VERIFICATION/Scoreboard/cpu_scoreboard.sv(252) @ 4935000: uvm_test_top.env.scoreboard [SCB_PERIPH] [TIMER] READ Addr=20000008 Data=00000000 (volatile, compare skipped)
# UVM_INFO C:/Documents/DoAnThietKeViMach/Project/SoC/VERIFICATION/Monitor/cpu_monitor.sv(364) @ 4975000: uvm_test_top.env.agent.monitor [AXI_RD] CPU <- IRAM  Addr=0000010c Data=00007263 RRESP=00
# UVM_INFO C:/Documents/DoAnThietKeViMach/Project/SoC/VERIFICATION/Monitor/cpu_monitor.sv(364) @ 5015000: uvm_test_top.env.agent.monitor [AXI_RD] CPU <- IRAM  Addr=0000010c Data=00007263 RRESP=00
# UVM_INFO C:/Documents/DoAnThietKeViMach/Project/SoC/VERIFICATION/Monitor/cpu_monitor.sv(234) @ 5015000: uvm_test_top.env.agent.monitor [IF] PC=0000010c  INSTR=00007263  [BR?? x0, x0, ...]            
# UVM_INFO C:/Documents/DoAnThietKeViMach/Project/SoC/VERIFICATION/Monitor/cpu_monitor.sv(364) @ 5055000: uvm_test_top.env.agent.monitor [AXI_RD] CPU <- IRAM  Addr=00000110 Data=00e22223 RRESP=00
# UVM_INFO C:/Documents/DoAnThietKeViMach/Project/SoC/VERIFICATION/Monitor/cpu_monitor.sv(234) @ 5055000: uvm_test_top.env.agent.monitor [IF] PC=00000110  INSTR=00e22223  [SW   x14, 14(x4)]            
# UVM_INFO C:/Documents/DoAnThietKeViMach/Project/SoC/VERIFICATION/Monitor/cpu_monitor.sv(364) @ 5095000: uvm_test_top.env.agent.monitor [AXI_RD] CPU <- IRAM  Addr=0000010c Data=00007263 RRESP=00
