--- [SIM ONLY] cpu_test ---
MODE = CPU_MASTER
Reading C:/app/QuestaSim/tcl/vsim/pref.tcl 

# 10.2c

# vsim +UVM_TESTNAME=cpu_test +CPU_MASTER +MEM_SEED=1073936890 +CPU_INSTR_COUNT=200 -coverage -do {run -all; quit} -c -sv_seed 1073936890 vopt_top 
# //  Questa Sim-64
# //  Version 10.2c Unknown Platform Jul 19 2013
# //
# //  Copyright 1991-2013 Mentor Graphics Corporation
# //  All Rights Reserved.
# //
# //  THIS WORK CONTAINS TRADE SECRET AND PROPRIETARY INFORMATION
# //  WHICH IS THE PROPERTY OF MENTOR GRAPHICS CORPORATION OR ITS
# //  LICENSORS AND IS SUBJECT TO LICENSE TERMS.
# //
# Loading sv_std.std
# Loading mtiUvm.uvm_pkg
# Loading work.soc_pkg(fast)
# Loading work.top_tb(fast)
# Loading work.clk_rst_inf(fast)
# Loading work.soc_inf(fast)
# Loading work.cpu_monitor_inf(fast)
# Loading work.TOP(fast)
# Loading work.AXI_Master(fast)
# Loading work.CPU(fast)
# Loading work.pc_reg(fast)
# Loading work.IF_ID(fast)
# Loading work.ControlUnit(fast)
# Loading work.MainDecoder(fast)
# Loading work.ALUControl(fast)
# Loading work.RegFile(fast)
# Loading work.signExtend(fast)
# Loading work.ID_EX(fast)
# Loading work.ALU(fast)
# Loading work.EX_MEM(fast)
# Loading work.MEM_WB(fast)
# Loading work.HazardUnit(fast)
# Loading work.LSU(fast)
# Loading work.AXI4_Lite_Interconnect(fast)
# Loading work.IRAM(fast)
# Loading work.DRAM(fast)
# Loading work.Timer(fast)
# Loading work.UART(fast)
# Loading work.SPI(fast)
# Loading work.axi4_lite_sva(fast)
# Loading work.cpu_sva(fast)
# Loading mtiUvm.questa_uvm_pkg(fast)
# Loading C:/app/QuestaSim/uvm-1.1d\win64\uvm_dpi.dll
# run -all 
# ----------------------------------------------------------------
# UVM-1.1d
# (C) 2007-2013 Mentor Graphics Corporation
# (C) 2007-2013 Cadence Design Systems, Inc.
# (C) 2006-2013 Synopsys, Inc.
# (C) 2011-2013 Cypress Semiconductor Corp.
# ----------------------------------------------------------------
# 
#   ***********       IMPORTANT RELEASE NOTES         ************
# 
#   You are using a version of the UVM library that has been compiled
#   with `UVM_NO_DEPRECATED undefined.
#   See http://www.eda.org/svdb/view.php?id=3313 for more details.
# 
#   You are using a version of the UVM library that has been compiled
#   with `UVM_OBJECT_MUST_HAVE_CONSTRUCTOR undefined.
#   See http://www.eda.org/svdb/view.php?id=3770 for more details.
# 
#       (Specify +UVM_NO_RELNOTES to turn off this notice)
# 
# UVM_INFO verilog_src/questa_uvm_pkg-1.2/src/questa_uvm_pkg.sv(215) @ 0: reporter [Questa UVM] QUESTA_UVM-1.2.2
# UVM_INFO verilog_src/questa_uvm_pkg-1.2/src/questa_uvm_pkg.sv(217) @ 0: reporter [Questa UVM]  questa_uvm::init(+struct)
# [IRAM] Loading file: instr.mem
# [IRAM] mem[0] = 100000b7
# [IRAM] mem[1] = 20000137
# [IRAM] mem[2] = 300001b7
# [IRAM] mem[3] = 40000237
# [IRAM] mem[4] = 01222023
# [IRAM] mem[5] = 00812003
# [IRAM] mem[6] = 418c0eb3
# [IRAM] mem[7] = 01412023
# [IRAM] mem[8] = 005c9bb3
# [IRAM] mem[9] = 00512023
# [IRAM] mem[10] = 0148d7b3
# [IRAM] mem[11] = 4090a023
# [IRAM] mem[12] = 00f22623
# [IRAM] mem[13] = 00e06263
# [IRAM] mem[14] = 00c1ab83
# [IRAM] mem[15] = 00588a33
# [IRAM] mem[16] = 00704263
# [IRAM] mem[17] = 00c1af83
# [IRAM] mem[18] = 0081a003
# [IRAM] mem[19] = fb34c613
# [IRAM] mem[20] = 01e2f3b3
# [IRAM] mem[21] = 0081a003
# [IRAM] mem[22] = 00007263
# [IRAM] mem[23] = 00000263
# [IRAM] mem[24] = 00005263
# [IRAM] mem[25] = 01822223
# [IRAM] mem[26] = 01112223
# [IRAM] mem[27] = 00822003
# [IRAM] mem[28] = 4657ee93
# [IRAM] mem[29] = 00000263
# [IRAM] mem[30] = 00c22d03
# [IRAM] mem[31] = ce72af13
# [IRAM] mem[32] = 01601263
# [IRAM] mem[33] = 00812003
# [IRAM] mem[34] = 01176c33
# [IRAM] mem[35] = 01b657b3
# [IRAM] mem[36] = 40946a13
# [IRAM] mem[37] = 0121a023
# [IRAM] mem[38] = 0111a623
# [IRAM] mem[39] = 384a4c13
# [IRAM] mem[40] = 00d81db3
# [IRAM] mem[41] = 004003ef
# [IRAM] mem[42] = 00512223
# [IRAM] mem[43] = 90a52513
# [IRAM] mem[44] = b349f393
# [IRAM] mem[45] = 009e25b3
# [IRAM] mem[46] = 0040096f
# [IRAM] mem[47] = 84e34b93
# [IRAM] mem[48] = 01ec6333
# [IRAM] mem[49] = 42c0a823
# [IRAM] mem[50] = 00005263
# [IRAM] mem[51] = 01804263
# [IRAM] mem[52] = 0041a003
# [IRAM] mem[53] = 0165ad33
# [IRAM] mem[54] = 01d04263
# [IRAM] mem[55] = 00c28fb3
# [IRAM] mem[56] = 0131a623
# [IRAM] mem[57] = 01ccc2b3
# [IRAM] mem[58] = 01a12223
# [IRAM] mem[59] = 00522623
# [IRAM] mem[60] = 00822023
# [IRAM] mem[61] = 00c7f2b3
# [IRAM] mem[62] = 0121a623
# [IRAM] mem[63] = 00005263
# [IRAM] mem[64] = 00c22983
# [IRAM] mem[65] = 00412903
# [IRAM] mem[66] = 01d04263
# [IRAM] mem[67] = 00000263
# [IRAM] mem[68] = 00412e83
# [IRAM] mem[69] = 5cc0ae03
# [IRAM] mem[70] = 01f22223
# [IRAM] mem[71] = 01948533
# [IRAM] mem[72] = 01fa04b3
# [IRAM] mem[73] = 00422a03
# [IRAM] mem[74] = 41468833
# [IRAM] mem[75] = da0b4313
# [IRAM] mem[76] = f677f693
# [IRAM] mem[77] = 0840ad83
# [IRAM] mem[78] = 00c1ac83
# [IRAM] mem[79] = 0041a003
# [IRAM] mem[80] = f3152b13
# [IRAM] mem[81] = 00812003
# [IRAM] mem[82] = 00012c83
# [IRAM] mem[83] = 0081a003
# [IRAM] mem[84] = 00007263
# [IRAM] mem[85] = 409cdab3
# [IRAM] mem[86] = 00005263
# [IRAM] mem[87] = 017673b3
# [IRAM] mem[88] = 4280a223
# [IRAM] mem[89] = 01506263
# [IRAM] mem[90] = 01b7a3b3
# [IRAM] mem[91] = 00637fb3
# [IRAM] mem[92] = 00c01263
# [IRAM] mem[93] = 00c1a883
# [IRAM] mem[94] = 00007263
# [IRAM] mem[95] = 42d4e493
# [IRAM] mem[96] = 00412483
# [IRAM] mem[97] = 00012c83
# [IRAM] mem[98] = 00000263
# [IRAM] mem[99] = 6980a603
# [IRAM] mem[100] = 00822003
# [IRAM] mem[101] = 0081a003
# [IRAM] mem[102] = 00012283
# [IRAM] mem[103] = 004005ef
# [IRAM] mem[104] = 2d40a883
# [IRAM] mem[105] = 00007263
# [IRAM] mem[106] = 0e80aa03
# [IRAM] mem[107] = 01801263
# [IRAM] mem[108] = 00000263
# [IRAM] mem[109] = 00400def
# [IRAM] mem[110] = 00422e83
# [IRAM] mem[111] = 01b06263
# [IRAM] mem[112] = 0091a623
# [IRAM] mem[113] = 00b12223
# [IRAM] mem[114] = d1998993
# [IRAM] mem[115] = 01e01263
# [IRAM] mem[116] = 00822223
# [IRAM] mem[117] = 7400a703
# [IRAM] mem[118] = 01b01263
# [IRAM] mem[119] = 41e484b3
# [IRAM] mem[120] = 008aa9b3
# [IRAM] mem[121] = 01304263
# [IRAM] mem[122] = 00c1af03
# [IRAM] mem[123] = 00812003
# [IRAM] mem[124] = 00812003
# [IRAM] mem[125] = 01a1a023
# [IRAM] mem[126] = 00ce65b3
# [IRAM] mem[127] = 00007263
# [IRAM] mem[128] = bc93ae13
# [IRAM] mem[129] = 2cc0af03
# [IRAM] mem[130] = 00806263
# [IRAM] mem[131] = 00412383
# [IRAM] mem[132] = 0158ecb3
# [IRAM] mem[133] = 2880a623
# [IRAM] mem[134] = 00005263
# [IRAM] mem[135] = 00022003
# [IRAM] mem[136] = 009c04b3
# [IRAM] mem[137] = 00506263
# [IRAM] mem[138] = 00400e6f
# [IRAM] mem[139] = a5b56313
# [IRAM] mem[140] = 00422383
# [IRAM] mem[141] = 00904263
# [IRAM] mem[142] = 01822623
# [IRAM] mem[143] = 00000263
# [IRAM] mem[144] = 0191a023
# [IRAM] mem[145] = 00400a6f
# [IRAM] mem[146] = 4087d533
# [IRAM] mem[147] = 01bdddb3
# [IRAM] mem[148] = 01812023
# [IRAM] mem[149] = 0041a003
# [IRAM] mem[150] = 01912023
# [IRAM] mem[151] = 00007263
# [IRAM] mem[152] = 0171a023
# [IRAM] mem[153] = 41980c33
# [IRAM] mem[154] = 0041a003
# [IRAM] mem[155] = 0081a003
# [IRAM] mem[156] = 5100a603
# [IRAM] mem[157] = 00b01263
# [IRAM] mem[158] = 01b804b3
# [IRAM] mem[159] = 6b90a223
# [IRAM] mem[160] = 00007263
# [IRAM] mem[161] = 004005ef
# [IRAM] mem[162] = 00822003
# [IRAM] mem[163] = 00412d83
# [IRAM] mem[164] = 00d1a023
# [IRAM] mem[165] = 00c1ab83
# [IRAM] mem[166] = 00012603
# [IRAM] mem[167] = 00012b83
# [IRAM] mem[168] = 00e06263
# [IRAM] mem[169] = 00000263
# [IRAM] mem[170] = 00005263
# [IRAM] mem[171] = 0040096f
# [IRAM] mem[172] = 0081a003
# [IRAM] mem[173] = 0041a003
# [IRAM] mem[174] = 9b64f793
# [IRAM] mem[175] = 00005263
# [IRAM] mem[176] = 01a35f33
# [IRAM] mem[177] = 019593b3
# [IRAM] mem[178] = 431f0813
# [IRAM] mem[179] = 01912223
# [IRAM] mem[180] = 00c22c83
# [IRAM] mem[181] = 01b12223
# [IRAM] mem[182] = 55f0a623
# [IRAM] mem[183] = 00012783
# [IRAM] mem[184] = 00022003
# [IRAM] mem[185] = 0111a023
# [IRAM] mem[186] = 00022003
# [IRAM] mem[187] = 40bc0933
# [IRAM] mem[188] = 01f12023
# [IRAM] mem[189] = 0041a003
# [IRAM] mem[190] = 01806263
# [IRAM] mem[191] = 40fe8933
# [IRAM] mem[192] = 00afd9b3
# [IRAM] mem[193] = ec29ad93
# [IRAM] mem[194] = 00a7d733
# [IRAM] mem[195] = 00412983
# [IRAM] mem[196] = 00812003
# [IRAM] mem[197] = 00f12023
# [IRAM] mem[198] = 0101a623
# [IRAM] mem[199] = 0141a623
# [IRAM] mem[200] = 00000013
# [IRAM] mem[201] = 00000013
# [IRAM] mem[202] = 00000013
# [IRAM] mem[203] = 00000013
# [IRAM] mem[204] = 00000013
# [IRAM] mem[205] = 00000013
# [IRAM] mem[206] = 00000013
# [IRAM] mem[207] = 00000013
# [IRAM] mem[208] = 00000013
# [IRAM] mem[209] = 00000013
# [IRAM] mem[210] = 00000013
# [IRAM] mem[211] = 00000013
# [IRAM] mem[212] = 00000013
# [IRAM] mem[213] = 00000013
# [IRAM] mem[214] = 00000013
# [IRAM] mem[215] = 00000013
# [IRAM] mem[216] = 00000013
# [IRAM] mem[217] = 00000013
# [IRAM] mem[218] = 00000013
# [IRAM] mem[219] = 00000013
# [IRAM] mem[220] = 00000013
# [IRAM] mem[221] = 00000013
# [IRAM] mem[222] = 00000013
# [IRAM] mem[223] = 00000013
# [IRAM] mem[224] = 00000013
# [IRAM] mem[225] = 00000013
# [IRAM] mem[226] = 00000013
# [IRAM] mem[227] = 00000013
# [IRAM] mem[228] = 00000013
# [IRAM] mem[229] = 00000013
# [IRAM] mem[230] = 00000013
# [IRAM] mem[231] = 00000013
# [IRAM] mem[232] = 00000013
# [IRAM] mem[233] = 00000013
# [IRAM] mem[234] = 00000013
# [IRAM] mem[235] = 00000013
# [IRAM] mem[236] = 00000013
# [IRAM] mem[237] = 00000013
# [IRAM] mem[238] = 00000013
# [IRAM] mem[239] = 00000013
# [IRAM] mem[240] = 00000013
# [IRAM] mem[241] = 00000013
# [IRAM] mem[242] = 00000013
# [IRAM] mem[243] = 00000013
# [IRAM] mem[244] = 00000013
# [IRAM] mem[245] = 00000013
# [IRAM] mem[246] = 00000013
# [IRAM] mem[247] = 00000013
# [IRAM] mem[248] = 00000013
# [IRAM] mem[249] = 00000013
# [IRAM] mem[250] = 00000013
# [IRAM] mem[251] = 00000013
# [IRAM] mem[252] = 00000013
# [IRAM] mem[253] = 00000013
# [IRAM] mem[254] = 00000013
# [IRAM] mem[255] = 00000013
# [IRAM] Loaded 16384 instruction words
# [TB] Mode: CPU MASTER => CPU drives AXI, UVM observes
# UVM_INFO @ 0: reporter [RNTST] Running test cpu_test...
# UVM_INFO C:/Documents/DoAnThietKeViMach/Project/SoC/VERIFICATION/Scoreboard/cpu_scoreboard.sv(175) @ 0: uvm_test_top.env.scoreboard [SCB] Loaded expected registers from: expected.mem
# UVM_INFO C:/Documents/DoAnThietKeViMach/Project/SoC/VERIFICATION/Test/cpu_test.sv(55) @ 0: uvm_test_top [TEST] Program has 200 instructions, end PC = 00000320
# UVM_INFO C:/Documents/DoAnThietKeViMach/Project/SoC/VERIFICATION/Monitor/cpu_monitor.sv(200) @ 35000: uvm_test_top.env.agent.monitor [CPU_MON] === CPU Monitor started == watching pipeline ===
# UVM_INFO C:/Documents/DoAnThietKeViMach/Project/SoC/VERIFICATION/Monitor/cpu_monitor.sv(202) @ 35000: uvm_test_top.env.agent.monitor [CPU_MON] ============================================================
# UVM_INFO C:/Documents/DoAnThietKeViMach/Project/SoC/VERIFICATION/Test/cpu_test.sv(61) @ 55000: uvm_test_top [TEST] Reset released - CPU executing from IRAM
# UVM_INFO C:/Documents/DoAnThietKeViMach/Project/SoC/VERIFICATION/Monitor/cpu_monitor.sv(364) @ 55000: uvm_test_top.env.agent.monitor [AXI_RD] CPU <- IRAM  Addr=00000000 Data=100000b7 RRESP=00
# UVM_INFO C:/Documents/DoAnThietKeViMach/Project/SoC/VERIFICATION/Monitor/cpu_monitor.sv(364) @ 95000: uvm_test_top.env.agent.monitor [AXI_RD] CPU <- IRAM  Addr=00000004 Data=20000137 RRESP=00
# UVM_INFO C:/Documents/DoAnThietKeViMach/Project/SoC/VERIFICATION/Monitor/cpu_monitor.sv(234) @ 95000: uvm_test_top.env.agent.monitor [IF] PC=00000004  INSTR=20000137  [LUI  x2, 0x20000]            
# UVM_INFO C:/Documents/DoAnThietKeViMach/Project/SoC/VERIFICATION/Monitor/cpu_monitor.sv(364) @ 135000: uvm_test_top.env.agent.monitor [AXI_RD] CPU <- IRAM  Addr=00000008 Data=300001b7 RRESP=00
# UVM_INFO C:/Documents/DoAnThietKeViMach/Project/SoC/VERIFICATION/Monitor/cpu_monitor.sv(234) @ 135000: uvm_test_top.env.agent.monitor [IF] PC=00000008  INSTR=300001b7  [LUI  x3, 0x30000]            
# UVM_INFO C:/Documents/DoAnThietKeViMach/Project/SoC/VERIFICATION/Monitor/cpu_monitor.sv(364) @ 175000: uvm_test_top.env.agent.monitor [AXI_RD] CPU <- IRAM  Addr=0000000c Data=40000237 RRESP=00
# UVM_INFO C:/Documents/DoAnThietKeViMach/Project/SoC/VERIFICATION/Monitor/cpu_monitor.sv(234) @ 175000: uvm_test_top.env.agent.monitor [IF] PC=0000000c  INSTR=40000237  [LUI  x4, 0x40000]            
# UVM_INFO C:/Documents/DoAnThietKeViMach/Project/SoC/VERIFICATION/Monitor/cpu_monitor.sv(296) @ 185000: uvm_test_top.env.agent.monitor [WB] x01 <= 10000000  (PC~0000000c)
# UVM_INFO C:/Documents/DoAnThietKeViMach/Project/SoC/VERIFICATION/Monitor/cpu_monitor.sv(296) @ 195000: uvm_test_top.env.agent.monitor [WB] x01 <= 10000000  (PC~0000000c)
# UVM_INFO C:/Documents/DoAnThietKeViMach/Project/SoC/VERIFICATION/Monitor/cpu_monitor.sv(296) @ 205000: uvm_test_top.env.agent.monitor [WB] x01 <= 10000000  (PC~0000000c)
# UVM_INFO C:/Documents/DoAnThietKeViMach/Project/SoC/VERIFICATION/Monitor/cpu_monitor.sv(364) @ 215000: uvm_test_top.env.agent.monitor [AXI_RD] CPU <- IRAM  Addr=00000010 Data=01222023 RRESP=00
# UVM_INFO C:/Documents/DoAnThietKeViMach/Project/SoC/VERIFICATION/Monitor/cpu_monitor.sv(234) @ 215000: uvm_test_top.env.agent.monitor [IF] PC=00000010  INSTR=01222023  [SW   x18, 18(x4)]            
# UVM_INFO C:/Documents/DoAnThietKeViMach/Project/SoC/VERIFICATION/Monitor/cpu_monitor.sv(296) @ 215000: uvm_test_top.env.agent.monitor [WB] x01 <= 10000000  (PC~00000010)
# UVM_INFO C:/Documents/DoAnThietKeViMach/Project/SoC/VERIFICATION/Monitor/cpu_monitor.sv(296) @ 225000: uvm_test_top.env.agent.monitor [WB] x02 <= 20000000  (PC~00000010)
# UVM_INFO C:/Documents/DoAnThietKeViMach/Project/SoC/VERIFICATION/Monitor/cpu_monitor.sv(296) @ 235000: uvm_test_top.env.agent.monitor [WB] x02 <= 20000000  (PC~00000010)
# UVM_INFO C:/Documents/DoAnThietKeViMach/Project/SoC/VERIFICATION/Monitor/cpu_monitor.sv(296) @ 245000: uvm_test_top.env.agent.monitor [WB] x02 <= 20000000  (PC~00000010)
# UVM_INFO C:/Documents/DoAnThietKeViMach/Project/SoC/VERIFICATION/Monitor/cpu_monitor.sv(364) @ 255000: uvm_test_top.env.agent.monitor [AXI_RD] CPU <- IRAM  Addr=00000014 Data=00812003 RRESP=00
# UVM_INFO C:/Documents/DoAnThietKeViMach/Project/SoC/VERIFICATION/Monitor/cpu_monitor.sv(234) @ 255000: uvm_test_top.env.agent.monitor [IF] PC=00000014  INSTR=00812003  [LW   x0, 8(x2)]            
# UVM_INFO C:/Documents/DoAnThietKeViMach/Project/SoC/VERIFICATION/Monitor/cpu_monitor.sv(296) @ 255000: uvm_test_top.env.agent.monitor [WB] x02 <= 20000000  (PC~00000014)
# UVM_INFO C:/Documents/DoAnThietKeViMach/Project/SoC/VERIFICATION/Monitor/cpu_monitor.sv(296) @ 265000: uvm_test_top.env.agent.monitor [WB] x03 <= 30000000  (PC~00000014)
# UVM_INFO C:/Documents/DoAnThietKeViMach/Project/SoC/VERIFICATION/Monitor/cpu_monitor.sv(296) @ 275000: uvm_test_top.env.agent.monitor [WB] x03 <= 30000000  (PC~00000014)
# UVM_INFO C:/Documents/DoAnThietKeViMach/Project/SoC/VERIFICATION/Monitor/cpu_monitor.sv(296) @ 285000: uvm_test_top.env.agent.monitor [WB] x03 <= 30000000  (PC~00000014)
# UVM_INFO C:/Documents/DoAnThietKeViMach/Project/SoC/VERIFICATION/Monitor/cpu_monitor.sv(364) @ 295000: uvm_test_top.env.agent.monitor [AXI_RD] CPU <- IRAM  Addr=00000018 Data=418c0eb3 RRESP=00
# UVM_INFO C:/Documents/DoAnThietKeViMach/Project/SoC/VERIFICATION/Monitor/cpu_monitor.sv(234) @ 295000: uvm_test_top.env.agent.monitor [IF] PC=00000018  INSTR=418c0eb3  [SUB  x29, x24, x24]            
# UVM_INFO C:/Documents/DoAnThietKeViMach/Project/SoC/VERIFICATION/Monitor/cpu_monitor.sv(296) @ 295000: uvm_test_top.env.agent.monitor [WB] x03 <= 30000000  (PC~00000018)
# UVM_INFO C:/Documents/DoAnThietKeViMach/Project/SoC/VERIFICATION/Monitor/cpu_monitor.sv(268) @ 305000: uvm_test_top.env.agent.monitor [MEM] STORE Addr=40000000 Data=00000000
# UVM_INFO C:/Documents/DoAnThietKeViMach/Project/SoC/VERIFICATION/Monitor/cpu_monitor.sv(268) @ 315000: uvm_test_top.env.agent.monitor [MEM] STORE Addr=40000000 Data=00000000
# UVM_INFO C:/Documents/DoAnThietKeViMach/Project/SoC/VERIFICATION/Monitor/cpu_monitor.sv(268) @ 325000: uvm_test_top.env.agent.monitor [MEM] STORE Addr=40000000 Data=00000000
# UVM_INFO C:/Documents/DoAnThietKeViMach/Project/SoC/VERIFICATION/Monitor/cpu_monitor.sv(335) @ 335000: uvm_test_top.env.agent.monitor [AXI_WR] CPU -> SPI  Addr=40000000 Data=00000000 Strb=1111 BRESP=00
# UVM_INFO C:/Documents/DoAnThietKeViMach/Project/SoC/VERIFICATION/Scoreboard/cpu_scoreboard.sv(246) @ 335000: uvm_test_top.env.scoreboard [SCB_PERIPH] [SPI] WRITE Addr=40000000 Data=00000000
# UVM_INFO C:/Documents/DoAnThietKeViMach/Project/SoC/VERIFICATION/Monitor/cpu_monitor.sv(268) @ 335000: uvm_test_top.env.agent.monitor [MEM] STORE Addr=40000000 Data=00000000
# UVM_INFO C:/Documents/DoAnThietKeViMach/Project/SoC/VERIFICATION/Monitor/cpu_monitor.sv(296) @ 335000: uvm_test_top.env.agent.monitor [WB] x04 <= 40000000  (PC~00000018)
# UVM_INFO C:/Documents/DoAnThietKeViMach/Project/SoC/VERIFICATION/Monitor/cpu_monitor.sv(268) @ 345000: uvm_test_top.env.agent.monitor [MEM] STORE Addr=40000000 Data=00000000
# UVM_INFO C:/Documents/DoAnThietKeViMach/Project/SoC/VERIFICATION/Monitor/cpu_monitor.sv(296) @ 345000: uvm_test_top.env.agent.monitor [WB] x04 <= 40000000  (PC~00000018)
# UVM_INFO C:/Documents/DoAnThietKeViMach/Project/SoC/VERIFICATION/Monitor/cpu_monitor.sv(268) @ 355000: uvm_test_top.env.agent.monitor [MEM] STORE Addr=40000000 Data=00000000
# UVM_INFO C:/Documents/DoAnThietKeViMach/Project/SoC/VERIFICATION/Monitor/cpu_monitor.sv(296) @ 355000: uvm_test_top.env.agent.monitor [WB] x04 <= 40000000  (PC~00000018)
# UVM_INFO C:/Documents/DoAnThietKeViMach/Project/SoC/VERIFICATION/Monitor/cpu_monitor.sv(268) @ 365000: uvm_test_top.env.agent.monitor [MEM] STORE Addr=40000000 Data=00000000
# UVM_INFO C:/Documents/DoAnThietKeViMach/Project/SoC/VERIFICATION/Monitor/cpu_monitor.sv(296) @ 365000: uvm_test_top.env.agent.monitor [WB] x04 <= 40000000  (PC~00000018)
# UVM_INFO C:/Documents/DoAnThietKeViMach/Project/SoC/VERIFICATION/Monitor/cpu_monitor.sv(364) @ 375000: uvm_test_top.env.agent.monitor [AXI_RD] CPU <- IRAM  Addr=0000001c Data=01412023 RRESP=00
# UVM_INFO C:/Documents/DoAnThietKeViMach/Project/SoC/VERIFICATION/Monitor/cpu_monitor.sv(234) @ 375000: uvm_test_top.env.agent.monitor [IF] PC=0000001c  INSTR=01412023  [SW   x20, 20(x2)]            
# UVM_INFO C:/Documents/DoAnThietKeViMach/Project/SoC/VERIFICATION/Monitor/cpu_monitor.sv(268) @ 375000: uvm_test_top.env.agent.monitor [MEM] STORE Addr=40000000 Data=00000000
# UVM_INFO C:/Documents/DoAnThietKeViMach/Project/SoC/VERIFICATION/Monitor/cpu_monitor.sv(296) @ 375000: uvm_test_top.env.agent.monitor [WB] x04 <= 40000000  (PC~0000001c)
# UVM_INFO C:/Documents/DoAnThietKeViMach/Project/SoC/VERIFICATION/Monitor/cpu_monitor.sv(364) @ 415000: uvm_test_top.env.agent.monitor [AXI_RD] CPU <- TIMER  Addr=20000008 Data=00000000 RRESP=00
# UVM_INFO C:/Documents/DoAnThietKeViMach/Project/SoC/VERIFICATION/Scoreboard/cpu_scoreboard.sv(252) @ 415000: uvm_test_top.env.scoreboard [SCB_PERIPH] [TIMER] READ Addr=20000008 Data=00000000 (volatile, compare skipped)
# UVM_INFO C:/Documents/DoAnThietKeViMach/Project/SoC/VERIFICATION/Monitor/cpu_monitor.sv(364) @ 455000: uvm_test_top.env.agent.monitor [AXI_RD] CPU <- IRAM  Addr=00000020 Data=005c9bb3 RRESP=00
# UVM_INFO C:/Documents/DoAnThietKeViMach/Project/SoC/VERIFICATION/Monitor/cpu_monitor.sv(234) @ 455000: uvm_test_top.env.agent.monitor [IF] PC=00000020  INSTR=005c9bb3  [SLL  x23, x25, x5]            
# UVM_INFO C:/Documents/DoAnThietKeViMach/Project/SoC/VERIFICATION/Monitor/cpu_monitor.sv(364) @ 495000: uvm_test_top.env.agent.monitor [AXI_RD] CPU <- IRAM  Addr=00000024 Data=00512023 RRESP=00
# UVM_INFO C:/Documents/DoAnThietKeViMach/Project/SoC/VERIFICATION/Monitor/cpu_monitor.sv(234) @ 495000: uvm_test_top.env.agent.monitor [IF] PC=00000024  INSTR=00512023  [SW   x5, 5(x2)]            
# UVM_INFO C:/Documents/DoAnThietKeViMach/Project/SoC/VERIFICATION/Monitor/cpu_monitor.sv(268) @ 505000: uvm_test_top.env.agent.monitor [MEM] STORE Addr=20000000 Data=00000000
# UVM_INFO C:/Documents/DoAnThietKeViMach/Project/SoC/VERIFICATION/Monitor/cpu_monitor.sv(268) @ 515000: uvm_test_top.env.agent.monitor [MEM] STORE Addr=20000000 Data=00000000
# UVM_INFO C:/Documents/DoAnThietKeViMach/Project/SoC/VERIFICATION/Monitor/cpu_monitor.sv(268) @ 525000: uvm_test_top.env.agent.monitor [MEM] STORE Addr=20000000 Data=00000000
# UVM_INFO C:/Documents/DoAnThietKeViMach/Project/SoC/VERIFICATION/Monitor/cpu_monitor.sv(268) @ 535000: uvm_test_top.env.agent.monitor [MEM] STORE Addr=20000000 Data=00000000
# UVM_INFO C:/Documents/DoAnThietKeViMach/Project/SoC/VERIFICATION/Monitor/cpu_monitor.sv(335) @ 545000: uvm_test_top.env.agent.monitor [AXI_WR] CPU -> TIMER  Addr=20000000 Data=00000000 Strb=1111 BRESP=00
# UVM_INFO C:/Documents/DoAnThietKeViMach/Project/SoC/VERIFICATION/Scoreboard/cpu_scoreboard.sv(246) @ 545000: uvm_test_top.env.scoreboard [SCB_PERIPH] [TIMER] WRITE Addr=20000000 Data=00000000
# UVM_INFO C:/Documents/DoAnThietKeViMach/Project/SoC/VERIFICATION/Monitor/cpu_monitor.sv(268) @ 545000: uvm_test_top.env.agent.monitor [MEM] STORE Addr=20000000 Data=00000000
# UVM_INFO C:/Documents/DoAnThietKeViMach/Project/SoC/VERIFICATION/Monitor/cpu_monitor.sv(296) @ 545000: uvm_test_top.env.agent.monitor [WB] x29 <= 00000000  (PC~00000024)
# UVM_INFO C:/Documents/DoAnThietKeViMach/Project/SoC/VERIFICATION/Monitor/cpu_monitor.sv(268) @ 555000: uvm_test_top.env.agent.monitor [MEM] STORE Addr=20000000 Data=00000000
# UVM_INFO C:/Documents/DoAnThietKeViMach/Project/SoC/VERIFICATION/Monitor/cpu_monitor.sv(296) @ 555000: uvm_test_top.env.agent.monitor [WB] x29 <= 00000000  (PC~00000024)
# UVM_INFO C:/Documents/DoAnThietKeViMach/Project/SoC/VERIFICATION/Monitor/cpu_monitor.sv(268) @ 565000: uvm_test_top.env.agent.monitor [MEM] STORE Addr=20000000 Data=00000000
# UVM_INFO C:/Documents/DoAnThietKeViMach/Project/SoC/VERIFICATION/Monitor/cpu_monitor.sv(296) @ 565000: uvm_test_top.env.agent.monitor [WB] x29 <= 00000000  (PC~00000024)
# UVM_INFO C:/Documents/DoAnThietKeViMach/Project/SoC/VERIFICATION/Monitor/cpu_monitor.sv(268) @ 575000: uvm_test_top.env.agent.monitor [MEM] STORE Addr=20000000 Data=00000000
# UVM_INFO C:/Documents/DoAnThietKeViMach/Project/SoC/VERIFICATION/Monitor/cpu_monitor.sv(296) @ 575000: uvm_test_top.env.agent.monitor [WB] x29 <= 00000000  (PC~00000024)
# UVM_INFO C:/Documents/DoAnThietKeViMach/Project/SoC/VERIFICATION/Monitor/cpu_monitor.sv(364) @ 585000: uvm_test_top.env.agent.monitor [AXI_RD] CPU <- IRAM  Addr=00000028 Data=0148d7b3 RRESP=00
# UVM_INFO C:/Documents/DoAnThietKeViMach/Project/SoC/VERIFICATION/Monitor/cpu_monitor.sv(234) @ 585000: uvm_test_top.env.agent.monitor [IF] PC=00000028  INSTR=0148d7b3  [SRL  x15, x17, x20]            
# UVM_INFO C:/Documents/DoAnThietKeViMach/Project/SoC/VERIFICATION/Monitor/cpu_monitor.sv(268) @ 585000: uvm_test_top.env.agent.monitor [MEM] STORE Addr=20000000 Data=00000000
# UVM_INFO C:/Documents/DoAnThietKeViMach/Project/SoC/VERIFICATION/Monitor/cpu_monitor.sv(296) @ 585000: uvm_test_top.env.agent.monitor [WB] x29 <= 00000000  (PC~00000028)
# UVM_INFO C:/Documents/DoAnThietKeViMach/Project/SoC/VERIFICATION/Monitor/cpu_monitor.sv(364) @ 625000: uvm_test_top.env.agent.monitor [AXI_RD] CPU <- IRAM  Addr=0000002c Data=4090a023 RRESP=00
# UVM_INFO C:/Documents/DoAnThietKeViMach/Project/SoC/VERIFICATION/Monitor/cpu_monitor.sv(234) @ 625000: uvm_test_top.env.agent.monitor [IF] PC=0000002c  INSTR=4090a023  [SW   x9, 1033(x1)]            
# UVM_INFO C:/Documents/DoAnThietKeViMach/Project/SoC/VERIFICATION/Monitor/cpu_monitor.sv(268) @ 635000: uvm_test_top.env.agent.monitor [MEM] STORE Addr=20000000 Data=00000000
# UVM_INFO C:/Documents/DoAnThietKeViMach/Project/SoC/VERIFICATION/Monitor/cpu_monitor.sv(268) @ 645000: uvm_test_top.env.agent.monitor [MEM] STORE Addr=20000000 Data=00000000
# UVM_INFO C:/Documents/DoAnThietKeViMach/Project/SoC/VERIFICATION/Monitor/cpu_monitor.sv(268) @ 655000: uvm_test_top.env.agent.monitor [MEM] STORE Addr=20000000 Data=00000000
# UVM_INFO C:/Documents/DoAnThietKeViMach/Project/SoC/VERIFICATION/Monitor/cpu_monitor.sv(268) @ 665000: uvm_test_top.env.agent.monitor [MEM] STORE Addr=20000000 Data=00000000
# UVM_INFO C:/Documents/DoAnThietKeViMach/Project/SoC/VERIFICATION/Monitor/cpu_monitor.sv(335) @ 675000: uvm_test_top.env.agent.monitor [AXI_WR] CPU -> TIMER  Addr=20000000 Data=00000000 Strb=1111 BRESP=00
# UVM_INFO C:/Documents/DoAnThietKeViMach/Project/SoC/VERIFICATION/Scoreboard/cpu_scoreboard.sv(246) @ 675000: uvm_test_top.env.scoreboard [SCB_PERIPH] [TIMER] WRITE Addr=20000000 Data=00000000
# UVM_INFO C:/Documents/DoAnThietKeViMach/Project/SoC/VERIFICATION/Monitor/cpu_monitor.sv(268) @ 675000: uvm_test_top.env.agent.monitor [MEM] STORE Addr=20000000 Data=00000000
# UVM_INFO C:/Documents/DoAnThietKeViMach/Project/SoC/VERIFICATION/Monitor/cpu_monitor.sv(296) @ 675000: uvm_test_top.env.agent.monitor [WB] x23 <= 00000000  (PC~0000002c)
# UVM_INFO C:/Documents/DoAnThietKeViMach/Project/SoC/VERIFICATION/Monitor/cpu_monitor.sv(268) @ 685000: uvm_test_top.env.agent.monitor [MEM] STORE Addr=20000000 Data=00000000
# UVM_INFO C:/Documents/DoAnThietKeViMach/Project/SoC/VERIFICATION/Monitor/cpu_monitor.sv(296) @ 685000: uvm_test_top.env.agent.monitor [WB] x23 <= 00000000  (PC~0000002c)
# UVM_INFO C:/Documents/DoAnThietKeViMach/Project/SoC/VERIFICATION/Monitor/cpu_monitor.sv(268) @ 695000: uvm_test_top.env.agent.monitor [MEM] STORE Addr=20000000 Data=00000000
# UVM_INFO C:/Documents/DoAnThietKeViMach/Project/SoC/VERIFICATION/Monitor/cpu_monitor.sv(296) @ 695000: uvm_test_top.env.agent.monitor [WB] x23 <= 00000000  (PC~0000002c)
# UVM_INFO C:/Documents/DoAnThietKeViMach/Project/SoC/VERIFICATION/Monitor/cpu_monitor.sv(268) @ 705000: uvm_test_top.env.agent.monitor [MEM] STORE Addr=20000000 Data=00000000
# UVM_INFO C:/Documents/DoAnThietKeViMach/Project/SoC/VERIFICATION/Monitor/cpu_monitor.sv(296) @ 705000: uvm_test_top.env.agent.monitor [WB] x23 <= 00000000  (PC~0000002c)
# UVM_INFO C:/Documents/DoAnThietKeViMach/Project/SoC/VERIFICATION/Monitor/cpu_monitor.sv(364) @ 715000: uvm_test_top.env.agent.monitor [AXI_RD] CPU <- IRAM  Addr=00000030 Data=00f22623 RRESP=00
# UVM_INFO C:/Documents/DoAnThietKeViMach/Project/SoC/VERIFICATION/Monitor/cpu_monitor.sv(234) @ 715000: uvm_test_top.env.agent.monitor [IF] PC=00000030  INSTR=00f22623  [SW   x15, 15(x4)]            
# UVM_INFO C:/Documents/DoAnThietKeViMach/Project/SoC/VERIFICATION/Monitor/cpu_monitor.sv(268) @ 715000: uvm_test_top.env.agent.monitor [MEM] STORE Addr=20000000 Data=00000000
# UVM_INFO C:/Documents/DoAnThietKeViMach/Project/SoC/VERIFICATION/Monitor/cpu_monitor.sv(296) @ 715000: uvm_test_top.env.agent.monitor [WB] x23 <= 00000000  (PC~00000030)
# UVM_INFO C:/Documents/DoAnThietKeViMach/Project/SoC/VERIFICATION/Monitor/cpu_monitor.sv(364) @ 755000: uvm_test_top.env.agent.monitor [AXI_RD] CPU <- IRAM  Addr=00000034 Data=00e06263 RRESP=00
# UVM_INFO C:/Documents/DoAnThietKeViMach/Project/SoC/VERIFICATION/Monitor/cpu_monitor.sv(234) @ 755000: uvm_test_top.env.agent.monitor [IF] PC=00000034  INSTR=00e06263  [BR?? x0, x14, ...]            
# UVM_INFO C:/Documents/DoAnThietKeViMach/Project/SoC/VERIFICATION/Monitor/cpu_monitor.sv(268) @ 765000: uvm_test_top.env.agent.monitor [MEM] STORE Addr=10000400 Data=00000000
# UVM_INFO C:/Documents/DoAnThietKeViMach/Project/SoC/VERIFICATION/Monitor/cpu_monitor.sv(268) @ 775000: uvm_test_top.env.agent.monitor [MEM] STORE Addr=10000400 Data=00000000
# [DRAM WRITE] addr=10000400 data=00000000
# UVM_INFO C:/Documents/DoAnThietKeViMach/Project/SoC/VERIFICATION/Monitor/cpu_monitor.sv(268) @ 785000: uvm_test_top.env.agent.monitor [MEM] STORE Addr=10000400 Data=00000000
# UVM_INFO C:/Documents/DoAnThietKeViMach/Project/SoC/VERIFICATION/Monitor/cpu_monitor.sv(335) @ 795000: uvm_test_top.env.agent.monitor [AXI_WR] CPU -> DRAM  Addr=10000400 Data=00000000 Strb=1111 BRESP=00
# UVM_INFO C:/Documents/DoAnThietKeViMach/Project/SoC/VERIFICATION/Monitor/cpu_monitor.sv(268) @ 795000: uvm_test_top.env.agent.monitor [MEM] STORE Addr=10000400 Data=00000000
# UVM_INFO C:/Documents/DoAnThietKeViMach/Project/SoC/VERIFICATION/Monitor/cpu_monitor.sv(296) @ 795000: uvm_test_top.env.agent.monitor [WB] x15 <= 00000000  (PC~00000034)
# UVM_INFO C:/Documents/DoAnThietKeViMach/Project/SoC/VERIFICATION/Monitor/cpu_monitor.sv(268) @ 805000: uvm_test_top.env.agent.monitor [MEM] STORE Addr=10000400 Data=00000000
# UVM_INFO C:/Documents/DoAnThietKeViMach/Project/SoC/VERIFICATION/Monitor/cpu_monitor.sv(296) @ 805000: uvm_test_top.env.agent.monitor [WB] x15 <= 00000000  (PC~00000034)
# UVM_INFO C:/Documents/DoAnThietKeViMach/Project/SoC/VERIFICATION/Monitor/cpu_monitor.sv(268) @ 815000: uvm_test_top.env.agent.monitor [MEM] STORE Addr=10000400 Data=00000000
# UVM_INFO C:/Documents/DoAnThietKeViMach/Project/SoC/VERIFICATION/Monitor/cpu_monitor.sv(296) @ 815000: uvm_test_top.env.agent.monitor [WB] x15 <= 00000000  (PC~00000034)
# UVM_INFO C:/Documents/DoAnThietKeViMach/Project/SoC/VERIFICATION/Monitor/cpu_monitor.sv(268) @ 825000: uvm_test_top.env.agent.monitor [MEM] STORE Addr=10000400 Data=00000000
# UVM_INFO C:/Documents/DoAnThietKeViMach/Project/SoC/VERIFICATION/Monitor/cpu_monitor.sv(296) @ 825000: uvm_test_top.env.agent.monitor [WB] x15 <= 00000000  (PC~00000034)
# UVM_INFO C:/Documents/DoAnThietKeViMach/Project/SoC/VERIFICATION/Monitor/cpu_monitor.sv(364) @ 835000: uvm_test_top.env.agent.monitor [AXI_RD] CPU <- IRAM  Addr=00000038 Data=00c1ab83 RRESP=00
# UVM_INFO C:/Documents/DoAnThietKeViMach/Project/SoC/VERIFICATION/Monitor/cpu_monitor.sv(234) @ 835000: uvm_test_top.env.agent.monitor [IF] PC=00000038  INSTR=00c1ab83  [LW   x23, 12(x3)]            
# UVM_INFO C:/Documents/DoAnThietKeViMach/Project/SoC/VERIFICATION/Monitor/cpu_monitor.sv(268) @ 835000: uvm_test_top.env.agent.monitor [MEM] STORE Addr=10000400 Data=00000000
# UVM_INFO C:/Documents/DoAnThietKeViMach/Project/SoC/VERIFICATION/Monitor/cpu_monitor.sv(296) @ 835000: uvm_test_top.env.agent.monitor [WB] x15 <= 00000000  (PC~00000038)
# UVM_INFO C:/Documents/DoAnThietKeViMach/Project/SoC/VERIFICATION/Monitor/cpu_monitor.sv(268) @ 845000: uvm_test_top.env.agent.monitor [MEM] STORE Addr=4000000c Data=00000000
# UVM_INFO C:/Documents/DoAnThietKeViMach/Project/SoC/VERIFICATION/Monitor/cpu_monitor.sv(268) @ 855000: uvm_test_top.env.agent.monitor [MEM] STORE Addr=4000000c Data=00000000
# UVM_INFO C:/Documents/DoAnThietKeViMach/Project/SoC/VERIFICATION/Monitor/cpu_monitor.sv(268) @ 865000: uvm_test_top.env.agent.monitor [MEM] STORE Addr=4000000c Data=00000000
# UVM_INFO C:/Documents/DoAnThietKeViMach/Project/SoC/VERIFICATION/Monitor/cpu_monitor.sv(335) @ 875000: uvm_test_top.env.agent.monitor [AXI_WR] CPU -> SPI  Addr=4000000c Data=00000000 Strb=1111 BRESP=00
# UVM_INFO C:/Documents/DoAnThietKeViMach/Project/SoC/VERIFICATION/Scoreboard/cpu_scoreboard.sv(246) @ 875000: uvm_test_top.env.scoreboard [SCB_PERIPH] [SPI] WRITE Addr=4000000c Data=00000000
# UVM_INFO C:/Documents/DoAnThietKeViMach/Project/SoC/VERIFICATION/Monitor/cpu_monitor.sv(268) @ 875000: uvm_test_top.env.agent.monitor [MEM] STORE Addr=4000000c Data=00000000
# UVM_INFO C:/Documents/DoAnThietKeViMach/Project/SoC/VERIFICATION/Monitor/cpu_monitor.sv(268) @ 885000: uvm_test_top.env.agent.monitor [MEM] STORE Addr=4000000c Data=00000000
# UVM_INFO C:/Documents/DoAnThietKeViMach/Project/SoC/VERIFICATION/Monitor/cpu_monitor.sv(268) @ 895000: uvm_test_top.env.agent.monitor [MEM] STORE Addr=4000000c Data=00000000
# UVM_INFO C:/Documents/DoAnThietKeViMach/Project/SoC/VERIFICATION/Monitor/cpu_monitor.sv(268) @ 905000: uvm_test_top.env.agent.monitor [MEM] STORE Addr=4000000c Data=00000000
# UVM_INFO C:/Documents/DoAnThietKeViMach/Project/SoC/VERIFICATION/Monitor/cpu_monitor.sv(364) @ 915000: uvm_test_top.env.agent.monitor [AXI_RD] CPU <- IRAM  Addr=0000003c Data=00588a33 RRESP=00
# UVM_INFO C:/Documents/DoAnThietKeViMach/Project/SoC/VERIFICATION/Monitor/cpu_monitor.sv(234) @ 915000: uvm_test_top.env.agent.monitor [IF] PC=0000003c  INSTR=00588a33  [ADD  x20, x17, x5]            
# UVM_INFO C:/Documents/DoAnThietKeViMach/Project/SoC/VERIFICATION/Monitor/cpu_monitor.sv(268) @ 915000: uvm_test_top.env.agent.monitor [MEM] STORE Addr=4000000c Data=00000000
# UVM_INFO C:/Documents/DoAnThietKeViMach/Project/SoC/VERIFICATION/Monitor/cpu_monitor.sv(364) @ 955000: uvm_test_top.env.agent.monitor [AXI_RD] CPU <- IRAM  Addr=00000040 Data=00704263 RRESP=00
# UVM_INFO C:/Documents/DoAnThietKeViMach/Project/SoC/VERIFICATION/Monitor/cpu_monitor.sv(234) @ 955000: uvm_test_top.env.agent.monitor [IF] PC=00000040  INSTR=00704263  [BLT  x0, x7, ...]            
# UVM_INFO C:/Documents/DoAnThietKeViMach/Project/SoC/VERIFICATION/Monitor/cpu_monitor.sv(364) @ 995000: uvm_test_top.env.agent.monitor [AXI_RD] CPU <- UART  Addr=3000000c Data=0001c200 RRESP=00
# UVM_INFO C:/Documents/DoAnThietKeViMach/Project/SoC/VERIFICATION/Scoreboard/cpu_scoreboard.sv(126) @ 995000: uvm_test_top.env.scoreboard [SCB_PASS] [UART] READ PASS Addr=3000000c Expected=0001c200 Got=0001c200
# UVM_INFO C:/Documents/DoAnThietKeViMach/Project/SoC/VERIFICATION/Monitor/cpu_monitor.sv(364) @ 1035000: uvm_test_top.env.agent.monitor [AXI_RD] CPU <- IRAM  Addr=00000044 Data=00c1af83 RRESP=00
# UVM_INFO C:/Documents/DoAnThietKeViMach/Project/SoC/VERIFICATION/Monitor/cpu_monitor.sv(234) @ 1035000: uvm_test_top.env.agent.monitor [IF] PC=00000044  INSTR=00c1af83  [LW   x31, 12(x3)]            
# UVM_INFO C:/Documents/DoAnThietKeViMach/Project/SoC/VERIFICATION/Monitor/cpu_monitor.sv(296) @ 1045000: uvm_test_top.env.agent.monitor [WB] x23 <= 0001c200  (PC~00000044)
# UVM_INFO C:/Documents/DoAnThietKeViMach/Project/SoC/VERIFICATION/Monitor/cpu_monitor.sv(296) @ 1055000: uvm_test_top.env.agent.monitor [WB] x23 <= 0001c200  (PC~00000044)
# UVM_INFO C:/Documents/DoAnThietKeViMach/Project/SoC/VERIFICATION/Monitor/cpu_monitor.sv(296) @ 1065000: uvm_test_top.env.agent.monitor [WB] x23 <= 0001c200  (PC~00000044)
# UVM_INFO C:/Documents/DoAnThietKeViMach/Project/SoC/VERIFICATION/Monitor/cpu_monitor.sv(364) @ 1075000: uvm_test_top.env.agent.monitor [AXI_RD] CPU <- IRAM  Addr=00000048 Data=0081a003 RRESP=00
# UVM_INFO C:/Documents/DoAnThietKeViMach/Project/SoC/VERIFICATION/Monitor/cpu_monitor.sv(234) @ 1075000: uvm_test_top.env.agent.monitor [IF] PC=00000048  INSTR=0081a003  [LW   x0, 8(x3)]            
# UVM_INFO C:/Documents/DoAnThietKeViMach/Project/SoC/VERIFICATION/Monitor/cpu_monitor.sv(296) @ 1075000: uvm_test_top.env.agent.monitor [WB] x23 <= 0001c200  (PC~00000048)
# UVM_INFO C:/Documents/DoAnThietKeViMach/Project/SoC/VERIFICATION/Monitor/cpu_monitor.sv(296) @ 1085000: uvm_test_top.env.agent.monitor [WB] x20 <= 00000000  (PC~00000048)
# UVM_INFO C:/Documents/DoAnThietKeViMach/Project/SoC/VERIFICATION/Monitor/cpu_monitor.sv(296) @ 1095000: uvm_test_top.env.agent.monitor [WB] x20 <= 00000000  (PC~00000048)
# UVM_INFO C:/Documents/DoAnThietKeViMach/Project/SoC/VERIFICATION/Monitor/cpu_monitor.sv(296) @ 1105000: uvm_test_top.env.agent.monitor [WB] x20 <= 00000000  (PC~00000048)
# UVM_INFO C:/Documents/DoAnThietKeViMach/Project/SoC/VERIFICATION/Monitor/cpu_monitor.sv(364) @ 1115000: uvm_test_top.env.agent.monitor [AXI_RD] CPU <- IRAM  Addr=0000004c Data=fb34c613 RRESP=00
# UVM_INFO C:/Documents/DoAnThietKeViMach/Project/SoC/VERIFICATION/Monitor/cpu_monitor.sv(234) @ 1115000: uvm_test_top.env.agent.monitor [IF] PC=0000004c  INSTR=fb34c613  [XORI x12, x9, -77]            
# UVM_INFO C:/Documents/DoAnThietKeViMach/Project/SoC/VERIFICATION/Monitor/cpu_monitor.sv(296) @ 1115000: uvm_test_top.env.agent.monitor [WB] x20 <= 00000000  (PC~0000004c)
# UVM_INFO C:/Documents/DoAnThietKeViMach/Project/SoC/VERIFICATION/Monitor/cpu_monitor.sv(364) @ 1155000: uvm_test_top.env.agent.monitor [AXI_RD] CPU <- UART  Addr=3000000c Data=0001c200 RRESP=00
# UVM_INFO C:/Documents/DoAnThietKeViMach/Project/SoC/VERIFICATION/Scoreboard/cpu_scoreboard.sv(126) @ 1155000: uvm_test_top.env.scoreboard [SCB_PASS] [UART] READ PASS Addr=3000000c Expected=0001c200 Got=0001c200
# UVM_INFO C:/Documents/DoAnThietKeViMach/Project/SoC/VERIFICATION/Monitor/cpu_monitor.sv(364) @ 1195000: uvm_test_top.env.agent.monitor [AXI_RD] CPU <- IRAM  Addr=00000050 Data=01e2f3b3 RRESP=00
# UVM_INFO C:/Documents/DoAnThietKeViMach/Project/SoC/VERIFICATION/Monitor/cpu_monitor.sv(234) @ 1195000: uvm_test_top.env.agent.monitor [IF] PC=00000050  INSTR=01e2f3b3  [AND  x7, x5, x30]            
# UVM_INFO C:/Documents/DoAnThietKeViMach/Project/SoC/VERIFICATION/Monitor/cpu_monitor.sv(364) @ 1235000: uvm_test_top.env.agent.monitor [AXI_RD] CPU <- UART  Addr=30000008 Data=00000000 RRESP=00
# UVM_INFO C:/Documents/DoAnThietKeViMach/Project/SoC/VERIFICATION/Scoreboard/cpu_scoreboard.sv(252) @ 1235000: uvm_test_top.env.scoreboard [SCB_PERIPH] [UART] READ Addr=30000008 Data=00000000 (volatile, compare skipped)
# UVM_INFO C:/Documents/DoAnThietKeViMach/Project/SoC/VERIFICATION/Monitor/cpu_monitor.sv(296) @ 1235000: uvm_test_top.env.agent.monitor [WB] x31 <= 0001c200  (PC~00000050)
# UVM_INFO C:/Documents/DoAnThietKeViMach/Project/SoC/VERIFICATION/Monitor/cpu_monitor.sv(296) @ 1245000: uvm_test_top.env.agent.monitor [WB] x31 <= 0001c200  (PC~00000050)
# UVM_INFO C:/Documents/DoAnThietKeViMach/Project/SoC/VERIFICATION/Monitor/cpu_monitor.sv(296) @ 1255000: uvm_test_top.env.agent.monitor [WB] x31 <= 0001c200  (PC~00000050)
# UVM_INFO C:/Documents/DoAnThietKeViMach/Project/SoC/VERIFICATION/Monitor/cpu_monitor.sv(296) @ 1265000: uvm_test_top.env.agent.monitor [WB] x31 <= 0001c200  (PC~00000050)
# UVM_INFO C:/Documents/DoAnThietKeViMach/Project/SoC/VERIFICATION/Monitor/cpu_monitor.sv(364) @ 1275000: uvm_test_top.env.agent.monitor [AXI_RD] CPU <- IRAM  Addr=00000054 Data=0081a003 RRESP=00
# UVM_INFO C:/Documents/DoAnThietKeViMach/Project/SoC/VERIFICATION/Monitor/cpu_monitor.sv(234) @ 1275000: uvm_test_top.env.agent.monitor [IF] PC=00000054  INSTR=0081a003  [LW   x0, 8(x3)]            
# UVM_INFO C:/Documents/DoAnThietKeViMach/Project/SoC/VERIFICATION/Monitor/cpu_monitor.sv(296) @ 1275000: uvm_test_top.env.agent.monitor [WB] x31 <= 0001c200  (PC~00000054)
# UVM_INFO C:/Documents/DoAnThietKeViMach/Project/SoC/VERIFICATION/Monitor/cpu_monitor.sv(364) @ 1315000: uvm_test_top.env.agent.monitor [AXI_RD] CPU <- IRAM  Addr=00000058 Data=00007263 RRESP=00
# UVM_INFO C:/Documents/DoAnThietKeViMach/Project/SoC/VERIFICATION/Monitor/cpu_monitor.sv(234) @ 1315000: uvm_test_top.env.agent.monitor [IF] PC=00000058  INSTR=00007263  [BR?? x0, x0, ...]            
# UVM_INFO C:/Documents/DoAnThietKeViMach/Project/SoC/VERIFICATION/Monitor/cpu_monitor.sv(296) @ 1325000: uvm_test_top.env.agent.monitor [WB] x12 <= ffffffb3  (PC~00000058)
# UVM_INFO C:/Documents/DoAnThietKeViMach/Project/SoC/VERIFICATION/Monitor/cpu_monitor.sv(296) @ 1335000: uvm_test_top.env.agent.monitor [WB] x12 <= ffffffb3  (PC~00000058)
# UVM_INFO C:/Documents/DoAnThietKeViMach/Project/SoC/VERIFICATION/Monitor/cpu_monitor.sv(296) @ 1345000: uvm_test_top.env.agent.monitor [WB] x12 <= ffffffb3  (PC~00000058)
# UVM_INFO C:/Documents/DoAnThietKeViMach/Project/SoC/VERIFICATION/Monitor/cpu_monitor.sv(364) @ 1355000: uvm_test_top.env.agent.monitor [AXI_RD] CPU <- IRAM  Addr=0000005c Data=00000263 RRESP=00
# UVM_INFO C:/Documents/DoAnThietKeViMach/Project/SoC/VERIFICATION/Monitor/cpu_monitor.sv(296) @ 1355000: uvm_test_top.env.agent.monitor [WB] x12 <= ffffffb3  (PC~00000058)
# UVM_INFO C:/Documents/DoAnThietKeViMach/Project/SoC/VERIFICATION/Monitor/cpu_monitor.sv(364) @ 1395000: uvm_test_top.env.agent.monitor [AXI_RD] CPU <- UART  Addr=30000008 Data=00000000 RRESP=00
# UVM_INFO C:/Documents/DoAnThietKeViMach/Project/SoC/VERIFICATION/Scoreboard/cpu_scoreboard.sv(252) @ 1395000: uvm_test_top.env.scoreboard [SCB_PERIPH] [UART] READ Addr=30000008 Data=00000000 (volatile, compare skipped)
# UVM_INFO C:/Documents/DoAnThietKeViMach/Project/SoC/VERIFICATION/Monitor/cpu_monitor.sv(296) @ 1395000: uvm_test_top.env.agent.monitor [WB] x07 <= 00000000  (PC~00000058)
# UVM_INFO C:/Documents/DoAnThietKeViMach/Project/SoC/VERIFICATION/Monitor/cpu_monitor.sv(296) @ 1405000: uvm_test_top.env.agent.monitor [WB] x07 <= 00000000  (PC~00000058)
# UVM_INFO C:/Documents/DoAnThietKeViMach/Project/SoC/VERIFICATION/Monitor/cpu_monitor.sv(296) @ 1415000: uvm_test_top.env.agent.monitor [WB] x07 <= 00000000  (PC~00000058)
# UVM_INFO C:/Documents/DoAnThietKeViMach/Project/SoC/VERIFICATION/Monitor/cpu_monitor.sv(296) @ 1425000: uvm_test_top.env.agent.monitor [WB] x07 <= 00000000  (PC~00000058)
# UVM_INFO C:/Documents/DoAnThietKeViMach/Project/SoC/VERIFICATION/Monitor/cpu_monitor.sv(364) @ 1435000: uvm_test_top.env.agent.monitor [AXI_RD] CPU <- IRAM  Addr=0000005c Data=00000263 RRESP=00
# UVM_INFO C:/Documents/DoAnThietKeViMach/Project/SoC/VERIFICATION/Monitor/cpu_monitor.sv(234) @ 1435000: uvm_test_top.env.agent.monitor [IF] PC=0000005c  INSTR=00000263  [BEQ  x0, x0, ...]            
# UVM_INFO C:/Documents/DoAnThietKeViMach/Project/SoC/VERIFICATION/Monitor/cpu_monitor.sv(296) @ 1435000: uvm_test_top.env.agent.monitor [WB] x07 <= 00000000  (PC~0000005c)
# UVM_INFO C:/Documents/DoAnThietKeViMach/Project/SoC/VERIFICATION/Monitor/cpu_monitor.sv(364) @ 1475000: uvm_test_top.env.agent.monitor [AXI_RD] CPU <- IRAM  Addr=00000060 Data=00005263 RRESP=00
# UVM_INFO C:/Documents/DoAnThietKeViMach/Project/SoC/VERIFICATION/Monitor/cpu_monitor.sv(234) @ 1475000: uvm_test_top.env.agent.monitor [IF] PC=00000060  INSTR=00005263  [BGE  x0, x0, ...]            
# UVM_INFO C:/Documents/DoAnThietKeViMach/Project/SoC/VERIFICATION/Monitor/cpu_monitor.sv(364) @ 1515000: uvm_test_top.env.agent.monitor [AXI_RD] CPU <- IRAM  Addr=0000005c Data=00000263 RRESP=00
# UVM_INFO C:/Documents/DoAnThietKeViMach/Project/SoC/VERIFICATION/Monitor/cpu_monitor.sv(234) @ 1515000: uvm_test_top.env.agent.monitor [IF] PC=0000005c  INSTR=00000263  [BEQ  x0, x0, ...]            
# UVM_INFO C:/Documents/DoAnThietKeViMach/Project/SoC/VERIFICATION/Monitor/cpu_monitor.sv(364) @ 1555000: uvm_test_top.env.agent.monitor [AXI_RD] CPU <- IRAM  Addr=00000060 Data=00005263 RRESP=00
# UVM_INFO C:/Documents/DoAnThietKeViMach/Project/SoC/VERIFICATION/Monitor/cpu_monitor.sv(234) @ 1555000: uvm_test_top.env.agent.monitor [IF] PC=00000060  INSTR=00005263  [BGE  x0, x0, ...]            
# UVM_INFO C:/Documents/DoAnThietKeViMach/Project/SoC/VERIFICATION/Monitor/cpu_monitor.sv(364) @ 1595000: uvm_test_top.env.agent.monitor [AXI_RD] CPU <- IRAM  Addr=00000064 Data=01822223 RRESP=00
# UVM_INFO C:/Documents/DoAnThietKeViMach/Project/SoC/VERIFICATION/Monitor/cpu_monitor.sv(234) @ 1595000: uvm_test_top.env.agent.monitor [IF] PC=00000064  INSTR=01822223  [SW   x24, 24(x4)]            
# UVM_INFO C:/Documents/DoAnThietKeViMach/Project/SoC/VERIFICATION/Monitor/cpu_monitor.sv(364) @ 1635000: uvm_test_top.env.agent.monitor [AXI_RD] CPU <- IRAM  Addr=00000060 Data=00005263 RRESP=00
# UVM_INFO C:/Documents/DoAnThietKeViMach/Project/SoC/VERIFICATION/Monitor/cpu_monitor.sv(234) @ 1635000: uvm_test_top.env.agent.monitor [IF] PC=00000060  INSTR=00005263  [BGE  x0, x0, ...]            
# UVM_INFO C:/Documents/DoAnThietKeViMach/Project/SoC/VERIFICATION/Monitor/cpu_monitor.sv(364) @ 1675000: uvm_test_top.env.agent.monitor [AXI_RD] CPU <- IRAM  Addr=00000064 Data=01822223 RRESP=00
# UVM_INFO C:/Documents/DoAnThietKeViMach/Project/SoC/VERIFICATION/Monitor/cpu_monitor.sv(234) @ 1675000: uvm_test_top.env.agent.monitor [IF] PC=00000064  INSTR=01822223  [SW   x24, 24(x4)]            
# UVM_INFO C:/Documents/DoAnThietKeViMach/Project/SoC/VERIFICATION/Monitor/cpu_monitor.sv(364) @ 1715000: uvm_test_top.env.agent.monitor [AXI_RD] CPU <- IRAM  Addr=00000068 Data=01112223 RRESP=00
# UVM_INFO C:/Documents/DoAnThietKeViMach/Project/SoC/VERIFICATION/Monitor/cpu_monitor.sv(234) @ 1715000: uvm_test_top.env.agent.monitor [IF] PC=00000068  INSTR=01112223  [SW   x17, 17(x2)]            
# UVM_INFO C:/Documents/DoAnThietKeViMach/Project/SoC/VERIFICATION/Monitor/cpu_monitor.sv(364) @ 1755000: uvm_test_top.env.agent.monitor [AXI_RD] CPU <- IRAM  Addr=00000064 Data=01822223 RRESP=00
# UVM_INFO C:/Documents/DoAnThietKeViMach/Project/SoC/VERIFICATION/Monitor/cpu_monitor.sv(234) @ 1755000: uvm_test_top.env.agent.monitor [IF] PC=00000064  INSTR=01822223  [SW   x24, 24(x4)]            
# UVM_INFO C:/Documents/DoAnThietKeViMach/Project/SoC/VERIFICATION/Monitor/cpu_monitor.sv(364) @ 1795000: uvm_test_top.env.agent.monitor [AXI_RD] CPU <- IRAM  Addr=00000068 Data=01112223 RRESP=00
# UVM_INFO C:/Documents/DoAnThietKeViMach/Project/SoC/VERIFICATION/Monitor/cpu_monitor.sv(234) @ 1795000: uvm_test_top.env.agent.monitor [IF] PC=00000068  INSTR=01112223  [SW   x17, 17(x2)]            
# UVM_INFO C:/Documents/DoAnThietKeViMach/Project/SoC/VERIFICATION/Monitor/cpu_monitor.sv(364) @ 1835000: uvm_test_top.env.agent.monitor [AXI_RD] CPU <- IRAM  Addr=0000006c Data=00822003 RRESP=00
# UVM_INFO C:/Documents/DoAnThietKeViMach/Project/SoC/VERIFICATION/Monitor/cpu_monitor.sv(234) @ 1835000: uvm_test_top.env.agent.monitor [IF] PC=0000006c  INSTR=00822003  [LW   x0, 8(x4)]            
# UVM_INFO C:/Documents/DoAnThietKeViMach/Project/SoC/VERIFICATION/Monitor/cpu_monitor.sv(268) @ 1845000: uvm_test_top.env.agent.monitor [MEM] STORE Addr=40000004 Data=00000000
# UVM_INFO C:/Documents/DoAnThietKeViMach/Project/SoC/VERIFICATION/Monitor/cpu_monitor.sv(268) @ 1855000: uvm_test_top.env.agent.monitor [MEM] STORE Addr=40000004 Data=00000000
# UVM_INFO C:/Documents/DoAnThietKeViMach/Project/SoC/VERIFICATION/Monitor/cpu_monitor.sv(268) @ 1865000: uvm_test_top.env.agent.monitor [MEM] STORE Addr=40000004 Data=00000000
# UVM_INFO C:/Documents/DoAnThietKeViMach/Project/SoC/VERIFICATION/Monitor/cpu_monitor.sv(335) @ 1875000: uvm_test_top.env.agent.monitor [AXI_WR] CPU -> SPI  Addr=40000004 Data=00000000 Strb=1111 BRESP=00
# UVM_INFO C:/Documents/DoAnThietKeViMach/Project/SoC/VERIFICATION/Scoreboard/cpu_scoreboard.sv(246) @ 1875000: uvm_test_top.env.scoreboard [SCB_PERIPH] [SPI] WRITE Addr=40000004 Data=00000000
# UVM_INFO C:/Documents/DoAnThietKeViMach/Project/SoC/VERIFICATION/Monitor/cpu_monitor.sv(268) @ 1875000: uvm_test_top.env.agent.monitor [MEM] STORE Addr=40000004 Data=00000000
# UVM_INFO C:/Documents/DoAnThietKeViMach/Project/SoC/VERIFICATION/Monitor/cpu_monitor.sv(268) @ 1885000: uvm_test_top.env.agent.monitor [MEM] STORE Addr=40000004 Data=00000000
# UVM_INFO C:/Documents/DoAnThietKeViMach/Project/SoC/VERIFICATION/Monitor/cpu_monitor.sv(268) @ 1895000: uvm_test_top.env.agent.monitor [MEM] STORE Addr=40000004 Data=00000000
# UVM_INFO C:/Documents/DoAnThietKeViMach/Project/SoC/VERIFICATION/Monitor/cpu_monitor.sv(268) @ 1905000: uvm_test_top.env.agent.monitor [MEM] STORE Addr=40000004 Data=00000000
# UVM_INFO C:/Documents/DoAnThietKeViMach/Project/SoC/VERIFICATION/Monitor/cpu_monitor.sv(364) @ 1915000: uvm_test_top.env.agent.monitor [AXI_RD] CPU <- IRAM  Addr=00000070 Data=4657ee93 RRESP=00
# UVM_INFO C:/Documents/DoAnThietKeViMach/Project/SoC/VERIFICATION/Monitor/cpu_monitor.sv(234) @ 1915000: uvm_test_top.env.agent.monitor [IF] PC=00000070  INSTR=4657ee93  [ORI  x29, x15, 1125]            
# UVM_INFO C:/Documents/DoAnThietKeViMach/Project/SoC/VERIFICATION/Monitor/cpu_monitor.sv(268) @ 1915000: uvm_test_top.env.agent.monitor [MEM] STORE Addr=40000004 Data=00000000
# UVM_INFO C:/Documents/DoAnThietKeViMach/Project/SoC/VERIFICATION/Monitor/cpu_monitor.sv(268) @ 1925000: uvm_test_top.env.agent.monitor [MEM] STORE Addr=20000004 Data=00000000
# UVM_INFO C:/Documents/DoAnThietKeViMach/Project/SoC/VERIFICATION/Monitor/cpu_monitor.sv(268) @ 1935000: uvm_test_top.env.agent.monitor [MEM] STORE Addr=20000004 Data=00000000
# UVM_INFO C:/Documents/DoAnThietKeViMach/Project/SoC/VERIFICATION/Monitor/cpu_monitor.sv(268) @ 1945000: uvm_test_top.env.agent.monitor [MEM] STORE Addr=20000004 Data=00000000
# UVM_INFO C:/Documents/DoAnThietKeViMach/Project/SoC/VERIFICATION/Monitor/cpu_monitor.sv(268) @ 1955000: uvm_test_top.env.agent.monitor [MEM] STORE Addr=20000004 Data=00000000
# UVM_INFO C:/Documents/DoAnThietKeViMach/Project/SoC/VERIFICATION/Monitor/cpu_monitor.sv(335) @ 1965000: uvm_test_top.env.agent.monitor [AXI_WR] CPU -> TIMER  Addr=20000004 Data=00000000 Strb=1111 BRESP=00
# UVM_INFO C:/Documents/DoAnThietKeViMach/Project/SoC/VERIFICATION/Scoreboard/cpu_scoreboard.sv(246) @ 1965000: uvm_test_top.env.scoreboard [SCB_PERIPH] [TIMER] WRITE Addr=20000004 Data=00000000
# UVM_INFO C:/Documents/DoAnThietKeViMach/Project/SoC/VERIFICATION/Monitor/cpu_monitor.sv(268) @ 1965000: uvm_test_top.env.agent.monitor [MEM] STORE Addr=20000004 Data=00000000
# UVM_INFO C:/Documents/DoAnThietKeViMach/Project/SoC/VERIFICATION/Monitor/cpu_monitor.sv(268) @ 1975000: uvm_test_top.env.agent.monitor [MEM] STORE Addr=20000004 Data=00000000
# UVM_INFO C:/Documents/DoAnThietKeViMach/Project/SoC/VERIFICATION/Monitor/cpu_monitor.sv(268) @ 1985000: uvm_test_top.env.agent.monitor [MEM] STORE Addr=20000004 Data=00000000
# UVM_INFO C:/Documents/DoAnThietKeViMach/Project/SoC/VERIFICATION/Monitor/cpu_monitor.sv(268) @ 1995000: uvm_test_top.env.agent.monitor [MEM] STORE Addr=20000004 Data=00000000
# UVM_INFO C:/Documents/DoAnThietKeViMach/Project/SoC/VERIFICATION/Monitor/cpu_monitor.sv(364) @ 2005000: uvm_test_top.env.agent.monitor [AXI_RD] CPU <- IRAM  Addr=00000074 Data=00000263 RRESP=00
# UVM_INFO C:/Documents/DoAnThietKeViMach/Project/SoC/VERIFICATION/Monitor/cpu_monitor.sv(234) @ 2005000: uvm_test_top.env.agent.monitor [IF] PC=00000074  INSTR=00000263  [BEQ  x0, x0, ...]            
# UVM_INFO C:/Documents/DoAnThietKeViMach/Project/SoC/VERIFICATION/Monitor/cpu_monitor.sv(268) @ 2005000: uvm_test_top.env.agent.monitor [MEM] STORE Addr=20000004 Data=00000000
# UVM_INFO C:/Documents/DoAnThietKeViMach/Project/SoC/VERIFICATION/Monitor/cpu_monitor.sv(364) @ 2045000: uvm_test_top.env.agent.monitor [AXI_RD] CPU <- SPI  Addr=40000008 Data=00000000 RRESP=00
# UVM_INFO C:/Documents/DoAnThietKeViMach/Project/SoC/VERIFICATION/Scoreboard/cpu_scoreboard.sv(252) @ 2045000: uvm_test_top.env.scoreboard [SCB_PERIPH] [SPI] READ Addr=40000008 Data=00000000 (volatile, compare skipped)
# UVM_INFO C:/Documents/DoAnThietKeViMach/Project/SoC/VERIFICATION/Monitor/cpu_monitor.sv(364) @ 2085000: uvm_test_top.env.agent.monitor [AXI_RD] CPU <- IRAM  Addr=00000078 Data=00c22d03 RRESP=00
# UVM_INFO C:/Documents/DoAnThietKeViMach/Project/SoC/VERIFICATION/Monitor/cpu_monitor.sv(234) @ 2085000: uvm_test_top.env.agent.monitor [IF] PC=00000078  INSTR=00c22d03  [LW   x26, 12(x4)]            
# UVM_INFO C:/Documents/DoAnThietKeViMach/Project/SoC/VERIFICATION/Monitor/cpu_monitor.sv(364) @ 2125000: uvm_test_top.env.agent.monitor [AXI_RD] CPU <- IRAM  Addr=0000007c Data=ce72af13 RRESP=00
# UVM_INFO C:/Documents/DoAnThietKeViMach/Project/SoC/VERIFICATION/Monitor/cpu_monitor.sv(234) @ 2125000: uvm_test_top.env.agent.monitor [IF] PC=0000007c  INSTR=ce72af13  [I-?? x30, x5, -793]            
# UVM_INFO C:/Documents/DoAnThietKeViMach/Project/SoC/VERIFICATION/Monitor/cpu_monitor.sv(296) @ 2135000: uvm_test_top.env.agent.monitor [WB] x29 <= 00000465  (PC~0000007c)
# UVM_INFO C:/Documents/DoAnThietKeViMach/Project/SoC/VERIFICATION/Monitor/cpu_monitor.sv(296) @ 2145000: uvm_test_top.env.agent.monitor [WB] x29 <= 00000465  (PC~0000007c)
# UVM_INFO C:/Documents/DoAnThietKeViMach/Project/SoC/VERIFICATION/Monitor/cpu_monitor.sv(296) @ 2155000: uvm_test_top.env.agent.monitor [WB] x29 <= 00000465  (PC~0000007c)
# UVM_INFO C:/Documents/DoAnThietKeViMach/Project/SoC/VERIFICATION/Monitor/cpu_monitor.sv(364) @ 2165000: uvm_test_top.env.agent.monitor [AXI_RD] CPU <- IRAM  Addr=00000078 Data=00c22d03 RRESP=00
# UVM_INFO C:/Documents/DoAnThietKeViMach/Project/SoC/VERIFICATION/Monitor/cpu_monitor.sv(234) @ 2165000: uvm_test_top.env.agent.monitor [IF] PC=00000078  INSTR=00c22d03  [LW   x26, 12(x4)]            
# UVM_INFO C:/Documents/DoAnThietKeViMach/Project/SoC/VERIFICATION/Monitor/cpu_monitor.sv(296) @ 2165000: uvm_test_top.env.agent.monitor [WB] x29 <= 00000465  (PC~00000078)
# UVM_INFO C:/Documents/DoAnThietKeViMach/Project/SoC/VERIFICATION/Monitor/cpu_monitor.sv(364) @ 2205000: uvm_test_top.env.agent.monitor [AXI_RD] CPU <- IRAM  Addr=0000007c Data=ce72af13 RRESP=00
# UVM_INFO C:/Documents/DoAnThietKeViMach/Project/SoC/VERIFICATION/Monitor/cpu_monitor.sv(234) @ 2205000: uvm_test_top.env.agent.monitor [IF] PC=0000007c  INSTR=ce72af13  [I-?? x30, x5, -793]            
# UVM_INFO C:/Documents/DoAnThietKeViMach/Project/SoC/VERIFICATION/Monitor/cpu_monitor.sv(364) @ 2245000: uvm_test_top.env.agent.monitor [AXI_RD] CPU <- IRAM  Addr=00000080 Data=01601263 RRESP=00
# UVM_INFO C:/Documents/DoAnThietKeViMach/Project/SoC/VERIFICATION/Monitor/cpu_monitor.sv(234) @ 2245000: uvm_test_top.env.agent.monitor [IF] PC=00000080  INSTR=01601263  [BNE  x0, x22, ...]            
# UVM_INFO C:/Documents/DoAnThietKeViMach/Project/SoC/VERIFICATION/Monitor/cpu_monitor.sv(364) @ 2285000: uvm_test_top.env.agent.monitor [AXI_RD] CPU <- SPI  Addr=4000000c Data=00000000 RRESP=00
# UVM_INFO C:/Documents/DoAnThietKeViMach/Project/SoC/VERIFICATION/Scoreboard/cpu_scoreboard.sv(126) @ 2285000: uvm_test_top.env.scoreboard [SCB_PASS] [SPI] READ PASS Addr=4000000c Expected=00000000 Got=00000000
# UVM_INFO C:/Documents/DoAnThietKeViMach/Project/SoC/VERIFICATION/Monitor/cpu_monitor.sv(364) @ 2325000: uvm_test_top.env.agent.monitor [AXI_RD] CPU <- IRAM  Addr=00000084 Data=00812003 RRESP=00
# UVM_INFO C:/Documents/DoAnThietKeViMach/Project/SoC/VERIFICATION/Monitor/cpu_monitor.sv(234) @ 2325000: uvm_test_top.env.agent.monitor [IF] PC=00000084  INSTR=00812003  [LW   x0, 8(x2)]            
# UVM_INFO C:/Documents/DoAnThietKeViMach/Project/SoC/VERIFICATION/Monitor/cpu_monitor.sv(296) @ 2335000: uvm_test_top.env.agent.monitor [WB] x26 <= 00000000  (PC~00000084)
# UVM_INFO C:/Documents/DoAnThietKeViMach/Project/SoC/VERIFICATION/Monitor/cpu_monitor.sv(296) @ 2345000: uvm_test_top.env.agent.monitor [WB] x26 <= 00000000  (PC~00000084)
# UVM_INFO C:/Documents/DoAnThietKeViMach/Project/SoC/VERIFICATION/Monitor/cpu_monitor.sv(296) @ 2355000: uvm_test_top.env.agent.monitor [WB] x26 <= 00000000  (PC~00000084)
# UVM_INFO C:/Documents/DoAnThietKeViMach/Project/SoC/VERIFICATION/Monitor/cpu_monitor.sv(364) @ 2365000: uvm_test_top.env.agent.monitor [AXI_RD] CPU <- IRAM  Addr=00000088 Data=01176c33 RRESP=00
# UVM_INFO C:/Documents/DoAnThietKeViMach/Project/SoC/VERIFICATION/Monitor/cpu_monitor.sv(234) @ 2365000: uvm_test_top.env.agent.monitor [IF] PC=00000088  INSTR=01176c33  [OR   x24, x14, x17]            
# UVM_INFO C:/Documents/DoAnThietKeViMach/Project/SoC/VERIFICATION/Monitor/cpu_monitor.sv(296) @ 2365000: uvm_test_top.env.agent.monitor [WB] x26 <= 00000000  (PC~00000088)
# UVM_INFO C:/Documents/DoAnThietKeViMach/Project/SoC/VERIFICATION/Monitor/cpu_monitor.sv(296) @ 2375000: uvm_test_top.env.agent.monitor [WB] x30 <= 00000000  (PC~00000088)
# UVM_INFO C:/Documents/DoAnThietKeViMach/Project/SoC/VERIFICATION/Monitor/cpu_monitor.sv(296) @ 2385000: uvm_test_top.env.agent.monitor [WB] x30 <= 00000000  (PC~00000088)
# UVM_INFO C:/Documents/DoAnThietKeViMach/Project/SoC/VERIFICATION/Monitor/cpu_monitor.sv(296) @ 2395000: uvm_test_top.env.agent.monitor [WB] x30 <= 00000000  (PC~00000088)
# UVM_INFO C:/Documents/DoAnThietKeViMach/Project/SoC/VERIFICATION/Monitor/cpu_monitor.sv(364) @ 2405000: uvm_test_top.env.agent.monitor [AXI_RD] CPU <- IRAM  Addr=0000008c Data=01b657b3 RRESP=00
# UVM_INFO C:/Documents/DoAnThietKeViMach/Project/SoC/VERIFICATION/Monitor/cpu_monitor.sv(234) @ 2405000: uvm_test_top.env.agent.monitor [IF] PC=0000008c  INSTR=01b657b3  [SRL  x15, x12, x27]            
# UVM_INFO C:/Documents/DoAnThietKeViMach/Project/SoC/VERIFICATION/Monitor/cpu_monitor.sv(296) @ 2405000: uvm_test_top.env.agent.monitor [WB] x30 <= 00000000  (PC~0000008c)
# UVM_INFO C:/Documents/DoAnThietKeViMach/Project/SoC/VERIFICATION/Monitor/cpu_monitor.sv(364) @ 2445000: uvm_test_top.env.agent.monitor [AXI_RD] CPU <- TIMER  Addr=20000008 Data=00000000 RRESP=00
# UVM_INFO C:/Documents/DoAnThietKeViMach/Project/SoC/VERIFICATION/Scoreboard/cpu_scoreboard.sv(252) @ 2445000: uvm_test_top.env.scoreboard [SCB_PERIPH] [TIMER] READ Addr=20000008 Data=00000000 (volatile, compare skipped)
# UVM_INFO C:/Documents/DoAnThietKeViMach/Project/SoC/VERIFICATION/Monitor/cpu_monitor.sv(364) @ 2485000: uvm_test_top.env.agent.monitor [AXI_RD] CPU <- IRAM  Addr=00000090 Data=40946a13 RRESP=00
# UVM_INFO C:/Documents/DoAnThietKeViMach/Project/SoC/VERIFICATION/Monitor/cpu_monitor.sv(234) @ 2485000: uvm_test_top.env.agent.monitor [IF] PC=00000090  INSTR=40946a13  [ORI  x20, x8, 1033]            
# UVM_INFO C:/Documents/DoAnThietKeViMach/Project/SoC/VERIFICATION/Monitor/cpu_monitor.sv(364) @ 2525000: uvm_test_top.env.agent.monitor [AXI_RD] CPU <- IRAM  Addr=00000094 Data=0121a023 RRESP=00
# UVM_INFO C:/Documents/DoAnThietKeViMach/Project/SoC/VERIFICATION/Monitor/cpu_monitor.sv(234) @ 2525000: uvm_test_top.env.agent.monitor [IF] PC=00000094  INSTR=0121a023  [SW   x18, 18(x3)]            
# UVM_INFO C:/Documents/DoAnThietKeViMach/Project/SoC/VERIFICATION/Monitor/cpu_monitor.sv(296) @ 2535000: uvm_test_top.env.agent.monitor [WB] x24 <= 00000000  (PC~00000094)
# UVM_INFO C:/Documents/DoAnThietKeViMach/Project/SoC/VERIFICATION/Monitor/cpu_monitor.sv(296) @ 2545000: uvm_test_top.env.agent.monitor [WB] x24 <= 00000000  (PC~00000094)
# UVM_INFO C:/Documents/DoAnThietKeViMach/Project/SoC/VERIFICATION/Monitor/cpu_monitor.sv(296) @ 2555000: uvm_test_top.env.agent.monitor [WB] x24 <= 00000000  (PC~00000094)
# UVM_INFO C:/Documents/DoAnThietKeViMach/Project/SoC/VERIFICATION/Monitor/cpu_monitor.sv(364) @ 2565000: uvm_test_top.env.agent.monitor [AXI_RD] CPU <- IRAM  Addr=00000098 Data=0111a623 RRESP=00
# UVM_INFO C:/Documents/DoAnThietKeViMach/Project/SoC/VERIFICATION/Monitor/cpu_monitor.sv(234) @ 2565000: uvm_test_top.env.agent.monitor [IF] PC=00000098  INSTR=0111a623  [SW   x17, 17(x3)]            
# UVM_INFO C:/Documents/DoAnThietKeViMach/Project/SoC/VERIFICATION/Monitor/cpu_monitor.sv(296) @ 2565000: uvm_test_top.env.agent.monitor [WB] x24 <= 00000000  (PC~00000098)
# UVM_INFO C:/Documents/DoAnThietKeViMach/Project/SoC/VERIFICATION/Monitor/cpu_monitor.sv(296) @ 2575000: uvm_test_top.env.agent.monitor [WB] x15 <= ffffffb3  (PC~00000098)
# UVM_INFO C:/Documents/DoAnThietKeViMach/Project/SoC/VERIFICATION/Monitor/cpu_monitor.sv(296) @ 2585000: uvm_test_top.env.agent.monitor [WB] x15 <= ffffffb3  (PC~00000098)
# UVM_INFO C:/Documents/DoAnThietKeViMach/Project/SoC/VERIFICATION/Monitor/cpu_monitor.sv(296) @ 2595000: uvm_test_top.env.agent.monitor [WB] x15 <= ffffffb3  (PC~00000098)
# UVM_INFO C:/Documents/DoAnThietKeViMach/Project/SoC/VERIFICATION/Monitor/cpu_monitor.sv(364) @ 2605000: uvm_test_top.env.agent.monitor [AXI_RD] CPU <- IRAM  Addr=0000009c Data=384a4c13 RRESP=00
# UVM_INFO C:/Documents/DoAnThietKeViMach/Project/SoC/VERIFICATION/Monitor/cpu_monitor.sv(234) @ 2605000: uvm_test_top.env.agent.monitor [IF] PC=0000009c  INSTR=384a4c13  [XORI x24, x20, 900]            
# UVM_INFO C:/Documents/DoAnThietKeViMach/Project/SoC/VERIFICATION/Monitor/cpu_monitor.sv(296) @ 2605000: uvm_test_top.env.agent.monitor [WB] x15 <= ffffffb3  (PC~0000009c)
# UVM_INFO C:/Documents/DoAnThietKeViMach/Project/SoC/VERIFICATION/Monitor/cpu_monitor.sv(268) @ 2615000: uvm_test_top.env.agent.monitor [MEM] STORE Addr=30000000 Data=00000000
# UVM_INFO C:/Documents/DoAnThietKeViMach/Project/SoC/VERIFICATION/Monitor/cpu_monitor.sv(268) @ 2625000: uvm_test_top.env.agent.monitor [MEM] STORE Addr=30000000 Data=00000000
# UVM_INFO C:/Documents/DoAnThietKeViMach/Project/SoC/VERIFICATION/Monitor/cpu_monitor.sv(268) @ 2635000: uvm_test_top.env.agent.monitor [MEM] STORE Addr=30000000 Data=00000000
# UVM_INFO C:/Documents/DoAnThietKeViMach/Project/SoC/VERIFICATION/Monitor/cpu_monitor.sv(335) @ 2645000: uvm_test_top.env.agent.monitor [AXI_WR] CPU -> UART  Addr=30000000 Data=00000000 Strb=1111 BRESP=00
# UVM_INFO C:/Documents/DoAnThietKeViMach/Project/SoC/VERIFICATION/Scoreboard/cpu_scoreboard.sv(246) @ 2645000: uvm_test_top.env.scoreboard [SCB_PERIPH] [UART] WRITE Addr=30000000 Data=00000000
# UVM_INFO C:/Documents/DoAnThietKeViMach/Project/SoC/VERIFICATION/Monitor/cpu_monitor.sv(268) @ 2645000: uvm_test_top.env.agent.monitor [MEM] STORE Addr=30000000 Data=00000000
# UVM_INFO C:/Documents/DoAnThietKeViMach/Project/SoC/VERIFICATION/Monitor/cpu_monitor.sv(296) @ 2645000: uvm_test_top.env.agent.monitor [WB] x20 <= 00000409  (PC~0000009c)
# UVM_INFO C:/Documents/DoAnThietKeViMach/Project/SoC/VERIFICATION/Monitor/cpu_monitor.sv(268) @ 2655000: uvm_test_top.env.agent.monitor [MEM] STORE Addr=30000000 Data=00000000
# UVM_INFO C:/Documents/DoAnThietKeViMach/Project/SoC/VERIFICATION/Monitor/cpu_monitor.sv(296) @ 2655000: uvm_test_top.env.agent.monitor [WB] x20 <= 00000409  (PC~0000009c)
# UVM_INFO C:/Documents/DoAnThietKeViMach/Project/SoC/VERIFICATION/Monitor/cpu_monitor.sv(268) @ 2665000: uvm_test_top.env.agent.monitor [MEM] STORE Addr=30000000 Data=00000000
# UVM_INFO C:/Documents/DoAnThietKeViMach/Project/SoC/VERIFICATION/Monitor/cpu_monitor.sv(296) @ 2665000: uvm_test_top.env.agent.monitor [WB] x20 <= 00000409  (PC~0000009c)
# UVM_INFO C:/Documents/DoAnThietKeViMach/Project/SoC/VERIFICATION/Monitor/cpu_monitor.sv(268) @ 2675000: uvm_test_top.env.agent.monitor [MEM] STORE Addr=30000000 Data=00000000
# UVM_INFO C:/Documents/DoAnThietKeViMach/Project/SoC/VERIFICATION/Monitor/cpu_monitor.sv(296) @ 2675000: uvm_test_top.env.agent.monitor [WB] x20 <= 00000409  (PC~0000009c)
# UVM_INFO C:/Documents/DoAnThietKeViMach/Project/SoC/VERIFICATION/Monitor/cpu_monitor.sv(364) @ 2685000: uvm_test_top.env.agent.monitor [AXI_RD] CPU <- IRAM  Addr=000000a0 Data=00d81db3 RRESP=00
# UVM_INFO C:/Documents/DoAnThietKeViMach/Project/SoC/VERIFICATION/Monitor/cpu_monitor.sv(234) @ 2685000: uvm_test_top.env.agent.monitor [IF] PC=000000a0  INSTR=00d81db3  [SLL  x27, x16, x13]            
# UVM_INFO C:/Documents/DoAnThietKeViMach/Project/SoC/VERIFICATION/Monitor/cpu_monitor.sv(268) @ 2685000: uvm_test_top.env.agent.monitor [MEM] STORE Addr=30000000 Data=00000000
# UVM_INFO C:/Documents/DoAnThietKeViMach/Project/SoC/VERIFICATION/Monitor/cpu_monitor.sv(296) @ 2685000: uvm_test_top.env.agent.monitor [WB] x20 <= 00000409  (PC~000000a0)
# UVM_INFO C:/Documents/DoAnThietKeViMach/Project/SoC/VERIFICATION/Monitor/cpu_monitor.sv(268) @ 2695000: uvm_test_top.env.agent.monitor [MEM] STORE Addr=3000000c Data=00000000
# UVM_INFO C:/Documents/DoAnThietKeViMach/Project/SoC/VERIFICATION/Monitor/cpu_monitor.sv(268) @ 2705000: uvm_test_top.env.agent.monitor [MEM] STORE Addr=3000000c Data=00000000
# UVM_INFO C:/Documents/DoAnThietKeViMach/Project/SoC/VERIFICATION/Monitor/cpu_monitor.sv(268) @ 2715000: uvm_test_top.env.agent.monitor [MEM] STORE Addr=3000000c Data=00000000
# UVM_INFO C:/Documents/DoAnThietKeViMach/Project/SoC/VERIFICATION/Monitor/cpu_monitor.sv(335) @ 2725000: uvm_test_top.env.agent.monitor [AXI_WR] CPU -> UART  Addr=3000000c Data=00000000 Strb=1111 BRESP=00
# UVM_INFO C:/Documents/DoAnThietKeViMach/Project/SoC/VERIFICATION/Scoreboard/cpu_scoreboard.sv(246) @ 2725000: uvm_test_top.env.scoreboard [SCB_PERIPH] [UART] WRITE Addr=3000000c Data=00000000
# UVM_INFO C:/Documents/DoAnThietKeViMach/Project/SoC/VERIFICATION/Monitor/cpu_monitor.sv(268) @ 2725000: uvm_test_top.env.agent.monitor [MEM] STORE Addr=3000000c Data=00000000
# UVM_INFO C:/Documents/DoAnThietKeViMach/Project/SoC/VERIFICATION/Monitor/cpu_monitor.sv(268) @ 2735000: uvm_test_top.env.agent.monitor [MEM] STORE Addr=3000000c Data=00000000
# UVM_INFO C:/Documents/DoAnThietKeViMach/Project/SoC/VERIFICATION/Monitor/cpu_monitor.sv(268) @ 2745000: uvm_test_top.env.agent.monitor [MEM] STORE Addr=3000000c Data=00000000
# UVM_INFO C:/Documents/DoAnThietKeViMach/Project/SoC/VERIFICATION/Monitor/cpu_monitor.sv(268) @ 2755000: uvm_test_top.env.agent.monitor [MEM] STORE Addr=3000000c Data=00000000
# UVM_INFO C:/Documents/DoAnThietKeViMach/Project/SoC/VERIFICATION/Monitor/cpu_monitor.sv(364) @ 2765000: uvm_test_top.env.agent.monitor [AXI_RD] CPU <- IRAM  Addr=000000a4 Data=004003ef RRESP=00
# UVM_INFO C:/Documents/DoAnThietKeViMach/Project/SoC/VERIFICATION/Monitor/cpu_monitor.sv(234) @ 2765000: uvm_test_top.env.agent.monitor [IF] PC=000000a4  INSTR=004003ef  [JAL  x7, ...]            
# UVM_INFO C:/Documents/DoAnThietKeViMach/Project/SoC/VERIFICATION/Monitor/cpu_monitor.sv(268) @ 2765000: uvm_test_top.env.agent.monitor [MEM] STORE Addr=3000000c Data=00000000
# UVM_INFO C:/Documents/DoAnThietKeViMach/Project/SoC/VERIFICATION/Monitor/cpu_monitor.sv(364) @ 2805000: uvm_test_top.env.agent.monitor [AXI_RD] CPU <- IRAM  Addr=000000a8 Data=00512223 RRESP=00
# UVM_INFO C:/Documents/DoAnThietKeViMach/Project/SoC/VERIFICATION/Monitor/cpu_monitor.sv(234) @ 2805000: uvm_test_top.env.agent.monitor [IF] PC=000000a8  INSTR=00512223  [SW   x5, 5(x2)]            
# UVM_INFO C:/Documents/DoAnThietKeViMach/Project/SoC/VERIFICATION/Monitor/cpu_monitor.sv(296) @ 2815000: uvm_test_top.env.agent.monitor [WB] x24 <= 0000078d  (PC~000000a8)
# UVM_INFO C:/Documents/DoAnThietKeViMach/Project/SoC/VERIFICATION/Monitor/cpu_monitor.sv(296) @ 2825000: uvm_test_top.env.agent.monitor [WB] x24 <= 0000078d  (PC~000000a8)
# UVM_INFO C:/Documents/DoAnThietKeViMach/Project/SoC/VERIFICATION/Monitor/cpu_monitor.sv(296) @ 2835000: uvm_test_top.env.agent.monitor [WB] x24 <= 0000078d  (PC~000000a8)
# UVM_INFO C:/Documents/DoAnThietKeViMach/Project/SoC/VERIFICATION/Monitor/cpu_monitor.sv(364) @ 2845000: uvm_test_top.env.agent.monitor [AXI_RD] CPU <- IRAM  Addr=000000ac Data=90a52513 RRESP=00
# UVM_INFO C:/Documents/DoAnThietKeViMach/Project/SoC/VERIFICATION/Monitor/cpu_monitor.sv(234) @ 2845000: uvm_test_top.env.agent.monitor [IF] PC=000000ac  INSTR=90a52513  [I-?? x10, x10, -1782]            
# UVM_INFO C:/Documents/DoAnThietKeViMach/Project/SoC/VERIFICATION/Monitor/cpu_monitor.sv(296) @ 2845000: uvm_test_top.env.agent.monitor [WB] x24 <= 0000078d  (PC~000000ac)
# UVM_INFO C:/Documents/DoAnThietKeViMach/Project/SoC/VERIFICATION/Monitor/cpu_monitor.sv(296) @ 2855000: uvm_test_top.env.agent.monitor [WB] x27 <= 00000000  (PC~000000ac)
# UVM_INFO C:/Documents/DoAnThietKeViMach/Project/SoC/VERIFICATION/Monitor/cpu_monitor.sv(296) @ 2865000: uvm_test_top.env.agent.monitor [WB] x27 <= 00000000  (PC~000000ac)
# UVM_INFO C:/Documents/DoAnThietKeViMach/Project/SoC/VERIFICATION/Monitor/cpu_monitor.sv(296) @ 2875000: uvm_test_top.env.agent.monitor [WB] x27 <= 00000000  (PC~000000ac)
# UVM_INFO C:/Documents/DoAnThietKeViMach/Project/SoC/VERIFICATION/Monitor/cpu_monitor.sv(364) @ 2885000: uvm_test_top.env.agent.monitor [AXI_RD] CPU <- IRAM  Addr=000000a8 Data=00512223 RRESP=00
# UVM_INFO C:/Documents/DoAnThietKeViMach/Project/SoC/VERIFICATION/Monitor/cpu_monitor.sv(234) @ 2885000: uvm_test_top.env.agent.monitor [IF] PC=000000a8  INSTR=00512223  [SW   x5, 5(x2)]            
# UVM_INFO C:/Documents/DoAnThietKeViMach/Project/SoC/VERIFICATION/Monitor/cpu_monitor.sv(296) @ 2885000: uvm_test_top.env.agent.monitor [WB] x27 <= 00000000  (PC~000000a8)
# UVM_INFO C:/Documents/DoAnThietKeViMach/Project/SoC/VERIFICATION/Monitor/cpu_monitor.sv(296) @ 2895000: uvm_test_top.env.agent.monitor [WB] x07 <= 000000a8  (PC~000000a8)
# UVM_INFO C:/Documents/DoAnThietKeViMach/Project/SoC/VERIFICATION/Monitor/cpu_monitor.sv(296) @ 2905000: uvm_test_top.env.agent.monitor [WB] x07 <= 000000a8  (PC~000000a8)
# UVM_INFO C:/Documents/DoAnThietKeViMach/Project/SoC/VERIFICATION/Monitor/cpu_monitor.sv(296) @ 2915000: uvm_test_top.env.agent.monitor [WB] x07 <= 000000a8  (PC~000000a8)
# UVM_INFO C:/Documents/DoAnThietKeViMach/Project/SoC/VERIFICATION/Monitor/cpu_monitor.sv(364) @ 2925000: uvm_test_top.env.agent.monitor [AXI_RD] CPU <- IRAM  Addr=000000ac Data=90a52513 RRESP=00
# UVM_INFO C:/Documents/DoAnThietKeViMach/Project/SoC/VERIFICATION/Monitor/cpu_monitor.sv(234) @ 2925000: uvm_test_top.env.agent.monitor [IF] PC=000000ac  INSTR=90a52513  [I-?? x10, x10, -1782]            
# UVM_INFO C:/Documents/DoAnThietKeViMach/Project/SoC/VERIFICATION/Monitor/cpu_monitor.sv(296) @ 2925000: uvm_test_top.env.agent.monitor [WB] x07 <= 000000a8  (PC~000000ac)
# UVM_INFO C:/Documents/DoAnThietKeViMach/Project/SoC/VERIFICATION/Monitor/cpu_monitor.sv(364) @ 2965000: uvm_test_top.env.agent.monitor [AXI_RD] CPU <- IRAM  Addr=000000b0 Data=b349f393 RRESP=00
# UVM_INFO C:/Documents/DoAnThietKeViMach/Project/SoC/VERIFICATION/Monitor/cpu_monitor.sv(234) @ 2965000: uvm_test_top.env.agent.monitor [IF] PC=000000b0  INSTR=b349f393  [ANDI x7, x19, -1228]            
# UVM_INFO C:/Documents/DoAnThietKeViMach/Project/SoC/VERIFICATION/Monitor/cpu_monitor.sv(268) @ 2975000: uvm_test_top.env.agent.monitor [MEM] STORE Addr=20000004 Data=00000000
# UVM_INFO C:/Documents/DoAnThietKeViMach/Project/SoC/VERIFICATION/Monitor/cpu_monitor.sv(268) @ 2985000: uvm_test_top.env.agent.monitor [MEM] STORE Addr=20000004 Data=00000000
# UVM_INFO C:/Documents/DoAnThietKeViMach/Project/SoC/VERIFICATION/Monitor/cpu_monitor.sv(268) @ 2995000: uvm_test_top.env.agent.monitor [MEM] STORE Addr=20000004 Data=00000000
# UVM_INFO C:/Documents/DoAnThietKeViMach/Project/SoC/VERIFICATION/Monitor/cpu_monitor.sv(268) @ 3005000: uvm_test_top.env.agent.monitor [MEM] STORE Addr=20000004 Data=00000000
# UVM_INFO C:/Documents/DoAnThietKeViMach/Project/SoC/VERIFICATION/Monitor/cpu_monitor.sv(335) @ 3015000: uvm_test_top.env.agent.monitor [AXI_WR] CPU -> TIMER  Addr=20000004 Data=00000000 Strb=1111 BRESP=00
# UVM_INFO C:/Documents/DoAnThietKeViMach/Project/SoC/VERIFICATION/Scoreboard/cpu_scoreboard.sv(246) @ 3015000: uvm_test_top.env.scoreboard [SCB_PERIPH] [TIMER] WRITE Addr=20000004 Data=00000000
# UVM_INFO C:/Documents/DoAnThietKeViMach/Project/SoC/VERIFICATION/Monitor/cpu_monitor.sv(268) @ 3015000: uvm_test_top.env.agent.monitor [MEM] STORE Addr=20000004 Data=00000000
# UVM_INFO C:/Documents/DoAnThietKeViMach/Project/SoC/VERIFICATION/Monitor/cpu_monitor.sv(268) @ 3025000: uvm_test_top.env.agent.monitor [MEM] STORE Addr=20000004 Data=00000000
# UVM_INFO C:/Documents/DoAnThietKeViMach/Project/SoC/VERIFICATION/Monitor/cpu_monitor.sv(268) @ 3035000: uvm_test_top.env.agent.monitor [MEM] STORE Addr=20000004 Data=00000000
# UVM_INFO C:/Documents/DoAnThietKeViMach/Project/SoC/VERIFICATION/Monitor/cpu_monitor.sv(268) @ 3045000: uvm_test_top.env.agent.monitor [MEM] STORE Addr=20000004 Data=00000000
# UVM_INFO C:/Documents/DoAnThietKeViMach/Project/SoC/VERIFICATION/Monitor/cpu_monitor.sv(364) @ 3055000: uvm_test_top.env.agent.monitor [AXI_RD] CPU <- IRAM  Addr=000000b4 Data=009e25b3 RRESP=00
# UVM_INFO C:/Documents/DoAnThietKeViMach/Project/SoC/VERIFICATION/Monitor/cpu_monitor.sv(234) @ 3055000: uvm_test_top.env.agent.monitor [IF] PC=000000b4  INSTR=009e25b3  [SLT  x11, x28, x9]            
# UVM_INFO C:/Documents/DoAnThietKeViMach/Project/SoC/VERIFICATION/Monitor/cpu_monitor.sv(268) @ 3055000: uvm_test_top.env.agent.monitor [MEM] STORE Addr=20000004 Data=00000000
# UVM_INFO C:/Documents/DoAnThietKeViMach/Project/SoC/VERIFICATION/Monitor/cpu_monitor.sv(364) @ 3095000: uvm_test_top.env.agent.monitor [AXI_RD] CPU <- IRAM  Addr=000000b8 Data=0040096f RRESP=00
# UVM_INFO C:/Documents/DoAnThietKeViMach/Project/SoC/VERIFICATION/Monitor/cpu_monitor.sv(234) @ 3095000: uvm_test_top.env.agent.monitor [IF] PC=000000b8  INSTR=0040096f  [JAL  x18, ...]            
# UVM_INFO C:/Documents/DoAnThietKeViMach/Project/SoC/VERIFICATION/Monitor/cpu_monitor.sv(296) @ 3105000: uvm_test_top.env.agent.monitor [WB] x10 <= 00000000  (PC~000000b8)
# UVM_INFO C:/Documents/DoAnThietKeViMach/Project/SoC/VERIFICATION/Monitor/cpu_monitor.sv(296) @ 3115000: uvm_test_top.env.agent.monitor [WB] x10 <= 00000000  (PC~000000b8)
# UVM_INFO C:/Documents/DoAnThietKeViMach/Project/SoC/VERIFICATION/Monitor/cpu_monitor.sv(296) @ 3125000: uvm_test_top.env.agent.monitor [WB] x10 <= 00000000  (PC~000000b8)
# UVM_INFO C:/Documents/DoAnThietKeViMach/Project/SoC/VERIFICATION/Monitor/cpu_monitor.sv(364) @ 3135000: uvm_test_top.env.agent.monitor [AXI_RD] CPU <- IRAM  Addr=000000bc Data=84e34b93 RRESP=00
# UVM_INFO C:/Documents/DoAnThietKeViMach/Project/SoC/VERIFICATION/Monitor/cpu_monitor.sv(234) @ 3135000: uvm_test_top.env.agent.monitor [IF] PC=000000bc  INSTR=84e34b93  [XORI x23, x6, -1970]            
# UVM_INFO C:/Documents/DoAnThietKeViMach/Project/SoC/VERIFICATION/Monitor/cpu_monitor.sv(296) @ 3135000: uvm_test_top.env.agent.monitor [WB] x10 <= 00000000  (PC~000000bc)
# UVM_INFO C:/Documents/DoAnThietKeViMach/Project/SoC/VERIFICATION/Monitor/cpu_monitor.sv(296) @ 3145000: uvm_test_top.env.agent.monitor [WB] x07 <= 00000000  (PC~000000bc)
# UVM_INFO C:/Documents/DoAnThietKeViMach/Project/SoC/VERIFICATION/Monitor/cpu_monitor.sv(296) @ 3155000: uvm_test_top.env.agent.monitor [WB] x07 <= 00000000  (PC~000000bc)
# UVM_INFO C:/Documents/DoAnThietKeViMach/Project/SoC/VERIFICATION/Monitor/cpu_monitor.sv(296) @ 3165000: uvm_test_top.env.agent.monitor [WB] x07 <= 00000000  (PC~000000bc)
# UVM_INFO C:/Documents/DoAnThietKeViMach/Project/SoC/VERIFICATION/Monitor/cpu_monitor.sv(364) @ 3175000: uvm_test_top.env.agent.monitor [AXI_RD] CPU <- IRAM  Addr=000000c0 Data=01ec6333 RRESP=00
# UVM_INFO C:/Documents/DoAnThietKeViMach/Project/SoC/VERIFICATION/Monitor/cpu_monitor.sv(234) @ 3175000: uvm_test_top.env.agent.monitor [IF] PC=000000c0  INSTR=01ec6333  [OR   x6, x24, x30]            
# UVM_INFO C:/Documents/DoAnThietKeViMach/Project/SoC/VERIFICATION/Monitor/cpu_monitor.sv(296) @ 3175000: uvm_test_top.env.agent.monitor [WB] x07 <= 00000000  (PC~000000c0)
# UVM_INFO C:/Documents/DoAnThietKeViMach/Project/SoC/VERIFICATION/Monitor/cpu_monitor.sv(296) @ 3185000: uvm_test_top.env.agent.monitor [WB] x11 <= 00000000  (PC~000000c0)
# UVM_INFO C:/Documents/DoAnThietKeViMach/Project/SoC/VERIFICATION/Monitor/cpu_monitor.sv(296) @ 3195000: uvm_test_top.env.agent.monitor [WB] x11 <= 00000000  (PC~000000c0)
# UVM_INFO C:/Documents/DoAnThietKeViMach/Project/SoC/VERIFICATION/Monitor/cpu_monitor.sv(296) @ 3205000: uvm_test_top.env.agent.monitor [WB] x11 <= 00000000  (PC~000000c0)
# UVM_INFO C:/Documents/DoAnThietKeViMach/Project/SoC/VERIFICATION/Monitor/cpu_monitor.sv(364) @ 3215000: uvm_test_top.env.agent.monitor [AXI_RD] CPU <- IRAM  Addr=000000bc Data=84e34b93 RRESP=00
# UVM_INFO C:/Documents/DoAnThietKeViMach/Project/SoC/VERIFICATION/Monitor/cpu_monitor.sv(234) @ 3215000: uvm_test_top.env.agent.monitor [IF] PC=000000bc  INSTR=84e34b93  [XORI x23, x6, -1970]            
# UVM_INFO C:/Documents/DoAnThietKeViMach/Project/SoC/VERIFICATION/Monitor/cpu_monitor.sv(296) @ 3215000: uvm_test_top.env.agent.monitor [WB] x11 <= 00000000  (PC~000000bc)
# UVM_INFO C:/Documents/DoAnThietKeViMach/Project/SoC/VERIFICATION/Monitor/cpu_monitor.sv(296) @ 3225000: uvm_test_top.env.agent.monitor [WB] x18 <= 000000bc  (PC~000000bc)
# UVM_INFO C:/Documents/DoAnThietKeViMach/Project/SoC/VERIFICATION/Monitor/cpu_monitor.sv(296) @ 3235000: uvm_test_top.env.agent.monitor [WB] x18 <= 000000bc  (PC~000000bc)
# UVM_INFO C:/Documents/DoAnThietKeViMach/Project/SoC/VERIFICATION/Monitor/cpu_monitor.sv(296) @ 3245000: uvm_test_top.env.agent.monitor [WB] x18 <= 000000bc  (PC~000000bc)
# UVM_INFO C:/Documents/DoAnThietKeViMach/Project/SoC/VERIFICATION/Monitor/cpu_monitor.sv(364) @ 3255000: uvm_test_top.env.agent.monitor [AXI_RD] CPU <- IRAM  Addr=000000c0 Data=01ec6333 RRESP=00
# UVM_INFO C:/Documents/DoAnThietKeViMach/Project/SoC/VERIFICATION/Monitor/cpu_monitor.sv(234) @ 3255000: uvm_test_top.env.agent.monitor [IF] PC=000000c0  INSTR=01ec6333  [OR   x6, x24, x30]            
# UVM_INFO C:/Documents/DoAnThietKeViMach/Project/SoC/VERIFICATION/Monitor/cpu_monitor.sv(296) @ 3255000: uvm_test_top.env.agent.monitor [WB] x18 <= 000000bc  (PC~000000c0)
# UVM_INFO C:/Documents/DoAnThietKeViMach/Project/SoC/VERIFICATION/Monitor/cpu_monitor.sv(364) @ 3295000: uvm_test_top.env.agent.monitor [AXI_RD] CPU <- IRAM  Addr=000000c4 Data=42c0a823 RRESP=00
# UVM_INFO C:/Documents/DoAnThietKeViMach/Project/SoC/VERIFICATION/Monitor/cpu_monitor.sv(234) @ 3295000: uvm_test_top.env.agent.monitor [IF] PC=000000c4  INSTR=42c0a823  [SW   x12, 1068(x1)]            
# UVM_INFO C:/Documents/DoAnThietKeViMach/Project/SoC/VERIFICATION/Monitor/cpu_monitor.sv(364) @ 3335000: uvm_test_top.env.agent.monitor [AXI_RD] CPU <- IRAM  Addr=000000c8 Data=00005263 RRESP=00
# UVM_INFO C:/Documents/DoAnThietKeViMach/Project/SoC/VERIFICATION/Monitor/cpu_monitor.sv(234) @ 3335000: uvm_test_top.env.agent.monitor [IF] PC=000000c8  INSTR=00005263  [BGE  x0, x0, ...]            
# UVM_INFO C:/Documents/DoAnThietKeViMach/Project/SoC/VERIFICATION/Monitor/cpu_monitor.sv(296) @ 3345000: uvm_test_top.env.agent.monitor [WB] x23 <= fffff84e  (PC~000000c8)
# UVM_INFO C:/Documents/DoAnThietKeViMach/Project/SoC/VERIFICATION/Monitor/cpu_monitor.sv(296) @ 3355000: uvm_test_top.env.agent.monitor [WB] x23 <= fffff84e  (PC~000000c8)
# UVM_INFO C:/Documents/DoAnThietKeViMach/Project/SoC/VERIFICATION/Monitor/cpu_monitor.sv(296) @ 3365000: uvm_test_top.env.agent.monitor [WB] x23 <= fffff84e  (PC~000000c8)
# UVM_INFO C:/Documents/DoAnThietKeViMach/Project/SoC/VERIFICATION/Monitor/cpu_monitor.sv(364) @ 3375000: uvm_test_top.env.agent.monitor [AXI_RD] CPU <- IRAM  Addr=000000cc Data=01804263 RRESP=00
# UVM_INFO C:/Documents/DoAnThietKeViMach/Project/SoC/VERIFICATION/Monitor/cpu_monitor.sv(234) @ 3375000: uvm_test_top.env.agent.monitor [IF] PC=000000cc  INSTR=01804263  [BLT  x0, x24, ...]            
# UVM_INFO C:/Documents/DoAnThietKeViMach/Project/SoC/VERIFICATION/Monitor/cpu_monitor.sv(296) @ 3375000: uvm_test_top.env.agent.monitor [WB] x23 <= fffff84e  (PC~000000cc)
# UVM_INFO C:/Documents/DoAnThietKeViMach/Project/SoC/VERIFICATION/Monitor/cpu_monitor.sv(268) @ 3385000: uvm_test_top.env.agent.monitor [MEM] STORE Addr=10000430 Data=ffffffb3
# UVM_INFO C:/Documents/DoAnThietKeViMach/Project/SoC/VERIFICATION/Monitor/cpu_monitor.sv(268) @ 3395000: uvm_test_top.env.agent.monitor [MEM] STORE Addr=10000430 Data=ffffffb3
# [DRAM WRITE] addr=10000430 data=ffffffb3
# UVM_INFO C:/Documents/DoAnThietKeViMach/Project/SoC/VERIFICATION/Monitor/cpu_monitor.sv(268) @ 3405000: uvm_test_top.env.agent.monitor [MEM] STORE Addr=10000430 Data=ffffffb3
# UVM_INFO C:/Documents/DoAnThietKeViMach/Project/SoC/VERIFICATION/Monitor/cpu_monitor.sv(335) @ 3415000: uvm_test_top.env.agent.monitor [AXI_WR] CPU -> DRAM  Addr=10000430 Data=ffffffb3 Strb=1111 BRESP=00
# UVM_INFO C:/Documents/DoAnThietKeViMach/Project/SoC/VERIFICATION/Monitor/cpu_monitor.sv(268) @ 3415000: uvm_test_top.env.agent.monitor [MEM] STORE Addr=10000430 Data=ffffffb3
# UVM_INFO C:/Documents/DoAnThietKeViMach/Project/SoC/VERIFICATION/Monitor/cpu_monitor.sv(296) @ 3415000: uvm_test_top.env.agent.monitor [WB] x06 <= 0000078d  (PC~000000cc)
# UVM_INFO C:/Documents/DoAnThietKeViMach/Project/SoC/VERIFICATION/Monitor/cpu_monitor.sv(268) @ 3425000: uvm_test_top.env.agent.monitor [MEM] STORE Addr=10000430 Data=ffffffb3
# UVM_INFO C:/Documents/DoAnThietKeViMach/Project/SoC/VERIFICATION/Monitor/cpu_monitor.sv(296) @ 3425000: uvm_test_top.env.agent.monitor [WB] x06 <= 0000078d  (PC~000000cc)
# UVM_INFO C:/Documents/DoAnThietKeViMach/Project/SoC/VERIFICATION/Monitor/cpu_monitor.sv(268) @ 3435000: uvm_test_top.env.agent.monitor [MEM] STORE Addr=10000430 Data=ffffffb3
# UVM_INFO C:/Documents/DoAnThietKeViMach/Project/SoC/VERIFICATION/Monitor/cpu_monitor.sv(296) @ 3435000: uvm_test_top.env.agent.monitor [WB] x06 <= 0000078d  (PC~000000cc)
# UVM_INFO C:/Documents/DoAnThietKeViMach/Project/SoC/VERIFICATION/Monitor/cpu_monitor.sv(268) @ 3445000: uvm_test_top.env.agent.monitor [MEM] STORE Addr=10000430 Data=ffffffb3
# UVM_INFO C:/Documents/DoAnThietKeViMach/Project/SoC/VERIFICATION/Monitor/cpu_monitor.sv(296) @ 3445000: uvm_test_top.env.agent.monitor [WB] x06 <= 0000078d  (PC~000000cc)
# UVM_INFO C:/Documents/DoAnThietKeViMach/Project/SoC/VERIFICATION/Monitor/cpu_monitor.sv(364) @ 3455000: uvm_test_top.env.agent.monitor [AXI_RD] CPU <- IRAM  Addr=000000d0 Data=0041a003 RRESP=00
# UVM_INFO C:/Documents/DoAnThietKeViMach/Project/SoC/VERIFICATION/Monitor/cpu_monitor.sv(234) @ 3455000: uvm_test_top.env.agent.monitor [IF] PC=000000d0  INSTR=0041a003  [LW   x0, 4(x3)]            
# UVM_INFO C:/Documents/DoAnThietKeViMach/Project/SoC/VERIFICATION/Monitor/cpu_monitor.sv(268) @ 3455000: uvm_test_top.env.agent.monitor [MEM] STORE Addr=10000430 Data=ffffffb3
# UVM_INFO C:/Documents/DoAnThietKeViMach/Project/SoC/VERIFICATION/Monitor/cpu_monitor.sv(296) @ 3455000: uvm_test_top.env.agent.monitor [WB] x06 <= 0000078d  (PC~000000d0)
# UVM_INFO C:/Documents/DoAnThietKeViMach/Project/SoC/VERIFICATION/Monitor/cpu_monitor.sv(364) @ 3495000: uvm_test_top.env.agent.monitor [AXI_RD] CPU <- IRAM  Addr=000000cc Data=01804263 RRESP=00
# UVM_INFO C:/Documents/DoAnThietKeViMach/Project/SoC/VERIFICATION/Monitor/cpu_monitor.sv(234) @ 3495000: uvm_test_top.env.agent.monitor [IF] PC=000000cc  INSTR=01804263  [BLT  x0, x24, ...]            
# UVM_INFO C:/Documents/DoAnThietKeViMach/Project/SoC/VERIFICATION/Monitor/cpu_monitor.sv(364) @ 3535000: uvm_test_top.env.agent.monitor [AXI_RD] CPU <- IRAM  Addr=000000d0 Data=0041a003 RRESP=00
# UVM_INFO C:/Documents/DoAnThietKeViMach/Project/SoC/VERIFICATION/Monitor/cpu_monitor.sv(234) @ 3535000: uvm_test_top.env.agent.monitor [IF] PC=000000d0  INSTR=0041a003  [LW   x0, 4(x3)]            
# UVM_INFO C:/Documents/DoAnThietKeViMach/Project/SoC/VERIFICATION/Monitor/cpu_monitor.sv(364) @ 3575000: uvm_test_top.env.agent.monitor [AXI_RD] CPU <- IRAM  Addr=000000d4 Data=0165ad33 RRESP=00
# UVM_INFO C:/Documents/DoAnThietKeViMach/Project/SoC/VERIFICATION/Monitor/cpu_monitor.sv(234) @ 3575000: uvm_test_top.env.agent.monitor [IF] PC=000000d4  INSTR=0165ad33  [SLT  x26, x11, x22]            
# UVM_INFO C:/Documents/DoAnThietKeViMach/Project/SoC/VERIFICATION/Monitor/cpu_monitor.sv(364) @ 3615000: uvm_test_top.env.agent.monitor [AXI_RD] CPU <- IRAM  Addr=000000d0 Data=0041a003 RRESP=00
# UVM_INFO C:/Documents/DoAnThietKeViMach/Project/SoC/VERIFICATION/Monitor/cpu_monitor.sv(234) @ 3615000: uvm_test_top.env.agent.monitor [IF] PC=000000d0  INSTR=0041a003  [LW   x0, 4(x3)]            
# UVM_INFO C:/Documents/DoAnThietKeViMach/Project/SoC/VERIFICATION/Monitor/cpu_monitor.sv(364) @ 3655000: uvm_test_top.env.agent.monitor [AXI_RD] CPU <- IRAM  Addr=000000d4 Data=0165ad33 RRESP=00
# UVM_INFO C:/Documents/DoAnThietKeViMach/Project/SoC/VERIFICATION/Monitor/cpu_monitor.sv(234) @ 3655000: uvm_test_top.env.agent.monitor [IF] PC=000000d4  INSTR=0165ad33  [SLT  x26, x11, x22]            
# UVM_INFO C:/Documents/DoAnThietKeViMach/Project/SoC/VERIFICATION/Monitor/cpu_monitor.sv(364) @ 3695000: uvm_test_top.env.agent.monitor [AXI_RD] CPU <- IRAM  Addr=000000d8 Data=01d04263 RRESP=00
# UVM_INFO C:/Documents/DoAnThietKeViMach/Project/SoC/VERIFICATION/Monitor/cpu_monitor.sv(234) @ 3695000: uvm_test_top.env.agent.monitor [IF] PC=000000d8  INSTR=01d04263  [BLT  x0, x29, ...]            
# UVM_INFO C:/Documents/DoAnThietKeViMach/Project/SoC/VERIFICATION/Monitor/cpu_monitor.sv(364) @ 3735000: uvm_test_top.env.agent.monitor [AXI_RD] CPU <- UART  Addr=30000004 Data=000000xx RRESP=00
# UVM_INFO C:/Documents/DoAnThietKeViMach/Project/SoC/VERIFICATION/Scoreboard/cpu_scoreboard.sv(252) @ 3735000: uvm_test_top.env.scoreboard [SCB_PERIPH] [UART] READ Addr=30000004 Data=00000000 (volatile, compare skipped)
# UVM_INFO C:/Documents/DoAnThietKeViMach/Project/SoC/VERIFICATION/Monitor/cpu_monitor.sv(364) @ 3775000: uvm_test_top.env.agent.monitor [AXI_RD] CPU <- IRAM  Addr=000000dc Data=00c28fb3 RRESP=00
# UVM_INFO C:/Documents/DoAnThietKeViMach/Project/SoC/VERIFICATION/Monitor/cpu_monitor.sv(234) @ 3775000: uvm_test_top.env.agent.monitor [IF] PC=000000dc  INSTR=00c28fb3  [ADD  x31, x5, x12]            
# UVM_INFO C:/Documents/DoAnThietKeViMach/Project/SoC/VERIFICATION/Monitor/cpu_monitor.sv(364) @ 3815000: uvm_test_top.env.agent.monitor [AXI_RD] CPU <- IRAM  Addr=000000e0 Data=0131a623 RRESP=00
# UVM_INFO C:/Documents/DoAnThietKeViMach/Project/SoC/VERIFICATION/Monitor/cpu_monitor.sv(234) @ 3815000: uvm_test_top.env.agent.monitor [IF] PC=000000e0  INSTR=0131a623  [SW   x19, 19(x3)]            
# UVM_INFO C:/Documents/DoAnThietKeViMach/Project/SoC/VERIFICATION/Monitor/cpu_monitor.sv(296) @ 3825000: uvm_test_top.env.agent.monitor [WB] x26 <= 00000000  (PC~000000e0)
# UVM_INFO C:/Documents/DoAnThietKeViMach/Project/SoC/VERIFICATION/Monitor/cpu_monitor.sv(296) @ 3835000: uvm_test_top.env.agent.monitor [WB] x26 <= 00000000  (PC~000000e0)
# UVM_INFO C:/Documents/DoAnThietKeViMach/Project/SoC/VERIFICATION/Monitor/cpu_monitor.sv(296) @ 3845000: uvm_test_top.env.agent.monitor [WB] x26 <= 00000000  (PC~000000e0)
# UVM_INFO C:/Documents/DoAnThietKeViMach/Project/SoC/VERIFICATION/Monitor/cpu_monitor.sv(364) @ 3855000: uvm_test_top.env.agent.monitor [AXI_RD] CPU <- IRAM  Addr=000000dc Data=00c28fb3 RRESP=00
# UVM_INFO C:/Documents/DoAnThietKeViMach/Project/SoC/VERIFICATION/Monitor/cpu_monitor.sv(234) @ 3855000: uvm_test_top.env.agent.monitor [IF] PC=000000dc  INSTR=00c28fb3  [ADD  x31, x5, x12]            
# UVM_INFO C:/Documents/DoAnThietKeViMach/Project/SoC/VERIFICATION/Monitor/cpu_monitor.sv(296) @ 3855000: uvm_test_top.env.agent.monitor [WB] x26 <= 00000000  (PC~000000dc)
# UVM_INFO C:/Documents/DoAnThietKeViMach/Project/SoC/VERIFICATION/Monitor/cpu_monitor.sv(364) @ 3895000: uvm_test_top.env.agent.monitor [AXI_RD] CPU <- IRAM  Addr=000000e0 Data=0131a623 RRESP=00
# UVM_INFO C:/Documents/DoAnThietKeViMach/Project/SoC/VERIFICATION/Monitor/cpu_monitor.sv(234) @ 3895000: uvm_test_top.env.agent.monitor [IF] PC=000000e0  INSTR=0131a623  [SW   x19, 19(x3)]            
# UVM_INFO C:/Documents/DoAnThietKeViMach/Project/SoC/VERIFICATION/Monitor/cpu_monitor.sv(364) @ 3935000: uvm_test_top.env.agent.monitor [AXI_RD] CPU <- IRAM  Addr=000000e4 Data=01ccc2b3 RRESP=00
# UVM_INFO C:/Documents/DoAnThietKeViMach/Project/SoC/VERIFICATION/Monitor/cpu_monitor.sv(234) @ 3935000: uvm_test_top.env.agent.monitor [IF] PC=000000e4  INSTR=01ccc2b3  [XOR  x5, x25, x28]            
# UVM_INFO C:/Documents/DoAnThietKeViMach/Project/SoC/VERIFICATION/Monitor/cpu_monitor.sv(364) @ 3975000: uvm_test_top.env.agent.monitor [AXI_RD] CPU <- IRAM  Addr=000000e8 Data=01a12223 RRESP=00
# UVM_INFO C:/Documents/DoAnThietKeViMach/Project/SoC/VERIFICATION/Monitor/cpu_monitor.sv(234) @ 3975000: uvm_test_top.env.agent.monitor [IF] PC=000000e8  INSTR=01a12223  [SW   x26, 26(x2)]            
# UVM_INFO C:/Documents/DoAnThietKeViMach/Project/SoC/VERIFICATION/Monitor/cpu_monitor.sv(268) @ 3985000: uvm_test_top.env.agent.monitor [MEM] STORE Addr=3000000c Data=00000000
# UVM_INFO C:/Documents/DoAnThietKeViMach/Project/SoC/VERIFICATION/Monitor/cpu_monitor.sv(268) @ 3995000: uvm_test_top.env.agent.monitor [MEM] STORE Addr=3000000c Data=00000000
# UVM_INFO C:/Documents/DoAnThietKeViMach/Project/SoC/VERIFICATION/Monitor/cpu_monitor.sv(268) @ 4005000: uvm_test_top.env.agent.monitor [MEM] STORE Addr=3000000c Data=00000000
# UVM_INFO C:/Documents/DoAnThietKeViMach/Project/SoC/VERIFICATION/Monitor/cpu_monitor.sv(335) @ 4015000: uvm_test_top.env.agent.monitor [AXI_WR] CPU -> UART  Addr=3000000c Data=00000000 Strb=1111 BRESP=00
# UVM_INFO C:/Documents/DoAnThietKeViMach/Project/SoC/VERIFICATION/Scoreboard/cpu_scoreboard.sv(246) @ 4015000: uvm_test_top.env.scoreboard [SCB_PERIPH] [UART] WRITE Addr=3000000c Data=00000000
# UVM_INFO C:/Documents/DoAnThietKeViMach/Project/SoC/VERIFICATION/Monitor/cpu_monitor.sv(268) @ 4015000: uvm_test_top.env.agent.monitor [MEM] STORE Addr=3000000c Data=00000000
# UVM_INFO C:/Documents/DoAnThietKeViMach/Project/SoC/VERIFICATION/Monitor/cpu_monitor.sv(296) @ 4015000: uvm_test_top.env.agent.monitor [WB] x31 <= ffffffb3  (PC~000000e8)
# UVM_INFO C:/Documents/DoAnThietKeViMach/Project/SoC/VERIFICATION/Monitor/cpu_monitor.sv(268) @ 4025000: uvm_test_top.env.agent.monitor [MEM] STORE Addr=3000000c Data=00000000
# UVM_INFO C:/Documents/DoAnThietKeViMach/Project/SoC/VERIFICATION/Monitor/cpu_monitor.sv(296) @ 4025000: uvm_test_top.env.agent.monitor [WB] x31 <= ffffffb3  (PC~000000e8)
# UVM_INFO C:/Documents/DoAnThietKeViMach/Project/SoC/VERIFICATION/Monitor/cpu_monitor.sv(268) @ 4035000: uvm_test_top.env.agent.monitor [MEM] STORE Addr=3000000c Data=00000000
# UVM_INFO C:/Documents/DoAnThietKeViMach/Project/SoC/VERIFICATION/Monitor/cpu_monitor.sv(296) @ 4035000: uvm_test_top.env.agent.monitor [WB] x31 <= ffffffb3  (PC~000000e8)
# UVM_INFO C:/Documents/DoAnThietKeViMach/Project/SoC/VERIFICATION/Monitor/cpu_monitor.sv(268) @ 4045000: uvm_test_top.env.agent.monitor [MEM] STORE Addr=3000000c Data=00000000
# UVM_INFO C:/Documents/DoAnThietKeViMach/Project/SoC/VERIFICATION/Monitor/cpu_monitor.sv(296) @ 4045000: uvm_test_top.env.agent.monitor [WB] x31 <= ffffffb3  (PC~000000e8)
# UVM_INFO C:/Documents/DoAnThietKeViMach/Project/SoC/VERIFICATION/Monitor/cpu_monitor.sv(364) @ 4055000: uvm_test_top.env.agent.monitor [AXI_RD] CPU <- IRAM  Addr=000000ec Data=00522623 RRESP=00
# UVM_INFO C:/Documents/DoAnThietKeViMach/Project/SoC/VERIFICATION/Monitor/cpu_monitor.sv(234) @ 4055000: uvm_test_top.env.agent.monitor [IF] PC=000000ec  INSTR=00522623  [SW   x5, 5(x4)]            
# UVM_INFO C:/Documents/DoAnThietKeViMach/Project/SoC/VERIFICATION/Monitor/cpu_monitor.sv(268) @ 4055000: uvm_test_top.env.agent.monitor [MEM] STORE Addr=3000000c Data=00000000
# UVM_INFO C:/Documents/DoAnThietKeViMach/Project/SoC/VERIFICATION/Monitor/cpu_monitor.sv(296) @ 4055000: uvm_test_top.env.agent.monitor [WB] x31 <= ffffffb3  (PC~000000ec)
# UVM_INFO C:/Documents/DoAnThietKeViMach/Project/SoC/VERIFICATION/Monitor/cpu_monitor.sv(364) @ 4095000: uvm_test_top.env.agent.monitor [AXI_RD] CPU <- IRAM  Addr=000000f0 Data=00822023 RRESP=00
# UVM_INFO C:/Documents/DoAnThietKeViMach/Project/SoC/VERIFICATION/Monitor/cpu_monitor.sv(234) @ 4095000: uvm_test_top.env.agent.monitor [IF] PC=000000f0  INSTR=00822023  [SW   x8, 8(x4)]            
# UVM_INFO C:/Documents/DoAnThietKeViMach/Project/SoC/VERIFICATION/Monitor/cpu_monitor.sv(268) @ 4105000: uvm_test_top.env.agent.monitor [MEM] STORE Addr=20000004 Data=00000000
# UVM_INFO C:/Documents/DoAnThietKeViMach/Project/SoC/VERIFICATION/Monitor/cpu_monitor.sv(268) @ 4115000: uvm_test_top.env.agent.monitor [MEM] STORE Addr=20000004 Data=00000000
# UVM_INFO C:/Documents/DoAnThietKeViMach/Project/SoC/VERIFICATION/Monitor/cpu_monitor.sv(268) @ 4125000: uvm_test_top.env.agent.monitor [MEM] STORE Addr=20000004 Data=00000000
# UVM_INFO C:/Documents/DoAnThietKeViMach/Project/SoC/VERIFICATION/Monitor/cpu_monitor.sv(268) @ 4135000: uvm_test_top.env.agent.monitor [MEM] STORE Addr=20000004 Data=00000000
# UVM_INFO C:/Documents/DoAnThietKeViMach/Project/SoC/VERIFICATION/Monitor/cpu_monitor.sv(335) @ 4145000: uvm_test_top.env.agent.monitor [AXI_WR] CPU -> TIMER  Addr=20000004 Data=00000000 Strb=1111 BRESP=00
# UVM_INFO C:/Documents/DoAnThietKeViMach/Project/SoC/VERIFICATION/Scoreboard/cpu_scoreboard.sv(246) @ 4145000: uvm_test_top.env.scoreboard [SCB_PERIPH] [TIMER] WRITE Addr=20000004 Data=00000000
# UVM_INFO C:/Documents/DoAnThietKeViMach/Project/SoC/VERIFICATION/Monitor/cpu_monitor.sv(268) @ 4145000: uvm_test_top.env.agent.monitor [MEM] STORE Addr=20000004 Data=00000000
# UVM_INFO C:/Documents/DoAnThietKeViMach/Project/SoC/VERIFICATION/Monitor/cpu_monitor.sv(296) @ 4145000: uvm_test_top.env.agent.monitor [WB] x05 <= 00000000  (PC~000000f0)
# UVM_INFO C:/Documents/DoAnThietKeViMach/Project/SoC/VERIFICATION/Monitor/cpu_monitor.sv(268) @ 4155000: uvm_test_top.env.agent.monitor [MEM] STORE Addr=20000004 Data=00000000
# UVM_INFO C:/Documents/DoAnThietKeViMach/Project/SoC/VERIFICATION/Monitor/cpu_monitor.sv(296) @ 4155000: uvm_test_top.env.agent.monitor [WB] x05 <= 00000000  (PC~000000f0)
# UVM_INFO C:/Documents/DoAnThietKeViMach/Project/SoC/VERIFICATION/Monitor/cpu_monitor.sv(268) @ 4165000: uvm_test_top.env.agent.monitor [MEM] STORE Addr=20000004 Data=00000000
# UVM_INFO C:/Documents/DoAnThietKeViMach/Project/SoC/VERIFICATION/Monitor/cpu_monitor.sv(296) @ 4165000: uvm_test_top.env.agent.monitor [WB] x05 <= 00000000  (PC~000000f0)
# UVM_INFO C:/Documents/DoAnThietKeViMach/Project/SoC/VERIFICATION/Monitor/cpu_monitor.sv(268) @ 4175000: uvm_test_top.env.agent.monitor [MEM] STORE Addr=20000004 Data=00000000
# UVM_INFO C:/Documents/DoAnThietKeViMach/Project/SoC/VERIFICATION/Monitor/cpu_monitor.sv(296) @ 4175000: uvm_test_top.env.agent.monitor [WB] x05 <= 00000000  (PC~000000f0)
# UVM_INFO C:/Documents/DoAnThietKeViMach/Project/SoC/VERIFICATION/Monitor/cpu_monitor.sv(364) @ 4185000: uvm_test_top.env.agent.monitor [AXI_RD] CPU <- IRAM  Addr=000000f4 Data=00c7f2b3 RRESP=00
# UVM_INFO C:/Documents/DoAnThietKeViMach/Project/SoC/VERIFICATION/Monitor/cpu_monitor.sv(234) @ 4185000: uvm_test_top.env.agent.monitor [IF] PC=000000f4  INSTR=00c7f2b3  [AND  x5, x15, x12]            
# UVM_INFO C:/Documents/DoAnThietKeViMach/Project/SoC/VERIFICATION/Monitor/cpu_monitor.sv(268) @ 4185000: uvm_test_top.env.agent.monitor [MEM] STORE Addr=20000004 Data=00000000
# UVM_INFO C:/Documents/DoAnThietKeViMach/Project/SoC/VERIFICATION/Monitor/cpu_monitor.sv(296) @ 4185000: uvm_test_top.env.agent.monitor [WB] x05 <= 00000000  (PC~000000f4)
# UVM_INFO C:/Documents/DoAnThietKeViMach/Project/SoC/VERIFICATION/Monitor/cpu_monitor.sv(268) @ 4195000: uvm_test_top.env.agent.monitor [MEM] STORE Addr=4000000c Data=00000000
# UVM_INFO C:/Documents/DoAnThietKeViMach/Project/SoC/VERIFICATION/Monitor/cpu_monitor.sv(268) @ 4205000: uvm_test_top.env.agent.monitor [MEM] STORE Addr=4000000c Data=00000000
# UVM_INFO C:/Documents/DoAnThietKeViMach/Project/SoC/VERIFICATION/Monitor/cpu_monitor.sv(268) @ 4215000: uvm_test_top.env.agent.monitor [MEM] STORE Addr=4000000c Data=00000000
# UVM_INFO C:/Documents/DoAnThietKeViMach/Project/SoC/VERIFICATION/Monitor/cpu_monitor.sv(335) @ 4225000: uvm_test_top.env.agent.monitor [AXI_WR] CPU -> SPI  Addr=4000000c Data=00000000 Strb=1111 BRESP=00
# UVM_INFO C:/Documents/DoAnThietKeViMach/Project/SoC/VERIFICATION/Scoreboard/cpu_scoreboard.sv(246) @ 4225000: uvm_test_top.env.scoreboard [SCB_PERIPH] [SPI] WRITE Addr=4000000c Data=00000000
# UVM_INFO C:/Documents/DoAnThietKeViMach/Project/SoC/VERIFICATION/Monitor/cpu_monitor.sv(268) @ 4225000: uvm_test_top.env.agent.monitor [MEM] STORE Addr=4000000c Data=00000000
# UVM_INFO C:/Documents/DoAnThietKeViMach/Project/SoC/VERIFICATION/Monitor/cpu_monitor.sv(268) @ 4235000: uvm_test_top.env.agent.monitor [MEM] STORE Addr=4000000c Data=00000000
# UVM_INFO C:/Documents/DoAnThietKeViMach/Project/SoC/VERIFICATION/Monitor/cpu_monitor.sv(268) @ 4245000: uvm_test_top.env.agent.monitor [MEM] STORE Addr=4000000c Data=00000000
# UVM_INFO C:/Documents/DoAnThietKeViMach/Project/SoC/VERIFICATION/Monitor/cpu_monitor.sv(268) @ 4255000: uvm_test_top.env.agent.monitor [MEM] STORE Addr=4000000c Data=00000000
# UVM_INFO C:/Documents/DoAnThietKeViMach/Project/SoC/VERIFICATION/Monitor/cpu_monitor.sv(364) @ 4265000: uvm_test_top.env.agent.monitor [AXI_RD] CPU <- IRAM  Addr=000000f8 Data=0121a623 RRESP=00
# UVM_INFO C:/Documents/DoAnThietKeViMach/Project/SoC/VERIFICATION/Monitor/cpu_monitor.sv(234) @ 4265000: uvm_test_top.env.agent.monitor [IF] PC=000000f8  INSTR=0121a623  [SW   x18, 18(x3)]            
# UVM_INFO C:/Documents/DoAnThietKeViMach/Project/SoC/VERIFICATION/Monitor/cpu_monitor.sv(268) @ 4265000: uvm_test_top.env.agent.monitor [MEM] STORE Addr=4000000c Data=00000000
# UVM_INFO C:/Documents/DoAnThietKeViMach/Project/SoC/VERIFICATION/Monitor/cpu_monitor.sv(268) @ 4275000: uvm_test_top.env.agent.monitor [MEM] STORE Addr=40000000 Data=00000000
# UVM_INFO C:/Documents/DoAnThietKeViMach/Project/SoC/VERIFICATION/Monitor/cpu_monitor.sv(268) @ 4285000: uvm_test_top.env.agent.monitor [MEM] STORE Addr=40000000 Data=00000000
# UVM_INFO C:/Documents/DoAnThietKeViMach/Project/SoC/VERIFICATION/Monitor/cpu_monitor.sv(268) @ 4295000: uvm_test_top.env.agent.monitor [MEM] STORE Addr=40000000 Data=00000000
# UVM_INFO C:/Documents/DoAnThietKeViMach/Project/SoC/VERIFICATION/Monitor/cpu_monitor.sv(335) @ 4305000: uvm_test_top.env.agent.monitor [AXI_WR] CPU -> SPI  Addr=40000000 Data=00000000 Strb=1111 BRESP=00
# UVM_INFO C:/Documents/DoAnThietKeViMach/Project/SoC/VERIFICATION/Scoreboard/cpu_scoreboard.sv(246) @ 4305000: uvm_test_top.env.scoreboard [SCB_PERIPH] [SPI] WRITE Addr=40000000 Data=00000000
# UVM_INFO C:/Documents/DoAnThietKeViMach/Project/SoC/VERIFICATION/Monitor/cpu_monitor.sv(268) @ 4305000: uvm_test_top.env.agent.monitor [MEM] STORE Addr=40000000 Data=00000000
# UVM_INFO C:/Documents/DoAnThietKeViMach/Project/SoC/VERIFICATION/Monitor/cpu_monitor.sv(268) @ 4315000: uvm_test_top.env.agent.monitor [MEM] STORE Addr=40000000 Data=00000000
# UVM_INFO C:/Documents/DoAnThietKeViMach/Project/SoC/VERIFICATION/Monitor/cpu_monitor.sv(268) @ 4325000: uvm_test_top.env.agent.monitor [MEM] STORE Addr=40000000 Data=00000000
# UVM_INFO C:/Documents/DoAnThietKeViMach/Project/SoC/VERIFICATION/Monitor/cpu_monitor.sv(268) @ 4335000: uvm_test_top.env.agent.monitor [MEM] STORE Addr=40000000 Data=00000000
# UVM_INFO C:/Documents/DoAnThietKeViMach/Project/SoC/VERIFICATION/Monitor/cpu_monitor.sv(364) @ 4345000: uvm_test_top.env.agent.monitor [AXI_RD] CPU <- IRAM  Addr=000000fc Data=00005263 RRESP=00
# UVM_INFO C:/Documents/DoAnThietKeViMach/Project/SoC/VERIFICATION/Monitor/cpu_monitor.sv(234) @ 4345000: uvm_test_top.env.agent.monitor [IF] PC=000000fc  INSTR=00005263  [BGE  x0, x0, ...]            
# UVM_INFO C:/Documents/DoAnThietKeViMach/Project/SoC/VERIFICATION/Monitor/cpu_monitor.sv(268) @ 4345000: uvm_test_top.env.agent.monitor [MEM] STORE Addr=40000000 Data=00000000
# UVM_INFO C:/Documents/DoAnThietKeViMach/Project/SoC/VERIFICATION/Monitor/cpu_monitor.sv(364) @ 4385000: uvm_test_top.env.agent.monitor [AXI_RD] CPU <- IRAM  Addr=00000100 Data=00c22983 RRESP=00
# UVM_INFO C:/Documents/DoAnThietKeViMach/Project/SoC/VERIFICATION/Monitor/cpu_monitor.sv(234) @ 4385000: uvm_test_top.env.agent.monitor [IF] PC=00000100  INSTR=00c22983  [LW   x19, 12(x4)]            
# UVM_INFO C:/Documents/DoAnThietKeViMach/Project/SoC/VERIFICATION/Monitor/cpu_monitor.sv(268) @ 4395000: uvm_test_top.env.agent.monitor [MEM] STORE Addr=3000000c Data=000000bc
# UVM_INFO C:/Documents/DoAnThietKeViMach/Project/SoC/VERIFICATION/Monitor/cpu_monitor.sv(268) @ 4405000: uvm_test_top.env.agent.monitor [MEM] STORE Addr=3000000c Data=000000bc
# UVM_INFO C:/Documents/DoAnThietKeViMach/Project/SoC/VERIFICATION/Monitor/cpu_monitor.sv(268) @ 4415000: uvm_test_top.env.agent.monitor [MEM] STORE Addr=3000000c Data=000000bc
# UVM_INFO C:/Documents/DoAnThietKeViMach/Project/SoC/VERIFICATION/Monitor/cpu_monitor.sv(335) @ 4425000: uvm_test_top.env.agent.monitor [AXI_WR] CPU -> UART  Addr=3000000c Data=000000bc Strb=1111 BRESP=00
# UVM_INFO C:/Documents/DoAnThietKeViMach/Project/SoC/VERIFICATION/Scoreboard/cpu_scoreboard.sv(246) @ 4425000: uvm_test_top.env.scoreboard [SCB_PERIPH] [UART] WRITE Addr=3000000c Data=000000bc
# UVM_INFO C:/Documents/DoAnThietKeViMach/Project/SoC/VERIFICATION/Monitor/cpu_monitor.sv(268) @ 4425000: uvm_test_top.env.agent.monitor [MEM] STORE Addr=3000000c Data=000000bc
# UVM_INFO C:/Documents/DoAnThietKeViMach/Project/SoC/VERIFICATION/Monitor/cpu_monitor.sv(296) @ 4425000: uvm_test_top.env.agent.monitor [WB] x05 <= ffffffb3  (PC~00000100)
# UVM_INFO C:/Documents/DoAnThietKeViMach/Project/SoC/VERIFICATION/Monitor/cpu_monitor.sv(268) @ 4435000: uvm_test_top.env.agent.monitor [MEM] STORE Addr=3000000c Data=000000bc
# UVM_INFO C:/Documents/DoAnThietKeViMach/Project/SoC/VERIFICATION/Monitor/cpu_monitor.sv(296) @ 4435000: uvm_test_top.env.agent.monitor [WB] x05 <= ffffffb3  (PC~00000100)
# UVM_INFO C:/Documents/DoAnThietKeViMach/Project/SoC/VERIFICATION/Monitor/cpu_monitor.sv(268) @ 4445000: uvm_test_top.env.agent.monitor [MEM] STORE Addr=3000000c Data=000000bc
