--- [SIM ONLY] cpu_test ---
MODE = CPU_MASTER
Reading C:/app/QuestaSim/tcl/vsim/pref.tcl 

# 10.2c

# vsim +UVM_TESTNAME=cpu_test +CPU_MASTER +MEM_SEED=387464934 -coverage -do {run -all; quit} -c -sv_seed 387464934 vopt_top 
# //  Questa Sim-64
# //  Version 10.2c Unknown Platform Jul 19 2013
# //
# //  Copyright 1991-2013 Mentor Graphics Corporation
# //  All Rights Reserved.
# //
# //  THIS WORK CONTAINS TRADE SECRET AND PROPRIETARY INFORMATION
# //  WHICH IS THE PROPERTY OF MENTOR GRAPHICS CORPORATION OR ITS
# //  LICENSORS AND IS SUBJECT TO LICENSE TERMS.
# //
# Loading sv_std.std
# Loading mtiUvm.uvm_pkg
# Loading work.soc_pkg(fast)
# Loading work.top_tb(fast)
# Loading work.clk_rst_inf(fast)
# Loading work.soc_inf(fast)
# Loading work.cpu_monitor_inf(fast)
# Loading work.TOP(fast)
# Loading work.AXI_Master(fast)
# Loading work.CPU(fast)
# Loading work.pc_reg(fast)
# Loading work.IF_ID(fast)
# Loading work.ControlUnit(fast)
# Loading work.MainDecoder(fast)
# Loading work.ALUControl(fast)
# Loading work.RegFile(fast)
# Loading work.signExtend(fast)
# Loading work.ID_EX(fast)
# Loading work.ALU(fast)
# Loading work.EX_MEM(fast)
# Loading work.MEM_WB(fast)
# Loading work.HazardUnit(fast)
# Loading work.LSU(fast)
# Loading work.AXI4_Lite_Interconnect(fast)
# Loading work.IRAM(fast)
# Loading work.DRAM(fast)
# Loading work.Timer(fast)
# Loading work.UART(fast)
# Loading work.SPI(fast)
# Loading mtiUvm.questa_uvm_pkg(fast)
# Loading C:/app/QuestaSim/uvm-1.1d\win64\uvm_dpi.dll
# run -all 
# ----------------------------------------------------------------
# UVM-1.1d
# (C) 2007-2013 Mentor Graphics Corporation
# (C) 2007-2013 Cadence Design Systems, Inc.
# (C) 2006-2013 Synopsys, Inc.
# (C) 2011-2013 Cypress Semiconductor Corp.
# ----------------------------------------------------------------
# 
#   ***********       IMPORTANT RELEASE NOTES         ************
# 
#   You are using a version of the UVM library that has been compiled
#   with `UVM_NO_DEPRECATED undefined.
#   See http://www.eda.org/svdb/view.php?id=3313 for more details.
# 
#   You are using a version of the UVM library that has been compiled
#   with `UVM_OBJECT_MUST_HAVE_CONSTRUCTOR undefined.
#   See http://www.eda.org/svdb/view.php?id=3770 for more details.
# 
#       (Specify +UVM_NO_RELNOTES to turn off this notice)
# 
# UVM_INFO verilog_src/questa_uvm_pkg-1.2/src/questa_uvm_pkg.sv(215) @ 0: reporter [Questa UVM] QUESTA_UVM-1.2.2
# UVM_INFO verilog_src/questa_uvm_pkg-1.2/src/questa_uvm_pkg.sv(217) @ 0: reporter [Questa UVM]  questa_uvm::init(+struct)
# [IRAM] Loading file: instr.mem
# [IRAM] mem[0] = 100000b7
# [IRAM] mem[1] = 20000137
# [IRAM] mem[2] = 300001b7
# [IRAM] mem[3] = 40000237
# [IRAM] mem[4] = 00012c83
# [IRAM] mem[5] = 01922223
# [IRAM] mem[6] = 7640a303
# [IRAM] mem[7] = 00976ab3
# [IRAM] mem[8] = 00022003
# [IRAM] mem[9] = 0081a003
# [IRAM] mem[10] = 00c1ad03
# [IRAM] mem[11] = 00a12023
# [IRAM] mem[12] = 00a5c3b3
# [IRAM] mem[13] = 00412883
# [IRAM] mem[14] = 00007263
# [IRAM] mem[15] = 0081a003
# [IRAM] mem[16] = 00601263
# [IRAM] mem[17] = 00b12223
# [IRAM] mem[18] = 009af433
# [IRAM] mem[19] = 01a22223
# [IRAM] mem[20] = 00000263
# [IRAM] mem[21] = 00822003
# [IRAM] mem[22] = 00c22683
# [IRAM] mem[23] = 0144a2b3
# [IRAM] mem[24] = f20d6893
# [IRAM] mem[25] = 01912223
# [IRAM] mem[26] = 0c60a223
# [IRAM] mem[27] = 7ed0a223
# [IRAM] mem[28] = 00012583
# [IRAM] mem[29] = 66e0ac23
# [IRAM] mem[30] = 01ed8bb3
# [IRAM] mem[31] = d81a4b13
# [IRAM] mem[32] = 01301263
# [IRAM] mem[33] = a6998713
# [IRAM] mem[34] = 40ac0fb3
# [IRAM] mem[35] = 60fe6713
# [IRAM] mem[36] = 00812003
# [IRAM] mem[37] = 01c01263
# [IRAM] mem[38] = 0081a003
# [IRAM] mem[39] = 00422483
# [IRAM] mem[40] = 00c1a703
# [IRAM] mem[41] = 01001263
# [IRAM] mem[42] = 1440ae03
# [IRAM] mem[43] = 0091a023
# [IRAM] mem[44] = 0041a003
# [IRAM] mem[45] = 4a40ac83
# [IRAM] mem[46] = 00712023
# [IRAM] mem[47] = ef94c813
# [IRAM] mem[48] = 01f04263
# [IRAM] mem[49] = 00012603
# [IRAM] mem[50] = 2b6ef793
# [IRAM] mem[51] = 5200a283
# [IRAM] mem[52] = 00b01263
# [IRAM] mem[53] = 00c06263
# [IRAM] mem[54] = 408fd633
# [IRAM] mem[55] = 0051a623
# [IRAM] mem[56] = 406788b3
# [IRAM] mem[57] = 01d52833
# [IRAM] mem[58] = 01104263
# [IRAM] mem[59] = 00400c6f
# [IRAM] mem[60] = 01806263
# [IRAM] mem[61] = 00c1a903
# [IRAM] mem[62] = 6bb0aa23
# [IRAM] mem[63] = 00007263
# [IRAM] mem[64] = 0111a623
# [IRAM] mem[65] = 00c04263
# [IRAM] mem[66] = 01f5e8b3
# [IRAM] mem[67] = ea450d13
# [IRAM] mem[68] = 00412b83
# [IRAM] mem[69] = 00c76833
# [IRAM] mem[70] = 00412883
# [IRAM] mem[71] = 00005263
# [IRAM] mem[72] = 00422383
# [IRAM] mem[73] = 00012f83
# [IRAM] mem[74] = 00822003
# [IRAM] mem[75] = 41dbd9b3
# [IRAM] mem[76] = 00622223
# [IRAM] mem[77] = 00005263
# [IRAM] mem[78] = 00522023
# [IRAM] mem[79] = fe576a93
# [IRAM] mem[80] = 00000263
# [IRAM] mem[81] = e9fdc713
# [IRAM] mem[82] = 00000263
# [IRAM] mem[83] = 01812023
# [IRAM] mem[84] = 00922623
# [IRAM] mem[85] = 011b84b3
# [IRAM] mem[86] = 00c22303
# [IRAM] mem[87] = 00712223
# [IRAM] mem[88] = 00a04263
# [IRAM] mem[89] = 00412683
# [IRAM] mem[90] = 1780ab03
# [IRAM] mem[91] = 00007263
# [IRAM] mem[92] = 00000263
# [IRAM] mem[93] = 00400bef
# [IRAM] mem[94] = 00000263
# [IRAM] mem[95] = 00901263
# [IRAM] mem[96] = 40662f13
# [IRAM] mem[97] = 00a12023
# [IRAM] mem[98] = 00412303
# [IRAM] mem[99] = 01f67293
# [IRAM] mem[100] = 01b12223
# [IRAM] mem[101] = 0161a023
# [IRAM] mem[102] = 00400f6f
# [IRAM] mem[103] = 3980af03
# [IRAM] mem[104] = 45e28a93
# [IRAM] mem[105] = 00c1a983
# [IRAM] mem[106] = 410985b3
# [IRAM] mem[107] = 0111a023
# [IRAM] mem[108] = 00007263
# [IRAM] mem[109] = 01d1a623
# [IRAM] mem[110] = 00d04263
# [IRAM] mem[111] = 006bf6b3
# [IRAM] mem[112] = 00822003
# [IRAM] mem[113] = 017c4833
# [IRAM] mem[114] = 00007263
# [IRAM] mem[115] = 004006ef
# [IRAM] mem[116] = 007596b3
# [IRAM] mem[117] = 00e06263
# [IRAM] mem[118] = 5540a983
# [IRAM] mem[119] = 00776d33
# [IRAM] mem[120] = 49c0aa83
# [IRAM] mem[121] = 1440a683
# [IRAM] mem[122] = 01f04263
# [IRAM] mem[123] = 00fe5833
# [IRAM] mem[124] = 0081a003
# [IRAM] mem[125] = 00022003
# [IRAM] mem[126] = 01f22023
# [IRAM] mem[127] = 5da0ac23
# [IRAM] mem[128] = 01622023
# [IRAM] mem[129] = 949e6313
# [IRAM] mem[130] = 0161a623
# [IRAM] mem[131] = 00812003
# [IRAM] mem[132] = 00c22f03
# [IRAM] mem[133] = 00012c83
# [IRAM] mem[134] = 4117deb3
# [IRAM] mem[135] = 01b06263
# [IRAM] mem[136] = 00022003
# [IRAM] mem[137] = 00c1aa03
# [IRAM] mem[138] = 1989c313
# [IRAM] mem[139] = 00606263
# [IRAM] mem[140] = 6e80af03
# [IRAM] mem[141] = 00005263
# [IRAM] mem[142] = ef3dfc93
# [IRAM] mem[143] = 00c29333
# [IRAM] mem[144] = 2b50a023
# [IRAM] mem[145] = 0081a003
# [IRAM] mem[146] = c346a493
# [IRAM] mem[147] = 00005263
# [IRAM] mem[148] = 00007263
# [IRAM] mem[149] = 00712023
# [IRAM] mem[150] = 00606263
# [IRAM] mem[151] = 1aa0a223
# [IRAM] mem[152] = 0040046f
# [IRAM] mem[153] = 00400b6f
# [IRAM] mem[154] = 011ca933
# [IRAM] mem[155] = 5940aa23
# [IRAM] mem[156] = 00812003
# [IRAM] mem[157] = 01f01263
# [IRAM] mem[158] = 00400d6f
# [IRAM] mem[159] = 0041a003
# [IRAM] mem[160] = 00005263
# [IRAM] mem[161] = 0191a623
# [IRAM] mem[162] = 00812003
# [IRAM] mem[163] = f93e2513
# [IRAM] mem[164] = 41850933
# [IRAM] mem[165] = 01f12223
# [IRAM] mem[166] = 00706263
# [IRAM] mem[167] = 0111a623
# [IRAM] mem[168] = 1c078693
# [IRAM] mem[169] = 0187c8b3
# [IRAM] mem[170] = 76e6e293
# [IRAM] mem[171] = 0041a003
# [IRAM] mem[172] = 01b22623
# [IRAM] mem[173] = 00007263
# [IRAM] mem[174] = 0041a003
# [IRAM] mem[175] = 01c1a023
# [IRAM] mem[176] = 00412e83
# [IRAM] mem[177] = 0a80a583
# [IRAM] mem[178] = 0041a003
# [IRAM] mem[179] = 0041a003
# [IRAM] mem[180] = 00a5a7b3
# [IRAM] mem[181] = 5480a303
# [IRAM] mem[182] = 00a4d7b3
# [IRAM] mem[183] = 00000263
# [IRAM] mem[184] = 00400c6f
# [IRAM] mem[185] = 00012e03
# [IRAM] mem[186] = 40fa8e33
# [IRAM] mem[187] = 00812003
# [IRAM] mem[188] = 41bf52b3
# [IRAM] mem[189] = 00812003
# [IRAM] mem[190] = 01204263
# [IRAM] mem[191] = 0081a003
# [IRAM] mem[192] = 00c1a583
# [IRAM] mem[193] = 01012023
# [IRAM] mem[194] = 00612223
# [IRAM] mem[195] = 01cb0833
# [IRAM] mem[196] = 01f1a023
# [IRAM] mem[197] = 0191a023
# [IRAM] mem[198] = 00005263
# [IRAM] mem[199] = 01722623
# [IRAM] Loaded 200 instruction words
# [TB] Mode: CPU MASTER â?? CPU drives AXI, UVM observes
# UVM_INFO @ 0: reporter [RNTST] Running test cpu_test...
# UVM_INFO C:/Documents/DoAnThietKeViMach/Project/SoC/VERIFICATION/Scoreboard/cpu_scoreboard.sv(175) @ 0: uvm_test_top.env.scoreboard [SCB] Loaded expected registers from: expected.mem
# UVM_INFO C:/Documents/DoAnThietKeViMach/Project/SoC/VERIFICATION/Test/cpu_test.sv(55) @ 0: uvm_test_top [TEST] Program has 200 instructions, end PC = 00000320
# UVM_INFO C:/Documents/DoAnThietKeViMach/Project/SoC/VERIFICATION/Monitor/cpu_monitor.sv(200) @ 35000: uvm_test_top.env.agent.monitor [CPU_MON] === CPU Monitor started == watching pipeline ===
# UVM_INFO C:/Documents/DoAnThietKeViMach/Project/SoC/VERIFICATION/Monitor/cpu_monitor.sv(202) @ 35000: uvm_test_top.env.agent.monitor [CPU_MON] ============================================================
# UVM_INFO C:/Documents/DoAnThietKeViMach/Project/SoC/VERIFICATION/Test/cpu_test.sv(62) @ 55000: uvm_test_top [TEST] Reset released â?? CPU executing from IRAM
# UVM_INFO C:/Documents/DoAnThietKeViMach/Project/SoC/VERIFICATION/Monitor/cpu_monitor.sv(364) @ 55000: uvm_test_top.env.agent.monitor [AXI_RD] CPU <- IRAM  Addr=00000000 Data=100000b7 RRESP=00
# UVM_INFO C:/Documents/DoAnThietKeViMach/Project/SoC/VERIFICATION/Monitor/cpu_monitor.sv(364) @ 95000: uvm_test_top.env.agent.monitor [AXI_RD] CPU <- IRAM  Addr=00000004 Data=20000137 RRESP=00
# UVM_INFO C:/Documents/DoAnThietKeViMach/Project/SoC/VERIFICATION/Monitor/cpu_monitor.sv(234) @ 95000: uvm_test_top.env.agent.monitor [IF] PC=00000004  INSTR=20000137  [LUI  x2, 0x20000]            
# UVM_INFO C:/Documents/DoAnThietKeViMach/Project/SoC/VERIFICATION/Monitor/cpu_monitor.sv(364) @ 135000: uvm_test_top.env.agent.monitor [AXI_RD] CPU <- IRAM  Addr=00000008 Data=300001b7 RRESP=00
# UVM_INFO C:/Documents/DoAnThietKeViMach/Project/SoC/VERIFICATION/Monitor/cpu_monitor.sv(234) @ 135000: uvm_test_top.env.agent.monitor [IF] PC=00000008  INSTR=300001b7  [LUI  x3, 0x30000]            
# UVM_INFO C:/Documents/DoAnThietKeViMach/Project/SoC/VERIFICATION/Monitor/cpu_monitor.sv(364) @ 175000: uvm_test_top.env.agent.monitor [AXI_RD] CPU <- IRAM  Addr=0000000c Data=40000237 RRESP=00
# UVM_INFO C:/Documents/DoAnThietKeViMach/Project/SoC/VERIFICATION/Monitor/cpu_monitor.sv(234) @ 175000: uvm_test_top.env.agent.monitor [IF] PC=0000000c  INSTR=40000237  [LUI  x4, 0x40000]            
# UVM_INFO C:/Documents/DoAnThietKeViMach/Project/SoC/VERIFICATION/Monitor/cpu_monitor.sv(296) @ 185000: uvm_test_top.env.agent.monitor [WB] x01 <= 10000000  (PC~0000000c)
# UVM_INFO C:/Documents/DoAnThietKeViMach/Project/SoC/VERIFICATION/Monitor/cpu_monitor.sv(296) @ 195000: uvm_test_top.env.agent.monitor [WB] x01 <= 10000000  (PC~0000000c)
# UVM_INFO C:/Documents/DoAnThietKeViMach/Project/SoC/VERIFICATION/Monitor/cpu_monitor.sv(296) @ 205000: uvm_test_top.env.agent.monitor [WB] x01 <= 10000000  (PC~0000000c)
# UVM_INFO C:/Documents/DoAnThietKeViMach/Project/SoC/VERIFICATION/Monitor/cpu_monitor.sv(364) @ 215000: uvm_test_top.env.agent.monitor [AXI_RD] CPU <- IRAM  Addr=00000010 Data=00012c83 RRESP=00
# UVM_INFO C:/Documents/DoAnThietKeViMach/Project/SoC/VERIFICATION/Monitor/cpu_monitor.sv(234) @ 215000: uvm_test_top.env.agent.monitor [IF] PC=00000010  INSTR=00012c83  [LW   x25, 0(x2)]            
# UVM_INFO C:/Documents/DoAnThietKeViMach/Project/SoC/VERIFICATION/Monitor/cpu_monitor.sv(296) @ 215000: uvm_test_top.env.agent.monitor [WB] x01 <= 10000000  (PC~00000010)
# UVM_INFO C:/Documents/DoAnThietKeViMach/Project/SoC/VERIFICATION/Monitor/cpu_monitor.sv(296) @ 225000: uvm_test_top.env.agent.monitor [WB] x02 <= 20000000  (PC~00000010)
# UVM_INFO C:/Documents/DoAnThietKeViMach/Project/SoC/VERIFICATION/Monitor/cpu_monitor.sv(296) @ 235000: uvm_test_top.env.agent.monitor [WB] x02 <= 20000000  (PC~00000010)
# UVM_INFO C:/Documents/DoAnThietKeViMach/Project/SoC/VERIFICATION/Monitor/cpu_monitor.sv(296) @ 245000: uvm_test_top.env.agent.monitor [WB] x02 <= 20000000  (PC~00000010)
# UVM_INFO C:/Documents/DoAnThietKeViMach/Project/SoC/VERIFICATION/Monitor/cpu_monitor.sv(364) @ 255000: uvm_test_top.env.agent.monitor [AXI_RD] CPU <- IRAM  Addr=00000014 Data=01922223 RRESP=00
# UVM_INFO C:/Documents/DoAnThietKeViMach/Project/SoC/VERIFICATION/Monitor/cpu_monitor.sv(234) @ 255000: uvm_test_top.env.agent.monitor [IF] PC=00000014  INSTR=01922223  [SW   x25, 25(x4)]            
# UVM_INFO C:/Documents/DoAnThietKeViMach/Project/SoC/VERIFICATION/Monitor/cpu_monitor.sv(296) @ 255000: uvm_test_top.env.agent.monitor [WB] x02 <= 20000000  (PC~00000014)
# UVM_INFO C:/Documents/DoAnThietKeViMach/Project/SoC/VERIFICATION/Monitor/cpu_monitor.sv(296) @ 265000: uvm_test_top.env.agent.monitor [WB] x03 <= 30000000  (PC~00000014)
# UVM_INFO C:/Documents/DoAnThietKeViMach/Project/SoC/VERIFICATION/Monitor/cpu_monitor.sv(296) @ 275000: uvm_test_top.env.agent.monitor [WB] x03 <= 30000000  (PC~00000014)
# UVM_INFO C:/Documents/DoAnThietKeViMach/Project/SoC/VERIFICATION/Monitor/cpu_monitor.sv(296) @ 285000: uvm_test_top.env.agent.monitor [WB] x03 <= 30000000  (PC~00000014)
# UVM_INFO C:/Documents/DoAnThietKeViMach/Project/SoC/VERIFICATION/Monitor/cpu_monitor.sv(364) @ 295000: uvm_test_top.env.agent.monitor [AXI_RD] CPU <- IRAM  Addr=00000018 Data=7640a303 RRESP=00
# UVM_INFO C:/Documents/DoAnThietKeViMach/Project/SoC/VERIFICATION/Monitor/cpu_monitor.sv(296) @ 295000: uvm_test_top.env.agent.monitor [WB] x03 <= 30000000  (PC~00000014)
# UVM_INFO C:/Documents/DoAnThietKeViMach/Project/SoC/VERIFICATION/Monitor/cpu_monitor.sv(364) @ 335000: uvm_test_top.env.agent.monitor [AXI_RD] CPU <- TIMER  Addr=20000000 Data=00000000 RRESP=00
# UVM_INFO C:/Documents/DoAnThietKeViMach/Project/SoC/VERIFICATION/Scoreboard/cpu_scoreboard.sv(126) @ 335000: uvm_test_top.env.scoreboard [SCB_PASS] [TIMER] READ PASS Addr=20000000 Expected=00000000 Got=00000000
# UVM_INFO C:/Documents/DoAnThietKeViMach/Project/SoC/VERIFICATION/Monitor/cpu_monitor.sv(296) @ 335000: uvm_test_top.env.agent.monitor [WB] x04 <= 40000000  (PC~00000014)
# UVM_INFO C:/Documents/DoAnThietKeViMach/Project/SoC/VERIFICATION/Monitor/cpu_monitor.sv(296) @ 345000: uvm_test_top.env.agent.monitor [WB] x04 <= 40000000  (PC~00000014)
# UVM_INFO C:/Documents/DoAnThietKeViMach/Project/SoC/VERIFICATION/Monitor/cpu_monitor.sv(296) @ 355000: uvm_test_top.env.agent.monitor [WB] x04 <= 40000000  (PC~00000014)
# UVM_INFO C:/Documents/DoAnThietKeViMach/Project/SoC/VERIFICATION/Monitor/cpu_monitor.sv(296) @ 365000: uvm_test_top.env.agent.monitor [WB] x04 <= 40000000  (PC~00000014)
# UVM_INFO C:/Documents/DoAnThietKeViMach/Project/SoC/VERIFICATION/Monitor/cpu_monitor.sv(364) @ 375000: uvm_test_top.env.agent.monitor [AXI_RD] CPU <- IRAM  Addr=00000018 Data=7640a303 RRESP=00
# UVM_INFO C:/Documents/DoAnThietKeViMach/Project/SoC/VERIFICATION/Monitor/cpu_monitor.sv(234) @ 375000: uvm_test_top.env.agent.monitor [IF] PC=00000018  INSTR=7640a303  [LW   x6, 1892(x1)]            
# UVM_INFO C:/Documents/DoAnThietKeViMach/Project/SoC/VERIFICATION/Monitor/cpu_monitor.sv(296) @ 375000: uvm_test_top.env.agent.monitor [WB] x04 <= 40000000  (PC~00000018)
# UVM_INFO C:/Documents/DoAnThietKeViMach/Project/SoC/VERIFICATION/Monitor/cpu_monitor.sv(296) @ 385000: uvm_test_top.env.agent.monitor [WB] x25 <= 00000000  (PC~00000018)
# UVM_INFO C:/Documents/DoAnThietKeViMach/Project/SoC/VERIFICATION/Monitor/cpu_monitor.sv(296) @ 395000: uvm_test_top.env.agent.monitor [WB] x25 <= 00000000  (PC~00000018)
# UVM_INFO C:/Documents/DoAnThietKeViMach/Project/SoC/VERIFICATION/Monitor/cpu_monitor.sv(296) @ 405000: uvm_test_top.env.agent.monitor [WB] x25 <= 00000000  (PC~00000018)
# UVM_INFO C:/Documents/DoAnThietKeViMach/Project/SoC/VERIFICATION/Monitor/cpu_monitor.sv(364) @ 415000: uvm_test_top.env.agent.monitor [AXI_RD] CPU <- IRAM  Addr=0000001c Data=00976ab3 RRESP=00
# UVM_INFO C:/Documents/DoAnThietKeViMach/Project/SoC/VERIFICATION/Monitor/cpu_monitor.sv(234) @ 415000: uvm_test_top.env.agent.monitor [IF] PC=0000001c  INSTR=00976ab3  [OR   x21, x14, x9]            
# UVM_INFO C:/Documents/DoAnThietKeViMach/Project/SoC/VERIFICATION/Monitor/cpu_monitor.sv(296) @ 415000: uvm_test_top.env.agent.monitor [WB] x25 <= 00000000  (PC~0000001c)
# UVM_INFO C:/Documents/DoAnThietKeViMach/Project/SoC/VERIFICATION/Monitor/cpu_monitor.sv(268) @ 425000: uvm_test_top.env.agent.monitor [MEM] STORE Addr=40000004 Data=00000000
# UVM_INFO C:/Documents/DoAnThietKeViMach/Project/SoC/VERIFICATION/Monitor/cpu_monitor.sv(268) @ 435000: uvm_test_top.env.agent.monitor [MEM] STORE Addr=40000004 Data=00000000
# UVM_INFO C:/Documents/DoAnThietKeViMach/Project/SoC/VERIFICATION/Monitor/cpu_monitor.sv(268) @ 445000: uvm_test_top.env.agent.monitor [MEM] STORE Addr=40000004 Data=00000000
# UVM_INFO C:/Documents/DoAnThietKeViMach/Project/SoC/VERIFICATION/Monitor/cpu_monitor.sv(335) @ 455000: uvm_test_top.env.agent.monitor [AXI_WR] CPU -> SPI  Addr=40000004 Data=00000000 Strb=1111 BRESP=00
# UVM_INFO C:/Documents/DoAnThietKeViMach/Project/SoC/VERIFICATION/Scoreboard/cpu_scoreboard.sv(246) @ 455000: uvm_test_top.env.scoreboard [SCB_PERIPH] [SPI] WRITE Addr=40000004 Data=00000000
# UVM_INFO C:/Documents/DoAnThietKeViMach/Project/SoC/VERIFICATION/Monitor/cpu_monitor.sv(268) @ 455000: uvm_test_top.env.agent.monitor [MEM] STORE Addr=40000004 Data=00000000
# UVM_INFO C:/Documents/DoAnThietKeViMach/Project/SoC/VERIFICATION/Monitor/cpu_monitor.sv(268) @ 465000: uvm_test_top.env.agent.monitor [MEM] STORE Addr=40000004 Data=00000000
# UVM_INFO C:/Documents/DoAnThietKeViMach/Project/SoC/VERIFICATION/Monitor/cpu_monitor.sv(268) @ 475000: uvm_test_top.env.agent.monitor [MEM] STORE Addr=40000004 Data=00000000
# UVM_INFO C:/Documents/DoAnThietKeViMach/Project/SoC/VERIFICATION/Monitor/cpu_monitor.sv(268) @ 485000: uvm_test_top.env.agent.monitor [MEM] STORE Addr=40000004 Data=00000000
# UVM_INFO C:/Documents/DoAnThietKeViMach/Project/SoC/VERIFICATION/Monitor/cpu_monitor.sv(364) @ 495000: uvm_test_top.env.agent.monitor [AXI_RD] CPU <- IRAM  Addr=00000020 Data=00022003 RRESP=00
# UVM_INFO C:/Documents/DoAnThietKeViMach/Project/SoC/VERIFICATION/Monitor/cpu_monitor.sv(234) @ 495000: uvm_test_top.env.agent.monitor [IF] PC=00000020  INSTR=00022003  [LW   x0, 0(x4)]            
# UVM_INFO C:/Documents/DoAnThietKeViMach/Project/SoC/VERIFICATION/Monitor/cpu_monitor.sv(268) @ 495000: uvm_test_top.env.agent.monitor [MEM] STORE Addr=40000004 Data=00000000
# [DRAM READ] addr=10000764 data=00000000
# UVM_INFO C:/Documents/DoAnThietKeViMach/Project/SoC/VERIFICATION/Monitor/cpu_monitor.sv(364) @ 535000: uvm_test_top.env.agent.monitor [AXI_RD] CPU <- DRAM  Addr=10000764 Data=00000000 RRESP=00
# UVM_INFO C:/Documents/DoAnThietKeViMach/Project/SoC/VERIFICATION/Scoreboard/cpu_scoreboard.sv(126) @ 535000: uvm_test_top.env.scoreboard [SCB_PASS] [DRAM] READ PASS Addr=10000764 Expected=00000000 Got=00000000
# UVM_INFO C:/Documents/DoAnThietKeViMach/Project/SoC/VERIFICATION/Monitor/cpu_monitor.sv(364) @ 575000: uvm_test_top.env.agent.monitor [AXI_RD] CPU <- IRAM  Addr=00000024 Data=0081a003 RRESP=00
# UVM_INFO C:/Documents/DoAnThietKeViMach/Project/SoC/VERIFICATION/Monitor/cpu_monitor.sv(234) @ 575000: uvm_test_top.env.agent.monitor [IF] PC=00000024  INSTR=0081a003  [LW   x0, 8(x3)]            
# UVM_INFO C:/Documents/DoAnThietKeViMach/Project/SoC/VERIFICATION/Monitor/cpu_monitor.sv(296) @ 585000: uvm_test_top.env.agent.monitor [WB] x06 <= 00000000  (PC~00000024)
# UVM_INFO C:/Documents/DoAnThietKeViMach/Project/SoC/VERIFICATION/Monitor/cpu_monitor.sv(296) @ 595000: uvm_test_top.env.agent.monitor [WB] x06 <= 00000000  (PC~00000024)
# UVM_INFO C:/Documents/DoAnThietKeViMach/Project/SoC/VERIFICATION/Monitor/cpu_monitor.sv(296) @ 605000: uvm_test_top.env.agent.monitor [WB] x06 <= 00000000  (PC~00000024)
# UVM_INFO C:/Documents/DoAnThietKeViMach/Project/SoC/VERIFICATION/Monitor/cpu_monitor.sv(364) @ 615000: uvm_test_top.env.agent.monitor [AXI_RD] CPU <- IRAM  Addr=00000028 Data=00c1ad03 RRESP=00
# UVM_INFO C:/Documents/DoAnThietKeViMach/Project/SoC/VERIFICATION/Monitor/cpu_monitor.sv(234) @ 615000: uvm_test_top.env.agent.monitor [IF] PC=00000028  INSTR=00c1ad03  [LW   x26, 12(x3)]            
# UVM_INFO C:/Documents/DoAnThietKeViMach/Project/SoC/VERIFICATION/Monitor/cpu_monitor.sv(296) @ 615000: uvm_test_top.env.agent.monitor [WB] x06 <= 00000000  (PC~00000028)
# UVM_INFO C:/Documents/DoAnThietKeViMach/Project/SoC/VERIFICATION/Monitor/cpu_monitor.sv(364) @ 655000: uvm_test_top.env.agent.monitor [AXI_RD] CPU <- SPI  Addr=40000000 Data=00000000 RRESP=00
# UVM_INFO C:/Documents/DoAnThietKeViMach/Project/SoC/VERIFICATION/Scoreboard/cpu_scoreboard.sv(252) @ 655000: uvm_test_top.env.scoreboard [SCB_PERIPH] [SPI] READ Addr=40000000 Data=00000000 (volatile, compare skipped)
# UVM_INFO C:/Documents/DoAnThietKeViMach/Project/SoC/VERIFICATION/Monitor/cpu_monitor.sv(296) @ 655000: uvm_test_top.env.agent.monitor [WB] x21 <= 00000000  (PC~00000028)
# UVM_INFO C:/Documents/DoAnThietKeViMach/Project/SoC/VERIFICATION/Monitor/cpu_monitor.sv(296) @ 665000: uvm_test_top.env.agent.monitor [WB] x21 <= 00000000  (PC~00000028)
# UVM_INFO C:/Documents/DoAnThietKeViMach/Project/SoC/VERIFICATION/Monitor/cpu_monitor.sv(296) @ 675000: uvm_test_top.env.agent.monitor [WB] x21 <= 00000000  (PC~00000028)
# UVM_INFO C:/Documents/DoAnThietKeViMach/Project/SoC/VERIFICATION/Monitor/cpu_monitor.sv(296) @ 685000: uvm_test_top.env.agent.monitor [WB] x21 <= 00000000  (PC~00000028)
# UVM_INFO C:/Documents/DoAnThietKeViMach/Project/SoC/VERIFICATION/Monitor/cpu_monitor.sv(364) @ 695000: uvm_test_top.env.agent.monitor [AXI_RD] CPU <- IRAM  Addr=0000002c Data=00a12023 RRESP=00
# UVM_INFO C:/Documents/DoAnThietKeViMach/Project/SoC/VERIFICATION/Monitor/cpu_monitor.sv(234) @ 695000: uvm_test_top.env.agent.monitor [IF] PC=0000002c  INSTR=00a12023  [SW   x10, 10(x2)]            
# UVM_INFO C:/Documents/DoAnThietKeViMach/Project/SoC/VERIFICATION/Monitor/cpu_monitor.sv(296) @ 695000: uvm_test_top.env.agent.monitor [WB] x21 <= 00000000  (PC~0000002c)
# UVM_INFO C:/Documents/DoAnThietKeViMach/Project/SoC/VERIFICATION/Monitor/cpu_monitor.sv(364) @ 735000: uvm_test_top.env.agent.monitor [AXI_RD] CPU <- UART  Addr=30000008 Data=00000000 RRESP=00
# UVM_INFO C:/Documents/DoAnThietKeViMach/Project/SoC/VERIFICATION/Scoreboard/cpu_scoreboard.sv(252) @ 735000: uvm_test_top.env.scoreboard [SCB_PERIPH] [UART] READ Addr=30000008 Data=00000000 (volatile, compare skipped)
# UVM_INFO C:/Documents/DoAnThietKeViMach/Project/SoC/VERIFICATION/Monitor/cpu_monitor.sv(364) @ 775000: uvm_test_top.env.agent.monitor [AXI_RD] CPU <- IRAM  Addr=00000030 Data=00a5c3b3 RRESP=00
# UVM_INFO C:/Documents/DoAnThietKeViMach/Project/SoC/VERIFICATION/Monitor/cpu_monitor.sv(234) @ 775000: uvm_test_top.env.agent.monitor [IF] PC=00000030  INSTR=00a5c3b3  [XOR  x7, x11, x10]            
# UVM_INFO C:/Documents/DoAnThietKeViMach/Project/SoC/VERIFICATION/Monitor/cpu_monitor.sv(364) @ 815000: uvm_test_top.env.agent.monitor [AXI_RD] CPU <- UART  Addr=3000000c Data=0001c200 RRESP=00
# UVM_INFO C:/Documents/DoAnThietKeViMach/Project/SoC/VERIFICATION/Scoreboard/cpu_scoreboard.sv(126) @ 815000: uvm_test_top.env.scoreboard [SCB_PASS] [UART] READ PASS Addr=3000000c Expected=0001c200 Got=0001c200
# UVM_INFO C:/Documents/DoAnThietKeViMach/Project/SoC/VERIFICATION/Monitor/cpu_monitor.sv(364) @ 855000: uvm_test_top.env.agent.monitor [AXI_RD] CPU <- IRAM  Addr=00000034 Data=00412883 RRESP=00
# UVM_INFO C:/Documents/DoAnThietKeViMach/Project/SoC/VERIFICATION/Monitor/cpu_monitor.sv(234) @ 855000: uvm_test_top.env.agent.monitor [IF] PC=00000034  INSTR=00412883  [LW   x17, 4(x2)]            
# UVM_INFO C:/Documents/DoAnThietKeViMach/Project/SoC/VERIFICATION/Monitor/cpu_monitor.sv(268) @ 865000: uvm_test_top.env.agent.monitor [MEM] STORE Addr=20000000 Data=00000000
# UVM_INFO C:/Documents/DoAnThietKeViMach/Project/SoC/VERIFICATION/Monitor/cpu_monitor.sv(268) @ 875000: uvm_test_top.env.agent.monitor [MEM] STORE Addr=20000000 Data=00000000
# UVM_INFO C:/Documents/DoAnThietKeViMach/Project/SoC/VERIFICATION/Monitor/cpu_monitor.sv(268) @ 885000: uvm_test_top.env.agent.monitor [MEM] STORE Addr=20000000 Data=00000000
# UVM_INFO C:/Documents/DoAnThietKeViMach/Project/SoC/VERIFICATION/Monitor/cpu_monitor.sv(268) @ 895000: uvm_test_top.env.agent.monitor [MEM] STORE Addr=20000000 Data=00000000
# UVM_INFO C:/Documents/DoAnThietKeViMach/Project/SoC/VERIFICATION/Monitor/cpu_monitor.sv(335) @ 905000: uvm_test_top.env.agent.monitor [AXI_WR] CPU -> TIMER  Addr=20000000 Data=00000000 Strb=1111 BRESP=00
# UVM_INFO C:/Documents/DoAnThietKeViMach/Project/SoC/VERIFICATION/Scoreboard/cpu_scoreboard.sv(246) @ 905000: uvm_test_top.env.scoreboard [SCB_PERIPH] [TIMER] WRITE Addr=20000000 Data=00000000
# UVM_INFO C:/Documents/DoAnThietKeViMach/Project/SoC/VERIFICATION/Monitor/cpu_monitor.sv(268) @ 905000: uvm_test_top.env.agent.monitor [MEM] STORE Addr=20000000 Data=00000000
# UVM_INFO C:/Documents/DoAnThietKeViMach/Project/SoC/VERIFICATION/Monitor/cpu_monitor.sv(296) @ 905000: uvm_test_top.env.agent.monitor [WB] x26 <= 0001c200  (PC~00000034)
# UVM_INFO C:/Documents/DoAnThietKeViMach/Project/SoC/VERIFICATION/Monitor/cpu_monitor.sv(268) @ 915000: uvm_test_top.env.agent.monitor [MEM] STORE Addr=20000000 Data=00000000
# UVM_INFO C:/Documents/DoAnThietKeViMach/Project/SoC/VERIFICATION/Monitor/cpu_monitor.sv(296) @ 915000: uvm_test_top.env.agent.monitor [WB] x26 <= 0001c200  (PC~00000034)
# UVM_INFO C:/Documents/DoAnThietKeViMach/Project/SoC/VERIFICATION/Monitor/cpu_monitor.sv(268) @ 925000: uvm_test_top.env.agent.monitor [MEM] STORE Addr=20000000 Data=00000000
# UVM_INFO C:/Documents/DoAnThietKeViMach/Project/SoC/VERIFICATION/Monitor/cpu_monitor.sv(296) @ 925000: uvm_test_top.env.agent.monitor [WB] x26 <= 0001c200  (PC~00000034)
# UVM_INFO C:/Documents/DoAnThietKeViMach/Project/SoC/VERIFICATION/Monitor/cpu_monitor.sv(268) @ 935000: uvm_test_top.env.agent.monitor [MEM] STORE Addr=20000000 Data=00000000
# UVM_INFO C:/Documents/DoAnThietKeViMach/Project/SoC/VERIFICATION/Monitor/cpu_monitor.sv(296) @ 935000: uvm_test_top.env.agent.monitor [WB] x26 <= 0001c200  (PC~00000034)
# UVM_INFO C:/Documents/DoAnThietKeViMach/Project/SoC/VERIFICATION/Monitor/cpu_monitor.sv(364) @ 945000: uvm_test_top.env.agent.monitor [AXI_RD] CPU <- IRAM  Addr=00000038 Data=00007263 RRESP=00
# UVM_INFO C:/Documents/DoAnThietKeViMach/Project/SoC/VERIFICATION/Monitor/cpu_monitor.sv(234) @ 945000: uvm_test_top.env.agent.monitor [IF] PC=00000038  INSTR=00007263  [BR?? x0, x0, ...]            
# UVM_INFO C:/Documents/DoAnThietKeViMach/Project/SoC/VERIFICATION/Monitor/cpu_monitor.sv(268) @ 945000: uvm_test_top.env.agent.monitor [MEM] STORE Addr=20000000 Data=00000000
# UVM_INFO C:/Documents/DoAnThietKeViMach/Project/SoC/VERIFICATION/Monitor/cpu_monitor.sv(296) @ 945000: uvm_test_top.env.agent.monitor [WB] x26 <= 0001c200  (PC~00000038)
# UVM_INFO C:/Documents/DoAnThietKeViMach/Project/SoC/VERIFICATION/Monitor/cpu_monitor.sv(364) @ 985000: uvm_test_top.env.agent.monitor [AXI_RD] CPU <- IRAM  Addr=0000003c Data=0081a003 RRESP=00
# UVM_INFO C:/Documents/DoAnThietKeViMach/Project/SoC/VERIFICATION/Monitor/cpu_monitor.sv(234) @ 985000: uvm_test_top.env.agent.monitor [IF] PC=0000003c  INSTR=0081a003  [LW   x0, 8(x3)]            
# UVM_INFO C:/Documents/DoAnThietKeViMach/Project/SoC/VERIFICATION/Monitor/cpu_monitor.sv(364) @ 1025000: uvm_test_top.env.agent.monitor [AXI_RD] CPU <- TIMER  Addr=20000004 Data=00000000 RRESP=00
# UVM_INFO C:/Documents/DoAnThietKeViMach/Project/SoC/VERIFICATION/Scoreboard/cpu_scoreboard.sv(126) @ 1025000: uvm_test_top.env.scoreboard [SCB_PASS] [TIMER] READ PASS Addr=20000004 Expected=00000000 Got=00000000
# UVM_INFO C:/Documents/DoAnThietKeViMach/Project/SoC/VERIFICATION/Monitor/cpu_monitor.sv(296) @ 1025000: uvm_test_top.env.agent.monitor [WB] x07 <= 00000000  (PC~0000003c)
# UVM_INFO C:/Documents/DoAnThietKeViMach/Project/SoC/VERIFICATION/Monitor/cpu_monitor.sv(296) @ 1035000: uvm_test_top.env.agent.monitor [WB] x07 <= 00000000  (PC~0000003c)
# UVM_INFO C:/Documents/DoAnThietKeViMach/Project/SoC/VERIFICATION/Monitor/cpu_monitor.sv(296) @ 1045000: uvm_test_top.env.agent.monitor [WB] x07 <= 00000000  (PC~0000003c)
# UVM_INFO C:/Documents/DoAnThietKeViMach/Project/SoC/VERIFICATION/Monitor/cpu_monitor.sv(296) @ 1055000: uvm_test_top.env.agent.monitor [WB] x07 <= 00000000  (PC~0000003c)
# UVM_INFO C:/Documents/DoAnThietKeViMach/Project/SoC/VERIFICATION/Monitor/cpu_monitor.sv(364) @ 1065000: uvm_test_top.env.agent.monitor [AXI_RD] CPU <- IRAM  Addr=00000040 Data=00601263 RRESP=00
# UVM_INFO C:/Documents/DoAnThietKeViMach/Project/SoC/VERIFICATION/Monitor/cpu_monitor.sv(234) @ 1065000: uvm_test_top.env.agent.monitor [IF] PC=00000040  INSTR=00601263  [BNE  x0, x6, ...]            
# UVM_INFO C:/Documents/DoAnThietKeViMach/Project/SoC/VERIFICATION/Monitor/cpu_monitor.sv(296) @ 1065000: uvm_test_top.env.agent.monitor [WB] x07 <= 00000000  (PC~00000040)
# UVM_INFO C:/Documents/DoAnThietKeViMach/Project/SoC/VERIFICATION/Monitor/cpu_monitor.sv(296) @ 1075000: uvm_test_top.env.agent.monitor [WB] x17 <= 00000000  (PC~00000040)
# UVM_INFO C:/Documents/DoAnThietKeViMach/Project/SoC/VERIFICATION/Monitor/cpu_monitor.sv(296) @ 1085000: uvm_test_top.env.agent.monitor [WB] x17 <= 00000000  (PC~00000040)
# UVM_INFO C:/Documents/DoAnThietKeViMach/Project/SoC/VERIFICATION/Monitor/cpu_monitor.sv(296) @ 1095000: uvm_test_top.env.agent.monitor [WB] x17 <= 00000000  (PC~00000040)
# UVM_INFO C:/Documents/DoAnThietKeViMach/Project/SoC/VERIFICATION/Monitor/cpu_monitor.sv(364) @ 1105000: uvm_test_top.env.agent.monitor [AXI_RD] CPU <- IRAM  Addr=0000003c Data=0081a003 RRESP=00
# UVM_INFO C:/Documents/DoAnThietKeViMach/Project/SoC/VERIFICATION/Monitor/cpu_monitor.sv(234) @ 1105000: uvm_test_top.env.agent.monitor [IF] PC=0000003c  INSTR=0081a003  [LW   x0, 8(x3)]            
# UVM_INFO C:/Documents/DoAnThietKeViMach/Project/SoC/VERIFICATION/Monitor/cpu_monitor.sv(296) @ 1105000: uvm_test_top.env.agent.monitor [WB] x17 <= 00000000  (PC~0000003c)
# UVM_INFO C:/Documents/DoAnThietKeViMach/Project/SoC/VERIFICATION/Monitor/cpu_monitor.sv(364) @ 1145000: uvm_test_top.env.agent.monitor [AXI_RD] CPU <- IRAM  Addr=00000040 Data=00601263 RRESP=00
# UVM_INFO C:/Documents/DoAnThietKeViMach/Project/SoC/VERIFICATION/Monitor/cpu_monitor.sv(234) @ 1145000: uvm_test_top.env.agent.monitor [IF] PC=00000040  INSTR=00601263  [BNE  x0, x6, ...]            
# UVM_INFO C:/Documents/DoAnThietKeViMach/Project/SoC/VERIFICATION/Monitor/cpu_monitor.sv(364) @ 1185000: uvm_test_top.env.agent.monitor [AXI_RD] CPU <- IRAM  Addr=00000044 Data=00b12223 RRESP=00
# UVM_INFO C:/Documents/DoAnThietKeViMach/Project/SoC/VERIFICATION/Monitor/cpu_monitor.sv(364) @ 1225000: uvm_test_top.env.agent.monitor [AXI_RD] CPU <- UART  Addr=30000008 Data=00000000 RRESP=00
# UVM_INFO C:/Documents/DoAnThietKeViMach/Project/SoC/VERIFICATION/Scoreboard/cpu_scoreboard.sv(252) @ 1225000: uvm_test_top.env.scoreboard [SCB_PERIPH] [UART] READ Addr=30000008 Data=00000000 (volatile, compare skipped)
# UVM_INFO C:/Documents/DoAnThietKeViMach/Project/SoC/VERIFICATION/Monitor/cpu_monitor.sv(364) @ 1265000: uvm_test_top.env.agent.monitor [AXI_RD] CPU <- IRAM  Addr=00000044 Data=00b12223 RRESP=00
# UVM_INFO C:/Documents/DoAnThietKeViMach/Project/SoC/VERIFICATION/Monitor/cpu_monitor.sv(234) @ 1265000: uvm_test_top.env.agent.monitor [IF] PC=00000044  INSTR=00b12223  [SW   x11, 11(x2)]            
# UVM_INFO C:/Documents/DoAnThietKeViMach/Project/SoC/VERIFICATION/Monitor/cpu_monitor.sv(364) @ 1305000: uvm_test_top.env.agent.monitor [AXI_RD] CPU <- IRAM  Addr=00000048 Data=009af433 RRESP=00
# UVM_INFO C:/Documents/DoAnThietKeViMach/Project/SoC/VERIFICATION/Monitor/cpu_monitor.sv(234) @ 1305000: uvm_test_top.env.agent.monitor [IF] PC=00000048  INSTR=009af433  [AND  x8, x21, x9]            
# UVM_INFO C:/Documents/DoAnThietKeViMach/Project/SoC/VERIFICATION/Monitor/cpu_monitor.sv(364) @ 1345000: uvm_test_top.env.agent.monitor [AXI_RD] CPU <- IRAM  Addr=0000004c Data=01a22223 RRESP=00
# UVM_INFO C:/Documents/DoAnThietKeViMach/Project/SoC/VERIFICATION/Monitor/cpu_monitor.sv(234) @ 1345000: uvm_test_top.env.agent.monitor [IF] PC=0000004c  INSTR=01a22223  [SW   x26, 26(x4)]            
# UVM_INFO C:/Documents/DoAnThietKeViMach/Project/SoC/VERIFICATION/Monitor/cpu_monitor.sv(268) @ 1355000: uvm_test_top.env.agent.monitor [MEM] STORE Addr=20000004 Data=00000000
# UVM_INFO C:/Documents/DoAnThietKeViMach/Project/SoC/VERIFICATION/Monitor/cpu_monitor.sv(268) @ 1365000: uvm_test_top.env.agent.monitor [MEM] STORE Addr=20000004 Data=00000000
# UVM_INFO C:/Documents/DoAnThietKeViMach/Project/SoC/VERIFICATION/Monitor/cpu_monitor.sv(268) @ 1375000: uvm_test_top.env.agent.monitor [MEM] STORE Addr=20000004 Data=00000000
# UVM_INFO C:/Documents/DoAnThietKeViMach/Project/SoC/VERIFICATION/Monitor/cpu_monitor.sv(268) @ 1385000: uvm_test_top.env.agent.monitor [MEM] STORE Addr=20000004 Data=00000000
# UVM_INFO C:/Documents/DoAnThietKeViMach/Project/SoC/VERIFICATION/Monitor/cpu_monitor.sv(335) @ 1395000: uvm_test_top.env.agent.monitor [AXI_WR] CPU -> TIMER  Addr=20000004 Data=00000000 Strb=1111 BRESP=00
# UVM_INFO C:/Documents/DoAnThietKeViMach/Project/SoC/VERIFICATION/Scoreboard/cpu_scoreboard.sv(246) @ 1395000: uvm_test_top.env.scoreboard [SCB_PERIPH] [TIMER] WRITE Addr=20000004 Data=00000000
# UVM_INFO C:/Documents/DoAnThietKeViMach/Project/SoC/VERIFICATION/Monitor/cpu_monitor.sv(268) @ 1395000: uvm_test_top.env.agent.monitor [MEM] STORE Addr=20000004 Data=00000000
# UVM_INFO C:/Documents/DoAnThietKeViMach/Project/SoC/VERIFICATION/Monitor/cpu_monitor.sv(268) @ 1405000: uvm_test_top.env.agent.monitor [MEM] STORE Addr=20000004 Data=00000000
# UVM_INFO C:/Documents/DoAnThietKeViMach/Project/SoC/VERIFICATION/Monitor/cpu_monitor.sv(268) @ 1415000: uvm_test_top.env.agent.monitor [MEM] STORE Addr=20000004 Data=00000000
# UVM_INFO C:/Documents/DoAnThietKeViMach/Project/SoC/VERIFICATION/Monitor/cpu_monitor.sv(268) @ 1425000: uvm_test_top.env.agent.monitor [MEM] STORE Addr=20000004 Data=00000000
# UVM_INFO C:/Documents/DoAnThietKeViMach/Project/SoC/VERIFICATION/Monitor/cpu_monitor.sv(364) @ 1435000: uvm_test_top.env.agent.monitor [AXI_RD] CPU <- IRAM  Addr=00000050 Data=00000263 RRESP=00
# UVM_INFO C:/Documents/DoAnThietKeViMach/Project/SoC/VERIFICATION/Monitor/cpu_monitor.sv(234) @ 1435000: uvm_test_top.env.agent.monitor [IF] PC=00000050  INSTR=00000263  [BEQ  x0, x0, ...]            
# UVM_INFO C:/Documents/DoAnThietKeViMach/Project/SoC/VERIFICATION/Monitor/cpu_monitor.sv(268) @ 1435000: uvm_test_top.env.agent.monitor [MEM] STORE Addr=20000004 Data=00000000
# UVM_INFO C:/Documents/DoAnThietKeViMach/Project/SoC/VERIFICATION/Monitor/cpu_monitor.sv(364) @ 1475000: uvm_test_top.env.agent.monitor [AXI_RD] CPU <- IRAM  Addr=00000054 Data=00822003 RRESP=00
# UVM_INFO C:/Documents/DoAnThietKeViMach/Project/SoC/VERIFICATION/Monitor/cpu_monitor.sv(234) @ 1475000: uvm_test_top.env.agent.monitor [IF] PC=00000054  INSTR=00822003  [LW   x0, 8(x4)]            
# UVM_INFO C:/Documents/DoAnThietKeViMach/Project/SoC/VERIFICATION/Monitor/cpu_monitor.sv(268) @ 1485000: uvm_test_top.env.agent.monitor [MEM] STORE Addr=40000004 Data=0001c200
# UVM_INFO C:/Documents/DoAnThietKeViMach/Project/SoC/VERIFICATION/Monitor/cpu_monitor.sv(268) @ 1495000: uvm_test_top.env.agent.monitor [MEM] STORE Addr=40000004 Data=0001c200
# UVM_INFO C:/Documents/DoAnThietKeViMach/Project/SoC/VERIFICATION/Monitor/cpu_monitor.sv(268) @ 1505000: uvm_test_top.env.agent.monitor [MEM] STORE Addr=40000004 Data=0001c200
# UVM_INFO C:/Documents/DoAnThietKeViMach/Project/SoC/VERIFICATION/Monitor/cpu_monitor.sv(335) @ 1515000: uvm_test_top.env.agent.monitor [AXI_WR] CPU -> SPI  Addr=40000004 Data=0001c200 Strb=1111 BRESP=00
# UVM_INFO C:/Documents/DoAnThietKeViMach/Project/SoC/VERIFICATION/Scoreboard/cpu_scoreboard.sv(246) @ 1515000: uvm_test_top.env.scoreboard [SCB_PERIPH] [SPI] WRITE Addr=40000004 Data=0001c200
# UVM_INFO C:/Documents/DoAnThietKeViMach/Project/SoC/VERIFICATION/Monitor/cpu_monitor.sv(268) @ 1515000: uvm_test_top.env.agent.monitor [MEM] STORE Addr=40000004 Data=0001c200
# UVM_INFO C:/Documents/DoAnThietKeViMach/Project/SoC/VERIFICATION/Monitor/cpu_monitor.sv(296) @ 1515000: uvm_test_top.env.agent.monitor [WB] x08 <= 00000000  (PC~00000054)
# UVM_INFO C:/Documents/DoAnThietKeViMach/Project/SoC/VERIFICATION/Monitor/cpu_monitor.sv(268) @ 1525000: uvm_test_top.env.agent.monitor [MEM] STORE Addr=40000004 Data=0001c200
# UVM_INFO C:/Documents/DoAnThietKeViMach/Project/SoC/VERIFICATION/Monitor/cpu_monitor.sv(296) @ 1525000: uvm_test_top.env.agent.monitor [WB] x08 <= 00000000  (PC~00000054)
# UVM_INFO C:/Documents/DoAnThietKeViMach/Project/SoC/VERIFICATION/Monitor/cpu_monitor.sv(268) @ 1535000: uvm_test_top.env.agent.monitor [MEM] STORE Addr=40000004 Data=0001c200
# UVM_INFO C:/Documents/DoAnThietKeViMach/Project/SoC/VERIFICATION/Monitor/cpu_monitor.sv(296) @ 1535000: uvm_test_top.env.agent.monitor [WB] x08 <= 00000000  (PC~00000054)
# UVM_INFO C:/Documents/DoAnThietKeViMach/Project/SoC/VERIFICATION/Monitor/cpu_monitor.sv(268) @ 1545000: uvm_test_top.env.agent.monitor [MEM] STORE Addr=40000004 Data=0001c200
# UVM_INFO C:/Documents/DoAnThietKeViMach/Project/SoC/VERIFICATION/Monitor/cpu_monitor.sv(296) @ 1545000: uvm_test_top.env.agent.monitor [WB] x08 <= 00000000  (PC~00000054)
# UVM_INFO C:/Documents/DoAnThietKeViMach/Project/SoC/VERIFICATION/Monitor/cpu_monitor.sv(364) @ 1555000: uvm_test_top.env.agent.monitor [AXI_RD] CPU <- IRAM  Addr=00000058 Data=00c22683 RRESP=00
# UVM_INFO C:/Documents/DoAnThietKeViMach/Project/SoC/VERIFICATION/Monitor/cpu_monitor.sv(234) @ 1555000: uvm_test_top.env.agent.monitor [IF] PC=00000058  INSTR=00c22683  [LW   x13, 12(x4)]            
# UVM_INFO C:/Documents/DoAnThietKeViMach/Project/SoC/VERIFICATION/Monitor/cpu_monitor.sv(268) @ 1555000: uvm_test_top.env.agent.monitor [MEM] STORE Addr=40000004 Data=0001c200
# UVM_INFO C:/Documents/DoAnThietKeViMach/Project/SoC/VERIFICATION/Monitor/cpu_monitor.sv(296) @ 1555000: uvm_test_top.env.agent.monitor [WB] x08 <= 00000000  (PC~00000058)
# UVM_INFO C:/Documents/DoAnThietKeViMach/Project/SoC/VERIFICATION/Monitor/cpu_monitor.sv(364) @ 1595000: uvm_test_top.env.agent.monitor [AXI_RD] CPU <- IRAM  Addr=00000054 Data=00822003 RRESP=00
# UVM_INFO C:/Documents/DoAnThietKeViMach/Project/SoC/VERIFICATION/Monitor/cpu_monitor.sv(234) @ 1595000: uvm_test_top.env.agent.monitor [IF] PC=00000054  INSTR=00822003  [LW   x0, 8(x4)]            
# UVM_INFO C:/Documents/DoAnThietKeViMach/Project/SoC/VERIFICATION/Monitor/cpu_monitor.sv(364) @ 1635000: uvm_test_top.env.agent.monitor [AXI_RD] CPU <- IRAM  Addr=00000058 Data=00c22683 RRESP=00
# UVM_INFO C:/Documents/DoAnThietKeViMach/Project/SoC/VERIFICATION/Monitor/cpu_monitor.sv(234) @ 1635000: uvm_test_top.env.agent.monitor [IF] PC=00000058  INSTR=00c22683  [LW   x13, 12(x4)]            
# UVM_INFO C:/Documents/DoAnThietKeViMach/Project/SoC/VERIFICATION/Monitor/cpu_monitor.sv(364) @ 1675000: uvm_test_top.env.agent.monitor [AXI_RD] CPU <- IRAM  Addr=0000005c Data=0144a2b3 RRESP=00
# UVM_INFO C:/Documents/DoAnThietKeViMach/Project/SoC/VERIFICATION/Monitor/cpu_monitor.sv(234) @ 1675000: uvm_test_top.env.agent.monitor [IF] PC=0000005c  INSTR=0144a2b3  [SLT  x5, x9, x20]            
# UVM_INFO C:/Documents/DoAnThietKeViMach/Project/SoC/VERIFICATION/Monitor/cpu_monitor.sv(364) @ 1715000: uvm_test_top.env.agent.monitor [AXI_RD] CPU <- SPI  Addr=40000008 Data=00000000 RRESP=00
# UVM_INFO C:/Documents/DoAnThietKeViMach/Project/SoC/VERIFICATION/Scoreboard/cpu_scoreboard.sv(252) @ 1715000: uvm_test_top.env.scoreboard [SCB_PERIPH] [SPI] READ Addr=40000008 Data=00000000 (volatile, compare skipped)
# UVM_INFO C:/Documents/DoAnThietKeViMach/Project/SoC/VERIFICATION/Monitor/cpu_monitor.sv(364) @ 1755000: uvm_test_top.env.agent.monitor [AXI_RD] CPU <- IRAM  Addr=00000060 Data=f20d6893 RRESP=00
# UVM_INFO C:/Documents/DoAnThietKeViMach/Project/SoC/VERIFICATION/Monitor/cpu_monitor.sv(234) @ 1755000: uvm_test_top.env.agent.monitor [IF] PC=00000060  INSTR=f20d6893  [ORI  x17, x26, -224]            
# UVM_INFO C:/Documents/DoAnThietKeViMach/Project/SoC/VERIFICATION/Monitor/cpu_monitor.sv(364) @ 1795000: uvm_test_top.env.agent.monitor [AXI_RD] CPU <- SPI  Addr=4000000c Data=0000000a RRESP=00
# UVM_INFO C:/Documents/DoAnThietKeViMach/Project/SoC/VERIFICATION/Scoreboard/cpu_scoreboard.sv(126) @ 1795000: uvm_test_top.env.scoreboard [SCB_PASS] [SPI] READ PASS Addr=4000000c Expected=0000000a Got=0000000a
# UVM_INFO C:/Documents/DoAnThietKeViMach/Project/SoC/VERIFICATION/Monitor/cpu_monitor.sv(364) @ 1835000: uvm_test_top.env.agent.monitor [AXI_RD] CPU <- IRAM  Addr=00000064 Data=01912223 RRESP=00
# UVM_INFO C:/Documents/DoAnThietKeViMach/Project/SoC/VERIFICATION/Monitor/cpu_monitor.sv(234) @ 1835000: uvm_test_top.env.agent.monitor [IF] PC=00000064  INSTR=01912223  [SW   x25, 25(x2)]            
# UVM_INFO C:/Documents/DoAnThietKeViMach/Project/SoC/VERIFICATION/Monitor/cpu_monitor.sv(296) @ 1845000: uvm_test_top.env.agent.monitor [WB] x13 <= 0000000a  (PC~00000064)
# UVM_INFO C:/Documents/DoAnThietKeViMach/Project/SoC/VERIFICATION/Monitor/cpu_monitor.sv(296) @ 1855000: uvm_test_top.env.agent.monitor [WB] x13 <= 0000000a  (PC~00000064)
# UVM_INFO C:/Documents/DoAnThietKeViMach/Project/SoC/VERIFICATION/Monitor/cpu_monitor.sv(296) @ 1865000: uvm_test_top.env.agent.monitor [WB] x13 <= 0000000a  (PC~00000064)
# UVM_INFO C:/Documents/DoAnThietKeViMach/Project/SoC/VERIFICATION/Monitor/cpu_monitor.sv(364) @ 1875000: uvm_test_top.env.agent.monitor [AXI_RD] CPU <- IRAM  Addr=00000068 Data=0c60a223 RRESP=00
# UVM_INFO C:/Documents/DoAnThietKeViMach/Project/SoC/VERIFICATION/Monitor/cpu_monitor.sv(234) @ 1875000: uvm_test_top.env.agent.monitor [IF] PC=00000068  INSTR=0c60a223  [SW   x6, 198(x1)]            
# UVM_INFO C:/Documents/DoAnThietKeViMach/Project/SoC/VERIFICATION/Monitor/cpu_monitor.sv(296) @ 1875000: uvm_test_top.env.agent.monitor [WB] x13 <= 0000000a  (PC~00000068)
# UVM_INFO C:/Documents/DoAnThietKeViMach/Project/SoC/VERIFICATION/Monitor/cpu_monitor.sv(296) @ 1885000: uvm_test_top.env.agent.monitor [WB] x05 <= 00000000  (PC~00000068)
# UVM_INFO C:/Documents/DoAnThietKeViMach/Project/SoC/VERIFICATION/Monitor/cpu_monitor.sv(296) @ 1895000: uvm_test_top.env.agent.monitor [WB] x05 <= 00000000  (PC~00000068)
# UVM_INFO C:/Documents/DoAnThietKeViMach/Project/SoC/VERIFICATION/Monitor/cpu_monitor.sv(296) @ 1905000: uvm_test_top.env.agent.monitor [WB] x05 <= 00000000  (PC~00000068)
# UVM_INFO C:/Documents/DoAnThietKeViMach/Project/SoC/VERIFICATION/Monitor/cpu_monitor.sv(364) @ 1915000: uvm_test_top.env.agent.monitor [AXI_RD] CPU <- IRAM  Addr=0000006c Data=7ed0a223 RRESP=00
# UVM_INFO C:/Documents/DoAnThietKeViMach/Project/SoC/VERIFICATION/Monitor/cpu_monitor.sv(234) @ 1915000: uvm_test_top.env.agent.monitor [IF] PC=0000006c  INSTR=7ed0a223  [SW   x13, 2029(x1)]            
# UVM_INFO C:/Documents/DoAnThietKeViMach/Project/SoC/VERIFICATION/Monitor/cpu_monitor.sv(296) @ 1915000: uvm_test_top.env.agent.monitor [WB] x05 <= 00000000  (PC~0000006c)
# UVM_INFO C:/Documents/DoAnThietKeViMach/Project/SoC/VERIFICATION/Monitor/cpu_monitor.sv(268) @ 1925000: uvm_test_top.env.agent.monitor [MEM] STORE Addr=20000004 Data=00000000
# UVM_INFO C:/Documents/DoAnThietKeViMach/Project/SoC/VERIFICATION/Monitor/cpu_monitor.sv(268) @ 1935000: uvm_test_top.env.agent.monitor [MEM] STORE Addr=20000004 Data=00000000
# UVM_INFO C:/Documents/DoAnThietKeViMach/Project/SoC/VERIFICATION/Monitor/cpu_monitor.sv(268) @ 1945000: uvm_test_top.env.agent.monitor [MEM] STORE Addr=20000004 Data=00000000
# UVM_INFO C:/Documents/DoAnThietKeViMach/Project/SoC/VERIFICATION/Monitor/cpu_monitor.sv(268) @ 1955000: uvm_test_top.env.agent.monitor [MEM] STORE Addr=20000004 Data=00000000
# UVM_INFO C:/Documents/DoAnThietKeViMach/Project/SoC/VERIFICATION/Monitor/cpu_monitor.sv(335) @ 1965000: uvm_test_top.env.agent.monitor [AXI_WR] CPU -> TIMER  Addr=20000004 Data=00000000 Strb=1111 BRESP=00
# UVM_INFO C:/Documents/DoAnThietKeViMach/Project/SoC/VERIFICATION/Scoreboard/cpu_scoreboard.sv(246) @ 1965000: uvm_test_top.env.scoreboard [SCB_PERIPH] [TIMER] WRITE Addr=20000004 Data=00000000
# UVM_INFO C:/Documents/DoAnThietKeViMach/Project/SoC/VERIFICATION/Monitor/cpu_monitor.sv(268) @ 1965000: uvm_test_top.env.agent.monitor [MEM] STORE Addr=20000004 Data=00000000
# UVM_INFO C:/Documents/DoAnThietKeViMach/Project/SoC/VERIFICATION/Monitor/cpu_monitor.sv(296) @ 1965000: uvm_test_top.env.agent.monitor [WB] x17 <= ffffff20  (PC~0000006c)
# UVM_INFO C:/Documents/DoAnThietKeViMach/Project/SoC/VERIFICATION/Monitor/cpu_monitor.sv(268) @ 1975000: uvm_test_top.env.agent.monitor [MEM] STORE Addr=20000004 Data=00000000
# UVM_INFO C:/Documents/DoAnThietKeViMach/Project/SoC/VERIFICATION/Monitor/cpu_monitor.sv(296) @ 1975000: uvm_test_top.env.agent.monitor [WB] x17 <= ffffff20  (PC~0000006c)
# UVM_INFO C:/Documents/DoAnThietKeViMach/Project/SoC/VERIFICATION/Monitor/cpu_monitor.sv(268) @ 1985000: uvm_test_top.env.agent.monitor [MEM] STORE Addr=20000004 Data=00000000
# UVM_INFO C:/Documents/DoAnThietKeViMach/Project/SoC/VERIFICATION/Monitor/cpu_monitor.sv(296) @ 1985000: uvm_test_top.env.agent.monitor [WB] x17 <= ffffff20  (PC~0000006c)
# UVM_INFO C:/Documents/DoAnThietKeViMach/Project/SoC/VERIFICATION/Monitor/cpu_monitor.sv(268) @ 1995000: uvm_test_top.env.agent.monitor [MEM] STORE Addr=20000004 Data=00000000
# UVM_INFO C:/Documents/DoAnThietKeViMach/Project/SoC/VERIFICATION/Monitor/cpu_monitor.sv(296) @ 1995000: uvm_test_top.env.agent.monitor [WB] x17 <= ffffff20  (PC~0000006c)
# UVM_INFO C:/Documents/DoAnThietKeViMach/Project/SoC/VERIFICATION/Monitor/cpu_monitor.sv(364) @ 2005000: uvm_test_top.env.agent.monitor [AXI_RD] CPU <- IRAM  Addr=00000070 Data=00012583 RRESP=00
# UVM_INFO C:/Documents/DoAnThietKeViMach/Project/SoC/VERIFICATION/Monitor/cpu_monitor.sv(234) @ 2005000: uvm_test_top.env.agent.monitor [IF] PC=00000070  INSTR=00012583  [LW   x11, 0(x2)]            
# UVM_INFO C:/Documents/DoAnThietKeViMach/Project/SoC/VERIFICATION/Monitor/cpu_monitor.sv(268) @ 2005000: uvm_test_top.env.agent.monitor [MEM] STORE Addr=20000004 Data=00000000
# UVM_INFO C:/Documents/DoAnThietKeViMach/Project/SoC/VERIFICATION/Monitor/cpu_monitor.sv(296) @ 2005000: uvm_test_top.env.agent.monitor [WB] x17 <= ffffff20  (PC~00000070)
# UVM_INFO C:/Documents/DoAnThietKeViMach/Project/SoC/VERIFICATION/Monitor/cpu_monitor.sv(268) @ 2015000: uvm_test_top.env.agent.monitor [MEM] STORE Addr=100000c4 Data=00000000
# UVM_INFO C:/Documents/DoAnThietKeViMach/Project/SoC/VERIFICATION/Monitor/cpu_monitor.sv(268) @ 2025000: uvm_test_top.env.agent.monitor [MEM] STORE Addr=100000c4 Data=00000000
# [DRAM WRITE] addr=100000c4 data=00000000
# UVM_INFO C:/Documents/DoAnThietKeViMach/Project/SoC/VERIFICATION/Monitor/cpu_monitor.sv(268) @ 2035000: uvm_test_top.env.agent.monitor [MEM] STORE Addr=100000c4 Data=00000000
# UVM_INFO C:/Documents/DoAnThietKeViMach/Project/SoC/VERIFICATION/Monitor/cpu_monitor.sv(335) @ 2045000: uvm_test_top.env.agent.monitor [AXI_WR] CPU -> DRAM  Addr=100000c4 Data=00000000 Strb=1111 BRESP=00
# UVM_INFO C:/Documents/DoAnThietKeViMach/Project/SoC/VERIFICATION/Monitor/cpu_monitor.sv(268) @ 2045000: uvm_test_top.env.agent.monitor [MEM] STORE Addr=100000c4 Data=00000000
# UVM_INFO C:/Documents/DoAnThietKeViMach/Project/SoC/VERIFICATION/Monitor/cpu_monitor.sv(268) @ 2055000: uvm_test_top.env.agent.monitor [MEM] STORE Addr=100000c4 Data=00000000
# UVM_INFO C:/Documents/DoAnThietKeViMach/Project/SoC/VERIFICATION/Monitor/cpu_monitor.sv(268) @ 2065000: uvm_test_top.env.agent.monitor [MEM] STORE Addr=100000c4 Data=00000000
# UVM_INFO C:/Documents/DoAnThietKeViMach/Project/SoC/VERIFICATION/Monitor/cpu_monitor.sv(268) @ 2075000: uvm_test_top.env.agent.monitor [MEM] STORE Addr=100000c4 Data=00000000
# UVM_INFO C:/Documents/DoAnThietKeViMach/Project/SoC/VERIFICATION/Monitor/cpu_monitor.sv(364) @ 2085000: uvm_test_top.env.agent.monitor [AXI_RD] CPU <- IRAM  Addr=00000074 Data=66e0ac23 RRESP=00
# UVM_INFO C:/Documents/DoAnThietKeViMach/Project/SoC/VERIFICATION/Monitor/cpu_monitor.sv(234) @ 2085000: uvm_test_top.env.agent.monitor [IF] PC=00000074  INSTR=66e0ac23  [SW   x14, 1646(x1)]            
# UVM_INFO C:/Documents/DoAnThietKeViMach/Project/SoC/VERIFICATION/Monitor/cpu_monitor.sv(268) @ 2085000: uvm_test_top.env.agent.monitor [MEM] STORE Addr=100000c4 Data=00000000
# UVM_INFO C:/Documents/DoAnThietKeViMach/Project/SoC/VERIFICATION/Monitor/cpu_monitor.sv(268) @ 2095000: uvm_test_top.env.agent.monitor [MEM] STORE Addr=100007e4 Data=0000000a
# UVM_INFO C:/Documents/DoAnThietKeViMach/Project/SoC/VERIFICATION/Monitor/cpu_monitor.sv(268) @ 2105000: uvm_test_top.env.agent.monitor [MEM] STORE Addr=100007e4 Data=0000000a
# [DRAM WRITE] addr=100007e4 data=0000000a
# UVM_INFO C:/Documents/DoAnThietKeViMach/Project/SoC/VERIFICATION/Monitor/cpu_monitor.sv(268) @ 2115000: uvm_test_top.env.agent.monitor [MEM] STORE Addr=100007e4 Data=0000000a
# UVM_INFO C:/Documents/DoAnThietKeViMach/Project/SoC/VERIFICATION/Monitor/cpu_monitor.sv(335) @ 2125000: uvm_test_top.env.agent.monitor [AXI_WR] CPU -> DRAM  Addr=100007e4 Data=0000000a Strb=1111 BRESP=00
# UVM_INFO C:/Documents/DoAnThietKeViMach/Project/SoC/VERIFICATION/Monitor/cpu_monitor.sv(268) @ 2125000: uvm_test_top.env.agent.monitor [MEM] STORE Addr=100007e4 Data=0000000a
# UVM_INFO C:/Documents/DoAnThietKeViMach/Project/SoC/VERIFICATION/Monitor/cpu_monitor.sv(268) @ 2135000: uvm_test_top.env.agent.monitor [MEM] STORE Addr=100007e4 Data=0000000a
# UVM_INFO C:/Documents/DoAnThietKeViMach/Project/SoC/VERIFICATION/Monitor/cpu_monitor.sv(268) @ 2145000: uvm_test_top.env.agent.monitor [MEM] STORE Addr=100007e4 Data=0000000a
# UVM_INFO C:/Documents/DoAnThietKeViMach/Project/SoC/VERIFICATION/Monitor/cpu_monitor.sv(268) @ 2155000: uvm_test_top.env.agent.monitor [MEM] STORE Addr=100007e4 Data=0000000a
# UVM_INFO C:/Documents/DoAnThietKeViMach/Project/SoC/VERIFICATION/Monitor/cpu_monitor.sv(364) @ 2165000: uvm_test_top.env.agent.monitor [AXI_RD] CPU <- IRAM  Addr=00000078 Data=01ed8bb3 RRESP=00
# UVM_INFO C:/Documents/DoAnThietKeViMach/Project/SoC/VERIFICATION/Monitor/cpu_monitor.sv(234) @ 2165000: uvm_test_top.env.agent.monitor [IF] PC=00000078  INSTR=01ed8bb3  [ADD  x23, x27, x30]            
# UVM_INFO C:/Documents/DoAnThietKeViMach/Project/SoC/VERIFICATION/Monitor/cpu_monitor.sv(268) @ 2165000: uvm_test_top.env.agent.monitor [MEM] STORE Addr=100007e4 Data=0000000a
# UVM_INFO C:/Documents/DoAnThietKeViMach/Project/SoC/VERIFICATION/Monitor/cpu_monitor.sv(364) @ 2205000: uvm_test_top.env.agent.monitor [AXI_RD] CPU <- TIMER  Addr=20000000 Data=00000000 RRESP=00
# UVM_INFO C:/Documents/DoAnThietKeViMach/Project/SoC/VERIFICATION/Scoreboard/cpu_scoreboard.sv(126) @ 2205000: uvm_test_top.env.scoreboard [SCB_PASS] [TIMER] READ PASS Addr=20000000 Expected=00000000 Got=00000000
# UVM_INFO C:/Documents/DoAnThietKeViMach/Project/SoC/VERIFICATION/Monitor/cpu_monitor.sv(364) @ 2245000: uvm_test_top.env.agent.monitor [AXI_RD] CPU <- IRAM  Addr=0000007c Data=d81a4b13 RRESP=00
# UVM_INFO C:/Documents/DoAnThietKeViMach/Project/SoC/VERIFICATION/Monitor/cpu_monitor.sv(234) @ 2245000: uvm_test_top.env.agent.monitor [IF] PC=0000007c  INSTR=d81a4b13  [XORI x22, x20, -639]            
# UVM_INFO C:/Documents/DoAnThietKeViMach/Project/SoC/VERIFICATION/Monitor/cpu_monitor.sv(268) @ 2255000: uvm_test_top.env.agent.monitor [MEM] STORE Addr=10000678 Data=00000000
# UVM_INFO C:/Documents/DoAnThietKeViMach/Project/SoC/VERIFICATION/Monitor/cpu_monitor.sv(268) @ 2265000: uvm_test_top.env.agent.monitor [MEM] STORE Addr=10000678 Data=00000000
# [DRAM WRITE] addr=10000678 data=00000000
# UVM_INFO C:/Documents/DoAnThietKeViMach/Project/SoC/VERIFICATION/Monitor/cpu_monitor.sv(268) @ 2275000: uvm_test_top.env.agent.monitor [MEM] STORE Addr=10000678 Data=00000000
# UVM_INFO C:/Documents/DoAnThietKeViMach/Project/SoC/VERIFICATION/Monitor/cpu_monitor.sv(335) @ 2285000: uvm_test_top.env.agent.monitor [AXI_WR] CPU -> DRAM  Addr=10000678 Data=00000000 Strb=1111 BRESP=00
# UVM_INFO C:/Documents/DoAnThietKeViMach/Project/SoC/VERIFICATION/Monitor/cpu_monitor.sv(268) @ 2285000: uvm_test_top.env.agent.monitor [MEM] STORE Addr=10000678 Data=00000000
# UVM_INFO C:/Documents/DoAnThietKeViMach/Project/SoC/VERIFICATION/Monitor/cpu_monitor.sv(296) @ 2285000: uvm_test_top.env.agent.monitor [WB] x11 <= 00000000  (PC~0000007c)
# UVM_INFO C:/Documents/DoAnThietKeViMach/Project/SoC/VERIFICATION/Monitor/cpu_monitor.sv(268) @ 2295000: uvm_test_top.env.agent.monitor [MEM] STORE Addr=10000678 Data=00000000
# UVM_INFO C:/Documents/DoAnThietKeViMach/Project/SoC/VERIFICATION/Monitor/cpu_monitor.sv(296) @ 2295000: uvm_test_top.env.agent.monitor [WB] x11 <= 00000000  (PC~0000007c)
# UVM_INFO C:/Documents/DoAnThietKeViMach/Project/SoC/VERIFICATION/Monitor/cpu_monitor.sv(268) @ 2305000: uvm_test_top.env.agent.monitor [MEM] STORE Addr=10000678 Data=00000000
# UVM_INFO C:/Documents/DoAnThietKeViMach/Project/SoC/VERIFICATION/Monitor/cpu_monitor.sv(296) @ 2305000: uvm_test_top.env.agent.monitor [WB] x11 <= 00000000  (PC~0000007c)
# UVM_INFO C:/Documents/DoAnThietKeViMach/Project/SoC/VERIFICATION/Monitor/cpu_monitor.sv(268) @ 2315000: uvm_test_top.env.agent.monitor [MEM] STORE Addr=10000678 Data=00000000
# UVM_INFO C:/Documents/DoAnThietKeViMach/Project/SoC/VERIFICATION/Monitor/cpu_monitor.sv(296) @ 2315000: uvm_test_top.env.agent.monitor [WB] x11 <= 00000000  (PC~0000007c)
# UVM_INFO C:/Documents/DoAnThietKeViMach/Project/SoC/VERIFICATION/Monitor/cpu_monitor.sv(364) @ 2325000: uvm_test_top.env.agent.monitor [AXI_RD] CPU <- IRAM  Addr=00000080 Data=01301263 RRESP=00
# UVM_INFO C:/Documents/DoAnThietKeViMach/Project/SoC/VERIFICATION/Monitor/cpu_monitor.sv(234) @ 2325000: uvm_test_top.env.agent.monitor [IF] PC=00000080  INSTR=01301263  [BNE  x0, x19, ...]            
# UVM_INFO C:/Documents/DoAnThietKeViMach/Project/SoC/VERIFICATION/Monitor/cpu_monitor.sv(268) @ 2325000: uvm_test_top.env.agent.monitor [MEM] STORE Addr=10000678 Data=00000000
# UVM_INFO C:/Documents/DoAnThietKeViMach/Project/SoC/VERIFICATION/Monitor/cpu_monitor.sv(296) @ 2325000: uvm_test_top.env.agent.monitor [WB] x11 <= 00000000  (PC~00000080)
# UVM_INFO C:/Documents/DoAnThietKeViMach/Project/SoC/VERIFICATION/Monitor/cpu_monitor.sv(364) @ 2365000: uvm_test_top.env.agent.monitor [AXI_RD] CPU <- IRAM  Addr=00000084 Data=a6998713 RRESP=00
# UVM_INFO C:/Documents/DoAnThietKeViMach/Project/SoC/VERIFICATION/Monitor/cpu_monitor.sv(234) @ 2365000: uvm_test_top.env.agent.monitor [IF] PC=00000084  INSTR=a6998713  [ADDI x14, x19, -1431]            
# UVM_INFO C:/Documents/DoAnThietKeViMach/Project/SoC/VERIFICATION/Monitor/cpu_monitor.sv(296) @ 2375000: uvm_test_top.env.agent.monitor [WB] x23 <= 00000000  (PC~00000084)
# UVM_INFO C:/Documents/DoAnThietKeViMach/Project/SoC/VERIFICATION/Monitor/cpu_monitor.sv(296) @ 2385000: uvm_test_top.env.agent.monitor [WB] x23 <= 00000000  (PC~00000084)
# UVM_INFO C:/Documents/DoAnThietKeViMach/Project/SoC/VERIFICATION/Monitor/cpu_monitor.sv(296) @ 2395000: uvm_test_top.env.agent.monitor [WB] x23 <= 00000000  (PC~00000084)
# UVM_INFO C:/Documents/DoAnThietKeViMach/Project/SoC/VERIFICATION/Monitor/cpu_monitor.sv(364) @ 2405000: uvm_test_top.env.agent.monitor [AXI_RD] CPU <- IRAM  Addr=00000088 Data=40ac0fb3 RRESP=00
# UVM_INFO C:/Documents/DoAnThietKeViMach/Project/SoC/VERIFICATION/Monitor/cpu_monitor.sv(234) @ 2405000: uvm_test_top.env.agent.monitor [IF] PC=00000088  INSTR=40ac0fb3  [SUB  x31, x24, x10]            
# UVM_INFO C:/Documents/DoAnThietKeViMach/Project/SoC/VERIFICATION/Monitor/cpu_monitor.sv(296) @ 2405000: uvm_test_top.env.agent.monitor [WB] x23 <= 00000000  (PC~00000088)
# UVM_INFO C:/Documents/DoAnThietKeViMach/Project/SoC/VERIFICATION/Monitor/cpu_monitor.sv(296) @ 2415000: uvm_test_top.env.agent.monitor [WB] x22 <= fffffd81  (PC~00000088)
# UVM_INFO C:/Documents/DoAnThietKeViMach/Project/SoC/VERIFICATION/Monitor/cpu_monitor.sv(296) @ 2425000: uvm_test_top.env.agent.monitor [WB] x22 <= fffffd81  (PC~00000088)
# UVM_INFO C:/Documents/DoAnThietKeViMach/Project/SoC/VERIFICATION/Monitor/cpu_monitor.sv(296) @ 2435000: uvm_test_top.env.agent.monitor [WB] x22 <= fffffd81  (PC~00000088)
# UVM_INFO C:/Documents/DoAnThietKeViMach/Project/SoC/VERIFICATION/Monitor/cpu_monitor.sv(364) @ 2445000: uvm_test_top.env.agent.monitor [AXI_RD] CPU <- IRAM  Addr=0000008c Data=60fe6713 RRESP=00
# UVM_INFO C:/Documents/DoAnThietKeViMach/Project/SoC/VERIFICATION/Monitor/cpu_monitor.sv(234) @ 2445000: uvm_test_top.env.agent.monitor [IF] PC=0000008c  INSTR=60fe6713  [ORI  x14, x28, 1551]            
# UVM_INFO C:/Documents/DoAnThietKeViMach/Project/SoC/VERIFICATION/Monitor/cpu_monitor.sv(296) @ 2445000: uvm_test_top.env.agent.monitor [WB] x22 <= fffffd81  (PC~0000008c)
# UVM_INFO C:/Documents/DoAnThietKeViMach/Project/SoC/VERIFICATION/Monitor/cpu_monitor.sv(364) @ 2485000: uvm_test_top.env.agent.monitor [AXI_RD] CPU <- IRAM  Addr=00000090 Data=00812003 RRESP=00
# UVM_INFO C:/Documents/DoAnThietKeViMach/Project/SoC/VERIFICATION/Monitor/cpu_monitor.sv(234) @ 2485000: uvm_test_top.env.agent.monitor [IF] PC=00000090  INSTR=00812003  [LW   x0, 8(x2)]            
# UVM_INFO C:/Documents/DoAnThietKeViMach/Project/SoC/VERIFICATION/Monitor/cpu_monitor.sv(296) @ 2495000: uvm_test_top.env.agent.monitor [WB] x14 <= fffffa69  (PC~00000090)
# UVM_INFO C:/Documents/DoAnThietKeViMach/Project/SoC/VERIFICATION/Monitor/cpu_monitor.sv(296) @ 2505000: uvm_test_top.env.agent.monitor [WB] x14 <= fffffa69  (PC~00000090)
# UVM_INFO C:/Documents/DoAnThietKeViMach/Project/SoC/VERIFICATION/Monitor/cpu_monitor.sv(296) @ 2515000: uvm_test_top.env.agent.monitor [WB] x14 <= fffffa69  (PC~00000090)
# UVM_INFO C:/Documents/DoAnThietKeViMach/Project/SoC/VERIFICATION/Monitor/cpu_monitor.sv(364) @ 2525000: uvm_test_top.env.agent.monitor [AXI_RD] CPU <- IRAM  Addr=00000094 Data=01c01263 RRESP=00
# UVM_INFO C:/Documents/DoAnThietKeViMach/Project/SoC/VERIFICATION/Monitor/cpu_monitor.sv(234) @ 2525000: uvm_test_top.env.agent.monitor [IF] PC=00000094  INSTR=01c01263  [BNE  x0, x28, ...]            
# UVM_INFO C:/Documents/DoAnThietKeViMach/Project/SoC/VERIFICATION/Monitor/cpu_monitor.sv(296) @ 2525000: uvm_test_top.env.agent.monitor [WB] x14 <= fffffa69  (PC~00000094)
# UVM_INFO C:/Documents/DoAnThietKeViMach/Project/SoC/VERIFICATION/Monitor/cpu_monitor.sv(296) @ 2535000: uvm_test_top.env.agent.monitor [WB] x31 <= 00000000  (PC~00000094)
# UVM_INFO C:/Documents/DoAnThietKeViMach/Project/SoC/VERIFICATION/Monitor/cpu_monitor.sv(296) @ 2545000: uvm_test_top.env.agent.monitor [WB] x31 <= 00000000  (PC~00000094)
# UVM_INFO C:/Documents/DoAnThietKeViMach/Project/SoC/VERIFICATION/Monitor/cpu_monitor.sv(296) @ 2555000: uvm_test_top.env.agent.monitor [WB] x31 <= 00000000  (PC~00000094)
# UVM_INFO C:/Documents/DoAnThietKeViMach/Project/SoC/VERIFICATION/Monitor/cpu_monitor.sv(364) @ 2565000: uvm_test_top.env.agent.monitor [AXI_RD] CPU <- IRAM  Addr=00000098 Data=0081a003 RRESP=00
# UVM_INFO C:/Documents/DoAnThietKeViMach/Project/SoC/VERIFICATION/Monitor/cpu_monitor.sv(296) @ 2565000: uvm_test_top.env.agent.monitor [WB] x31 <= 00000000  (PC~00000094)
# UVM_INFO C:/Documents/DoAnThietKeViMach/Project/SoC/VERIFICATION/Monitor/cpu_monitor.sv(364) @ 2605000: uvm_test_top.env.agent.monitor [AXI_RD] CPU <- TIMER  Addr=20000008 Data=00000000 RRESP=00
# UVM_INFO C:/Documents/DoAnThietKeViMach/Project/SoC/VERIFICATION/Scoreboard/cpu_scoreboard.sv(252) @ 2605000: uvm_test_top.env.scoreboard [SCB_PERIPH] [TIMER] READ Addr=20000008 Data=00000000 (volatile, compare skipped)
# UVM_INFO C:/Documents/DoAnThietKeViMach/Project/SoC/VERIFICATION/Monitor/cpu_monitor.sv(296) @ 2605000: uvm_test_top.env.agent.monitor [WB] x14 <= 0000060f  (PC~00000094)
# UVM_INFO C:/Documents/DoAnThietKeViMach/Project/SoC/VERIFICATION/Monitor/cpu_monitor.sv(296) @ 2615000: uvm_test_top.env.agent.monitor [WB] x14 <= 0000060f  (PC~00000094)
# UVM_INFO C:/Documents/DoAnThietKeViMach/Project/SoC/VERIFICATION/Monitor/cpu_monitor.sv(296) @ 2625000: uvm_test_top.env.agent.monitor [WB] x14 <= 0000060f  (PC~00000094)
# UVM_INFO C:/Documents/DoAnThietKeViMach/Project/SoC/VERIFICATION/Monitor/cpu_monitor.sv(296) @ 2635000: uvm_test_top.env.agent.monitor [WB] x14 <= 0000060f  (PC~00000094)
# UVM_INFO C:/Documents/DoAnThietKeViMach/Project/SoC/VERIFICATION/Monitor/cpu_monitor.sv(364) @ 2645000: uvm_test_top.env.agent.monitor [AXI_RD] CPU <- IRAM  Addr=00000098 Data=0081a003 RRESP=00
# UVM_INFO C:/Documents/DoAnThietKeViMach/Project/SoC/VERIFICATION/Monitor/cpu_monitor.sv(234) @ 2645000: uvm_test_top.env.agent.monitor [IF] PC=00000098  INSTR=0081a003  [LW   x0, 8(x3)]            
# UVM_INFO C:/Documents/DoAnThietKeViMach/Project/SoC/VERIFICATION/Monitor/cpu_monitor.sv(296) @ 2645000: uvm_test_top.env.agent.monitor [WB] x14 <= 0000060f  (PC~00000098)
# UVM_INFO C:/Documents/DoAnThietKeViMach/Project/SoC/VERIFICATION/Monitor/cpu_monitor.sv(364) @ 2685000: uvm_test_top.env.agent.monitor [AXI_RD] CPU <- IRAM  Addr=0000009c Data=00422483 RRESP=00
# UVM_INFO C:/Documents/DoAnThietKeViMach/Project/SoC/VERIFICATION/Monitor/cpu_monitor.sv(234) @ 2685000: uvm_test_top.env.agent.monitor [IF] PC=0000009c  INSTR=00422483  [LW   x9, 4(x4)]            
# UVM_INFO C:/Documents/DoAnThietKeViMach/Project/SoC/VERIFICATION/Monitor/cpu_monitor.sv(364) @ 2725000: uvm_test_top.env.agent.monitor [AXI_RD] CPU <- IRAM  Addr=000000a0 Data=00c1a703 RRESP=00
# UVM_INFO C:/Documents/DoAnThietKeViMach/Project/SoC/VERIFICATION/Monitor/cpu_monitor.sv(234) @ 2725000: uvm_test_top.env.agent.monitor [IF] PC=000000a0  INSTR=00c1a703  [LW   x14, 12(x3)]            
# UVM_INFO C:/Documents/DoAnThietKeViMach/Project/SoC/VERIFICATION/Monitor/cpu_monitor.sv(364) @ 2765000: uvm_test_top.env.agent.monitor [AXI_RD] CPU <- UART  Addr=30000008 Data=00000000 RRESP=00
# UVM_INFO C:/Documents/DoAnThietKeViMach/Project/SoC/VERIFICATION/Scoreboard/cpu_scoreboard.sv(252) @ 2765000: uvm_test_top.env.scoreboard [SCB_PERIPH] [UART] READ Addr=30000008 Data=00000000 (volatile, compare skipped)
# UVM_INFO C:/Documents/DoAnThietKeViMach/Project/SoC/VERIFICATION/Monitor/cpu_monitor.sv(364) @ 2805000: uvm_test_top.env.agent.monitor [AXI_RD] CPU <- IRAM  Addr=000000a4 Data=01001263 RRESP=00
# UVM_INFO C:/Documents/DoAnThietKeViMach/Project/SoC/VERIFICATION/Monitor/cpu_monitor.sv(234) @ 2805000: uvm_test_top.env.agent.monitor [IF] PC=000000a4  INSTR=01001263  [BNE  x0, x16, ...]            
# UVM_INFO C:/Documents/DoAnThietKeViMach/Project/SoC/VERIFICATION/Monitor/cpu_monitor.sv(364) @ 2845000: uvm_test_top.env.agent.monitor [AXI_RD] CPU <- SPI  Addr=40000004 Data=0001c200 RRESP=00
# UVM_INFO C:/Documents/DoAnThietKeViMach/Project/SoC/VERIFICATION/Scoreboard/cpu_scoreboard.sv(126) @ 2845000: uvm_test_top.env.scoreboard [SCB_PASS] [SPI] READ PASS Addr=40000004 Expected=0001c200 Got=0001c200
# UVM_INFO C:/Documents/DoAnThietKeViMach/Project/SoC/VERIFICATION/Monitor/cpu_monitor.sv(364) @ 2885000: uvm_test_top.env.agent.monitor [AXI_RD] CPU <- IRAM  Addr=000000a8 Data=1440ae03 RRESP=00
# UVM_INFO C:/Documents/DoAnThietKeViMach/Project/SoC/VERIFICATION/Monitor/cpu_monitor.sv(234) @ 2885000: uvm_test_top.env.agent.monitor [IF] PC=000000a8  INSTR=1440ae03  [LW   x28, 324(x1)]            
# UVM_INFO C:/Documents/DoAnThietKeViMach/Project/SoC/VERIFICATION/Monitor/cpu_monitor.sv(364) @ 2925000: uvm_test_top.env.agent.monitor [AXI_RD] CPU <- UART  Addr=3000000c Data=0001c200 RRESP=00
# UVM_INFO C:/Documents/DoAnThietKeViMach/Project/SoC/VERIFICATION/Scoreboard/cpu_scoreboard.sv(126) @ 2925000: uvm_test_top.env.scoreboard [SCB_PASS] [UART] READ PASS Addr=3000000c Expected=0001c200 Got=0001c200
# UVM_INFO C:/Documents/DoAnThietKeViMach/Project/SoC/VERIFICATION/Monitor/cpu_monitor.sv(296) @ 2925000: uvm_test_top.env.agent.monitor [WB] x09 <= 0001c200  (PC~000000a8)
# UVM_INFO C:/Documents/DoAnThietKeViMach/Project/SoC/VERIFICATION/Monitor/cpu_monitor.sv(296) @ 2935000: uvm_test_top.env.agent.monitor [WB] x09 <= 0001c200  (PC~000000a8)
# UVM_INFO C:/Documents/DoAnThietKeViMach/Project/SoC/VERIFICATION/Monitor/cpu_monitor.sv(296) @ 2945000: uvm_test_top.env.agent.monitor [WB] x09 <= 0001c200  (PC~000000a8)
# UVM_INFO C:/Documents/DoAnThietKeViMach/Project/SoC/VERIFICATION/Monitor/cpu_monitor.sv(296) @ 2955000: uvm_test_top.env.agent.monitor [WB] x09 <= 0001c200  (PC~000000a8)
# UVM_INFO C:/Documents/DoAnThietKeViMach/Project/SoC/VERIFICATION/Monitor/cpu_monitor.sv(364) @ 2965000: uvm_test_top.env.agent.monitor [AXI_RD] CPU <- IRAM  Addr=000000ac Data=0091a023 RRESP=00
# UVM_INFO C:/Documents/DoAnThietKeViMach/Project/SoC/VERIFICATION/Monitor/cpu_monitor.sv(234) @ 2965000: uvm_test_top.env.agent.monitor [IF] PC=000000ac  INSTR=0091a023  [SW   x9, 9(x3)]            
# UVM_INFO C:/Documents/DoAnThietKeViMach/Project/SoC/VERIFICATION/Monitor/cpu_monitor.sv(296) @ 2965000: uvm_test_top.env.agent.monitor [WB] x09 <= 0001c200  (PC~000000ac)
# UVM_INFO C:/Documents/DoAnThietKeViMach/Project/SoC/VERIFICATION/Monitor/cpu_monitor.sv(296) @ 2975000: uvm_test_top.env.agent.monitor [WB] x14 <= 0001c200  (PC~000000ac)
# UVM_INFO C:/Documents/DoAnThietKeViMach/Project/SoC/VERIFICATION/Monitor/cpu_monitor.sv(296) @ 2985000: uvm_test_top.env.agent.monitor [WB] x14 <= 0001c200  (PC~000000ac)
# UVM_INFO C:/Documents/DoAnThietKeViMach/Project/SoC/VERIFICATION/Monitor/cpu_monitor.sv(296) @ 2995000: uvm_test_top.env.agent.monitor [WB] x14 <= 0001c200  (PC~000000ac)
# UVM_INFO C:/Documents/DoAnThietKeViMach/Project/SoC/VERIFICATION/Monitor/cpu_monitor.sv(364) @ 3005000: uvm_test_top.env.agent.monitor [AXI_RD] CPU <- IRAM  Addr=000000b0 Data=0041a003 RRESP=00
# UVM_INFO C:/Documents/DoAnThietKeViMach/Project/SoC/VERIFICATION/Monitor/cpu_monitor.sv(234) @ 3005000: uvm_test_top.env.agent.monitor [IF] PC=000000b0  INSTR=0041a003  [LW   x0, 4(x3)]            
# UVM_INFO C:/Documents/DoAnThietKeViMach/Project/SoC/VERIFICATION/Monitor/cpu_monitor.sv(296) @ 3005000: uvm_test_top.env.agent.monitor [WB] x14 <= 0001c200  (PC~000000b0)
# [DRAM READ] addr=10000144 data=00000000
# UVM_INFO C:/Documents/DoAnThietKeViMach/Project/SoC/VERIFICATION/Monitor/cpu_monitor.sv(364) @ 3045000: uvm_test_top.env.agent.monitor [AXI_RD] CPU <- DRAM  Addr=10000144 Data=00000000 RRESP=00
# UVM_INFO C:/Documents/DoAnThietKeViMach/Project/SoC/VERIFICATION/Scoreboard/cpu_scoreboard.sv(126) @ 3045000: uvm_test_top.env.scoreboard [SCB_PASS] [DRAM] READ PASS Addr=10000144 Expected=00000000 Got=00000000
# UVM_INFO C:/Documents/DoAnThietKeViMach/Project/SoC/VERIFICATION/Monitor/cpu_monitor.sv(364) @ 3085000: uvm_test_top.env.agent.monitor [AXI_RD] CPU <- IRAM  Addr=000000b4 Data=4a40ac83 RRESP=00
# UVM_INFO C:/Documents/DoAnThietKeViMach/Project/SoC/VERIFICATION/Monitor/cpu_monitor.sv(234) @ 3085000: uvm_test_top.env.agent.monitor [IF] PC=000000b4  INSTR=4a40ac83  [LW   x25, 1188(x1)]            
# UVM_INFO C:/Documents/DoAnThietKeViMach/Project/SoC/VERIFICATION/Monitor/cpu_monitor.sv(268) @ 3095000: uvm_test_top.env.agent.monitor [MEM] STORE Addr=30000000 Data=0001c200
# UVM_INFO C:/Documents/DoAnThietKeViMach/Project/SoC/VERIFICATION/Monitor/cpu_monitor.sv(268) @ 3105000: uvm_test_top.env.agent.monitor [MEM] STORE Addr=30000000 Data=0001c200
# UVM_INFO C:/Documents/DoAnThietKeViMach/Project/SoC/VERIFICATION/Monitor/cpu_monitor.sv(268) @ 3115000: uvm_test_top.env.agent.monitor [MEM] STORE Addr=30000000 Data=0001c200
# UVM_INFO C:/Documents/DoAnThietKeViMach/Project/SoC/VERIFICATION/Monitor/cpu_monitor.sv(335) @ 3125000: uvm_test_top.env.agent.monitor [AXI_WR] CPU -> UART  Addr=30000000 Data=0001c200 Strb=1111 BRESP=00
# UVM_INFO C:/Documents/DoAnThietKeViMach/Project/SoC/VERIFICATION/Scoreboard/cpu_scoreboard.sv(246) @ 3125000: uvm_test_top.env.scoreboard [SCB_PERIPH] [UART] WRITE Addr=30000000 Data=0001c200
# UVM_INFO C:/Documents/DoAnThietKeViMach/Project/SoC/VERIFICATION/Monitor/cpu_monitor.sv(268) @ 3125000: uvm_test_top.env.agent.monitor [MEM] STORE Addr=30000000 Data=0001c200
# UVM_INFO C:/Documents/DoAnThietKeViMach/Project/SoC/VERIFICATION/Monitor/cpu_monitor.sv(296) @ 3125000: uvm_test_top.env.agent.monitor [WB] x28 <= 00000000  (PC~000000b4)
# UVM_INFO C:/Documents/DoAnThietKeViMach/Project/SoC/VERIFICATION/Monitor/cpu_monitor.sv(268) @ 3135000: uvm_test_top.env.agent.monitor [MEM] STORE Addr=30000000 Data=0001c200
# UVM_INFO C:/Documents/DoAnThietKeViMach/Project/SoC/VERIFICATION/Monitor/cpu_monitor.sv(296) @ 3135000: uvm_test_top.env.agent.monitor [WB] x28 <= 00000000  (PC~000000b4)
# UVM_INFO C:/Documents/DoAnThietKeViMach/Project/SoC/VERIFICATION/Monitor/cpu_monitor.sv(268) @ 3145000: uvm_test_top.env.agent.monitor [MEM] STORE Addr=30000000 Data=0001c200
# UVM_INFO C:/Documents/DoAnThietKeViMach/Project/SoC/VERIFICATION/Monitor/cpu_monitor.sv(296) @ 3145000: uvm_test_top.env.agent.monitor [WB] x28 <= 00000000  (PC~000000b4)
# UVM_INFO C:/Documents/DoAnThietKeViMach/Project/SoC/VERIFICATION/Monitor/cpu_monitor.sv(268) @ 3155000: uvm_test_top.env.agent.monitor [MEM] STORE Addr=30000000 Data=0001c200
# UVM_INFO C:/Documents/DoAnThietKeViMach/Project/SoC/VERIFICATION/Monitor/cpu_monitor.sv(296) @ 3155000: uvm_test_top.env.agent.monitor [WB] x28 <= 00000000  (PC~000000b4)
# UVM_INFO C:/Documents/DoAnThietKeViMach/Project/SoC/VERIFICATION/Monitor/cpu_monitor.sv(364) @ 3165000: uvm_test_top.env.agent.monitor [AXI_RD] CPU <- IRAM  Addr=000000b8 Data=00712023 RRESP=00
# UVM_INFO C:/Documents/DoAnThietKeViMach/Project/SoC/VERIFICATION/Monitor/cpu_monitor.sv(234) @ 3165000: uvm_test_top.env.agent.monitor [IF] PC=000000b8  INSTR=00712023  [SW   x7, 7(x2)]            
# UVM_INFO C:/Documents/DoAnThietKeViMach/Project/SoC/VERIFICATION/Monitor/cpu_monitor.sv(268) @ 3165000: uvm_test_top.env.agent.monitor [MEM] STORE Addr=30000000 Data=0001c200
# UVM_INFO C:/Documents/DoAnThietKeViMach/Project/SoC/VERIFICATION/Monitor/cpu_monitor.sv(296) @ 3165000: uvm_test_top.env.agent.monitor [WB] x28 <= 00000000  (PC~000000b8)
# UVM_INFO C:/Documents/DoAnThietKeViMach/Project/SoC/VERIFICATION/Monitor/cpu_monitor.sv(364) @ 3205000: uvm_test_top.env.agent.monitor [AXI_RD] CPU <- UART  Addr=30000004 Data=000000xx RRESP=00
# UVM_INFO C:/Documents/DoAnThietKeViMach/Project/SoC/VERIFICATION/Scoreboard/cpu_scoreboard.sv(252) @ 3205000: uvm_test_top.env.scoreboard [SCB_PERIPH] [UART] READ Addr=30000004 Data=00000000 (volatile, compare skipped)
# UVM_INFO C:/Documents/DoAnThietKeViMach/Project/SoC/VERIFICATION/Monitor/cpu_monitor.sv(364) @ 3245000: uvm_test_top.env.agent.monitor [AXI_RD] CPU <- IRAM  Addr=000000bc Data=ef94c813 RRESP=00
# UVM_INFO C:/Documents/DoAnThietKeViMach/Project/SoC/VERIFICATION/Monitor/cpu_monitor.sv(234) @ 3245000: uvm_test_top.env.agent.monitor [IF] PC=000000bc  INSTR=ef94c813  [XORI x16, x9, -263]            
# [DRAM READ] addr=100004a4 data=00000000
# UVM_INFO C:/Documents/DoAnThietKeViMach/Project/SoC/VERIFICATION/Monitor/cpu_monitor.sv(364) @ 3285000: uvm_test_top.env.agent.monitor [AXI_RD] CPU <- DRAM  Addr=100004a4 Data=00000000 RRESP=00
# UVM_INFO C:/Documents/DoAnThietKeViMach/Project/SoC/VERIFICATION/Scoreboard/cpu_scoreboard.sv(126) @ 3285000: uvm_test_top.env.scoreboard [SCB_PASS] [DRAM] READ PASS Addr=100004a4 Expected=00000000 Got=00000000
# UVM_INFO C:/Documents/DoAnThietKeViMach/Project/SoC/VERIFICATION/Monitor/cpu_monitor.sv(364) @ 3325000: uvm_test_top.env.agent.monitor [AXI_RD] CPU <- IRAM  Addr=000000c0 Data=01f04263 RRESP=00
# UVM_INFO C:/Documents/DoAnThietKeViMach/Project/SoC/VERIFICATION/Monitor/cpu_monitor.sv(234) @ 3325000: uvm_test_top.env.agent.monitor [IF] PC=000000c0  INSTR=01f04263  [BLT  x0, x31, ...]            
# UVM_INFO C:/Documents/DoAnThietKeViMach/Project/SoC/VERIFICATION/Monitor/cpu_monitor.sv(268) @ 3335000: uvm_test_top.env.agent.monitor [MEM] STORE Addr=20000000 Data=00000000
# UVM_INFO C:/Documents/DoAnThietKeViMach/Project/SoC/VERIFICATION/Monitor/cpu_monitor.sv(268) @ 3345000: uvm_test_top.env.agent.monitor [MEM] STORE Addr=20000000 Data=00000000
# UVM_INFO C:/Documents/DoAnThietKeViMach/Project/SoC/VERIFICATION/Monitor/cpu_monitor.sv(268) @ 3355000: uvm_test_top.env.agent.monitor [MEM] STORE Addr=20000000 Data=00000000
# UVM_INFO C:/Documents/DoAnThietKeViMach/Project/SoC/VERIFICATION/Monitor/cpu_monitor.sv(268) @ 3365000: uvm_test_top.env.agent.monitor [MEM] STORE Addr=20000000 Data=00000000
# UVM_INFO C:/Documents/DoAnThietKeViMach/Project/SoC/VERIFICATION/Monitor/cpu_monitor.sv(335) @ 3375000: uvm_test_top.env.agent.monitor [AXI_WR] CPU -> TIMER  Addr=20000000 Data=00000000 Strb=1111 BRESP=00
# UVM_INFO C:/Documents/DoAnThietKeViMach/Project/SoC/VERIFICATION/Scoreboard/cpu_scoreboard.sv(246) @ 3375000: uvm_test_top.env.scoreboard [SCB_PERIPH] [TIMER] WRITE Addr=20000000 Data=00000000
# UVM_INFO C:/Documents/DoAnThietKeViMach/Project/SoC/VERIFICATION/Monitor/cpu_monitor.sv(268) @ 3375000: uvm_test_top.env.agent.monitor [MEM] STORE Addr=20000000 Data=00000000
# UVM_INFO C:/Documents/DoAnThietKeViMach/Project/SoC/VERIFICATION/Monitor/cpu_monitor.sv(296) @ 3375000: uvm_test_top.env.agent.monitor [WB] x25 <= 00000000  (PC~000000c0)
# UVM_INFO C:/Documents/DoAnThietKeViMach/Project/SoC/VERIFICATION/Monitor/cpu_monitor.sv(268) @ 3385000: uvm_test_top.env.agent.monitor [MEM] STORE Addr=20000000 Data=00000000
# UVM_INFO C:/Documents/DoAnThietKeViMach/Project/SoC/VERIFICATION/Monitor/cpu_monitor.sv(296) @ 3385000: uvm_test_top.env.agent.monitor [WB] x25 <= 00000000  (PC~000000c0)
# UVM_INFO C:/Documents/DoAnThietKeViMach/Project/SoC/VERIFICATION/Monitor/cpu_monitor.sv(268) @ 3395000: uvm_test_top.env.agent.monitor [MEM] STORE Addr=20000000 Data=00000000
# UVM_INFO C:/Documents/DoAnThietKeViMach/Project/SoC/VERIFICATION/Monitor/cpu_monitor.sv(296) @ 3395000: uvm_test_top.env.agent.monitor [WB] x25 <= 00000000  (PC~000000c0)
# UVM_INFO C:/Documents/DoAnThietKeViMach/Project/SoC/VERIFICATION/Monitor/cpu_monitor.sv(268) @ 3405000: uvm_test_top.env.agent.monitor [MEM] STORE Addr=20000000 Data=00000000
# UVM_INFO C:/Documents/DoAnThietKeViMach/Project/SoC/VERIFICATION/Monitor/cpu_monitor.sv(296) @ 3405000: uvm_test_top.env.agent.monitor [WB] x25 <= 00000000  (PC~000000c0)
# UVM_INFO C:/Documents/DoAnThietKeViMach/Project/SoC/VERIFICATION/Monitor/cpu_monitor.sv(364) @ 3415000: uvm_test_top.env.agent.monitor [AXI_RD] CPU <- IRAM  Addr=000000c4 Data=00012603 RRESP=00
# UVM_INFO C:/Documents/DoAnThietKeViMach/Project/SoC/VERIFICATION/Monitor/cpu_monitor.sv(234) @ 3415000: uvm_test_top.env.agent.monitor [IF] PC=000000c4  INSTR=00012603  [LW   x12, 0(x2)]            
# UVM_INFO C:/Documents/DoAnThietKeViMach/Project/SoC/VERIFICATION/Monitor/cpu_monitor.sv(268) @ 3415000: uvm_test_top.env.agent.monitor [MEM] STORE Addr=20000000 Data=00000000
# UVM_INFO C:/Documents/DoAnThietKeViMach/Project/SoC/VERIFICATION/Monitor/cpu_monitor.sv(296) @ 3415000: uvm_test_top.env.agent.monitor [WB] x25 <= 00000000  (PC~000000c4)
# UVM_INFO C:/Documents/DoAnThietKeViMach/Project/SoC/VERIFICATION/Monitor/cpu_monitor.sv(364) @ 3455000: uvm_test_top.env.agent.monitor [AXI_RD] CPU <- IRAM  Addr=000000c8 Data=2b6ef793 RRESP=00
# UVM_INFO C:/Documents/DoAnThietKeViMach/Project/SoC/VERIFICATION/Monitor/cpu_monitor.sv(234) @ 3455000: uvm_test_top.env.agent.monitor [IF] PC=000000c8  INSTR=2b6ef793  [ANDI x15, x29, 694]            
# UVM_INFO C:/Documents/DoAnThietKeViMach/Project/SoC/VERIFICATION/Monitor/cpu_monitor.sv(296) @ 3465000: uvm_test_top.env.agent.monitor [WB] x16 <= fffe3cf9  (PC~000000c8)
# UVM_INFO C:/Documents/DoAnThietKeViMach/Project/SoC/VERIFICATION/Monitor/cpu_monitor.sv(296) @ 3475000: uvm_test_top.env.agent.monitor [WB] x16 <= fffe3cf9  (PC~000000c8)
# UVM_INFO C:/Documents/DoAnThietKeViMach/Project/SoC/VERIFICATION/Monitor/cpu_monitor.sv(296) @ 3485000: uvm_test_top.env.agent.monitor [WB] x16 <= fffe3cf9  (PC~000000c8)
# UVM_INFO C:/Documents/DoAnThietKeViMach/Project/SoC/VERIFICATION/Monitor/cpu_monitor.sv(364) @ 3495000: uvm_test_top.env.agent.monitor [AXI_RD] CPU <- IRAM  Addr=000000cc Data=5200a283 RRESP=00
# UVM_INFO C:/Documents/DoAnThietKeViMach/Project/SoC/VERIFICATION/Monitor/cpu_monitor.sv(234) @ 3495000: uvm_test_top.env.agent.monitor [IF] PC=000000cc  INSTR=5200a283  [LW   x5, 1312(x1)]            
# UVM_INFO C:/Documents/DoAnThietKeViMach/Project/SoC/VERIFICATION/Monitor/cpu_monitor.sv(296) @ 3495000: uvm_test_top.env.agent.monitor [WB] x16 <= fffe3cf9  (PC~000000cc)
# UVM_INFO C:/Documents/DoAnThietKeViMach/Project/SoC/VERIFICATION/Monitor/cpu_monitor.sv(364) @ 3535000: uvm_test_top.env.agent.monitor [AXI_RD] CPU <- TIMER  Addr=20000000 Data=00000000 RRESP=00
# UVM_INFO C:/Documents/DoAnThietKeViMach/Project/SoC/VERIFICATION/Scoreboard/cpu_scoreboard.sv(126) @ 3535000: uvm_test_top.env.scoreboard [SCB_PASS] [TIMER] READ PASS Addr=20000000 Expected=00000000 Got=00000000
# UVM_INFO C:/Documents/DoAnThietKeViMach/Project/SoC/VERIFICATION/Monitor/cpu_monitor.sv(364) @ 3575000: uvm_test_top.env.agent.monitor [AXI_RD] CPU <- IRAM  Addr=000000d0 Data=00b01263 RRESP=00
# UVM_INFO C:/Documents/DoAnThietKeViMach/Project/SoC/VERIFICATION/Monitor/cpu_monitor.sv(234) @ 3575000: uvm_test_top.env.agent.monitor [IF] PC=000000d0  INSTR=00b01263  [BNE  x0, x11, ...]            
# UVM_INFO C:/Documents/DoAnThietKeViMach/Project/SoC/VERIFICATION/Monitor/cpu_monitor.sv(296) @ 3585000: uvm_test_top.env.agent.monitor [WB] x12 <= 00000000  (PC~000000d0)
# UVM_INFO C:/Documents/DoAnThietKeViMach/Project/SoC/VERIFICATION/Monitor/cpu_monitor.sv(296) @ 3595000: uvm_test_top.env.agent.monitor [WB] x12 <= 00000000  (PC~000000d0)
# UVM_INFO C:/Documents/DoAnThietKeViMach/Project/SoC/VERIFICATION/Monitor/cpu_monitor.sv(296) @ 3605000: uvm_test_top.env.agent.monitor [WB] x12 <= 00000000  (PC~000000d0)
# UVM_INFO C:/Documents/DoAnThietKeViMach/Project/SoC/VERIFICATION/Monitor/cpu_monitor.sv(364) @ 3615000: uvm_test_top.env.agent.monitor [AXI_RD] CPU <- IRAM  Addr=000000d4 Data=00c06263 RRESP=00
# UVM_INFO C:/Documents/DoAnThietKeViMach/Project/SoC/VERIFICATION/Monitor/cpu_monitor.sv(234) @ 3615000: uvm_test_top.env.agent.monitor [IF] PC=000000d4  INSTR=00c06263  [BR?? x0, x12, ...]            
# UVM_INFO C:/Documents/DoAnThietKeViMach/Project/SoC/VERIFICATION/Monitor/cpu_monitor.sv(296) @ 3615000: uvm_test_top.env.agent.monitor [WB] x12 <= 00000000  (PC~000000d4)
# [DRAM READ] addr=10000520 data=00000000
# UVM_INFO C:/Documents/DoAnThietKeViMach/Project/SoC/VERIFICATION/Monitor/cpu_monitor.sv(364) @ 3655000: uvm_test_top.env.agent.monitor [AXI_RD] CPU <- DRAM  Addr=10000520 Data=00000000 RRESP=00
# UVM_INFO C:/Documents/DoAnThietKeViMach/Project/SoC/VERIFICATION/Scoreboard/cpu_scoreboard.sv(126) @ 3655000: uvm_test_top.env.scoreboard [SCB_PASS] [DRAM] READ PASS Addr=10000520 Expected=00000000 Got=00000000
# UVM_INFO C:/Documents/DoAnThietKeViMach/Project/SoC/VERIFICATION/Monitor/cpu_monitor.sv(296) @ 3655000: uvm_test_top.env.agent.monitor [WB] x15 <= 00000000  (PC~000000d4)
# UVM_INFO C:/Documents/DoAnThietKeViMach/Project/SoC/VERIFICATION/Monitor/cpu_monitor.sv(296) @ 3665000: uvm_test_top.env.agent.monitor [WB] x15 <= 00000000  (PC~000000d4)
# UVM_INFO C:/Documents/DoAnThietKeViMach/Project/SoC/VERIFICATION/Monitor/cpu_monitor.sv(296) @ 3675000: uvm_test_top.env.agent.monitor [WB] x15 <= 00000000  (PC~000000d4)
# UVM_INFO C:/Documents/DoAnThietKeViMach/Project/SoC/VERIFICATION/Monitor/cpu_monitor.sv(296) @ 3685000: uvm_test_top.env.agent.monitor [WB] x15 <= 00000000  (PC~000000d4)
# UVM_INFO C:/Documents/DoAnThietKeViMach/Project/SoC/VERIFICATION/Monitor/cpu_monitor.sv(364) @ 3695000: uvm_test_top.env.agent.monitor [AXI_RD] CPU <- IRAM  Addr=000000d8 Data=408fd633 RRESP=00
# UVM_INFO C:/Documents/DoAnThietKeViMach/Project/SoC/VERIFICATION/Monitor/cpu_monitor.sv(234) @ 3695000: uvm_test_top.env.agent.monitor [IF] PC=000000d8  INSTR=408fd633  [SRA  x12, x31, x8]            
# UVM_INFO C:/Documents/DoAnThietKeViMach/Project/SoC/VERIFICATION/Monitor/cpu_monitor.sv(296) @ 3695000: uvm_test_top.env.agent.monitor [WB] x15 <= 00000000  (PC~000000d8)
# UVM_INFO C:/Documents/DoAnThietKeViMach/Project/SoC/VERIFICATION/Monitor/cpu_monitor.sv(296) @ 3705000: uvm_test_top.env.agent.monitor [WB] x05 <= 00000000  (PC~000000d8)
# UVM_INFO C:/Documents/DoAnThietKeViMach/Project/SoC/VERIFICATION/Monitor/cpu_monitor.sv(296) @ 3715000: uvm_test_top.env.agent.monitor [WB] x05 <= 00000000  (PC~000000d8)
# UVM_INFO C:/Documents/DoAnThietKeViMach/Project/SoC/VERIFICATION/Monitor/cpu_monitor.sv(296) @ 3725000: uvm_test_top.env.agent.monitor [WB] x05 <= 00000000  (PC~000000d8)
# UVM_INFO C:/Documents/DoAnThietKeViMach/Project/SoC/VERIFICATION/Monitor/cpu_monitor.sv(364) @ 3735000: uvm_test_top.env.agent.monitor [AXI_RD] CPU <- IRAM  Addr=000000dc Data=0051a623 RRESP=00
# UVM_INFO C:/Documents/DoAnThietKeViMach/Project/SoC/VERIFICATION/Monitor/cpu_monitor.sv(234) @ 3735000: uvm_test_top.env.agent.monitor [IF] PC=000000dc  INSTR=0051a623  [SW   x5, 5(x3)]            
# UVM_INFO C:/Documents/DoAnThietKeViMach/Project/SoC/VERIFICATION/Monitor/cpu_monitor.sv(296) @ 3735000: uvm_test_top.env.agent.monitor [WB] x05 <= 00000000  (PC~000000dc)
# UVM_INFO C:/Documents/DoAnThietKeViMach/Project/SoC/VERIFICATION/Monitor/cpu_monitor.sv(364) @ 3775000: uvm_test_top.env.agent.monitor [AXI_RD] CPU <- IRAM  Addr=000000e0 Data=406788b3 RRESP=00
# UVM_INFO C:/Documents/DoAnThietKeViMach/Project/SoC/VERIFICATION/Monitor/cpu_monitor.sv(234) @ 3775000: uvm_test_top.env.agent.monitor [IF] PC=000000e0  INSTR=406788b3  [SUB  x17, x15, x6]            
# UVM_INFO C:/Documents/DoAnThietKeViMach/Project/SoC/VERIFICATION/Monitor/cpu_monitor.sv(364) @ 3815000: uvm_test_top.env.agent.monitor [AXI_RD] CPU <- IRAM  Addr=000000e4 Data=01d52833 RRESP=00
# UVM_INFO C:/Documents/DoAnThietKeViMach/Project/SoC/VERIFICATION/Monitor/cpu_monitor.sv(234) @ 3815000: uvm_test_top.env.agent.monitor [IF] PC=000000e4  INSTR=01d52833  [SLT  x16, x10, x29]            
# UVM_INFO C:/Documents/DoAnThietKeViMach/Project/SoC/VERIFICATION/Monitor/cpu_monitor.sv(268) @ 3825000: uvm_test_top.env.agent.monitor [MEM] STORE Addr=3000000c Data=00000000
# UVM_INFO C:/Documents/DoAnThietKeViMach/Project/SoC/VERIFICATION/Monitor/cpu_monitor.sv(268) @ 3835000: uvm_test_top.env.agent.monitor [MEM] STORE Addr=3000000c Data=00000000
# UVM_INFO C:/Documents/DoAnThietKeViMach/Project/SoC/VERIFICATION/Monitor/cpu_monitor.sv(268) @ 3845000: uvm_test_top.env.agent.monitor [MEM] STORE Addr=3000000c Data=00000000
# UVM_INFO C:/Documents/DoAnThietKeViMach/Project/SoC/VERIFICATION/Monitor/cpu_monitor.sv(335) @ 3855000: uvm_test_top.env.agent.monitor [AXI_WR] CPU -> UART  Addr=3000000c Data=00000000 Strb=1111 BRESP=00
# UVM_INFO C:/Documents/DoAnThietKeViMach/Project/SoC/VERIFICATION/Scoreboard/cpu_scoreboard.sv(246) @ 3855000: uvm_test_top.env.scoreboard [SCB_PERIPH] [UART] WRITE Addr=3000000c Data=00000000
# UVM_INFO C:/Documents/DoAnThietKeViMach/Project/SoC/VERIFICATION/Monitor/cpu_monitor.sv(268) @ 3855000: uvm_test_top.env.agent.monitor [MEM] STORE Addr=3000000c Data=00000000
# UVM_INFO C:/Documents/DoAnThietKeViMach/Project/SoC/VERIFICATION/Monitor/cpu_monitor.sv(296) @ 3855000: uvm_test_top.env.agent.monitor [WB] x12 <= 00000000  (PC~000000e4)
# UVM_INFO C:/Documents/DoAnThietKeViMach/Project/SoC/VERIFICATION/Monitor/cpu_monitor.sv(268) @ 3865000: uvm_test_top.env.agent.monitor [MEM] STORE Addr=3000000c Data=00000000
# UVM_INFO C:/Documents/DoAnThietKeViMach/Project/SoC/VERIFICATION/Monitor/cpu_monitor.sv(296) @ 3865000: uvm_test_top.env.agent.monitor [WB] x12 <= 00000000  (PC~000000e4)
# UVM_INFO C:/Documents/DoAnThietKeViMach/Project/SoC/VERIFICATION/Monitor/cpu_monitor.sv(268) @ 3875000: uvm_test_top.env.agent.monitor [MEM] STORE Addr=3000000c Data=00000000
# UVM_INFO C:/Documents/DoAnThietKeViMach/Project/SoC/VERIFICATION/Monitor/cpu_monitor.sv(296) @ 3875000: uvm_test_top.env.agent.monitor [WB] x12 <= 00000000  (PC~000000e4)
# UVM_INFO C:/Documents/DoAnThietKeViMach/Project/SoC/VERIFICATION/Monitor/cpu_monitor.sv(268) @ 3885000: uvm_test_top.env.agent.monitor [MEM] STORE Addr=3000000c Data=00000000
# UVM_INFO C:/Documents/DoAnThietKeViMach/Project/SoC/VERIFICATION/Monitor/cpu_monitor.sv(296) @ 3885000: uvm_test_top.env.agent.monitor [WB] x12 <= 00000000  (PC~000000e4)
# UVM_INFO C:/Documents/DoAnThietKeViMach/Project/SoC/VERIFICATION/Monitor/cpu_monitor.sv(364) @ 3895000: uvm_test_top.env.agent.monitor [AXI_RD] CPU <- IRAM  Addr=000000e8 Data=01104263 RRESP=00
# UVM_INFO C:/Documents/DoAnThietKeViMach/Project/SoC/VERIFICATION/Monitor/cpu_monitor.sv(234) @ 3895000: uvm_test_top.env.agent.monitor [IF] PC=000000e8  INSTR=01104263  [BLT  x0, x17, ...]            
# UVM_INFO C:/Documents/DoAnThietKeViMach/Project/SoC/VERIFICATION/Monitor/cpu_monitor.sv(268) @ 3895000: uvm_test_top.env.agent.monitor [MEM] STORE Addr=3000000c Data=00000000
# UVM_INFO C:/Documents/DoAnThietKeViMach/Project/SoC/VERIFICATION/Monitor/cpu_monitor.sv(296) @ 3895000: uvm_test_top.env.agent.monitor [WB] x12 <= 00000000  (PC~000000e8)
# UVM_INFO C:/Documents/DoAnThietKeViMach/Project/SoC/VERIFICATION/Monitor/cpu_monitor.sv(364) @ 3935000: uvm_test_top.env.agent.monitor [AXI_RD] CPU <- IRAM  Addr=000000ec Data=00400c6f RRESP=00
# UVM_INFO C:/Documents/DoAnThietKeViMach/Project/SoC/VERIFICATION/Monitor/cpu_monitor.sv(234) @ 3935000: uvm_test_top.env.agent.monitor [IF] PC=000000ec  INSTR=00400c6f  [JAL  x24, ...]            
# UVM_INFO C:/Documents/DoAnThietKeViMach/Project/SoC/VERIFICATION/Monitor/cpu_monitor.sv(296) @ 3945000: uvm_test_top.env.agent.monitor [WB] x17 <= 00000000  (PC~000000ec)
# UVM_INFO C:/Documents/DoAnThietKeViMach/Project/SoC/VERIFICATION/Monitor/cpu_monitor.sv(296) @ 3955000: uvm_test_top.env.agent.monitor [WB] x17 <= 00000000  (PC~000000ec)
# UVM_INFO C:/Documents/DoAnThietKeViMach/Project/SoC/VERIFICATION/Monitor/cpu_monitor.sv(296) @ 3965000: uvm_test_top.env.agent.monitor [WB] x17 <= 00000000  (PC~000000ec)
# UVM_INFO C:/Documents/DoAnThietKeViMach/Project/SoC/VERIFICATION/Monitor/cpu_monitor.sv(364) @ 3975000: uvm_test_top.env.agent.monitor [AXI_RD] CPU <- IRAM  Addr=000000f0 Data=01806263 RRESP=00
# UVM_INFO C:/Documents/DoAnThietKeViMach/Project/SoC/VERIFICATION/Monitor/cpu_monitor.sv(234) @ 3975000: uvm_test_top.env.agent.monitor [IF] PC=000000f0  INSTR=01806263  [BR?? x0, x24, ...]            
# UVM_INFO C:/Documents/DoAnThietKeViMach/Project/SoC/VERIFICATION/Monitor/cpu_monitor.sv(296) @ 3975000: uvm_test_top.env.agent.monitor [WB] x17 <= 00000000  (PC~000000f0)
# UVM_INFO C:/Documents/DoAnThietKeViMach/Project/SoC/VERIFICATION/Monitor/cpu_monitor.sv(296) @ 3985000: uvm_test_top.env.agent.monitor [WB] x16 <= 00000000  (PC~000000f0)
# UVM_INFO C:/Documents/DoAnThietKeViMach/Project/SoC/VERIFICATION/Monitor/cpu_monitor.sv(296) @ 3995000: uvm_test_top.env.agent.monitor [WB] x16 <= 00000000  (PC~000000f0)
# UVM_INFO C:/Documents/DoAnThietKeViMach/Project/SoC/VERIFICATION/Monitor/cpu_monitor.sv(296) @ 4005000: uvm_test_top.env.agent.monitor [WB] x16 <= 00000000  (PC~000000f0)
# UVM_INFO C:/Documents/DoAnThietKeViMach/Project/SoC/VERIFICATION/Monitor/cpu_monitor.sv(364) @ 4015000: uvm_test_top.env.agent.monitor [AXI_RD] CPU <- IRAM  Addr=000000f4 Data=00c1a903 RRESP=00
# UVM_INFO C:/Documents/DoAnThietKeViMach/Project/SoC/VERIFICATION/Monitor/cpu_monitor.sv(234) @ 4015000: uvm_test_top.env.agent.monitor [IF] PC=000000f4  INSTR=00c1a903  [LW   x18, 12(x3)]            
# UVM_INFO C:/Documents/DoAnThietKeViMach/Project/SoC/VERIFICATION/Monitor/cpu_monitor.sv(296) @ 4015000: uvm_test_top.env.agent.monitor [WB] x16 <= 00000000  (PC~000000f4)
# UVM_INFO C:/Documents/DoAnThietKeViMach/Project/SoC/VERIFICATION/Monitor/cpu_monitor.sv(364) @ 4055000: uvm_test_top.env.agent.monitor [AXI_RD] CPU <- IRAM  Addr=000000f0 Data=01806263 RRESP=00
# UVM_INFO C:/Documents/DoAnThietKeViMach/Project/SoC/VERIFICATION/Monitor/cpu_monitor.sv(234) @ 4055000: uvm_test_top.env.agent.monitor [IF] PC=000000f0  INSTR=01806263  [BR?? x0, x24, ...]            
# UVM_INFO C:/Documents/DoAnThietKeViMach/Project/SoC/VERIFICATION/Monitor/cpu_monitor.sv(296) @ 4065000: uvm_test_top.env.agent.monitor [WB] x24 <= 000000f0  (PC~000000f0)
# UVM_INFO C:/Documents/DoAnThietKeViMach/Project/SoC/VERIFICATION/Monitor/cpu_monitor.sv(296) @ 4075000: uvm_test_top.env.agent.monitor [WB] x24 <= 000000f0  (PC~000000f0)
# UVM_INFO C:/Documents/DoAnThietKeViMach/Project/SoC/VERIFICATION/Monitor/cpu_monitor.sv(296) @ 4085000: uvm_test_top.env.agent.monitor [WB] x24 <= 000000f0  (PC~000000f0)
# UVM_INFO C:/Documents/DoAnThietKeViMach/Project/SoC/VERIFICATION/Monitor/cpu_monitor.sv(364) @ 4095000: uvm_test_top.env.agent.monitor [AXI_RD] CPU <- IRAM  Addr=000000f4 Data=00c1a903 RRESP=00
# UVM_INFO C:/Documents/DoAnThietKeViMach/Project/SoC/VERIFICATION/Monitor/cpu_monitor.sv(234) @ 4095000: uvm_test_top.env.agent.monitor [IF] PC=000000f4  INSTR=00c1a903  [LW   x18, 12(x3)]            
# UVM_INFO C:/Documents/DoAnThietKeViMach/Project/SoC/VERIFICATION/Monitor/cpu_monitor.sv(296) @ 4095000: uvm_test_top.env.agent.monitor [WB] x24 <= 000000f0  (PC~000000f4)
# UVM_INFO C:/Documents/DoAnThietKeViMach/Project/SoC/VERIFICATION/Monitor/cpu_monitor.sv(364) @ 4135000: uvm_test_top.env.agent.monitor [AXI_RD] CPU <- IRAM  Addr=000000f8 Data=6bb0aa23 RRESP=00
# UVM_INFO C:/Documents/DoAnThietKeViMach/Project/SoC/VERIFICATION/Monitor/cpu_monitor.sv(234) @ 4135000: uvm_test_top.env.agent.monitor [IF] PC=000000f8  INSTR=6bb0aa23  [SW   x27, 1723(x1)]            
# UVM_INFO C:/Documents/DoAnThietKeViMach/Project/SoC/VERIFICATION/Monitor/cpu_monitor.sv(364) @ 4175000: uvm_test_top.env.agent.monitor [AXI_RD] CPU <- IRAM  Addr=000000f4 Data=00c1a903 RRESP=00
# UVM_INFO C:/Documents/DoAnThietKeViMach/Project/SoC/VERIFICATION/Monitor/cpu_monitor.sv(234) @ 4175000: uvm_test_top.env.agent.monitor [IF] PC=000000f4  INSTR=00c1a903  [LW   x18, 12(x3)]            
# UVM_INFO C:/Documents/DoAnThietKeViMach/Project/SoC/VERIFICATION/Monitor/cpu_monitor.sv(364) @ 4215000: uvm_test_top.env.agent.monitor [AXI_RD] CPU <- IRAM  Addr=000000f8 Data=6bb0aa23 RRESP=00
# UVM_INFO C:/Documents/DoAnThietKeViMach/Project/SoC/VERIFICATION/Monitor/cpu_monitor.sv(234) @ 4215000: uvm_test_top.env.agent.monitor [IF] PC=000000f8  INSTR=6bb0aa23  [SW   x27, 1723(x1)]            
# UVM_INFO C:/Documents/DoAnThietKeViMach/Project/SoC/VERIFICATION/Monitor/cpu_monitor.sv(364) @ 4255000: uvm_test_top.env.agent.monitor [AXI_RD] CPU <- IRAM  Addr=000000fc Data=00007263 RRESP=00
# UVM_INFO C:/Documents/DoAnThietKeViMach/Project/SoC/VERIFICATION/Monitor/cpu_monitor.sv(234) @ 4255000: uvm_test_top.env.agent.monitor [IF] PC=000000fc  INSTR=00007263  [BR?? x0, x0, ...]            
# UVM_INFO C:/Documents/DoAnThietKeViMach/Project/SoC/VERIFICATION/Monitor/cpu_monitor.sv(364) @ 4295000: uvm_test_top.env.agent.monitor [AXI_RD] CPU <- UART  Addr=3000000c Data=00000000 RRESP=00
# UVM_INFO C:/Documents/DoAnThietKeViMach/Project/SoC/VERIFICATION/Scoreboard/cpu_scoreboard.sv(126) @ 4295000: uvm_test_top.env.scoreboard [SCB_PASS] [UART] READ PASS Addr=3000000c Expected=00000000 Got=00000000
# UVM_INFO C:/Documents/DoAnThietKeViMach/Project/SoC/VERIFICATION/Monitor/cpu_monitor.sv(364) @ 4335000: uvm_test_top.env.agent.monitor [AXI_RD] CPU <- IRAM  Addr=00000100 Data=0111a623 RRESP=00
# UVM_INFO C:/Documents/DoAnThietKeViMach/Project/SoC/VERIFICATION/Monitor/cpu_monitor.sv(234) @ 4335000: uvm_test_top.env.agent.monitor [IF] PC=00000100  INSTR=0111a623  [SW   x17, 17(x3)]            
# UVM_INFO C:/Documents/DoAnThietKeViMach/Project/SoC/VERIFICATION/Monitor/cpu_monitor.sv(268) @ 4345000: uvm_test_top.env.agent.monitor [MEM] STORE Addr=100006b4 Data=00000000
# UVM_INFO C:/Documents/DoAnThietKeViMach/Project/SoC/VERIFICATION/Monitor/cpu_monitor.sv(268) @ 4355000: uvm_test_top.env.agent.monitor [MEM] STORE Addr=100006b4 Data=00000000
# [DRAM WRITE] addr=100006b4 data=00000000
# UVM_INFO C:/Documents/DoAnThietKeViMach/Project/SoC/VERIFICATION/Monitor/cpu_monitor.sv(268) @ 4365000: uvm_test_top.env.agent.monitor [MEM] STORE Addr=100006b4 Data=00000000
# UVM_INFO C:/Documents/DoAnThietKeViMach/Project/SoC/VERIFICATION/Monitor/cpu_monitor.sv(335) @ 4375000: uvm_test_top.env.agent.monitor [AXI_WR] CPU -> DRAM  Addr=100006b4 Data=00000000 Strb=1111 BRESP=00
# UVM_INFO C:/Documents/DoAnThietKeViMach/Project/SoC/VERIFICATION/Monitor/cpu_monitor.sv(268) @ 4375000: uvm_test_top.env.agent.monitor [MEM] STORE Addr=100006b4 Data=00000000
# UVM_INFO C:/Documents/DoAnThietKeViMach/Project/SoC/VERIFICATION/Monitor/cpu_monitor.sv(296) @ 4375000: uvm_test_top.env.agent.monitor [WB] x18 <= 00000000  (PC~00000100)
# UVM_INFO C:/Documents/DoAnThietKeViMach/Project/SoC/VERIFICATION/Monitor/cpu_monitor.sv(268) @ 4385000: uvm_test_top.env.agent.monitor [MEM] STORE Addr=100006b4 Data=00000000
# UVM_INFO C:/Documents/DoAnThietKeViMach/Project/SoC/VERIFICATION/Monitor/cpu_monitor.sv(296) @ 4385000: uvm_test_top.env.agent.monitor [WB] x18 <= 00000000  (PC~00000100)
# UVM_INFO C:/Documents/DoAnThietKeViMach/Project/SoC/VERIFICATION/Monitor/cpu_monitor.sv(268) @ 4395000: uvm_test_top.env.agent.monitor [MEM] STORE Addr=100006b4 Data=00000000
# UVM_INFO C:/Documents/DoAnThietKeViMach/Project/SoC/VERIFICATION/Monitor/cpu_monitor.sv(296) @ 4395000: uvm_test_top.env.agent.monitor [WB] x18 <= 00000000  (PC~00000100)
# UVM_INFO C:/Documents/DoAnThietKeViMach/Project/SoC/VERIFICATION/Monitor/cpu_monitor.sv(268) @ 4405000: uvm_test_top.env.agent.monitor [MEM] STORE Addr=100006b4 Data=00000000
# UVM_INFO C:/Documents/DoAnThietKeViMach/Project/SoC/VERIFICATION/Monitor/cpu_monitor.sv(296) @ 4405000: uvm_test_top.env.agent.monitor [WB] x18 <= 00000000  (PC~00000100)
# UVM_INFO C:/Documents/DoAnThietKeViMach/Project/SoC/VERIFICATION/Monitor/cpu_monitor.sv(364) @ 4415000: uvm_test_top.env.agent.monitor [AXI_RD] CPU <- IRAM  Addr=00000104 Data=00c04263 RRESP=00
# UVM_INFO C:/Documents/DoAnThietKeViMach/Project/SoC/VERIFICATION/Monitor/cpu_monitor.sv(234) @ 4415000: uvm_test_top.env.agent.monitor [IF] PC=00000104  INSTR=00c04263  [BLT  x0, x12, ...]            
# UVM_INFO C:/Documents/DoAnThietKeViMach/Project/SoC/VERIFICATION/Monitor/cpu_monitor.sv(268) @ 4415000: uvm_test_top.env.agent.monitor [MEM] STORE Addr=100006b4 Data=00000000
# UVM_INFO C:/Documents/DoAnThietKeViMach/Project/SoC/VERIFICATION/Monitor/cpu_monitor.sv(296) @ 4415000: uvm_test_top.env.agent.monitor [WB] x18 <= 00000000  (PC~00000104)
# UVM_INFO C:/Documents/DoAnThietKeViMach/Project/SoC/VERIFICATION/Monitor/cpu_monitor.sv(364) @ 4455000: uvm_test_top.env.agent.monitor [AXI_RD] CPU <- IRAM  Addr=00000100 Data=0111a623 RRESP=00
# UVM_INFO C:/Documents/DoAnThietKeViMach/Project/SoC/VERIFICATION/Monitor/cpu_monitor.sv(234) @ 4455000: uvm_test_top.env.agent.monitor [IF] PC=00000100  INSTR=0111a623  [SW   x17, 17(x3)]            
# UVM_INFO C:/Documents/DoAnThietKeViMach/Project/SoC/VERIFICATION/Monitor/cpu_monitor.sv(364) @ 4495000: uvm_test_top.env.agent.monitor [AXI_RD] CPU <- IRAM  Addr=00000104 Data=00c04263 RRESP=00
# UVM_INFO C:/Documents/DoAnThietKeViMach/Project/SoC/VERIFICATION/Monitor/cpu_monitor.sv(234) @ 4495000: uvm_test_top.env.agent.monitor [IF] PC=00000104  INSTR=00c04263  [BLT  x0, x12, ...]            
# UVM_INFO C:/Documents/DoAnThietKeViMach/Project/SoC/VERIFICATION/Monitor/cpu_monitor.sv(364) @ 4535000: uvm_test_top.env.agent.monitor [AXI_RD] CPU <- IRAM  Addr=00000108 Data=01f5e8b3 RRESP=00
# UVM_INFO C:/Documents/DoAnThietKeViMach/Project/SoC/VERIFICATION/Monitor/cpu_monitor.sv(234) @ 4535000: uvm_test_top.env.agent.monitor [IF] PC=00000108  INSTR=01f5e8b3  [OR   x17, x11, x31]            
# UVM_INFO C:/Documents/DoAnThietKeViMach/Project/SoC/VERIFICATION/Monitor/cpu_monitor.sv(268) @ 4545000: uvm_test_top.env.agent.monitor [MEM] STORE Addr=3000000c Data=00000000
# UVM_INFO C:/Documents/DoAnThietKeViMach/Project/SoC/VERIFICATION/Monitor/cpu_monitor.sv(268) @ 4555000: uvm_test_top.env.agent.monitor [MEM] STORE Addr=3000000c Data=00000000
# UVM_INFO C:/Documents/DoAnThietKeViMach/Project/SoC/VERIFICATION/Monitor/cpu_monitor.sv(268) @ 4565000: uvm_test_top.env.agent.monitor [MEM] STORE Addr=3000000c Data=00000000
# UVM_INFO C:/Documents/DoAnThietKeViMach/Project/SoC/VERIFICATION/Monitor/cpu_monitor.sv(335) @ 4575000: uvm_test_top.env.agent.monitor [AXI_WR] CPU -> UART  Addr=3000000c Data=00000000 Strb=1111 BRESP=00
# UVM_INFO C:/Documents/DoAnThietKeViMach/Project/SoC/VERIFICATION/Scoreboard/cpu_scoreboard.sv(246) @ 4575000: uvm_test_top.env.scoreboard [SCB_PERIPH] [UART] WRITE Addr=3000000c Data=00000000
# UVM_INFO C:/Documents/DoAnThietKeViMach/Project/SoC/VERIFICATION/Monitor/cpu_monitor.sv(268) @ 4575000: uvm_test_top.env.agent.monitor [MEM] STORE Addr=3000000c Data=00000000
# UVM_INFO C:/Documents/DoAnThietKeViMach/Project/SoC/VERIFICATION/Monitor/cpu_monitor.sv(268) @ 4585000: uvm_test_top.env.agent.monitor [MEM] STORE Addr=3000000c Data=00000000
# UVM_INFO C:/Documents/DoAnThietKeViMach/Project/SoC/VERIFICATION/Monitor/cpu_monitor.sv(268) @ 4595000: uvm_test_top.env.agent.monitor [MEM] STORE Addr=3000000c Data=00000000
# UVM_INFO C:/Documents/DoAnThietKeViMach/Project/SoC/VERIFICATION/Monitor/cpu_monitor.sv(268) @ 4605000: uvm_test_top.env.agent.monitor [MEM] STORE Addr=3000000c Data=00000000
# UVM_INFO C:/Documents/DoAnThietKeViMach/Project/SoC/VERIFICATION/Monitor/cpu_monitor.sv(364) @ 4615000: uvm_test_top.env.agent.monitor [AXI_RD] CPU <- IRAM  Addr=0000010c Data=ea450d13 RRESP=00
# UVM_INFO C:/Documents/DoAnThietKeViMach/Project/SoC/VERIFICATION/Monitor/cpu_monitor.sv(234) @ 4615000: uvm_test_top.env.agent.monitor [IF] PC=0000010c  INSTR=ea450d13  [ADDI x26, x10, -348]            
# UVM_INFO C:/Documents/DoAnThietKeViMach/Project/SoC/VERIFICATION/Monitor/cpu_monitor.sv(268) @ 4615000: uvm_test_top.env.agent.monitor [MEM] STORE Addr=3000000c Data=00000000
# UVM_INFO C:/Documents/DoAnThietKeViMach/Project/SoC/VERIFICATION/Monitor/cpu_monitor.sv(364) @ 4655000: uvm_test_top.env.agent.monitor [AXI_RD] CPU <- IRAM  Addr=00000110 Data=00412b83 RRESP=00
# UVM_INFO C:/Documents/DoAnThietKeViMach/Project/SoC/VERIFICATION/Monitor/cpu_monitor.sv(234) @ 4655000: uvm_test_top.env.agent.monitor [IF] PC=00000110  INSTR=00412b83  [LW   x23, 4(x2)]            
# UVM_INFO C:/Documents/DoAnThietKeViMach/Project/SoC/VERIFICATION/Monitor/cpu_monitor.sv(364) @ 4695000: uvm_test_top.env.agent.monitor [AXI_RD] CPU <- IRAM  Addr=00000114 Data=00c76833 RRESP=00
# UVM_INFO C:/Documents/DoAnThietKeViMach/Project/SoC/VERIFICATION/Monitor/cpu_monitor.sv(234) @ 4695000: uvm_test_top.env.agent.monitor [IF] PC=00000114  INSTR=00c76833  [OR   x16, x14, x12]            
# UVM_INFO C:/Documents/DoAnThietKeViMach/Project/SoC/VERIFICATION/Monitor/cpu_monitor.sv(296) @ 4705000: uvm_test_top.env.agent.monitor [WB] x17 <= 00000000  (PC~00000114)
# UVM_INFO C:/Documents/DoAnThietKeViMach/Project/SoC/VERIFICATION/Monitor/cpu_monitor.sv(296) @ 4715000: uvm_test_top.env.agent.monitor [WB] x17 <= 00000000  (PC~00000114)
# UVM_INFO C:/Documents/DoAnThietKeViMach/Project/SoC/VERIFICATION/Monitor/cpu_monitor.sv(296) @ 4725000: uvm_test_top.env.agent.monitor [WB] x17 <= 00000000  (PC~00000114)
# UVM_INFO C:/Documents/DoAnThietKeViMach/Project/SoC/VERIFICATION/Monitor/cpu_monitor.sv(364) @ 4735000: uvm_test_top.env.agent.monitor [AXI_RD] CPU <- IRAM  Addr=00000118 Data=00412883 RRESP=00
# UVM_INFO C:/Documents/DoAnThietKeViMach/Project/SoC/VERIFICATION/Monitor/cpu_monitor.sv(234) @ 4735000: uvm_test_top.env.agent.monitor [IF] PC=00000118  INSTR=00412883  [LW   x17, 4(x2)]            
# UVM_INFO C:/Documents/DoAnThietKeViMach/Project/SoC/VERIFICATION/Monitor/cpu_monitor.sv(296) @ 4735000: uvm_test_top.env.agent.monitor [WB] x17 <= 00000000  (PC~00000118)
