--- [SIM ONLY] cpu_test ---
MODE = CPU_MASTER
Reading C:/app/QuestaSim/tcl/vsim/pref.tcl 

# 10.2c

# vsim +UVM_TESTNAME=cpu_test +CPU_MASTER +MEM_SEED=2893450207 -coverage -do {run -all; quit} -c -sv_seed 2893450207 vopt_top 
# //  Questa Sim-64
# //  Version 10.2c Unknown Platform Jul 19 2013
# //
# //  Copyright 1991-2013 Mentor Graphics Corporation
# //  All Rights Reserved.
# //
# //  THIS WORK CONTAINS TRADE SECRET AND PROPRIETARY INFORMATION
# //  WHICH IS THE PROPERTY OF MENTOR GRAPHICS CORPORATION OR ITS
# //  LICENSORS AND IS SUBJECT TO LICENSE TERMS.
# //
# Loading sv_std.std
# Loading mtiUvm.uvm_pkg
# Loading work.soc_pkg(fast)
# Loading work.top_tb(fast)
# Loading work.clk_rst_inf(fast)
# Loading work.soc_inf(fast)
# Loading work.cpu_monitor_inf(fast)
# Loading work.TOP(fast)
# Loading work.AXI_Master(fast)
# Loading work.CPU(fast)
# Loading work.pc_reg(fast)
# Loading work.IF_ID(fast)
# Loading work.ControlUnit(fast)
# Loading work.MainDecoder(fast)
# Loading work.ALUControl(fast)
# Loading work.RegFile(fast)
# Loading work.signExtend(fast)
# Loading work.ID_EX(fast)
# Loading work.ALU(fast)
# Loading work.EX_MEM(fast)
# Loading work.MEM_WB(fast)
# Loading work.HazardUnit(fast)
# Loading work.LSU(fast)
# Loading work.AXI4_Lite_Interconnect(fast)
# Loading work.IRAM(fast)
# Loading work.DRAM(fast)
# Loading work.Timer(fast)
# Loading work.UART(fast)
# Loading work.SPI(fast)
# Loading mtiUvm.questa_uvm_pkg(fast)
# ** Warning: (vsim-3017) C:/Documents/DoAnThietKeViMach/Project/SoC/VERIFICATION/top_tb.sv(13): [TFMPC] - Too few port connections. Expected 2, found 0.
# 
#         Region: /top_tb/cr_if
# ** Warning: (vsim-3722) C:/Documents/DoAnThietKeViMach/Project/SoC/VERIFICATION/top_tb.sv(13): [TFMPC] - Missing connection for port 'clk'.
# 
# ** Warning: (vsim-3722) C:/Documents/DoAnThietKeViMach/Project/SoC/VERIFICATION/top_tb.sv(13): [TFMPC] - Missing connection for port 'rstn'.
# 
# Loading C:/app/QuestaSim/uvm-1.1d\win64\uvm_dpi.dll
# run -all 
# ----------------------------------------------------------------
# UVM-1.1d
# (C) 2007-2013 Mentor Graphics Corporation
# (C) 2007-2013 Cadence Design Systems, Inc.
# (C) 2006-2013 Synopsys, Inc.
# (C) 2011-2013 Cypress Semiconductor Corp.
# ----------------------------------------------------------------
# 
#   ***********       IMPORTANT RELEASE NOTES         ************
# 
#   You are using a version of the UVM library that has been compiled
#   with `UVM_NO_DEPRECATED undefined.
#   See http://www.eda.org/svdb/view.php?id=3313 for more details.
# 
#   You are using a version of the UVM library that has been compiled
#   with `UVM_OBJECT_MUST_HAVE_CONSTRUCTOR undefined.
#   See http://www.eda.org/svdb/view.php?id=3770 for more details.
# 
#       (Specify +UVM_NO_RELNOTES to turn off this notice)
# 
# UVM_INFO verilog_src/questa_uvm_pkg-1.2/src/questa_uvm_pkg.sv(215) @ 0: reporter [Questa UVM] QUESTA_UVM-1.2.2
# UVM_INFO verilog_src/questa_uvm_pkg-1.2/src/questa_uvm_pkg.sv(217) @ 0: reporter [Questa UVM]  questa_uvm::init(+struct)
# [IRAM] Loading file: instr.mem
# [IRAM] mem[0] = 100000b7
# [IRAM] mem[1] = 75744913
# [IRAM] mem[2] = 030d8063
# [IRAM] mem[3] = 00c89333
# [IRAM] mem[4] = a992f813
# [IRAM] mem[5] = 37f2cf93
# [IRAM] mem[6] = fea306e3
# [IRAM] mem[7] = 0162f5b3
# [IRAM] mem[8] = 01268e63
# [IRAM] mem[9] = 408b8e33
# [IRAM] mem[10] = 014f8663
# [IRAM] mem[11] = 00396833
# [IRAM] mem[12] = 5070aa23
# [IRAM] mem[13] = bbe8cc93
# [IRAM] mem[14] = 009c7db3
# [IRAM] mem[15] = 010222b3
# [IRAM] mem[16] = 000004ef
# [IRAM] mem[17] = 0d6eca13
# [IRAM] mem[18] = 46c0a283
# [IRAM] mem[19] = 2000a403
# [IRAM] mem[20] = ff0b80e3
# [IRAM] mem[21] = 014008ef
# [IRAM] mem[22] = 3480ae83
# [IRAM] mem[23] = 414754b3
# [IRAM] mem[24] = 40ca04b3
# [IRAM] mem[25] = 2830a623
# [IRAM] mem[26] = 00d37d33
# [IRAM] mem[27] = 01854eb3
# [IRAM] mem[28] = eb2b6d13
# [IRAM] mem[29] = fe5ff86f
# [IRAM] mem[30] = 7f976a93
# [IRAM] mem[31] = 5800a383
# [IRAM] mem[32] = 9b3dfe93
# [IRAM] mem[33] = 59b0a023
# [IRAM] mem[34] = 4270a423
# [IRAM] mem[35] = 01e79c33
# [IRAM] mem[36] = 3600a583
# [IRAM] mem[37] = 7800a183
# [IRAM] mem[38] = 405c5633
# [IRAM] mem[39] = 37f0a623
# [IRAM] mem[40] = 0da0ac23
# [IRAM] mem[41] = 38470293
# [IRAM] mem[42] = cd77c313
# [IRAM] mem[43] = 4d40a983
# [IRAM] mem[44] = 7120aa23
# [IRAM] mem[45] = 01998c33
# [IRAM] mem[46] = 01c69333
# [IRAM] mem[47] = fd9ff56f
# [IRAM] mem[48] = ef364a13
# [IRAM] mem[49] = 6600ae83
# [IRAM] mem[50] = 7834e113
# [IRAM] mem[51] = 783ece93
# [IRAM] mem[52] = a1756313
# [IRAM] mem[53] = 4118d1b3
# [IRAM] mem[54] = 6240ac83
# [IRAM] mem[55] = bf77cc93
# [IRAM] mem[56] = 1b80a223
# [IRAM] mem[57] = 40c5d733
# [IRAM] mem[58] = 40545133
# [IRAM] mem[59] = 0310aa23
# [IRAM] mem[60] = 2040ab03
# [IRAM] mem[61] = 01a1edb3
# [IRAM] mem[62] = 756d4a13
# [IRAM] mem[63] = 2a5b8793
# [IRAM] mem[64] = a2dc6893
# [IRAM] mem[65] = f3d90513
# [IRAM] mem[66] = 01800d6f
# [IRAM] mem[67] = 31656b13
# [IRAM] mem[68] = 418f5d33
# [IRAM] mem[69] = 007f29b3
# [IRAM] mem[70] = 003d0eb3
# [IRAM] mem[71] = 6c40ad03
# [IRAM] mem[72] = 01f82633
# [IRAM] mem[73] = 01b87233
# [IRAM] mem[74] = a28af613
# [IRAM] mem[75] = 40a95db3
# [IRAM] mem[76] = 1c59c193
# [IRAM] mem[77] = 009a97b3
# [IRAM] mem[78] = 009be433
# [IRAM] mem[79] = 05280293
# [IRAM] mem[80] = 016565b3
# [IRAM] mem[81] = 7670a423
# [IRAM] mem[82] = 01f97533
# [IRAM] mem[83] = 01b9e8b3
# [IRAM] mem[84] = 011973b3
# [IRAM] mem[85] = 40b6d7b3
# [IRAM] mem[86] = db5b0c13
# [IRAM] mem[87] = 3760a423
# [IRAM] mem[88] = 6b30ae23
# [IRAM] mem[89] = 68f0a623
# [IRAM] mem[90] = 0045f933
# [IRAM] mem[91] = 1bcb8613
# [IRAM] mem[92] = 41afd9b3
# [IRAM] mem[93] = 6680a703
# [IRAM] mem[94] = db46c413
# [IRAM] mem[95] = 8782f713
# [IRAM] mem[96] = 7850aa23
# [IRAM] mem[97] = 526f4693
# [IRAM] mem[98] = 00a0aa23
# [IRAM] mem[99] = 7700a783
# [IRAM] mem[100] = 6bc0a303
# [TB] Mode: CPU MASTER ‚?? CPU drives AXI, UVM observes
# UVM_INFO @ 0: reporter [RNTST] Running test cpu_test...
# UVM_INFO C:/Documents/DoAnThietKeViMach/Project/SoC/VERIFICATION/Scoreboard/cpu_scoreboard.sv(98) @ 0: uvm_test_top.env.scoreboard [SCB] Loaded expected registers from: expected.mem
# UVM_INFO C:/Documents/DoAnThietKeViMach/Project/SoC/VERIFICATION/Test/cpu_test.sv(55) @ 0: uvm_test_top [TEST] Program has 101 instructions, end PC = 00000194
# UVM_INFO C:/Documents/DoAnThietKeViMach/Project/SoC/VERIFICATION/Monitor/cpu_monitor.sv(186) @ 35000: uvm_test_top.env.agent.monitor [CPU_MON] === CPU Monitor started ‚?? watching pipeline ===
# UVM_INFO C:/Documents/DoAnThietKeViMach/Project/SoC/VERIFICATION/Monitor/cpu_monitor.sv(188) @ 35000: uvm_test_top.env.agent.monitor [CPU_MON] ‚??‚??‚??‚??‚??‚??‚??‚??‚??‚??‚??‚??‚??‚??‚??‚??‚??‚??‚??‚??‚??‚??‚??‚??‚??‚??‚??‚??‚??‚??‚??‚??‚??‚??‚??‚??‚??‚??‚??‚??‚??‚??‚??‚??‚??‚??‚??‚??‚??‚??‚??‚??‚??‚??‚??‚??‚??
# UVM_INFO C:/Documents/DoAnThietKeViMach/Project/SoC/VERIFICATION/Test/cpu_test.sv(62) @ 55000: uvm_test_top [TEST] Reset released ‚?? CPU executing from IRAM
# UVM_INFO C:/Documents/DoAnThietKeViMach/Project/SoC/VERIFICATION/Monitor/cpu_monitor.sv(345) @ 55000: uvm_test_top.env.agent.monitor [AXI_RD] CPU‚?êDRAM  Addr=00000000 Data=100000b7 RRESP=00
# UVM_INFO C:/Documents/DoAnThietKeViMach/Project/SoC/VERIFICATION/Monitor/cpu_monitor.sv(345) @ 95000: uvm_test_top.env.agent.monitor [AXI_RD] CPU‚?êDRAM  Addr=00000004 Data=75744913 RRESP=00
# UVM_INFO C:/Documents/DoAnThietKeViMach/Project/SoC/VERIFICATION/Monitor/cpu_monitor.sv(215) @ 95000: uvm_test_top.env.agent.monitor [IF] PC=00000004  INSTR=100000b7  [LUI  x1, 0x10000]            
# UVM_INFO C:/Documents/DoAnThietKeViMach/Project/SoC/VERIFICATION/Monitor/cpu_monitor.sv(345) @ 135000: uvm_test_top.env.agent.monitor [AXI_RD] CPU‚?êDRAM  Addr=00000008 Data=030d8063 RRESP=00
# UVM_INFO C:/Documents/DoAnThietKeViMach/Project/SoC/VERIFICATION/Monitor/cpu_monitor.sv(215) @ 135000: uvm_test_top.env.agent.monitor [IF] PC=00000008  INSTR=75744913  [XORI x18, x8, 1879]            
# UVM_INFO C:/Documents/DoAnThietKeViMach/Project/SoC/VERIFICATION/Monitor/cpu_monitor.sv(345) @ 175000: uvm_test_top.env.agent.monitor [AXI_RD] CPU‚?êDRAM  Addr=0000000c Data=00c89333 RRESP=00
# UVM_INFO C:/Documents/DoAnThietKeViMach/Project/SoC/VERIFICATION/Monitor/cpu_monitor.sv(215) @ 175000: uvm_test_top.env.agent.monitor [IF] PC=0000000c  INSTR=030d8063  [BEQ  x27, x16, ...]            
# UVM_INFO C:/Documents/DoAnThietKeViMach/Project/SoC/VERIFICATION/Monitor/cpu_monitor.sv(345) @ 215000: uvm_test_top.env.agent.monitor [AXI_RD] CPU‚?êDRAM  Addr=00000010 Data=a992f813 RRESP=00
# UVM_INFO C:/Documents/DoAnThietKeViMach/Project/SoC/VERIFICATION/Monitor/cpu_monitor.sv(215) @ 215000: uvm_test_top.env.agent.monitor [IF] PC=00000010  INSTR=00c89333  [SLL  x6, x17, x12]            
# UVM_INFO C:/Documents/DoAnThietKeViMach/Project/SoC/VERIFICATION/Monitor/cpu_monitor.sv(277) @ 225000: uvm_test_top.env.agent.monitor [WB] x01 <= 10000000  (PC~00000010)
# UVM_INFO C:/Documents/DoAnThietKeViMach/Project/SoC/VERIFICATION/Monitor/cpu_monitor.sv(277) @ 235000: uvm_test_top.env.agent.monitor [WB] x01 <= 10000000  (PC~00000010)
# UVM_INFO C:/Documents/DoAnThietKeViMach/Project/SoC/VERIFICATION/Monitor/cpu_monitor.sv(277) @ 245000: uvm_test_top.env.agent.monitor [WB] x01 <= 10000000  (PC~00000010)
# UVM_INFO C:/Documents/DoAnThietKeViMach/Project/SoC/VERIFICATION/Monitor/cpu_monitor.sv(345) @ 255000: uvm_test_top.env.agent.monitor [AXI_RD] CPU‚?êDRAM  Addr=00000014 Data=37f2cf93 RRESP=00
# UVM_INFO C:/Documents/DoAnThietKeViMach/Project/SoC/VERIFICATION/Monitor/cpu_monitor.sv(215) @ 255000: uvm_test_top.env.agent.monitor [IF] PC=00000014  INSTR=a992f813  [ANDI x16, x5, -1383]            
# UVM_INFO C:/Documents/DoAnThietKeViMach/Project/SoC/VERIFICATION/Monitor/cpu_monitor.sv(277) @ 255000: uvm_test_top.env.agent.monitor [WB] x01 <= 10000000  (PC~00000014)
# UVM_INFO C:/Documents/DoAnThietKeViMach/Project/SoC/VERIFICATION/Monitor/cpu_monitor.sv(277) @ 265000: uvm_test_top.env.agent.monitor [WB] x18 <= 00000757  (PC~00000014)
# UVM_INFO C:/Documents/DoAnThietKeViMach/Project/SoC/VERIFICATION/Monitor/cpu_monitor.sv(277) @ 275000: uvm_test_top.env.agent.monitor [WB] x18 <= 00000757  (PC~00000014)
# UVM_INFO C:/Documents/DoAnThietKeViMach/Project/SoC/VERIFICATION/Monitor/cpu_monitor.sv(277) @ 285000: uvm_test_top.env.agent.monitor [WB] x18 <= 00000757  (PC~00000014)
# UVM_INFO C:/Documents/DoAnThietKeViMach/Project/SoC/VERIFICATION/Monitor/cpu_monitor.sv(345) @ 295000: uvm_test_top.env.agent.monitor [AXI_RD] CPU‚?êDRAM  Addr=0000002c Data=00396833 RRESP=00
# UVM_INFO C:/Documents/DoAnThietKeViMach/Project/SoC/VERIFICATION/Monitor/cpu_monitor.sv(215) @ 295000: uvm_test_top.env.agent.monitor [IF] PC=0000002c  INSTR=37f2cf93  [XORI x31, x5, 895]            
# UVM_INFO C:/Documents/DoAnThietKeViMach/Project/SoC/VERIFICATION/Monitor/cpu_monitor.sv(277) @ 295000: uvm_test_top.env.agent.monitor [WB] x18 <= 00000757  (PC~0000002c)
# UVM_INFO C:/Documents/DoAnThietKeViMach/Project/SoC/VERIFICATION/Monitor/cpu_monitor.sv(345) @ 335000: uvm_test_top.env.agent.monitor [AXI_RD] CPU‚?êDRAM  Addr=00000030 Data=5070aa23 RRESP=00
# UVM_INFO C:/Documents/DoAnThietKeViMach/Project/SoC/VERIFICATION/Monitor/cpu_monitor.sv(215) @ 335000: uvm_test_top.env.agent.monitor [IF] PC=00000030  INSTR=00396833  [OR   x16, x18, x3]            
# UVM_INFO C:/Documents/DoAnThietKeViMach/Project/SoC/VERIFICATION/Monitor/cpu_monitor.sv(345) @ 375000: uvm_test_top.env.agent.monitor [AXI_RD] CPU‚?êDRAM  Addr=00000034 Data=bbe8cc93 RRESP=00
# UVM_INFO C:/Documents/DoAnThietKeViMach/Project/SoC/VERIFICATION/Monitor/cpu_monitor.sv(215) @ 375000: uvm_test_top.env.agent.monitor [IF] PC=00000034  INSTR=5070aa23  [SW   x7, 1287(x1)]            
# UVM_INFO C:/Documents/DoAnThietKeViMach/Project/SoC/VERIFICATION/Monitor/cpu_monitor.sv(345) @ 415000: uvm_test_top.env.agent.monitor [AXI_RD] CPU‚?êDRAM  Addr=00000038 Data=009c7db3 RRESP=00
# UVM_INFO C:/Documents/DoAnThietKeViMach/Project/SoC/VERIFICATION/Monitor/cpu_monitor.sv(215) @ 415000: uvm_test_top.env.agent.monitor [IF] PC=00000038  INSTR=bbe8cc93  [XORI x25, x17, -1090]            
# UVM_INFO C:/Documents/DoAnThietKeViMach/Project/SoC/VERIFICATION/Monitor/cpu_monitor.sv(277) @ 425000: uvm_test_top.env.agent.monitor [WB] x31 <= 0000037f  (PC~00000038)
# UVM_INFO C:/Documents/DoAnThietKeViMach/Project/SoC/VERIFICATION/Monitor/cpu_monitor.sv(277) @ 435000: uvm_test_top.env.agent.monitor [WB] x31 <= 0000037f  (PC~00000038)
# UVM_INFO C:/Documents/DoAnThietKeViMach/Project/SoC/VERIFICATION/Monitor/cpu_monitor.sv(277) @ 445000: uvm_test_top.env.agent.monitor [WB] x31 <= 0000037f  (PC~00000038)
# UVM_INFO C:/Documents/DoAnThietKeViMach/Project/SoC/VERIFICATION/Monitor/cpu_monitor.sv(345) @ 455000: uvm_test_top.env.agent.monitor [AXI_RD] CPU‚?êDRAM  Addr=0000003c Data=010222b3 RRESP=00
# UVM_INFO C:/Documents/DoAnThietKeViMach/Project/SoC/VERIFICATION/Monitor/cpu_monitor.sv(215) @ 455000: uvm_test_top.env.agent.monitor [IF] PC=0000003c  INSTR=009c7db3  [AND  x27, x24, x9]            
# UVM_INFO C:/Documents/DoAnThietKeViMach/Project/SoC/VERIFICATION/Monitor/cpu_monitor.sv(277) @ 455000: uvm_test_top.env.agent.monitor [WB] x31 <= 0000037f  (PC~0000003c)
# UVM_INFO C:/Documents/DoAnThietKeViMach/Project/SoC/VERIFICATION/Monitor/cpu_monitor.sv(249) @ 465000: uvm_test_top.env.agent.monitor [MEM] STORE Addr=10000514 Data=00000000
# UVM_INFO C:/Documents/DoAnThietKeViMach/Project/SoC/VERIFICATION/Monitor/cpu_monitor.sv(249) @ 475000: uvm_test_top.env.agent.monitor [MEM] STORE Addr=10000514 Data=00000000
# [DRAM WRITE] addr=10000514 data=00000000
# UVM_INFO C:/Documents/DoAnThietKeViMach/Project/SoC/VERIFICATION/Monitor/cpu_monitor.sv(249) @ 485000: uvm_test_top.env.agent.monitor [MEM] STORE Addr=10000514 Data=00000000
# UVM_INFO C:/Documents/DoAnThietKeViMach/Project/SoC/VERIFICATION/Monitor/cpu_monitor.sv(316) @ 495000: uvm_test_top.env.agent.monitor [AXI_WR] CPU‚??DRAM  Addr=10000514 Data=00000000 Strb=1111 BRESP=00
# UVM_INFO C:/Documents/DoAnThietKeViMach/Project/SoC/VERIFICATION/Monitor/cpu_monitor.sv(215) @ 495000: uvm_test_top.env.agent.monitor [IF] PC=00000040  INSTR=010222b3  [SLT  x5, x4, x16]            
# UVM_INFO C:/Documents/DoAnThietKeViMach/Project/SoC/VERIFICATION/Monitor/cpu_monitor.sv(249) @ 495000: uvm_test_top.env.agent.monitor [MEM] STORE Addr=10000514 Data=00000000
# UVM_INFO C:/Documents/DoAnThietKeViMach/Project/SoC/VERIFICATION/Monitor/cpu_monitor.sv(277) @ 495000: uvm_test_top.env.agent.monitor [WB] x16 <= 00000757  (PC~00000040)
# UVM_INFO C:/Documents/DoAnThietKeViMach/Project/SoC/VERIFICATION/Monitor/cpu_monitor.sv(345) @ 535000: uvm_test_top.env.agent.monitor [AXI_RD] CPU‚?êDRAM  Addr=00000044 Data=0d6eca13 RRESP=00
# UVM_INFO C:/Documents/DoAnThietKeViMach/Project/SoC/VERIFICATION/Monitor/cpu_monitor.sv(215) @ 535000: uvm_test_top.env.agent.monitor [IF] PC=00000044  INSTR=010222b3  [SLT  x5, x4, x16]            
# UVM_INFO C:/Documents/DoAnThietKeViMach/Project/SoC/VERIFICATION/Monitor/cpu_monitor.sv(277) @ 545000: uvm_test_top.env.agent.monitor [WB] x25 <= fffffbbe  (PC~00000044)
# UVM_INFO C:/Documents/DoAnThietKeViMach/Project/SoC/VERIFICATION/Monitor/cpu_monitor.sv(277) @ 555000: uvm_test_top.env.agent.monitor [WB] x25 <= fffffbbe  (PC~00000044)
# UVM_INFO C:/Documents/DoAnThietKeViMach/Project/SoC/VERIFICATION/Monitor/cpu_monitor.sv(277) @ 565000: uvm_test_top.env.agent.monitor [WB] x25 <= fffffbbe  (PC~00000044)
# UVM_INFO C:/Documents/DoAnThietKeViMach/Project/SoC/VERIFICATION/Monitor/cpu_monitor.sv(345) @ 575000: uvm_test_top.env.agent.monitor [AXI_RD] CPU‚?êDRAM  Addr=00000048 Data=46c0a283 RRESP=00
# UVM_INFO C:/Documents/DoAnThietKeViMach/Project/SoC/VERIFICATION/Monitor/cpu_monitor.sv(215) @ 575000: uvm_test_top.env.agent.monitor [IF] PC=00000048  INSTR=0d6eca13  [XORI x20, x29, 214]            
# UVM_INFO C:/Documents/DoAnThietKeViMach/Project/SoC/VERIFICATION/Monitor/cpu_monitor.sv(277) @ 575000: uvm_test_top.env.agent.monitor [WB] x25 <= fffffbbe  (PC~00000048)
# UVM_INFO C:/Documents/DoAnThietKeViMach/Project/SoC/VERIFICATION/Monitor/cpu_monitor.sv(277) @ 585000: uvm_test_top.env.agent.monitor [WB] x27 <= 00000000  (PC~00000048)
# UVM_INFO C:/Documents/DoAnThietKeViMach/Project/SoC/VERIFICATION/Monitor/cpu_monitor.sv(277) @ 595000: uvm_test_top.env.agent.monitor [WB] x27 <= 00000000  (PC~00000048)
# UVM_INFO C:/Documents/DoAnThietKeViMach/Project/SoC/VERIFICATION/Monitor/cpu_monitor.sv(277) @ 605000: uvm_test_top.env.agent.monitor [WB] x27 <= 00000000  (PC~00000048)
# UVM_INFO C:/Documents/DoAnThietKeViMach/Project/SoC/VERIFICATION/Monitor/cpu_monitor.sv(345) @ 615000: uvm_test_top.env.agent.monitor [AXI_RD] CPU‚?êDRAM  Addr=0000004c Data=2000a403 RRESP=00
# UVM_INFO C:/Documents/DoAnThietKeViMach/Project/SoC/VERIFICATION/Monitor/cpu_monitor.sv(215) @ 615000: uvm_test_top.env.agent.monitor [IF] PC=0000004c  INSTR=46c0a283  [LW   x5, 1132(x1)]            
# UVM_INFO C:/Documents/DoAnThietKeViMach/Project/SoC/VERIFICATION/Monitor/cpu_monitor.sv(277) @ 615000: uvm_test_top.env.agent.monitor [WB] x27 <= 00000000  (PC~0000004c)
# UVM_INFO C:/Documents/DoAnThietKeViMach/Project/SoC/VERIFICATION/Monitor/cpu_monitor.sv(277) @ 625000: uvm_test_top.env.agent.monitor [WB] x05 <= 00000001  (PC~0000004c)
# UVM_INFO C:/Documents/DoAnThietKeViMach/Project/SoC/VERIFICATION/Monitor/cpu_monitor.sv(277) @ 635000: uvm_test_top.env.agent.monitor [WB] x05 <= 00000001  (PC~0000004c)
# UVM_INFO C:/Documents/DoAnThietKeViMach/Project/SoC/VERIFICATION/Monitor/cpu_monitor.sv(277) @ 645000: uvm_test_top.env.agent.monitor [WB] x05 <= 00000001  (PC~0000004c)
# UVM_INFO C:/Documents/DoAnThietKeViMach/Project/SoC/VERIFICATION/Monitor/cpu_monitor.sv(345) @ 655000: uvm_test_top.env.agent.monitor [AXI_RD] CPU‚?êDRAM  Addr=00000050 Data=ff0b80e3 RRESP=00
# UVM_INFO C:/Documents/DoAnThietKeViMach/Project/SoC/VERIFICATION/Monitor/cpu_monitor.sv(215) @ 655000: uvm_test_top.env.agent.monitor [IF] PC=00000050  INSTR=2000a403  [LW   x8, 512(x1)]            
# UVM_INFO C:/Documents/DoAnThietKeViMach/Project/SoC/VERIFICATION/Monitor/cpu_monitor.sv(277) @ 655000: uvm_test_top.env.agent.monitor [WB] x05 <= 00000001  (PC~00000050)
# UVM_INFO C:/Documents/DoAnThietKeViMach/Project/SoC/VERIFICATION/Monitor/cpu_monitor.sv(277) @ 665000: uvm_test_top.env.agent.monitor [WB] x05 <= 00000001  (PC~00000050)
# UVM_INFO C:/Documents/DoAnThietKeViMach/Project/SoC/VERIFICATION/Monitor/cpu_monitor.sv(277) @ 675000: uvm_test_top.env.agent.monitor [WB] x05 <= 00000001  (PC~00000050)
# UVM_INFO C:/Documents/DoAnThietKeViMach/Project/SoC/VERIFICATION/Monitor/cpu_monitor.sv(277) @ 685000: uvm_test_top.env.agent.monitor [WB] x05 <= 00000001  (PC~00000050)
# UVM_INFO C:/Documents/DoAnThietKeViMach/Project/SoC/VERIFICATION/Monitor/cpu_monitor.sv(345) @ 695000: uvm_test_top.env.agent.monitor [AXI_RD] CPU‚?êDRAM  Addr=00000054 Data=014008ef RRESP=00
# UVM_INFO C:/Documents/DoAnThietKeViMach/Project/SoC/VERIFICATION/Monitor/cpu_monitor.sv(215) @ 695000: uvm_test_top.env.agent.monitor [IF] PC=00000054  INSTR=ff0b80e3  [BEQ  x23, x16, ...]            
# UVM_INFO C:/Documents/DoAnThietKeViMach/Project/SoC/VERIFICATION/Monitor/cpu_monitor.sv(277) @ 695000: uvm_test_top.env.agent.monitor [WB] x05 <= 00000001  (PC~00000054)
# [DRAM READ] addr=1000046c data=00000000
# UVM_INFO C:/Documents/DoAnThietKeViMach/Project/SoC/VERIFICATION/Monitor/cpu_monitor.sv(345) @ 735000: uvm_test_top.env.agent.monitor [AXI_RD] CPU‚?êDRAM  Addr=1000046c Data=00000000 RRESP=00
# UVM_INFO C:/Documents/DoAnThietKeViMach/Project/SoC/VERIFICATION/Monitor/cpu_monitor.sv(215) @ 735000: uvm_test_top.env.agent.monitor [IF] PC=00000058  INSTR=014008ef  [JAL  x17, ...]            
# UVM_INFO C:/Documents/DoAnThietKeViMach/Project/SoC/VERIFICATION/Monitor/cpu_monitor.sv(277) @ 735000: uvm_test_top.env.agent.monitor [WB] x20 <= 000000d6  (PC~00000058)
# [DRAM READ] addr=10000200 data=00000000
# UVM_INFO C:/Documents/DoAnThietKeViMach/Project/SoC/VERIFICATION/Monitor/cpu_monitor.sv(345) @ 775000: uvm_test_top.env.agent.monitor [AXI_RD] CPU‚?êDRAM  Addr=10000200 Data=00000000 RRESP=00
# UVM_INFO C:/Documents/DoAnThietKeViMach/Project/SoC/VERIFICATION/Monitor/cpu_monitor.sv(215) @ 775000: uvm_test_top.env.agent.monitor [IF] PC=0000005c  INSTR=014008ef  [JAL  x17, ...]            
# UVM_INFO C:/Documents/DoAnThietKeViMach/Project/SoC/VERIFICATION/Monitor/cpu_monitor.sv(277) @ 775000: uvm_test_top.env.agent.monitor [WB] x05 <= xxxxxxxx  (PC~0000005c)
# UVM_INFO C:/Documents/DoAnThietKeViMach/Project/SoC/VERIFICATION/Monitor/cpu_monitor.sv(277) @ 785000: uvm_test_top.env.agent.monitor [WB] x08 <= 00000000  (PC~0000005c)
# UVM_INFO C:/Documents/DoAnThietKeViMach/Project/SoC/VERIFICATION/Monitor/cpu_monitor.sv(277) @ 795000: uvm_test_top.env.agent.monitor [WB] x08 <= 00000000  (PC~0000005c)
# UVM_INFO C:/Documents/DoAnThietKeViMach/Project/SoC/VERIFICATION/Monitor/cpu_monitor.sv(277) @ 805000: uvm_test_top.env.agent.monitor [WB] x08 <= 00000000  (PC~0000005c)
# UVM_INFO C:/Documents/DoAnThietKeViMach/Project/SoC/VERIFICATION/Monitor/cpu_monitor.sv(345) @ 815000: uvm_test_top.env.agent.monitor [AXI_RD] CPU‚?êDRAM  Addr=00000060 Data=40ca04b3 RRESP=00
# UVM_INFO C:/Documents/DoAnThietKeViMach/Project/SoC/VERIFICATION/Monitor/cpu_monitor.sv(215) @ 815000: uvm_test_top.env.agent.monitor [IF] PC=00000060  INSTR=014008ef  [JAL  x17, ...]            
# UVM_INFO C:/Documents/DoAnThietKeViMach/Project/SoC/VERIFICATION/Monitor/cpu_monitor.sv(277) @ 815000: uvm_test_top.env.agent.monitor [WB] x08 <= 00000000  (PC~00000060)
# UVM_INFO C:/Documents/DoAnThietKeViMach/Project/SoC/VERIFICATION/Monitor/cpu_monitor.sv(345) @ 855000: uvm_test_top.env.agent.monitor [AXI_RD] CPU‚?êDRAM  Addr=0000006c Data=01854eb3 RRESP=00
# UVM_INFO C:/Documents/DoAnThietKeViMach/Project/SoC/VERIFICATION/Monitor/cpu_monitor.sv(215) @ 855000: uvm_test_top.env.agent.monitor [IF] PC=0000006c  INSTR=40ca04b3  [SUB  x9, x20, x12]            
# UVM_INFO C:/Documents/DoAnThietKeViMach/Project/SoC/VERIFICATION/Monitor/cpu_monitor.sv(277) @ 865000: uvm_test_top.env.agent.monitor [WB] x17 <= 0000005c  (PC~0000006c)
# UVM_INFO C:/Documents/DoAnThietKeViMach/Project/SoC/VERIFICATION/Monitor/cpu_monitor.sv(277) @ 875000: uvm_test_top.env.agent.monitor [WB] x17 <= 0000005c  (PC~0000006c)
# UVM_INFO C:/Documents/DoAnThietKeViMach/Project/SoC/VERIFICATION/Monitor/cpu_monitor.sv(277) @ 885000: uvm_test_top.env.agent.monitor [WB] x17 <= 0000005c  (PC~0000006c)
# UVM_INFO C:/Documents/DoAnThietKeViMach/Project/SoC/VERIFICATION/Monitor/cpu_monitor.sv(345) @ 895000: uvm_test_top.env.agent.monitor [AXI_RD] CPU‚?êDRAM  Addr=00000070 Data=eb2b6d13 RRESP=00
# UVM_INFO C:/Documents/DoAnThietKeViMach/Project/SoC/VERIFICATION/Monitor/cpu_monitor.sv(215) @ 895000: uvm_test_top.env.agent.monitor [IF] PC=00000070  INSTR=01854eb3  [XOR  x29, x10, x24]            
# UVM_INFO C:/Documents/DoAnThietKeViMach/Project/SoC/VERIFICATION/Monitor/cpu_monitor.sv(277) @ 895000: uvm_test_top.env.agent.monitor [WB] x17 <= 0000005c  (PC~00000070)
# UVM_INFO C:/Documents/DoAnThietKeViMach/Project/SoC/VERIFICATION/Monitor/cpu_monitor.sv(345) @ 935000: uvm_test_top.env.agent.monitor [AXI_RD] CPU‚?êDRAM  Addr=00000074 Data=fe5ff86f RRESP=00
# UVM_INFO C:/Documents/DoAnThietKeViMach/Project/SoC/VERIFICATION/Monitor/cpu_monitor.sv(215) @ 935000: uvm_test_top.env.agent.monitor [IF] PC=00000074  INSTR=eb2b6d13  [ORI  x26, x22, -334]            
# UVM_INFO C:/Documents/DoAnThietKeViMach/Project/SoC/VERIFICATION/Monitor/cpu_monitor.sv(345) @ 975000: uvm_test_top.env.agent.monitor [AXI_RD] CPU‚?êDRAM  Addr=00000078 Data=7f976a93 RRESP=00
# UVM_INFO C:/Documents/DoAnThietKeViMach/Project/SoC/VERIFICATION/Monitor/cpu_monitor.sv(215) @ 975000: uvm_test_top.env.agent.monitor [IF] PC=00000078  INSTR=fe5ff86f  [JAL  x16, ...]            
# UVM_INFO C:/Documents/DoAnThietKeViMach/Project/SoC/VERIFICATION/Monitor/cpu_monitor.sv(277) @ 985000: uvm_test_top.env.agent.monitor [WB] x09 <= 000000d6  (PC~00000078)
# UVM_INFO C:/Documents/DoAnThietKeViMach/Project/SoC/VERIFICATION/Monitor/cpu_monitor.sv(277) @ 995000: uvm_test_top.env.agent.monitor [WB] x09 <= 000000d6  (PC~00000078)
# UVM_INFO C:/Documents/DoAnThietKeViMach/Project/SoC/VERIFICATION/Monitor/cpu_monitor.sv(277) @ 1005000: uvm_test_top.env.agent.monitor [WB] x09 <= 000000d6  (PC~00000078)
# UVM_INFO C:/Documents/DoAnThietKeViMach/Project/SoC/VERIFICATION/Monitor/cpu_monitor.sv(345) @ 1015000: uvm_test_top.env.agent.monitor [AXI_RD] CPU‚?êDRAM  Addr=0000007c Data=5800a383 RRESP=00
# UVM_INFO C:/Documents/DoAnThietKeViMach/Project/SoC/VERIFICATION/Monitor/cpu_monitor.sv(215) @ 1015000: uvm_test_top.env.agent.monitor [IF] PC=0000007c  INSTR=7f976a93  [ORI  x21, x14, 2041]            
# UVM_INFO C:/Documents/DoAnThietKeViMach/Project/SoC/VERIFICATION/Monitor/cpu_monitor.sv(277) @ 1015000: uvm_test_top.env.agent.monitor [WB] x09 <= 000000d6  (PC~0000007c)
# UVM_INFO C:/Documents/DoAnThietKeViMach/Project/SoC/VERIFICATION/Monitor/cpu_monitor.sv(277) @ 1025000: uvm_test_top.env.agent.monitor [WB] x29 <= 00000000  (PC~0000007c)
# UVM_INFO C:/Documents/DoAnThietKeViMach/Project/SoC/VERIFICATION/Monitor/cpu_monitor.sv(277) @ 1035000: uvm_test_top.env.agent.monitor [WB] x29 <= 00000000  (PC~0000007c)
# UVM_INFO C:/Documents/DoAnThietKeViMach/Project/SoC/VERIFICATION/Monitor/cpu_monitor.sv(277) @ 1045000: uvm_test_top.env.agent.monitor [WB] x29 <= 00000000  (PC~0000007c)
# UVM_INFO C:/Documents/DoAnThietKeViMach/Project/SoC/VERIFICATION/Monitor/cpu_monitor.sv(345) @ 1055000: uvm_test_top.env.agent.monitor [AXI_RD] CPU‚?êDRAM  Addr=00000080 Data=9b3dfe93 RRESP=00
# UVM_INFO C:/Documents/DoAnThietKeViMach/Project/SoC/VERIFICATION/Monitor/cpu_monitor.sv(215) @ 1055000: uvm_test_top.env.agent.monitor [IF] PC=00000080  INSTR=5800a383  [LW   x7, 1408(x1)]            
# UVM_INFO C:/Documents/DoAnThietKeViMach/Project/SoC/VERIFICATION/Monitor/cpu_monitor.sv(277) @ 1055000: uvm_test_top.env.agent.monitor [WB] x29 <= 00000000  (PC~00000080)
# UVM_INFO C:/Documents/DoAnThietKeViMach/Project/SoC/VERIFICATION/Monitor/cpu_monitor.sv(277) @ 1065000: uvm_test_top.env.agent.monitor [WB] x26 <= fffffeb2  (PC~00000080)
# UVM_INFO C:/Documents/DoAnThietKeViMach/Project/SoC/VERIFICATION/Monitor/cpu_monitor.sv(277) @ 1075000: uvm_test_top.env.agent.monitor [WB] x26 <= fffffeb2  (PC~00000080)
# UVM_INFO C:/Documents/DoAnThietKeViMach/Project/SoC/VERIFICATION/Monitor/cpu_monitor.sv(277) @ 1085000: uvm_test_top.env.agent.monitor [WB] x26 <= fffffeb2  (PC~00000080)
# UVM_INFO C:/Documents/DoAnThietKeViMach/Project/SoC/VERIFICATION/Monitor/cpu_monitor.sv(345) @ 1095000: uvm_test_top.env.agent.monitor [AXI_RD] CPU‚?êDRAM  Addr=0000005c Data=414754b3 RRESP=00
# UVM_INFO C:/Documents/DoAnThietKeViMach/Project/SoC/VERIFICATION/Monitor/cpu_monitor.sv(215) @ 1095000: uvm_test_top.env.agent.monitor [IF] PC=0000005c  INSTR=9b3dfe93  [ANDI x29, x27, -1613]            
# UVM_INFO C:/Documents/DoAnThietKeViMach/Project/SoC/VERIFICATION/Monitor/cpu_monitor.sv(277) @ 1095000: uvm_test_top.env.agent.monitor [WB] x26 <= fffffeb2  (PC~0000005c)
# UVM_INFO C:/Documents/DoAnThietKeViMach/Project/SoC/VERIFICATION/Monitor/cpu_monitor.sv(277) @ 1105000: uvm_test_top.env.agent.monitor [WB] x16 <= 0000007c  (PC~0000005c)
# UVM_INFO C:/Documents/DoAnThietKeViMach/Project/SoC/VERIFICATION/Monitor/cpu_monitor.sv(277) @ 1115000: uvm_test_top.env.agent.monitor [WB] x16 <= 0000007c  (PC~0000005c)
# UVM_INFO C:/Documents/DoAnThietKeViMach/Project/SoC/VERIFICATION/Monitor/cpu_monitor.sv(277) @ 1125000: uvm_test_top.env.agent.monitor [WB] x16 <= 0000007c  (PC~0000005c)
# UVM_INFO C:/Documents/DoAnThietKeViMach/Project/SoC/VERIFICATION/Monitor/cpu_monitor.sv(345) @ 1135000: uvm_test_top.env.agent.monitor [AXI_RD] CPU‚?êDRAM  Addr=00000060 Data=40ca04b3 RRESP=00
# UVM_INFO C:/Documents/DoAnThietKeViMach/Project/SoC/VERIFICATION/Monitor/cpu_monitor.sv(215) @ 1135000: uvm_test_top.env.agent.monitor [IF] PC=00000060  INSTR=414754b3  [SRA  x9, x14, x20]            
# UVM_INFO C:/Documents/DoAnThietKeViMach/Project/SoC/VERIFICATION/Monitor/cpu_monitor.sv(277) @ 1135000: uvm_test_top.env.agent.monitor [WB] x16 <= 0000007c  (PC~00000060)
# UVM_INFO C:/Documents/DoAnThietKeViMach/Project/SoC/VERIFICATION/Monitor/cpu_monitor.sv(345) @ 1175000: uvm_test_top.env.agent.monitor [AXI_RD] CPU‚?êDRAM  Addr=00000064 Data=2830a623 RRESP=00
# UVM_INFO C:/Documents/DoAnThietKeViMach/Project/SoC/VERIFICATION/Monitor/cpu_monitor.sv(215) @ 1175000: uvm_test_top.env.agent.monitor [IF] PC=00000064  INSTR=40ca04b3  [SUB  x9, x20, x12]            
# UVM_INFO C:/Documents/DoAnThietKeViMach/Project/SoC/VERIFICATION/Monitor/cpu_monitor.sv(345) @ 1215000: uvm_test_top.env.agent.monitor [AXI_RD] CPU‚?êDRAM  Addr=00000068 Data=00d37d33 RRESP=00
# UVM_INFO C:/Documents/DoAnThietKeViMach/Project/SoC/VERIFICATION/Monitor/cpu_monitor.sv(215) @ 1215000: uvm_test_top.env.agent.monitor [IF] PC=00000068  INSTR=2830a623  [SW   x3, 643(x1)]            
# UVM_INFO C:/Documents/DoAnThietKeViMach/Project/SoC/VERIFICATION/Monitor/cpu_monitor.sv(277) @ 1225000: uvm_test_top.env.agent.monitor [WB] x29 <= 00000000  (PC~00000068)
# UVM_INFO C:/Documents/DoAnThietKeViMach/Project/SoC/VERIFICATION/Monitor/cpu_monitor.sv(277) @ 1235000: uvm_test_top.env.agent.monitor [WB] x29 <= 00000000  (PC~00000068)
# UVM_INFO C:/Documents/DoAnThietKeViMach/Project/SoC/VERIFICATION/Monitor/cpu_monitor.sv(277) @ 1245000: uvm_test_top.env.agent.monitor [WB] x29 <= 00000000  (PC~00000068)
# UVM_INFO C:/Documents/DoAnThietKeViMach/Project/SoC/VERIFICATION/Monitor/cpu_monitor.sv(345) @ 1255000: uvm_test_top.env.agent.monitor [AXI_RD] CPU‚?êDRAM  Addr=0000006c Data=01854eb3 RRESP=00
# UVM_INFO C:/Documents/DoAnThietKeViMach/Project/SoC/VERIFICATION/Monitor/cpu_monitor.sv(215) @ 1255000: uvm_test_top.env.agent.monitor [IF] PC=0000006c  INSTR=00d37d33  [AND  x26, x6, x13]            
# UVM_INFO C:/Documents/DoAnThietKeViMach/Project/SoC/VERIFICATION/Monitor/cpu_monitor.sv(277) @ 1255000: uvm_test_top.env.agent.monitor [WB] x29 <= 00000000  (PC~0000006c)
# UVM_INFO C:/Documents/DoAnThietKeViMach/Project/SoC/VERIFICATION/Monitor/cpu_monitor.sv(277) @ 1265000: uvm_test_top.env.agent.monitor [WB] x09 <= 00000000  (PC~0000006c)
# UVM_INFO C:/Documents/DoAnThietKeViMach/Project/SoC/VERIFICATION/Monitor/cpu_monitor.sv(277) @ 1275000: uvm_test_top.env.agent.monitor [WB] x09 <= 00000000  (PC~0000006c)
# UVM_INFO C:/Documents/DoAnThietKeViMach/Project/SoC/VERIFICATION/Monitor/cpu_monitor.sv(277) @ 1285000: uvm_test_top.env.agent.monitor [WB] x09 <= 00000000  (PC~0000006c)
# UVM_INFO C:/Documents/DoAnThietKeViMach/Project/SoC/VERIFICATION/Monitor/cpu_monitor.sv(345) @ 1295000: uvm_test_top.env.agent.monitor [AXI_RD] CPU‚?êDRAM  Addr=00000070 Data=eb2b6d13 RRESP=00
# UVM_INFO C:/Documents/DoAnThietKeViMach/Project/SoC/VERIFICATION/Monitor/cpu_monitor.sv(215) @ 1295000: uvm_test_top.env.agent.monitor [IF] PC=00000070  INSTR=01854eb3  [XOR  x29, x10, x24]            
# UVM_INFO C:/Documents/DoAnThietKeViMach/Project/SoC/VERIFICATION/Monitor/cpu_monitor.sv(277) @ 1295000: uvm_test_top.env.agent.monitor [WB] x09 <= 00000000  (PC~00000070)
# UVM_INFO C:/Documents/DoAnThietKeViMach/Project/SoC/VERIFICATION/Monitor/cpu_monitor.sv(249) @ 1305000: uvm_test_top.env.agent.monitor [MEM] STORE Addr=1000028c Data=00000000
# UVM_INFO C:/Documents/DoAnThietKeViMach/Project/SoC/VERIFICATION/Monitor/cpu_monitor.sv(249) @ 1315000: uvm_test_top.env.agent.monitor [MEM] STORE Addr=1000028c Data=00000000
# [DRAM WRITE] addr=1000028c data=00000000
# UVM_INFO C:/Documents/DoAnThietKeViMach/Project/SoC/VERIFICATION/Monitor/cpu_monitor.sv(249) @ 1325000: uvm_test_top.env.agent.monitor [MEM] STORE Addr=1000028c Data=00000000
# UVM_INFO C:/Documents/DoAnThietKeViMach/Project/SoC/VERIFICATION/Monitor/cpu_monitor.sv(316) @ 1335000: uvm_test_top.env.agent.monitor [AXI_WR] CPU‚??DRAM  Addr=1000028c Data=00000000 Strb=1111 BRESP=00
# UVM_INFO C:/Documents/DoAnThietKeViMach/Project/SoC/VERIFICATION/Monitor/cpu_monitor.sv(215) @ 1335000: uvm_test_top.env.agent.monitor [IF] PC=00000074  INSTR=eb2b6d13  [ORI  x26, x22, -334]            
# UVM_INFO C:/Documents/DoAnThietKeViMach/Project/SoC/VERIFICATION/Monitor/cpu_monitor.sv(249) @ 1335000: uvm_test_top.env.agent.monitor [MEM] STORE Addr=1000028c Data=00000000
# UVM_INFO C:/Documents/DoAnThietKeViMach/Project/SoC/VERIFICATION/Monitor/cpu_monitor.sv(277) @ 1335000: uvm_test_top.env.agent.monitor [WB] x09 <= 000000d6  (PC~00000074)
# UVM_INFO C:/Documents/DoAnThietKeViMach/Project/SoC/VERIFICATION/Monitor/cpu_monitor.sv(345) @ 1375000: uvm_test_top.env.agent.monitor [AXI_RD] CPU‚?êDRAM  Addr=00000078 Data=7f976a93 RRESP=00
# UVM_INFO C:/Documents/DoAnThietKeViMach/Project/SoC/VERIFICATION/Monitor/cpu_monitor.sv(215) @ 1375000: uvm_test_top.env.agent.monitor [IF] PC=00000078  INSTR=eb2b6d13  [ORI  x26, x22, -334]            
# UVM_INFO C:/Documents/DoAnThietKeViMach/Project/SoC/VERIFICATION/Monitor/cpu_monitor.sv(277) @ 1385000: uvm_test_top.env.agent.monitor [WB] x26 <= 00000000  (PC~00000078)
# UVM_INFO C:/Documents/DoAnThietKeViMach/Project/SoC/VERIFICATION/Monitor/cpu_monitor.sv(277) @ 1395000: uvm_test_top.env.agent.monitor [WB] x26 <= 00000000  (PC~00000078)
# UVM_INFO C:/Documents/DoAnThietKeViMach/Project/SoC/VERIFICATION/Monitor/cpu_monitor.sv(277) @ 1405000: uvm_test_top.env.agent.monitor [WB] x26 <= 00000000  (PC~00000078)
# UVM_INFO C:/Documents/DoAnThietKeViMach/Project/SoC/VERIFICATION/Monitor/cpu_monitor.sv(345) @ 1415000: uvm_test_top.env.agent.monitor [AXI_RD] CPU‚?êDRAM  Addr=0000007c Data=5800a383 RRESP=00
# UVM_INFO C:/Documents/DoAnThietKeViMach/Project/SoC/VERIFICATION/Monitor/cpu_monitor.sv(215) @ 1415000: uvm_test_top.env.agent.monitor [IF] PC=0000007c  INSTR=7f976a93  [ORI  x21, x14, 2041]            
# UVM_INFO C:/Documents/DoAnThietKeViMach/Project/SoC/VERIFICATION/Monitor/cpu_monitor.sv(277) @ 1415000: uvm_test_top.env.agent.monitor [WB] x26 <= 00000000  (PC~0000007c)
# UVM_INFO C:/Documents/DoAnThietKeViMach/Project/SoC/VERIFICATION/Monitor/cpu_monitor.sv(277) @ 1425000: uvm_test_top.env.agent.monitor [WB] x29 <= 00000000  (PC~0000007c)
# UVM_INFO C:/Documents/DoAnThietKeViMach/Project/SoC/VERIFICATION/Monitor/cpu_monitor.sv(277) @ 1435000: uvm_test_top.env.agent.monitor [WB] x29 <= 00000000  (PC~0000007c)
# UVM_INFO C:/Documents/DoAnThietKeViMach/Project/SoC/VERIFICATION/Monitor/cpu_monitor.sv(277) @ 1445000: uvm_test_top.env.agent.monitor [WB] x29 <= 00000000  (PC~0000007c)
# UVM_INFO C:/Documents/DoAnThietKeViMach/Project/SoC/VERIFICATION/Monitor/cpu_monitor.sv(345) @ 1455000: uvm_test_top.env.agent.monitor [AXI_RD] CPU‚?êDRAM  Addr=00000080 Data=9b3dfe93 RRESP=00
# UVM_INFO C:/Documents/DoAnThietKeViMach/Project/SoC/VERIFICATION/Monitor/cpu_monitor.sv(215) @ 1455000: uvm_test_top.env.agent.monitor [IF] PC=00000080  INSTR=5800a383  [LW   x7, 1408(x1)]            
# UVM_INFO C:/Documents/DoAnThietKeViMach/Project/SoC/VERIFICATION/Monitor/cpu_monitor.sv(277) @ 1455000: uvm_test_top.env.agent.monitor [WB] x29 <= 00000000  (PC~00000080)
# UVM_INFO C:/Documents/DoAnThietKeViMach/Project/SoC/VERIFICATION/Monitor/cpu_monitor.sv(277) @ 1465000: uvm_test_top.env.agent.monitor [WB] x26 <= fffffeb2  (PC~00000080)
# UVM_INFO C:/Documents/DoAnThietKeViMach/Project/SoC/VERIFICATION/Monitor/cpu_monitor.sv(277) @ 1475000: uvm_test_top.env.agent.monitor [WB] x26 <= fffffeb2  (PC~00000080)
# UVM_INFO C:/Documents/DoAnThietKeViMach/Project/SoC/VERIFICATION/Monitor/cpu_monitor.sv(277) @ 1485000: uvm_test_top.env.agent.monitor [WB] x26 <= fffffeb2  (PC~00000080)
# UVM_INFO C:/Documents/DoAnThietKeViMach/Project/SoC/VERIFICATION/Monitor/cpu_monitor.sv(345) @ 1495000: uvm_test_top.env.agent.monitor [AXI_RD] CPU‚?êDRAM  Addr=00000084 Data=59b0a023 RRESP=00
# UVM_INFO C:/Documents/DoAnThietKeViMach/Project/SoC/VERIFICATION/Monitor/cpu_monitor.sv(215) @ 1495000: uvm_test_top.env.agent.monitor [IF] PC=00000084  INSTR=9b3dfe93  [ANDI x29, x27, -1613]            
# UVM_INFO C:/Documents/DoAnThietKeViMach/Project/SoC/VERIFICATION/Monitor/cpu_monitor.sv(277) @ 1495000: uvm_test_top.env.agent.monitor [WB] x26 <= fffffeb2  (PC~00000084)
# UVM_INFO C:/Documents/DoAnThietKeViMach/Project/SoC/VERIFICATION/Monitor/cpu_monitor.sv(277) @ 1505000: uvm_test_top.env.agent.monitor [WB] x26 <= fffffeb2  (PC~00000084)
# UVM_INFO C:/Documents/DoAnThietKeViMach/Project/SoC/VERIFICATION/Monitor/cpu_monitor.sv(277) @ 1515000: uvm_test_top.env.agent.monitor [WB] x26 <= fffffeb2  (PC~00000084)
# UVM_INFO C:/Documents/DoAnThietKeViMach/Project/SoC/VERIFICATION/Monitor/cpu_monitor.sv(277) @ 1525000: uvm_test_top.env.agent.monitor [WB] x26 <= fffffeb2  (PC~00000084)
# UVM_INFO C:/Documents/DoAnThietKeViMach/Project/SoC/VERIFICATION/Monitor/cpu_monitor.sv(345) @ 1535000: uvm_test_top.env.agent.monitor [AXI_RD] CPU‚?êDRAM  Addr=00000088 Data=4270a423 RRESP=00
# UVM_INFO C:/Documents/DoAnThietKeViMach/Project/SoC/VERIFICATION/Monitor/cpu_monitor.sv(215) @ 1535000: uvm_test_top.env.agent.monitor [IF] PC=00000088  INSTR=59b0a023  [SW   x27, 1435(x1)]            
# UVM_INFO C:/Documents/DoAnThietKeViMach/Project/SoC/VERIFICATION/Monitor/cpu_monitor.sv(277) @ 1535000: uvm_test_top.env.agent.monitor [WB] x26 <= fffffeb2  (PC~00000088)
# [DRAM READ] addr=10000580 data=00000000
# UVM_INFO C:/Documents/DoAnThietKeViMach/Project/SoC/VERIFICATION/Monitor/cpu_monitor.sv(345) @ 1575000: uvm_test_top.env.agent.monitor [AXI_RD] CPU‚?êDRAM  Addr=10000580 Data=00000000 RRESP=00
# UVM_INFO C:/Documents/DoAnThietKeViMach/Project/SoC/VERIFICATION/Monitor/cpu_monitor.sv(215) @ 1575000: uvm_test_top.env.agent.monitor [IF] PC=0000008c  INSTR=4270a423  [SW   x7, 1063(x1)]            
# UVM_INFO C:/Documents/DoAnThietKeViMach/Project/SoC/VERIFICATION/Monitor/cpu_monitor.sv(277) @ 1575000: uvm_test_top.env.agent.monitor [WB] x21 <= 000007f9  (PC~0000008c)
# UVM_INFO C:/Documents/DoAnThietKeViMach/Project/SoC/VERIFICATION/Monitor/cpu_monitor.sv(277) @ 1585000: uvm_test_top.env.agent.monitor [WB] x07 <= 00000000  (PC~0000008c)
# UVM_INFO C:/Documents/DoAnThietKeViMach/Project/SoC/VERIFICATION/Monitor/cpu_monitor.sv(277) @ 1595000: uvm_test_top.env.agent.monitor [WB] x07 <= 00000000  (PC~0000008c)
# UVM_INFO C:/Documents/DoAnThietKeViMach/Project/SoC/VERIFICATION/Monitor/cpu_monitor.sv(277) @ 1605000: uvm_test_top.env.agent.monitor [WB] x07 <= 00000000  (PC~0000008c)
# UVM_INFO C:/Documents/DoAnThietKeViMach/Project/SoC/VERIFICATION/Monitor/cpu_monitor.sv(345) @ 1615000: uvm_test_top.env.agent.monitor [AXI_RD] CPU‚?êDRAM  Addr=00000090 Data=3600a583 RRESP=00
# UVM_INFO C:/Documents/DoAnThietKeViMach/Project/SoC/VERIFICATION/Monitor/cpu_monitor.sv(215) @ 1615000: uvm_test_top.env.agent.monitor [IF] PC=00000090  INSTR=4270a423  [SW   x7, 1063(x1)]            
# UVM_INFO C:/Documents/DoAnThietKeViMach/Project/SoC/VERIFICATION/Monitor/cpu_monitor.sv(277) @ 1615000: uvm_test_top.env.agent.monitor [WB] x07 <= 00000000  (PC~00000090)
# UVM_INFO C:/Documents/DoAnThietKeViMach/Project/SoC/VERIFICATION/Monitor/cpu_monitor.sv(249) @ 1625000: uvm_test_top.env.agent.monitor [MEM] STORE Addr=10000580 Data=00000000
# UVM_INFO C:/Documents/DoAnThietKeViMach/Project/SoC/VERIFICATION/Monitor/cpu_monitor.sv(249) @ 1635000: uvm_test_top.env.agent.monitor [MEM] STORE Addr=10000580 Data=00000000
# [DRAM WRITE] addr=10000580 data=00000000
# UVM_INFO C:/Documents/DoAnThietKeViMach/Project/SoC/VERIFICATION/Monitor/cpu_monitor.sv(249) @ 1645000: uvm_test_top.env.agent.monitor [MEM] STORE Addr=10000580 Data=00000000
# UVM_INFO C:/Documents/DoAnThietKeViMach/Project/SoC/VERIFICATION/Monitor/cpu_monitor.sv(316) @ 1655000: uvm_test_top.env.agent.monitor [AXI_WR] CPU‚??DRAM  Addr=10000580 Data=00000000 Strb=1111 BRESP=00
# UVM_INFO C:/Documents/DoAnThietKeViMach/Project/SoC/VERIFICATION/Monitor/cpu_monitor.sv(215) @ 1655000: uvm_test_top.env.agent.monitor [IF] PC=00000094  INSTR=3600a583  [LW   x11, 864(x1)]            
# UVM_INFO C:/Documents/DoAnThietKeViMach/Project/SoC/VERIFICATION/Monitor/cpu_monitor.sv(249) @ 1655000: uvm_test_top.env.agent.monitor [MEM] STORE Addr=10000580 Data=00000000
# UVM_INFO C:/Documents/DoAnThietKeViMach/Project/SoC/VERIFICATION/Monitor/cpu_monitor.sv(277) @ 1655000: uvm_test_top.env.agent.monitor [WB] x29 <= 00000000  (PC~00000094)
# UVM_INFO C:/Documents/DoAnThietKeViMach/Project/SoC/VERIFICATION/Monitor/cpu_monitor.sv(249) @ 1665000: uvm_test_top.env.agent.monitor [MEM] STORE Addr=10000428 Data=00000000
# UVM_INFO C:/Documents/DoAnThietKeViMach/Project/SoC/VERIFICATION/Monitor/cpu_monitor.sv(249) @ 1675000: uvm_test_top.env.agent.monitor [MEM] STORE Addr=10000428 Data=00000000
# [DRAM WRITE] addr=10000428 data=00000000
# UVM_INFO C:/Documents/DoAnThietKeViMach/Project/SoC/VERIFICATION/Monitor/cpu_monitor.sv(249) @ 1685000: uvm_test_top.env.agent.monitor [MEM] STORE Addr=10000428 Data=00000000
# UVM_INFO C:/Documents/DoAnThietKeViMach/Project/SoC/VERIFICATION/Monitor/cpu_monitor.sv(316) @ 1695000: uvm_test_top.env.agent.monitor [AXI_WR] CPU‚??DRAM  Addr=10000428 Data=00000000 Strb=1111 BRESP=00
# UVM_INFO C:/Documents/DoAnThietKeViMach/Project/SoC/VERIFICATION/Monitor/cpu_monitor.sv(215) @ 1695000: uvm_test_top.env.agent.monitor [IF] PC=00000098  INSTR=3600a583  [LW   x11, 864(x1)]            
# UVM_INFO C:/Documents/DoAnThietKeViMach/Project/SoC/VERIFICATION/Monitor/cpu_monitor.sv(249) @ 1695000: uvm_test_top.env.agent.monitor [MEM] STORE Addr=10000428 Data=00000000
# UVM_INFO C:/Documents/DoAnThietKeViMach/Project/SoC/VERIFICATION/Monitor/cpu_monitor.sv(249) @ 1705000: uvm_test_top.env.agent.monitor [MEM] STORE Addr=10000428 Data=00000000
# UVM_INFO C:/Documents/DoAnThietKeViMach/Project/SoC/VERIFICATION/Monitor/cpu_monitor.sv(249) @ 1715000: uvm_test_top.env.agent.monitor [MEM] STORE Addr=10000428 Data=00000000
# [DRAM WRITE] addr=10000428 data=00000000
# UVM_INFO C:/Documents/DoAnThietKeViMach/Project/SoC/VERIFICATION/Monitor/cpu_monitor.sv(249) @ 1725000: uvm_test_top.env.agent.monitor [MEM] STORE Addr=10000428 Data=00000000
# UVM_INFO C:/Documents/DoAnThietKeViMach/Project/SoC/VERIFICATION/Monitor/cpu_monitor.sv(316) @ 1735000: uvm_test_top.env.agent.monitor [AXI_WR] CPU‚??DRAM  Addr=10000428 Data=00000000 Strb=1111 BRESP=00
# UVM_INFO C:/Documents/DoAnThietKeViMach/Project/SoC/VERIFICATION/Monitor/cpu_monitor.sv(215) @ 1735000: uvm_test_top.env.agent.monitor [IF] PC=0000009c  INSTR=3600a583  [LW   x11, 864(x1)]            
# UVM_INFO C:/Documents/DoAnThietKeViMach/Project/SoC/VERIFICATION/Monitor/cpu_monitor.sv(249) @ 1735000: uvm_test_top.env.agent.monitor [MEM] STORE Addr=10000428 Data=00000000
# [DRAM READ] addr=10000360 data=00000000
# UVM_INFO C:/Documents/DoAnThietKeViMach/Project/SoC/VERIFICATION/Monitor/cpu_monitor.sv(345) @ 1775000: uvm_test_top.env.agent.monitor [AXI_RD] CPU‚?êDRAM  Addr=10000360 Data=00000000 RRESP=00
# UVM_INFO C:/Documents/DoAnThietKeViMach/Project/SoC/VERIFICATION/Monitor/cpu_monitor.sv(215) @ 1775000: uvm_test_top.env.agent.monitor [IF] PC=000000a0  INSTR=3600a583  [LW   x11, 864(x1)]            
# [DRAM READ] addr=10000360 data=00000000
# UVM_INFO C:/Documents/DoAnThietKeViMach/Project/SoC/VERIFICATION/Monitor/cpu_monitor.sv(345) @ 1815000: uvm_test_top.env.agent.monitor [AXI_RD] CPU‚?êDRAM  Addr=10000360 Data=00000000 RRESP=00
# UVM_INFO C:/Documents/DoAnThietKeViMach/Project/SoC/VERIFICATION/Monitor/cpu_monitor.sv(215) @ 1815000: uvm_test_top.env.agent.monitor [IF] PC=000000a4  INSTR=3600a583  [LW   x11, 864(x1)]            
# UVM_INFO C:/Documents/DoAnThietKeViMach/Project/SoC/VERIFICATION/Monitor/cpu_monitor.sv(277) @ 1815000: uvm_test_top.env.agent.monitor [WB] x11 <= 00000000  (PC~000000a4)
# [DRAM READ] addr=10000360 data=00000000
# UVM_INFO C:/Documents/DoAnThietKeViMach/Project/SoC/VERIFICATION/Monitor/cpu_monitor.sv(345) @ 1855000: uvm_test_top.env.agent.monitor [AXI_RD] CPU‚?êDRAM  Addr=10000360 Data=00000000 RRESP=00
# UVM_INFO C:/Documents/DoAnThietKeViMach/Project/SoC/VERIFICATION/Monitor/cpu_monitor.sv(215) @ 1855000: uvm_test_top.env.agent.monitor [IF] PC=000000a8  INSTR=3600a583  [LW   x11, 864(x1)]            
# UVM_INFO C:/Documents/DoAnThietKeViMach/Project/SoC/VERIFICATION/Monitor/cpu_monitor.sv(277) @ 1855000: uvm_test_top.env.agent.monitor [WB] x11 <= 00000000  (PC~000000a8)
# [DRAM READ] addr=10000360 data=00000000
# UVM_INFO C:/Documents/DoAnThietKeViMach/Project/SoC/VERIFICATION/Monitor/cpu_monitor.sv(345) @ 1895000: uvm_test_top.env.agent.monitor [AXI_RD] CPU‚?êDRAM  Addr=10000360 Data=00000000 RRESP=00
# UVM_INFO C:/Documents/DoAnThietKeViMach/Project/SoC/VERIFICATION/Monitor/cpu_monitor.sv(215) @ 1895000: uvm_test_top.env.agent.monitor [IF] PC=000000ac  INSTR=3600a583  [LW   x11, 864(x1)]            
# UVM_INFO C:/Documents/DoAnThietKeViMach/Project/SoC/VERIFICATION/Monitor/cpu_monitor.sv(277) @ 1895000: uvm_test_top.env.agent.monitor [WB] x11 <= 00000000  (PC~000000ac)
# [DRAM READ] addr=10000360 data=00000000
# UVM_INFO C:/Documents/DoAnThietKeViMach/Project/SoC/VERIFICATION/Monitor/cpu_monitor.sv(345) @ 1935000: uvm_test_top.env.agent.monitor [AXI_RD] CPU‚?êDRAM  Addr=10000360 Data=00000000 RRESP=00
# UVM_INFO C:/Documents/DoAnThietKeViMach/Project/SoC/VERIFICATION/Monitor/cpu_monitor.sv(215) @ 1935000: uvm_test_top.env.agent.monitor [IF] PC=000000b0  INSTR=3600a583  [LW   x11, 864(x1)]            
# UVM_INFO C:/Documents/DoAnThietKeViMach/Project/SoC/VERIFICATION/Monitor/cpu_monitor.sv(277) @ 1935000: uvm_test_top.env.agent.monitor [WB] x11 <= 00000000  (PC~000000b0)
# [DRAM READ] addr=10000360 data=00000000
# UVM_INFO C:/Documents/DoAnThietKeViMach/Project/SoC/VERIFICATION/Monitor/cpu_monitor.sv(345) @ 1975000: uvm_test_top.env.agent.monitor [AXI_RD] CPU‚?êDRAM  Addr=10000360 Data=00000000 RRESP=00
# UVM_INFO C:/Documents/DoAnThietKeViMach/Project/SoC/VERIFICATION/Monitor/cpu_monitor.sv(215) @ 1975000: uvm_test_top.env.agent.monitor [IF] PC=000000b4  INSTR=3600a583  [LW   x11, 864(x1)]            
# UVM_INFO C:/Documents/DoAnThietKeViMach/Project/SoC/VERIFICATION/Monitor/cpu_monitor.sv(277) @ 1975000: uvm_test_top.env.agent.monitor [WB] x11 <= 00000000  (PC~000000b4)
# [DRAM READ] addr=10000360 data=00000000
# UVM_INFO C:/Documents/DoAnThietKeViMach/Project/SoC/VERIFICATION/Monitor/cpu_monitor.sv(345) @ 2015000: uvm_test_top.env.agent.monitor [AXI_RD] CPU‚?êDRAM  Addr=10000360 Data=00000000 RRESP=00
# UVM_INFO C:/Documents/DoAnThietKeViMach/Project/SoC/VERIFICATION/Monitor/cpu_monitor.sv(215) @ 2015000: uvm_test_top.env.agent.monitor [IF] PC=000000b8  INSTR=3600a583  [LW   x11, 864(x1)]            
# UVM_INFO C:/Documents/DoAnThietKeViMach/Project/SoC/VERIFICATION/Monitor/cpu_monitor.sv(277) @ 2015000: uvm_test_top.env.agent.monitor [WB] x11 <= 00000000  (PC~000000b8)
# [DRAM READ] addr=10000360 data=00000000
# UVM_INFO C:/Documents/DoAnThietKeViMach/Project/SoC/VERIFICATION/Monitor/cpu_monitor.sv(345) @ 2055000: uvm_test_top.env.agent.monitor [AXI_RD] CPU‚?êDRAM  Addr=10000360 Data=00000000 RRESP=00
# UVM_INFO C:/Documents/DoAnThietKeViMach/Project/SoC/VERIFICATION/Monitor/cpu_monitor.sv(215) @ 2055000: uvm_test_top.env.agent.monitor [IF] PC=000000bc  INSTR=3600a583  [LW   x11, 864(x1)]            
# UVM_INFO C:/Documents/DoAnThietKeViMach/Project/SoC/VERIFICATION/Monitor/cpu_monitor.sv(277) @ 2055000: uvm_test_top.env.agent.monitor [WB] x11 <= 00000000  (PC~000000bc)
# [DRAM READ] addr=10000360 data=00000000
# UVM_INFO C:/Documents/DoAnThietKeViMach/Project/SoC/VERIFICATION/Monitor/cpu_monitor.sv(345) @ 2095000: uvm_test_top.env.agent.monitor [AXI_RD] CPU‚?êDRAM  Addr=10000360 Data=00000000 RRESP=00
# UVM_INFO C:/Documents/DoAnThietKeViMach/Project/SoC/VERIFICATION/Monitor/cpu_monitor.sv(215) @ 2095000: uvm_test_top.env.agent.monitor [IF] PC=000000c0  INSTR=3600a583  [LW   x11, 864(x1)]            
# UVM_INFO C:/Documents/DoAnThietKeViMach/Project/SoC/VERIFICATION/Monitor/cpu_monitor.sv(277) @ 2095000: uvm_test_top.env.agent.monitor [WB] x11 <= 00000000  (PC~000000c0)
# [DRAM READ] addr=10000360 data=00000000
# UVM_INFO C:/Documents/DoAnThietKeViMach/Project/SoC/VERIFICATION/Monitor/cpu_monitor.sv(345) @ 2135000: uvm_test_top.env.agent.monitor [AXI_RD] CPU‚?êDRAM  Addr=10000360 Data=00000000 RRESP=00
# UVM_INFO C:/Documents/DoAnThietKeViMach/Project/SoC/VERIFICATION/Monitor/cpu_monitor.sv(215) @ 2135000: uvm_test_top.env.agent.monitor [IF] PC=000000c4  INSTR=3600a583  [LW   x11, 864(x1)]            
# UVM_INFO C:/Documents/DoAnThietKeViMach/Project/SoC/VERIFICATION/Monitor/cpu_monitor.sv(277) @ 2135000: uvm_test_top.env.agent.monitor [WB] x11 <= 00000000  (PC~000000c4)
# [DRAM READ] addr=10000360 data=00000000
# UVM_INFO C:/Documents/DoAnThietKeViMach/Project/SoC/VERIFICATION/Monitor/cpu_monitor.sv(345) @ 2175000: uvm_test_top.env.agent.monitor [AXI_RD] CPU‚?êDRAM  Addr=10000360 Data=00000000 RRESP=00
# UVM_INFO C:/Documents/DoAnThietKeViMach/Project/SoC/VERIFICATION/Monitor/cpu_monitor.sv(215) @ 2175000: uvm_test_top.env.agent.monitor [IF] PC=000000c8  INSTR=3600a583  [LW   x11, 864(x1)]            
# UVM_INFO C:/Documents/DoAnThietKeViMach/Project/SoC/VERIFICATION/Monitor/cpu_monitor.sv(277) @ 2175000: uvm_test_top.env.agent.monitor [WB] x11 <= 00000000  (PC~000000c8)
# [DRAM READ] addr=10000360 data=00000000
# UVM_INFO C:/Documents/DoAnThietKeViMach/Project/SoC/VERIFICATION/Monitor/cpu_monitor.sv(345) @ 2215000: uvm_test_top.env.agent.monitor [AXI_RD] CPU‚?êDRAM  Addr=10000360 Data=00000000 RRESP=00
# UVM_INFO C:/Documents/DoAnThietKeViMach/Project/SoC/VERIFICATION/Monitor/cpu_monitor.sv(215) @ 2215000: uvm_test_top.env.agent.monitor [IF] PC=000000cc  INSTR=3600a583  [LW   x11, 864(x1)]            
# UVM_INFO C:/Documents/DoAnThietKeViMach/Project/SoC/VERIFICATION/Monitor/cpu_monitor.sv(277) @ 2215000: uvm_test_top.env.agent.monitor [WB] x11 <= 00000000  (PC~000000cc)
# [DRAM READ] addr=10000360 data=00000000
# UVM_INFO C:/Documents/DoAnThietKeViMach/Project/SoC/VERIFICATION/Monitor/cpu_monitor.sv(345) @ 2255000: uvm_test_top.env.agent.monitor [AXI_RD] CPU‚?êDRAM  Addr=10000360 Data=00000000 RRESP=00
# UVM_INFO C:/Documents/DoAnThietKeViMach/Project/SoC/VERIFICATION/Monitor/cpu_monitor.sv(215) @ 2255000: uvm_test_top.env.agent.monitor [IF] PC=000000d0  INSTR=3600a583  [LW   x11, 864(x1)]            
# UVM_INFO C:/Documents/DoAnThietKeViMach/Project/SoC/VERIFICATION/Monitor/cpu_monitor.sv(277) @ 2255000: uvm_test_top.env.agent.monitor [WB] x11 <= 00000000  (PC~000000d0)
# [DRAM READ] addr=10000360 data=00000000
# UVM_INFO C:/Documents/DoAnThietKeViMach/Project/SoC/VERIFICATION/Monitor/cpu_monitor.sv(345) @ 2295000: uvm_test_top.env.agent.monitor [AXI_RD] CPU‚?êDRAM  Addr=10000360 Data=00000000 RRESP=00
# UVM_INFO C:/Documents/DoAnThietKeViMach/Project/SoC/VERIFICATION/Monitor/cpu_monitor.sv(215) @ 2295000: uvm_test_top.env.agent.monitor [IF] PC=000000d4  INSTR=3600a583  [LW   x11, 864(x1)]            
# UVM_INFO C:/Documents/DoAnThietKeViMach/Project/SoC/VERIFICATION/Monitor/cpu_monitor.sv(277) @ 2295000: uvm_test_top.env.agent.monitor [WB] x11 <= 00000000  (PC~000000d4)
# [DRAM READ] addr=10000360 data=00000000
# UVM_INFO C:/Documents/DoAnThietKeViMach/Project/SoC/VERIFICATION/Monitor/cpu_monitor.sv(345) @ 2335000: uvm_test_top.env.agent.monitor [AXI_RD] CPU‚?êDRAM  Addr=10000360 Data=00000000 RRESP=00
# UVM_INFO C:/Documents/DoAnThietKeViMach/Project/SoC/VERIFICATION/Monitor/cpu_monitor.sv(215) @ 2335000: uvm_test_top.env.agent.monitor [IF] PC=000000d8  INSTR=3600a583  [LW   x11, 864(x1)]            
# UVM_INFO C:/Documents/DoAnThietKeViMach/Project/SoC/VERIFICATION/Monitor/cpu_monitor.sv(277) @ 2335000: uvm_test_top.env.agent.monitor [WB] x11 <= 00000000  (PC~000000d8)
# [DRAM READ] addr=10000360 data=00000000
# UVM_INFO C:/Documents/DoAnThietKeViMach/Project/SoC/VERIFICATION/Monitor/cpu_monitor.sv(345) @ 2375000: uvm_test_top.env.agent.monitor [AXI_RD] CPU‚?êDRAM  Addr=10000360 Data=00000000 RRESP=00
# UVM_INFO C:/Documents/DoAnThietKeViMach/Project/SoC/VERIFICATION/Monitor/cpu_monitor.sv(215) @ 2375000: uvm_test_top.env.agent.monitor [IF] PC=000000dc  INSTR=3600a583  [LW   x11, 864(x1)]            
# UVM_INFO C:/Documents/DoAnThietKeViMach/Project/SoC/VERIFICATION/Monitor/cpu_monitor.sv(277) @ 2375000: uvm_test_top.env.agent.monitor [WB] x11 <= 00000000  (PC~000000dc)
# [DRAM READ] addr=10000360 data=00000000
# UVM_INFO C:/Documents/DoAnThietKeViMach/Project/SoC/VERIFICATION/Monitor/cpu_monitor.sv(345) @ 2415000: uvm_test_top.env.agent.monitor [AXI_RD] CPU‚?êDRAM  Addr=10000360 Data=00000000 RRESP=00
# UVM_INFO C:/Documents/DoAnThietKeViMach/Project/SoC/VERIFICATION/Monitor/cpu_monitor.sv(215) @ 2415000: uvm_test_top.env.agent.monitor [IF] PC=000000e0  INSTR=3600a583  [LW   x11, 864(x1)]            
# UVM_INFO C:/Documents/DoAnThietKeViMach/Project/SoC/VERIFICATION/Monitor/cpu_monitor.sv(277) @ 2415000: uvm_test_top.env.agent.monitor [WB] x11 <= 00000000  (PC~000000e0)
# [DRAM READ] addr=10000360 data=00000000
# UVM_INFO C:/Documents/DoAnThietKeViMach/Project/SoC/VERIFICATION/Monitor/cpu_monitor.sv(345) @ 2455000: uvm_test_top.env.agent.monitor [AXI_RD] CPU‚?êDRAM  Addr=10000360 Data=00000000 RRESP=00
# UVM_INFO C:/Documents/DoAnThietKeViMach/Project/SoC/VERIFICATION/Monitor/cpu_monitor.sv(215) @ 2455000: uvm_test_top.env.agent.monitor [IF] PC=000000e4  INSTR=3600a583  [LW   x11, 864(x1)]            
# UVM_INFO C:/Documents/DoAnThietKeViMach/Project/SoC/VERIFICATION/Monitor/cpu_monitor.sv(277) @ 2455000: uvm_test_top.env.agent.monitor [WB] x11 <= 00000000  (PC~000000e4)
# [DRAM READ] addr=10000360 data=00000000
# UVM_INFO C:/Documents/DoAnThietKeViMach/Project/SoC/VERIFICATION/Monitor/cpu_monitor.sv(345) @ 2495000: uvm_test_top.env.agent.monitor [AXI_RD] CPU‚?êDRAM  Addr=10000360 Data=00000000 RRESP=00
# UVM_INFO C:/Documents/DoAnThietKeViMach/Project/SoC/VERIFICATION/Monitor/cpu_monitor.sv(215) @ 2495000: uvm_test_top.env.agent.monitor [IF] PC=000000e8  INSTR=3600a583  [LW   x11, 864(x1)]            
# UVM_INFO C:/Documents/DoAnThietKeViMach/Project/SoC/VERIFICATION/Monitor/cpu_monitor.sv(277) @ 2495000: uvm_test_top.env.agent.monitor [WB] x11 <= 00000000  (PC~000000e8)
# [DRAM READ] addr=10000360 data=00000000
# UVM_INFO C:/Documents/DoAnThietKeViMach/Project/SoC/VERIFICATION/Monitor/cpu_monitor.sv(345) @ 2535000: uvm_test_top.env.agent.monitor [AXI_RD] CPU‚?êDRAM  Addr=10000360 Data=00000000 RRESP=00
# UVM_INFO C:/Documents/DoAnThietKeViMach/Project/SoC/VERIFICATION/Monitor/cpu_monitor.sv(215) @ 2535000: uvm_test_top.env.agent.monitor [IF] PC=000000ec  INSTR=3600a583  [LW   x11, 864(x1)]            
# UVM_INFO C:/Documents/DoAnThietKeViMach/Project/SoC/VERIFICATION/Monitor/cpu_monitor.sv(277) @ 2535000: uvm_test_top.env.agent.monitor [WB] x11 <= 00000000  (PC~000000ec)
# [DRAM READ] addr=10000360 data=00000000
# UVM_INFO C:/Documents/DoAnThietKeViMach/Project/SoC/VERIFICATION/Monitor/cpu_monitor.sv(345) @ 2575000: uvm_test_top.env.agent.monitor [AXI_RD] CPU‚?êDRAM  Addr=10000360 Data=00000000 RRESP=00
# UVM_INFO C:/Documents/DoAnThietKeViMach/Project/SoC/VERIFICATION/Monitor/cpu_monitor.sv(215) @ 2575000: uvm_test_top.env.agent.monitor [IF] PC=000000f0  INSTR=3600a583  [LW   x11, 864(x1)]            
# UVM_INFO C:/Documents/DoAnThietKeViMach/Project/SoC/VERIFICATION/Monitor/cpu_monitor.sv(277) @ 2575000: uvm_test_top.env.agent.monitor [WB] x11 <= 00000000  (PC~000000f0)
# [DRAM READ] addr=10000360 data=00000000
# UVM_INFO C:/Documents/DoAnThietKeViMach/Project/SoC/VERIFICATION/Monitor/cpu_monitor.sv(345) @ 2615000: uvm_test_top.env.agent.monitor [AXI_RD] CPU‚?êDRAM  Addr=10000360 Data=00000000 RRESP=00
# UVM_INFO C:/Documents/DoAnThietKeViMach/Project/SoC/VERIFICATION/Monitor/cpu_monitor.sv(215) @ 2615000: uvm_test_top.env.agent.monitor [IF] PC=000000f4  INSTR=3600a583  [LW   x11, 864(x1)]            
# UVM_INFO C:/Documents/DoAnThietKeViMach/Project/SoC/VERIFICATION/Monitor/cpu_monitor.sv(277) @ 2615000: uvm_test_top.env.agent.monitor [WB] x11 <= 00000000  (PC~000000f4)
# [DRAM READ] addr=10000360 data=00000000
# UVM_INFO C:/Documents/DoAnThietKeViMach/Project/SoC/VERIFICATION/Monitor/cpu_monitor.sv(345) @ 2655000: uvm_test_top.env.agent.monitor [AXI_RD] CPU‚?êDRAM  Addr=10000360 Data=00000000 RRESP=00
# UVM_INFO C:/Documents/DoAnThietKeViMach/Project/SoC/VERIFICATION/Monitor/cpu_monitor.sv(215) @ 2655000: uvm_test_top.env.agent.monitor [IF] PC=000000f8  INSTR=3600a583  [LW   x11, 864(x1)]            
# UVM_INFO C:/Documents/DoAnThietKeViMach/Project/SoC/VERIFICATION/Monitor/cpu_monitor.sv(277) @ 2655000: uvm_test_top.env.agent.monitor [WB] x11 <= 00000000  (PC~000000f8)
# [DRAM READ] addr=10000360 data=00000000
# UVM_INFO C:/Documents/DoAnThietKeViMach/Project/SoC/VERIFICATION/Monitor/cpu_monitor.sv(345) @ 2695000: uvm_test_top.env.agent.monitor [AXI_RD] CPU‚?êDRAM  Addr=10000360 Data=00000000 RRESP=00
# UVM_INFO C:/Documents/DoAnThietKeViMach/Project/SoC/VERIFICATION/Monitor/cpu_monitor.sv(215) @ 2695000: uvm_test_top.env.agent.monitor [IF] PC=000000fc  INSTR=3600a583  [LW   x11, 864(x1)]            
# UVM_INFO C:/Documents/DoAnThietKeViMach/Project/SoC/VERIFICATION/Monitor/cpu_monitor.sv(277) @ 2695000: uvm_test_top.env.agent.monitor [WB] x11 <= 00000000  (PC~000000fc)
# [DRAM READ] addr=10000360 data=00000000
# UVM_INFO C:/Documents/DoAnThietKeViMach/Project/SoC/VERIFICATION/Monitor/cpu_monitor.sv(345) @ 2735000: uvm_test_top.env.agent.monitor [AXI_RD] CPU‚?êDRAM  Addr=10000360 Data=00000000 RRESP=00
# UVM_INFO C:/Documents/DoAnThietKeViMach/Project/SoC/VERIFICATION/Monitor/cpu_monitor.sv(215) @ 2735000: uvm_test_top.env.agent.monitor [IF] PC=00000100  INSTR=3600a583  [LW   x11, 864(x1)]            
# UVM_INFO C:/Documents/DoAnThietKeViMach/Project/SoC/VERIFICATION/Monitor/cpu_monitor.sv(277) @ 2735000: uvm_test_top.env.agent.monitor [WB] x11 <= 00000000  (PC~00000100)
# [DRAM READ] addr=10000360 data=00000000
# UVM_INFO C:/Documents/DoAnThietKeViMach/Project/SoC/VERIFICATION/Monitor/cpu_monitor.sv(345) @ 2775000: uvm_test_top.env.agent.monitor [AXI_RD] CPU‚?êDRAM  Addr=10000360 Data=00000000 RRESP=00
# UVM_INFO C:/Documents/DoAnThietKeViMach/Project/SoC/VERIFICATION/Monitor/cpu_monitor.sv(215) @ 2775000: uvm_test_top.env.agent.monitor [IF] PC=00000104  INSTR=3600a583  [LW   x11, 864(x1)]            
# UVM_INFO C:/Documents/DoAnThietKeViMach/Project/SoC/VERIFICATION/Monitor/cpu_monitor.sv(277) @ 2775000: uvm_test_top.env.agent.monitor [WB] x11 <= 00000000  (PC~00000104)
# [DRAM READ] addr=10000360 data=00000000
# UVM_INFO C:/Documents/DoAnThietKeViMach/Project/SoC/VERIFICATION/Monitor/cpu_monitor.sv(345) @ 2815000: uvm_test_top.env.agent.monitor [AXI_RD] CPU‚?êDRAM  Addr=10000360 Data=00000000 RRESP=00
# UVM_INFO C:/Documents/DoAnThietKeViMach/Project/SoC/VERIFICATION/Monitor/cpu_monitor.sv(215) @ 2815000: uvm_test_top.env.agent.monitor [IF] PC=00000108  INSTR=3600a583  [LW   x11, 864(x1)]            
# UVM_INFO C:/Documents/DoAnThietKeViMach/Project/SoC/VERIFICATION/Monitor/cpu_monitor.sv(277) @ 2815000: uvm_test_top.env.agent.monitor [WB] x11 <= 00000000  (PC~00000108)
# [DRAM READ] addr=10000360 data=00000000
# UVM_INFO C:/Documents/DoAnThietKeViMach/Project/SoC/VERIFICATION/Monitor/cpu_monitor.sv(345) @ 2855000: uvm_test_top.env.agent.monitor [AXI_RD] CPU‚?êDRAM  Addr=10000360 Data=00000000 RRESP=00
# UVM_INFO C:/Documents/DoAnThietKeViMach/Project/SoC/VERIFICATION/Monitor/cpu_monitor.sv(215) @ 2855000: uvm_test_top.env.agent.monitor [IF] PC=0000010c  INSTR=3600a583  [LW   x11, 864(x1)]            
# UVM_INFO C:/Documents/DoAnThietKeViMach/Project/SoC/VERIFICATION/Monitor/cpu_monitor.sv(277) @ 2855000: uvm_test_top.env.agent.monitor [WB] x11 <= 00000000  (PC~0000010c)
# [DRAM READ] addr=10000360 data=00000000
# UVM_INFO C:/Documents/DoAnThietKeViMach/Project/SoC/VERIFICATION/Monitor/cpu_monitor.sv(345) @ 2895000: uvm_test_top.env.agent.monitor [AXI_RD] CPU‚?êDRAM  Addr=10000360 Data=00000000 RRESP=00
# UVM_INFO C:/Documents/DoAnThietKeViMach/Project/SoC/VERIFICATION/Monitor/cpu_monitor.sv(215) @ 2895000: uvm_test_top.env.agent.monitor [IF] PC=00000110  INSTR=3600a583  [LW   x11, 864(x1)]            
# UVM_INFO C:/Documents/DoAnThietKeViMach/Project/SoC/VERIFICATION/Monitor/cpu_monitor.sv(277) @ 2895000: uvm_test_top.env.agent.monitor [WB] x11 <= 00000000  (PC~00000110)
# [DRAM READ] addr=10000360 data=00000000
# UVM_INFO C:/Documents/DoAnThietKeViMach/Project/SoC/VERIFICATION/Monitor/cpu_monitor.sv(345) @ 2935000: uvm_test_top.env.agent.monitor [AXI_RD] CPU‚?êDRAM  Addr=10000360 Data=00000000 RRESP=00
# UVM_INFO C:/Documents/DoAnThietKeViMach/Project/SoC/VERIFICATION/Monitor/cpu_monitor.sv(215) @ 2935000: uvm_test_top.env.agent.monitor [IF] PC=00000114  INSTR=3600a583  [LW   x11, 864(x1)]            
# UVM_INFO C:/Documents/DoAnThietKeViMach/Project/SoC/VERIFICATION/Monitor/cpu_monitor.sv(277) @ 2935000: uvm_test_top.env.agent.monitor [WB] x11 <= 00000000  (PC~00000114)
# [DRAM READ] addr=10000360 data=00000000
# UVM_INFO C:/Documents/DoAnThietKeViMach/Project/SoC/VERIFICATION/Monitor/cpu_monitor.sv(345) @ 2975000: uvm_test_top.env.agent.monitor [AXI_RD] CPU‚?êDRAM  Addr=10000360 Data=00000000 RRESP=00
# UVM_INFO C:/Documents/DoAnThietKeViMach/Project/SoC/VERIFICATION/Monitor/cpu_monitor.sv(215) @ 2975000: uvm_test_top.env.agent.monitor [IF] PC=00000118  INSTR=3600a583  [LW   x11, 864(x1)]            
# UVM_INFO C:/Documents/DoAnThietKeViMach/Project/SoC/VERIFICATION/Monitor/cpu_monitor.sv(277) @ 2975000: uvm_test_top.env.agent.monitor [WB] x11 <= 00000000  (PC~00000118)
# [DRAM READ] addr=10000360 data=00000000
# UVM_INFO C:/Documents/DoAnThietKeViMach/Project/SoC/VERIFICATION/Monitor/cpu_monitor.sv(345) @ 3015000: uvm_test_top.env.agent.monitor [AXI_RD] CPU‚?êDRAM  Addr=10000360 Data=00000000 RRESP=00
# UVM_INFO C:/Documents/DoAnThietKeViMach/Project/SoC/VERIFICATION/Monitor/cpu_monitor.sv(215) @ 3015000: uvm_test_top.env.agent.monitor [IF] PC=0000011c  INSTR=3600a583  [LW   x11, 864(x1)]            
# UVM_INFO C:/Documents/DoAnThietKeViMach/Project/SoC/VERIFICATION/Monitor/cpu_monitor.sv(277) @ 3015000: uvm_test_top.env.agent.monitor [WB] x11 <= 00000000  (PC~0000011c)
# [DRAM READ] addr=10000360 data=00000000
# UVM_INFO C:/Documents/DoAnThietKeViMach/Project/SoC/VERIFICATION/Monitor/cpu_monitor.sv(345) @ 3055000: uvm_test_top.env.agent.monitor [AXI_RD] CPU‚?êDRAM  Addr=10000360 Data=00000000 RRESP=00
# UVM_INFO C:/Documents/DoAnThietKeViMach/Project/SoC/VERIFICATION/Monitor/cpu_monitor.sv(215) @ 3055000: uvm_test_top.env.agent.monitor [IF] PC=00000120  INSTR=3600a583  [LW   x11, 864(x1)]            
# UVM_INFO C:/Documents/DoAnThietKeViMach/Project/SoC/VERIFICATION/Monitor/cpu_monitor.sv(277) @ 3055000: uvm_test_top.env.agent.monitor [WB] x11 <= 00000000  (PC~00000120)
# [DRAM READ] addr=10000360 data=00000000
# UVM_INFO C:/Documents/DoAnThietKeViMach/Project/SoC/VERIFICATION/Monitor/cpu_monitor.sv(345) @ 3095000: uvm_test_top.env.agent.monitor [AXI_RD] CPU‚?êDRAM  Addr=10000360 Data=00000000 RRESP=00
# UVM_INFO C:/Documents/DoAnThietKeViMach/Project/SoC/VERIFICATION/Monitor/cpu_monitor.sv(215) @ 3095000: uvm_test_top.env.agent.monitor [IF] PC=00000124  INSTR=3600a583  [LW   x11, 864(x1)]            
# UVM_INFO C:/Documents/DoAnThietKeViMach/Project/SoC/VERIFICATION/Monitor/cpu_monitor.sv(277) @ 3095000: uvm_test_top.env.agent.monitor [WB] x11 <= 00000000  (PC~00000124)
# [DRAM READ] addr=10000360 data=00000000
# UVM_INFO C:/Documents/DoAnThietKeViMach/Project/SoC/VERIFICATION/Monitor/cpu_monitor.sv(345) @ 3135000: uvm_test_top.env.agent.monitor [AXI_RD] CPU‚?êDRAM  Addr=10000360 Data=00000000 RRESP=00
# UVM_INFO C:/Documents/DoAnThietKeViMach/Project/SoC/VERIFICATION/Monitor/cpu_monitor.sv(215) @ 3135000: uvm_test_top.env.agent.monitor [IF] PC=00000128  INSTR=3600a583  [LW   x11, 864(x1)]            
# UVM_INFO C:/Documents/DoAnThietKeViMach/Project/SoC/VERIFICATION/Monitor/cpu_monitor.sv(277) @ 3135000: uvm_test_top.env.agent.monitor [WB] x11 <= 00000000  (PC~00000128)
# [DRAM READ] addr=10000360 data=00000000
# UVM_INFO C:/Documents/DoAnThietKeViMach/Project/SoC/VERIFICATION/Monitor/cpu_monitor.sv(345) @ 3175000: uvm_test_top.env.agent.monitor [AXI_RD] CPU‚?êDRAM  Addr=10000360 Data=00000000 RRESP=00
# UVM_INFO C:/Documents/DoAnThietKeViMach/Project/SoC/VERIFICATION/Monitor/cpu_monitor.sv(215) @ 3175000: uvm_test_top.env.agent.monitor [IF] PC=0000012c  INSTR=3600a583  [LW   x11, 864(x1)]            
# UVM_INFO C:/Documents/DoAnThietKeViMach/Project/SoC/VERIFICATION/Monitor/cpu_monitor.sv(277) @ 3175000: uvm_test_top.env.agent.monitor [WB] x11 <= 00000000  (PC~0000012c)
# [DRAM READ] addr=10000360 data=00000000
# UVM_INFO C:/Documents/DoAnThietKeViMach/Project/SoC/VERIFICATION/Monitor/cpu_monitor.sv(345) @ 3215000: uvm_test_top.env.agent.monitor [AXI_RD] CPU‚?êDRAM  Addr=10000360 Data=00000000 RRESP=00
# UVM_INFO C:/Documents/DoAnThietKeViMach/Project/SoC/VERIFICATION/Monitor/cpu_monitor.sv(215) @ 3215000: uvm_test_top.env.agent.monitor [IF] PC=00000130  INSTR=3600a583  [LW   x11, 864(x1)]            
# UVM_INFO C:/Documents/DoAnThietKeViMach/Project/SoC/VERIFICATION/Monitor/cpu_monitor.sv(277) @ 3215000: uvm_test_top.env.agent.monitor [WB] x11 <= 00000000  (PC~00000130)
# [DRAM READ] addr=10000360 data=00000000
# UVM_INFO C:/Documents/DoAnThietKeViMach/Project/SoC/VERIFICATION/Monitor/cpu_monitor.sv(345) @ 3255000: uvm_test_top.env.agent.monitor [AXI_RD] CPU‚?êDRAM  Addr=10000360 Data=00000000 RRESP=00
# UVM_INFO C:/Documents/DoAnThietKeViMach/Project/SoC/VERIFICATION/Monitor/cpu_monitor.sv(215) @ 3255000: uvm_test_top.env.agent.monitor [IF] PC=00000134  INSTR=3600a583  [LW   x11, 864(x1)]            
# UVM_INFO C:/Documents/DoAnThietKeViMach/Project/SoC/VERIFICATION/Monitor/cpu_monitor.sv(277) @ 3255000: uvm_test_top.env.agent.monitor [WB] x11 <= 00000000  (PC~00000134)
# [DRAM READ] addr=10000360 data=00000000
# UVM_INFO C:/Documents/DoAnThietKeViMach/Project/SoC/VERIFICATION/Monitor/cpu_monitor.sv(345) @ 3295000: uvm_test_top.env.agent.monitor [AXI_RD] CPU‚?êDRAM  Addr=10000360 Data=00000000 RRESP=00
# UVM_INFO C:/Documents/DoAnThietKeViMach/Project/SoC/VERIFICATION/Monitor/cpu_monitor.sv(215) @ 3295000: uvm_test_top.env.agent.monitor [IF] PC=00000138  INSTR=3600a583  [LW   x11, 864(x1)]            
# UVM_INFO C:/Documents/DoAnThietKeViMach/Project/SoC/VERIFICATION/Monitor/cpu_monitor.sv(277) @ 3295000: uvm_test_top.env.agent.monitor [WB] x11 <= 00000000  (PC~00000138)
# [DRAM READ] addr=10000360 data=00000000
# UVM_INFO C:/Documents/DoAnThietKeViMach/Project/SoC/VERIFICATION/Monitor/cpu_monitor.sv(345) @ 3335000: uvm_test_top.env.agent.monitor [AXI_RD] CPU‚?êDRAM  Addr=10000360 Data=00000000 RRESP=00
# UVM_INFO C:/Documents/DoAnThietKeViMach/Project/SoC/VERIFICATION/Monitor/cpu_monitor.sv(215) @ 3335000: uvm_test_top.env.agent.monitor [IF] PC=0000013c  INSTR=3600a583  [LW   x11, 864(x1)]            
# UVM_INFO C:/Documents/DoAnThietKeViMach/Project/SoC/VERIFICATION/Monitor/cpu_monitor.sv(277) @ 3335000: uvm_test_top.env.agent.monitor [WB] x11 <= 00000000  (PC~0000013c)
# [DRAM READ] addr=10000360 data=00000000
# UVM_INFO C:/Documents/DoAnThietKeViMach/Project/SoC/VERIFICATION/Monitor/cpu_monitor.sv(345) @ 3375000: uvm_test_top.env.agent.monitor [AXI_RD] CPU‚?êDRAM  Addr=10000360 Data=00000000 RRESP=00
# UVM_INFO C:/Documents/DoAnThietKeViMach/Project/SoC/VERIFICATION/Monitor/cpu_monitor.sv(215) @ 3375000: uvm_test_top.env.agent.monitor [IF] PC=00000140  INSTR=3600a583  [LW   x11, 864(x1)]            
# UVM_INFO C:/Documents/DoAnThietKeViMach/Project/SoC/VERIFICATION/Monitor/cpu_monitor.sv(277) @ 3375000: uvm_test_top.env.agent.monitor [WB] x11 <= 00000000  (PC~00000140)
# [DRAM READ] addr=10000360 data=00000000
# UVM_INFO C:/Documents/DoAnThietKeViMach/Project/SoC/VERIFICATION/Monitor/cpu_monitor.sv(345) @ 3415000: uvm_test_top.env.agent.monitor [AXI_RD] CPU‚?êDRAM  Addr=10000360 Data=00000000 RRESP=00
# UVM_INFO C:/Documents/DoAnThietKeViMach/Project/SoC/VERIFICATION/Monitor/cpu_monitor.sv(215) @ 3415000: uvm_test_top.env.agent.monitor [IF] PC=00000144  INSTR=3600a583  [LW   x11, 864(x1)]            
# UVM_INFO C:/Documents/DoAnThietKeViMach/Project/SoC/VERIFICATION/Monitor/cpu_monitor.sv(277) @ 3415000: uvm_test_top.env.agent.monitor [WB] x11 <= 00000000  (PC~00000144)
# [DRAM READ] addr=10000360 data=00000000
# UVM_INFO C:/Documents/DoAnThietKeViMach/Project/SoC/VERIFICATION/Monitor/cpu_monitor.sv(345) @ 3455000: uvm_test_top.env.agent.monitor [AXI_RD] CPU‚?êDRAM  Addr=10000360 Data=00000000 RRESP=00
# UVM_INFO C:/Documents/DoAnThietKeViMach/Project/SoC/VERIFICATION/Monitor/cpu_monitor.sv(215) @ 3455000: uvm_test_top.env.agent.monitor [IF] PC=00000148  INSTR=3600a583  [LW   x11, 864(x1)]            
# UVM_INFO C:/Documents/DoAnThietKeViMach/Project/SoC/VERIFICATION/Monitor/cpu_monitor.sv(277) @ 3455000: uvm_test_top.env.agent.monitor [WB] x11 <= 00000000  (PC~00000148)
# [DRAM READ] addr=10000360 data=00000000
# UVM_INFO C:/Documents/DoAnThietKeViMach/Project/SoC/VERIFICATION/Monitor/cpu_monitor.sv(345) @ 3495000: uvm_test_top.env.agent.monitor [AXI_RD] CPU‚?êDRAM  Addr=10000360 Data=00000000 RRESP=00
# UVM_INFO C:/Documents/DoAnThietKeViMach/Project/SoC/VERIFICATION/Monitor/cpu_monitor.sv(215) @ 3495000: uvm_test_top.env.agent.monitor [IF] PC=0000014c  INSTR=3600a583  [LW   x11, 864(x1)]            
# UVM_INFO C:/Documents/DoAnThietKeViMach/Project/SoC/VERIFICATION/Monitor/cpu_monitor.sv(277) @ 3495000: uvm_test_top.env.agent.monitor [WB] x11 <= 00000000  (PC~0000014c)
# [DRAM READ] addr=10000360 data=00000000
# UVM_INFO C:/Documents/DoAnThietKeViMach/Project/SoC/VERIFICATION/Monitor/cpu_monitor.sv(345) @ 3535000: uvm_test_top.env.agent.monitor [AXI_RD] CPU‚?êDRAM  Addr=10000360 Data=00000000 RRESP=00
# UVM_INFO C:/Documents/DoAnThietKeViMach/Project/SoC/VERIFICATION/Monitor/cpu_monitor.sv(215) @ 3535000: uvm_test_top.env.agent.monitor [IF] PC=00000150  INSTR=3600a583  [LW   x11, 864(x1)]            
# UVM_INFO C:/Documents/DoAnThietKeViMach/Project/SoC/VERIFICATION/Monitor/cpu_monitor.sv(277) @ 3535000: uvm_test_top.env.agent.monitor [WB] x11 <= 00000000  (PC~00000150)
# [DRAM READ] addr=10000360 data=00000000
# UVM_INFO C:/Documents/DoAnThietKeViMach/Project/SoC/VERIFICATION/Monitor/cpu_monitor.sv(345) @ 3575000: uvm_test_top.env.agent.monitor [AXI_RD] CPU‚?êDRAM  Addr=10000360 Data=00000000 RRESP=00
# UVM_INFO C:/Documents/DoAnThietKeViMach/Project/SoC/VERIFICATION/Monitor/cpu_monitor.sv(215) @ 3575000: uvm_test_top.env.agent.monitor [IF] PC=00000154  INSTR=3600a583  [LW   x11, 864(x1)]            
# UVM_INFO C:/Documents/DoAnThietKeViMach/Project/SoC/VERIFICATION/Monitor/cpu_monitor.sv(277) @ 3575000: uvm_test_top.env.agent.monitor [WB] x11 <= 00000000  (PC~00000154)
# [DRAM READ] addr=10000360 data=00000000
# UVM_INFO C:/Documents/DoAnThietKeViMach/Project/SoC/VERIFICATION/Monitor/cpu_monitor.sv(345) @ 3615000: uvm_test_top.env.agent.monitor [AXI_RD] CPU‚?êDRAM  Addr=10000360 Data=00000000 RRESP=00
# UVM_INFO C:/Documents/DoAnThietKeViMach/Project/SoC/VERIFICATION/Monitor/cpu_monitor.sv(215) @ 3615000: uvm_test_top.env.agent.monitor [IF] PC=00000158  INSTR=3600a583  [LW   x11, 864(x1)]            
# UVM_INFO C:/Documents/DoAnThietKeViMach/Project/SoC/VERIFICATION/Monitor/cpu_monitor.sv(277) @ 3615000: uvm_test_top.env.agent.monitor [WB] x11 <= 00000000  (PC~00000158)
# [DRAM READ] addr=10000360 data=00000000
# UVM_INFO C:/Documents/DoAnThietKeViMach/Project/SoC/VERIFICATION/Monitor/cpu_monitor.sv(345) @ 3655000: uvm_test_top.env.agent.monitor [AXI_RD] CPU‚?êDRAM  Addr=10000360 Data=00000000 RRESP=00
# UVM_INFO C:/Documents/DoAnThietKeViMach/Project/SoC/VERIFICATION/Monitor/cpu_monitor.sv(215) @ 3655000: uvm_test_top.env.agent.monitor [IF] PC=0000015c  INSTR=3600a583  [LW   x11, 864(x1)]            
# UVM_INFO C:/Documents/DoAnThietKeViMach/Project/SoC/VERIFICATION/Monitor/cpu_monitor.sv(277) @ 3655000: uvm_test_top.env.agent.monitor [WB] x11 <= 00000000  (PC~0000015c)
# [DRAM READ] addr=10000360 data=00000000
# UVM_INFO C:/Documents/DoAnThietKeViMach/Project/SoC/VERIFICATION/Monitor/cpu_monitor.sv(345) @ 3695000: uvm_test_top.env.agent.monitor [AXI_RD] CPU‚?êDRAM  Addr=10000360 Data=00000000 RRESP=00
# UVM_INFO C:/Documents/DoAnThietKeViMach/Project/SoC/VERIFICATION/Monitor/cpu_monitor.sv(215) @ 3695000: uvm_test_top.env.agent.monitor [IF] PC=00000160  INSTR=3600a583  [LW   x11, 864(x1)]            
# UVM_INFO C:/Documents/DoAnThietKeViMach/Project/SoC/VERIFICATION/Monitor/cpu_monitor.sv(277) @ 3695000: uvm_test_top.env.agent.monitor [WB] x11 <= 00000000  (PC~00000160)
# [DRAM READ] addr=10000360 data=00000000
# UVM_INFO C:/Documents/DoAnThietKeViMach/Project/SoC/VERIFICATION/Monitor/cpu_monitor.sv(345) @ 3735000: uvm_test_top.env.agent.monitor [AXI_RD] CPU‚?êDRAM  Addr=10000360 Data=00000000 RRESP=00
# UVM_INFO C:/Documents/DoAnThietKeViMach/Project/SoC/VERIFICATION/Monitor/cpu_monitor.sv(215) @ 3735000: uvm_test_top.env.agent.monitor [IF] PC=00000164  INSTR=3600a583  [LW   x11, 864(x1)]            
# UVM_INFO C:/Documents/DoAnThietKeViMach/Project/SoC/VERIFICATION/Monitor/cpu_monitor.sv(277) @ 3735000: uvm_test_top.env.agent.monitor [WB] x11 <= 00000000  (PC~00000164)
# [DRAM READ] addr=10000360 data=00000000
# UVM_INFO C:/Documents/DoAnThietKeViMach/Project/SoC/VERIFICATION/Monitor/cpu_monitor.sv(345) @ 3775000: uvm_test_top.env.agent.monitor [AXI_RD] CPU‚?êDRAM  Addr=10000360 Data=00000000 RRESP=00
# UVM_INFO C:/Documents/DoAnThietKeViMach/Project/SoC/VERIFICATION/Monitor/cpu_monitor.sv(215) @ 3775000: uvm_test_top.env.agent.monitor [IF] PC=00000168  INSTR=3600a583  [LW   x11, 864(x1)]            
# UVM_INFO C:/Documents/DoAnThietKeViMach/Project/SoC/VERIFICATION/Monitor/cpu_monitor.sv(277) @ 3775000: uvm_test_top.env.agent.monitor [WB] x11 <= 00000000  (PC~00000168)
# [DRAM READ] addr=10000360 data=00000000
# UVM_INFO C:/Documents/DoAnThietKeViMach/Project/SoC/VERIFICATION/Monitor/cpu_monitor.sv(345) @ 3815000: uvm_test_top.env.agent.monitor [AXI_RD] CPU‚?êDRAM  Addr=10000360 Data=00000000 RRESP=00
# UVM_INFO C:/Documents/DoAnThietKeViMach/Project/SoC/VERIFICATION/Monitor/cpu_monitor.sv(215) @ 3815000: uvm_test_top.env.agent.monitor [IF] PC=0000016c  INSTR=3600a583  [LW   x11, 864(x1)]            
# UVM_INFO C:/Documents/DoAnThietKeViMach/Project/SoC/VERIFICATION/Monitor/cpu_monitor.sv(277) @ 3815000: uvm_test_top.env.agent.monitor [WB] x11 <= 00000000  (PC~0000016c)
# [DRAM READ] addr=10000360 data=00000000
# UVM_INFO C:/Documents/DoAnThietKeViMach/Project/SoC/VERIFICATION/Monitor/cpu_monitor.sv(345) @ 3855000: uvm_test_top.env.agent.monitor [AXI_RD] CPU‚?êDRAM  Addr=10000360 Data=00000000 RRESP=00
# UVM_INFO C:/Documents/DoAnThietKeViMach/Project/SoC/VERIFICATION/Monitor/cpu_monitor.sv(215) @ 3855000: uvm_test_top.env.agent.monitor [IF] PC=00000170  INSTR=3600a583  [LW   x11, 864(x1)]            
# UVM_INFO C:/Documents/DoAnThietKeViMach/Project/SoC/VERIFICATION/Monitor/cpu_monitor.sv(277) @ 3855000: uvm_test_top.env.agent.monitor [WB] x11 <= 00000000  (PC~00000170)
# [DRAM READ] addr=10000360 data=00000000
# UVM_INFO C:/Documents/DoAnThietKeViMach/Project/SoC/VERIFICATION/Monitor/cpu_monitor.sv(345) @ 3895000: uvm_test_top.env.agent.monitor [AXI_RD] CPU‚?êDRAM  Addr=10000360 Data=00000000 RRESP=00
# UVM_INFO C:/Documents/DoAnThietKeViMach/Project/SoC/VERIFICATION/Monitor/cpu_monitor.sv(215) @ 3895000: uvm_test_top.env.agent.monitor [IF] PC=00000174  INSTR=3600a583  [LW   x11, 864(x1)]            
# UVM_INFO C:/Documents/DoAnThietKeViMach/Project/SoC/VERIFICATION/Monitor/cpu_monitor.sv(277) @ 3895000: uvm_test_top.env.agent.monitor [WB] x11 <= 00000000  (PC~00000174)
# [DRAM READ] addr=10000360 data=00000000
# UVM_INFO C:/Documents/DoAnThietKeViMach/Project/SoC/VERIFICATION/Monitor/cpu_monitor.sv(345) @ 3935000: uvm_test_top.env.agent.monitor [AXI_RD] CPU‚?êDRAM  Addr=10000360 Data=00000000 RRESP=00
# UVM_INFO C:/Documents/DoAnThietKeViMach/Project/SoC/VERIFICATION/Monitor/cpu_monitor.sv(215) @ 3935000: uvm_test_top.env.agent.monitor [IF] PC=00000178  INSTR=3600a583  [LW   x11, 864(x1)]            
# UVM_INFO C:/Documents/DoAnThietKeViMach/Project/SoC/VERIFICATION/Monitor/cpu_monitor.sv(277) @ 3935000: uvm_test_top.env.agent.monitor [WB] x11 <= 00000000  (PC~00000178)
# [DRAM READ] addr=10000360 data=00000000
# UVM_INFO C:/Documents/DoAnThietKeViMach/Project/SoC/VERIFICATION/Monitor/cpu_monitor.sv(345) @ 3975000: uvm_test_top.env.agent.monitor [AXI_RD] CPU‚?êDRAM  Addr=10000360 Data=00000000 RRESP=00
# UVM_INFO C:/Documents/DoAnThietKeViMach/Project/SoC/VERIFICATION/Monitor/cpu_monitor.sv(215) @ 3975000: uvm_test_top.env.agent.monitor [IF] PC=0000017c  INSTR=3600a583  [LW   x11, 864(x1)]            
# UVM_INFO C:/Documents/DoAnThietKeViMach/Project/SoC/VERIFICATION/Monitor/cpu_monitor.sv(277) @ 3975000: uvm_test_top.env.agent.monitor [WB] x11 <= 00000000  (PC~0000017c)
# [DRAM READ] addr=10000360 data=00000000
# UVM_INFO C:/Documents/DoAnThietKeViMach/Project/SoC/VERIFICATION/Monitor/cpu_monitor.sv(345) @ 4015000: uvm_test_top.env.agent.monitor [AXI_RD] CPU‚?êDRAM  Addr=10000360 Data=00000000 RRESP=00
# UVM_INFO C:/Documents/DoAnThietKeViMach/Project/SoC/VERIFICATION/Monitor/cpu_monitor.sv(215) @ 4015000: uvm_test_top.env.agent.monitor [IF] PC=00000180  INSTR=3600a583  [LW   x11, 864(x1)]            
# UVM_INFO C:/Documents/DoAnThietKeViMach/Project/SoC/VERIFICATION/Monitor/cpu_monitor.sv(277) @ 4015000: uvm_test_top.env.agent.monitor [WB] x11 <= 00000000  (PC~00000180)
# [DRAM READ] addr=10000360 data=00000000
# UVM_INFO C:/Documents/DoAnThietKeViMach/Project/SoC/VERIFICATION/Monitor/cpu_monitor.sv(345) @ 4055000: uvm_test_top.env.agent.monitor [AXI_RD] CPU‚?êDRAM  Addr=10000360 Data=00000000 RRESP=00
# UVM_INFO C:/Documents/DoAnThietKeViMach/Project/SoC/VERIFICATION/Monitor/cpu_monitor.sv(215) @ 4055000: uvm_test_top.env.agent.monitor [IF] PC=00000184  INSTR=3600a583  [LW   x11, 864(x1)]            
# UVM_INFO C:/Documents/DoAnThietKeViMach/Project/SoC/VERIFICATION/Monitor/cpu_monitor.sv(277) @ 4055000: uvm_test_top.env.agent.monitor [WB] x11 <= 00000000  (PC~00000184)
# [DRAM READ] addr=10000360 data=00000000
# UVM_INFO C:/Documents/DoAnThietKeViMach/Project/SoC/VERIFICATION/Monitor/cpu_monitor.sv(345) @ 4095000: uvm_test_top.env.agent.monitor [AXI_RD] CPU‚?êDRAM  Addr=10000360 Data=00000000 RRESP=00
# UVM_INFO C:/Documents/DoAnThietKeViMach/Project/SoC/VERIFICATION/Monitor/cpu_monitor.sv(215) @ 4095000: uvm_test_top.env.agent.monitor [IF] PC=00000188  INSTR=3600a583  [LW   x11, 864(x1)]            
# UVM_INFO C:/Documents/DoAnThietKeViMach/Project/SoC/VERIFICATION/Monitor/cpu_monitor.sv(277) @ 4095000: uvm_test_top.env.agent.monitor [WB] x11 <= 00000000  (PC~00000188)
# [DRAM READ] addr=10000360 data=00000000
# UVM_INFO C:/Documents/DoAnThietKeViMach/Project/SoC/VERIFICATION/Monitor/cpu_monitor.sv(345) @ 4135000: uvm_test_top.env.agent.monitor [AXI_RD] CPU‚?êDRAM  Addr=10000360 Data=00000000 RRESP=00
# UVM_INFO C:/Documents/DoAnThietKeViMach/Project/SoC/VERIFICATION/Monitor/cpu_monitor.sv(215) @ 4135000: uvm_test_top.env.agent.monitor [IF] PC=0000018c  INSTR=3600a583  [LW   x11, 864(x1)]            
# UVM_INFO C:/Documents/DoAnThietKeViMach/Project/SoC/VERIFICATION/Monitor/cpu_monitor.sv(277) @ 4135000: uvm_test_top.env.agent.monitor [WB] x11 <= 00000000  (PC~0000018c)
# [DRAM READ] addr=10000360 data=00000000
# UVM_INFO C:/Documents/DoAnThietKeViMach/Project/SoC/VERIFICATION/Monitor/cpu_monitor.sv(345) @ 4175000: uvm_test_top.env.agent.monitor [AXI_RD] CPU‚?êDRAM  Addr=10000360 Data=00000000 RRESP=00
# UVM_INFO C:/Documents/DoAnThietKeViMach/Project/SoC/VERIFICATION/Monitor/cpu_monitor.sv(215) @ 4175000: uvm_test_top.env.agent.monitor [IF] PC=00000190  INSTR=3600a583  [LW   x11, 864(x1)]            
# UVM_INFO C:/Documents/DoAnThietKeViMach/Project/SoC/VERIFICATION/Monitor/cpu_monitor.sv(277) @ 4175000: uvm_test_top.env.agent.monitor [WB] x11 <= 00000000  (PC~00000190)
# UVM_INFO C:/Documents/DoAnThietKeViMach/Project/SoC/VERIFICATION/Test/cpu_test.sv(74) @ 4195000: uvm_test_top [TEST] PC=00000194 reached end of program ‚?? stopping
# [DRAM READ] addr=10000360 data=00000000
# UVM_INFO C:/Documents/DoAnThietKeViMach/Project/SoC/VERIFICATION/Monitor/cpu_monitor.sv(345) @ 4215000: uvm_test_top.env.agent.monitor [AXI_RD] CPU‚?êDRAM  Addr=10000360 Data=00000000 RRESP=00
# UVM_INFO C:/Documents/DoAnThietKeViMach/Project/SoC/VERIFICATION/Monitor/cpu_monitor.sv(215) @ 4215000: uvm_test_top.env.agent.monitor [IF] PC=00000194  INSTR=3600a583  [LW   x11, 864(x1)]            
# UVM_INFO C:/Documents/DoAnThietKeViMach/Project/SoC/VERIFICATION/Monitor/cpu_monitor.sv(277) @ 4215000: uvm_test_top.env.agent.monitor [WB] x11 <= 00000000  (PC~00000194)
# [DRAM READ] addr=10000360 data=00000000
# UVM_INFO C:/Documents/DoAnThietKeViMach/Project/SoC/VERIFICATION/Monitor/cpu_monitor.sv(345) @ 4255000: uvm_test_top.env.agent.monitor [AXI_RD] CPU‚?êDRAM  Addr=10000360 Data=00000000 RRESP=00
# UVM_INFO C:/Documents/DoAnThietKeViMach/Project/SoC/VERIFICATION/Monitor/cpu_monitor.sv(215) @ 4255000: uvm_test_top.env.agent.monitor [IF] PC=00000198  INSTR=3600a583  [LW   x11, 864(x1)]            
# UVM_INFO C:/Documents/DoAnThietKeViMach/Project/SoC/VERIFICATION/Monitor/cpu_monitor.sv(277) @ 4255000: uvm_test_top.env.agent.monitor [WB] x11 <= 00000000  (PC~00000198)
# [DRAM READ] addr=10000360 data=00000000
# UVM_INFO verilog_src/uvm-1.1d/src/base/uvm_objection.svh(1268) @ 4295000: reporter [TEST_DONE] 'run' phase is ready to proceed to the 'extract' phase
# UVM_INFO C:/Documents/DoAnThietKeViMach/Project/SoC/VERIFICATION/Scoreboard/cpu_scoreboard.sv(157) @ 4295000: uvm_test_top.env.scoreboard [SCB] 
# UVM_INFO C:/Documents/DoAnThietKeViMach/Project/SoC/VERIFICATION/Scoreboard/cpu_scoreboard.sv(160) @ 4295000: uvm_test_top.env.scoreboard [SCB] ‚??‚?ê‚?ê‚?ê‚?ê‚?ê‚?ê‚?ê‚?ê‚?ê‚?ê‚?ê‚?ê‚?ê‚?ê‚?ê‚?ê‚?ê‚?ê‚?ê‚?ê‚?ê‚?ê‚?ê‚?ê‚?ê‚?ê‚?ê‚?ê‚?ê‚?ê‚?ê‚?ê‚?ê‚?ê‚?ê‚?ê‚?ê‚?ê‚?ê‚?ê‚?ê‚?ê‚?ê‚?ê‚?ê‚?ê‚?ê‚?ê‚?ê‚?ê‚?ê‚?ê‚?ê‚?ê‚?ê‚?ê‚?ê‚?ê‚?ê‚?ê‚?ê‚?ê‚??
# UVM_INFO C:/Documents/DoAnThietKeViMach/Project/SoC/VERIFICATION/Scoreboard/cpu_scoreboard.sv(163) @ 4295000: uvm_test_top.env.scoreboard [SCB] ‚??            CPU REGISTER FILE ‚?? FINAL RESULT                 ‚??
# UVM_INFO C:/Documents/DoAnThietKeViMach/Project/SoC/VERIFICATION/Scoreboard/cpu_scoreboard.sv(166) @ 4295000: uvm_test_top.env.scoreboard [SCB] ‚?†‚?ê‚?ê‚?ê‚?ê‚?ê‚?ê‚?ê‚?¶‚?ê‚?ê‚?ê‚?ê‚?ê‚?ê‚?ê‚?ê‚?ê‚?ê‚?ê‚?ê‚?ê‚?ê‚?¶‚?ê‚?ê‚?ê‚?ê‚?ê‚?ê‚?ê‚?ê‚?ê‚?ê‚?ê‚?ê‚?ê‚?ê‚?¶‚?ê‚?ê‚?ê‚?ê‚?ê‚?ê‚?ê‚?ê‚?¶‚?ê‚?ê‚?ê‚?ê‚?ê‚?ê‚?ê‚?ê‚?ê‚?ê‚?ê‚?ê‚?ê‚?ê‚?£
# UVM_INFO C:/Documents/DoAnThietKeViMach/Project/SoC/VERIFICATION/Scoreboard/cpu_scoreboard.sv(169) @ 4295000: uvm_test_top.env.scoreboard [SCB] ‚??  REG  ‚??   EXPECTED   ‚??    ACTUAL    ‚?? MATCH  ‚??    STATUS    ‚??
# UVM_INFO C:/Documents/DoAnThietKeViMach/Project/SoC/VERIFICATION/Scoreboard/cpu_scoreboard.sv(172) @ 4295000: uvm_test_top.env.scoreboard [SCB] ‚?†‚?ê‚?ê‚?ê‚?ê‚?ê‚?ê‚?ê‚?¨‚?ê‚?ê‚?ê‚?ê‚?ê‚?ê‚?ê‚?ê‚?ê‚?ê‚?ê‚?ê‚?ê‚?ê‚?¨‚?ê‚?ê‚?ê‚?ê‚?ê‚?ê‚?ê‚?ê‚?ê‚?ê‚?ê‚?ê‚?ê‚?ê‚?¨‚?ê‚?ê‚?ê‚?ê‚?ê‚?ê‚?ê‚?ê‚?¨‚?ê‚?ê‚?ê‚?ê‚?ê‚?ê‚?ê‚?ê‚?ê‚?ê‚?ê‚?ê‚?ê‚?ê‚?£
# UVM_INFO C:/Documents/DoAnThietKeViMach/Project/SoC/VERIFICATION/Scoreboard/cpu_scoreboard.sv(209) @ 4295000: uvm_test_top.env.scoreboard [SCB] ‚??  x00  ‚??  00000000  ‚??  00000000  ‚??  ‚??   ‚??  PASS          ‚??
# UVM_INFO C:/Documents/DoAnThietKeViMach/Project/SoC/VERIFICATION/Scoreboard/cpu_scoreboard.sv(209) @ 4295000: uvm_test_top.env.scoreboard [SCB] ‚??  x01  ‚??  10000000  ‚??  10000000  ‚??  ‚??   ‚??  PASS          ‚??
# UVM_INFO C:/Documents/DoAnThietKeViMach/Project/SoC/VERIFICATION/Scoreboard/cpu_scoreboard.sv(209) @ 4295000: uvm_test_top.env.scoreboard [SCB] ‚??  x02  ‚??  00000000  ‚??  00000000  ‚??  ‚??   ‚??  PASS          ‚??
# UVM_INFO C:/Documents/DoAnThietKeViMach/Project/SoC/VERIFICATION/Scoreboard/cpu_scoreboard.sv(209) @ 4295000: uvm_test_top.env.scoreboard [SCB] ‚??  x03  ‚??  00000000  ‚??  00000000  ‚??  ‚??   ‚??  PASS          ‚??
# UVM_INFO C:/Documents/DoAnThietKeViMach/Project/SoC/VERIFICATION/Scoreboard/cpu_scoreboard.sv(209) @ 4295000: uvm_test_top.env.scoreboard [SCB] ‚??  x04  ‚??  00000000  ‚??  00000000  ‚??  ‚??   ‚??  PASS          ‚??
# UVM_INFO C:/Documents/DoAnThietKeViMach/Project/SoC/VERIFICATION/Scoreboard/cpu_scoreboard.sv(209) @ 4295000: uvm_test_top.env.scoreboard [SCB] ‚??  x05  ‚??  00000000  ‚??  xxxxxxxx  ‚??  ‚??   ‚??  FAIL (diff=xxxxxxxx)  ‚??
# UVM_INFO C:/Documents/DoAnThietKeViMach/Project/SoC/VERIFICATION/Scoreboard/cpu_scoreboard.sv(209) @ 4295000: uvm_test_top.env.scoreboard [SCB] ‚??  x06  ‚??  00000000  ‚??  00000000  ‚??  ‚??   ‚??  PASS          ‚??
# UVM_INFO C:/Documents/DoAnThietKeViMach/Project/SoC/VERIFICATION/Scoreboard/cpu_scoreboard.sv(209) @ 4295000: uvm_test_top.env.scoreboard [SCB] ‚??  x07  ‚??  00000000  ‚??  00000000  ‚??  ‚??   ‚??  PASS          ‚??
# UVM_INFO C:/Documents/DoAnThietKeViMach/Project/SoC/VERIFICATION/Scoreboard/cpu_scoreboard.sv(209) @ 4295000: uvm_test_top.env.scoreboard [SCB] ‚??  x08  ‚??  00000000  ‚??  00000000  ‚??  ‚??   ‚??  PASS          ‚??
# UVM_INFO C:/Documents/DoAnThietKeViMach/Project/SoC/VERIFICATION/Scoreboard/cpu_scoreboard.sv(209) @ 4295000: uvm_test_top.env.scoreboard [SCB] ‚??  x09  ‚??  00000044  ‚??  000000d6  ‚??  ‚??   ‚??  FAIL (diff=00000092)  ‚??
# UVM_INFO C:/Documents/DoAnThietKeViMach/Project/SoC/VERIFICATION/Scoreboard/cpu_scoreboard.sv(209) @ 4295000: uvm_test_top.env.scoreboard [SCB] ‚??  x10  ‚??  00000000  ‚??  00000000  ‚??  ‚??   ‚??  PASS          ‚??
# UVM_INFO C:/Documents/DoAnThietKeViMach/Project/SoC/VERIFICATION/Scoreboard/cpu_scoreboard.sv(209) @ 4295000: uvm_test_top.env.scoreboard [SCB] ‚??  x11  ‚??  00000000  ‚??  00000000  ‚??  ‚??   ‚??  PASS          ‚??
# UVM_INFO C:/Documents/DoAnThietKeViMach/Project/SoC/VERIFICATION/Scoreboard/cpu_scoreboard.sv(209) @ 4295000: uvm_test_top.env.scoreboard [SCB] ‚??  x12  ‚??  00000000  ‚??  00000000  ‚??  ‚??   ‚??  PASS          ‚??
# UVM_INFO C:/Documents/DoAnThietKeViMach/Project/SoC/VERIFICATION/Scoreboard/cpu_scoreboard.sv(209) @ 4295000: uvm_test_top.env.scoreboard [SCB] ‚??  x13  ‚??  00000000  ‚??  00000000  ‚??  ‚??   ‚??  PASS          ‚??
# UVM_INFO C:/Documents/DoAnThietKeViMach/Project/SoC/VERIFICATION/Scoreboard/cpu_scoreboard.sv(209) @ 4295000: uvm_test_top.env.scoreboard [SCB] ‚??  x14  ‚??  00000000  ‚??  00000000  ‚??  ‚??   ‚??  PASS          ‚??
# UVM_INFO C:/Documents/DoAnThietKeViMach/Project/SoC/VERIFICATION/Scoreboard/cpu_scoreboard.sv(209) @ 4295000: uvm_test_top.env.scoreboard [SCB] ‚??  x15  ‚??  00000000  ‚??  00000000  ‚??  ‚??   ‚??  PASS          ‚??
# UVM_INFO C:/Documents/DoAnThietKeViMach/Project/SoC/VERIFICATION/Scoreboard/cpu_scoreboard.sv(209) @ 4295000: uvm_test_top.env.scoreboard [SCB] ‚??  x16  ‚??  00000000  ‚??  0000007c  ‚??  ‚??   ‚??  FAIL (diff=0000007c)  ‚??
# UVM_INFO C:/Documents/DoAnThietKeViMach/Project/SoC/VERIFICATION/Scoreboard/cpu_scoreboard.sv(209) @ 4295000: uvm_test_top.env.scoreboard [SCB] ‚??  x17  ‚??  00000000  ‚??  0000005c  ‚??  ‚??   ‚??  FAIL (diff=0000005c)  ‚??
# UVM_INFO C:/Documents/DoAnThietKeViMach/Project/SoC/VERIFICATION/Scoreboard/cpu_scoreboard.sv(209) @ 4295000: uvm_test_top.env.scoreboard [SCB] ‚??  x18  ‚??  00000757  ‚??  00000757  ‚??  ‚??   ‚??  PASS          ‚??
# UVM_INFO C:/Documents/DoAnThietKeViMach/Project/SoC/VERIFICATION/Scoreboard/cpu_scoreboard.sv(209) @ 4295000: uvm_test_top.env.scoreboard [SCB] ‚??  x19  ‚??  00000000  ‚??  00000000  ‚??  ‚??   ‚??  PASS          ‚??
# UVM_INFO C:/Documents/DoAnThietKeViMach/Project/SoC/VERIFICATION/Scoreboard/cpu_scoreboard.sv(209) @ 4295000: uvm_test_top.env.scoreboard [SCB] ‚??  x20  ‚??  00000000  ‚??  000000d6  ‚??  ‚??   ‚??  FAIL (diff=000000d6)  ‚??
# UVM_INFO C:/Documents/DoAnThietKeViMach/Project/SoC/VERIFICATION/Scoreboard/cpu_scoreboard.sv(209) @ 4295000: uvm_test_top.env.scoreboard [SCB] ‚??  x21  ‚??  00000000  ‚??  000007f9  ‚??  ‚??   ‚??  FAIL (diff=000007f9)  ‚??
# UVM_INFO C:/Documents/DoAnThietKeViMach/Project/SoC/VERIFICATION/Scoreboard/cpu_scoreboard.sv(209) @ 4295000: uvm_test_top.env.scoreboard [SCB] ‚??  x22  ‚??  00000000  ‚??  00000000  ‚??  ‚??   ‚??  PASS          ‚??
# UVM_INFO C:/Documents/DoAnThietKeViMach/Project/SoC/VERIFICATION/Scoreboard/cpu_scoreboard.sv(209) @ 4295000: uvm_test_top.env.scoreboard [SCB] ‚??  x23  ‚??  00000000  ‚??  00000000  ‚??  ‚??   ‚??  PASS          ‚??
# UVM_INFO C:/Documents/DoAnThietKeViMach/Project/SoC/VERIFICATION/Scoreboard/cpu_scoreboard.sv(209) @ 4295000: uvm_test_top.env.scoreboard [SCB] ‚??  x24  ‚??  00000000  ‚??  00000000  ‚??  ‚??   ‚??  PASS          ‚??
# UVM_INFO C:/Documents/DoAnThietKeViMach/Project/SoC/VERIFICATION/Scoreboard/cpu_scoreboard.sv(209) @ 4295000: uvm_test_top.env.scoreboard [SCB] ‚??  x25  ‚??  fffffbbe  ‚??  fffffbbe  ‚??  ‚??   ‚??  PASS          ‚??
# UVM_INFO C:/Documents/DoAnThietKeViMach/Project/SoC/VERIFICATION/Scoreboard/cpu_scoreboard.sv(209) @ 4295000: uvm_test_top.env.scoreboard [SCB] ‚??  x26  ‚??  00000000  ‚??  fffffeb2  ‚??  ‚??   ‚??  FAIL (diff=fffffeb2)  ‚??
# UVM_INFO C:/Documents/DoAnThietKeViMach/Project/SoC/VERIFICATION/Scoreboard/cpu_scoreboard.sv(209) @ 4295000: uvm_test_top.env.scoreboard [SCB] ‚??  x27  ‚??  00000000  ‚??  00000000  ‚??  ‚??   ‚??  PASS          ‚??
# UVM_INFO C:/Documents/DoAnThietKeViMach/Project/SoC/VERIFICATION/Scoreboard/cpu_scoreboard.sv(209) @ 4295000: uvm_test_top.env.scoreboard [SCB] ‚??  x28  ‚??  00000000  ‚??  00000000  ‚??  ‚??   ‚??  PASS          ‚??
# UVM_INFO C:/Documents/DoAnThietKeViMach/Project/SoC/VERIFICATION/Scoreboard/cpu_scoreboard.sv(209) @ 4295000: uvm_test_top.env.scoreboard [SCB] ‚??  x29  ‚??  00000000  ‚??  00000000  ‚??  ‚??   ‚??  PASS          ‚??
# UVM_INFO C:/Documents/DoAnThietKeViMach/Project/SoC/VERIFICATION/Scoreboard/cpu_scoreboard.sv(209) @ 4295000: uvm_test_top.env.scoreboard [SCB] ‚??  x30  ‚??  00000000  ‚??  00000000  ‚??  ‚??   ‚??  PASS          ‚??
# UVM_INFO C:/Documents/DoAnThietKeViMach/Project/SoC/VERIFICATION/Scoreboard/cpu_scoreboard.sv(209) @ 4295000: uvm_test_top.env.scoreboard [SCB] ‚??  x31  ‚??  00000000  ‚??  0000037f  ‚??  ‚??   ‚??  FAIL (diff=0000037f)  ‚??
# UVM_INFO C:/Documents/DoAnThietKeViMach/Project/SoC/VERIFICATION/Scoreboard/cpu_scoreboard.sv(214) @ 4295000: uvm_test_top.env.scoreboard [SCB] ‚?†‚?ê‚?ê‚?ê‚?ê‚?ê‚?ê‚?ê‚?ê‚?ê‚?ê‚?ê‚?ê‚?ê‚?ê‚?ê‚?ê‚?ê‚?ê‚?ê‚?ê‚?ê‚?ê‚?ê‚?ê‚?ê‚?ê‚?ê‚?ê‚?ê‚?ê‚?ê‚?ê‚?ê‚?ê‚?ê‚?ê‚?ê‚?ê‚?ê‚?ê‚?ê‚?ê‚?ê‚?ê‚?ê‚?ê‚?ê‚?ê‚?ê‚?ê‚?ê‚?ê‚?ê‚?ê‚?ê‚?ê‚?ê‚?ê‚?ê‚?ê‚?ê‚?ê‚?£
# UVM_INFO C:/Documents/DoAnThietKeViMach/Project/SoC/VERIFICATION/Scoreboard/cpu_scoreboard.sv(218) @ 4295000: uvm_test_top.env.scoreboard [SCB] ‚??  Total WB events: 148     PASS: 24   FAIL: 8    SKIP: 0    ‚??
# UVM_INFO C:/Documents/DoAnThietKeViMach/Project/SoC/VERIFICATION/Scoreboard/cpu_scoreboard.sv(222) @ 4295000: uvm_test_top.env.scoreboard [SCB] ‚??  AXI Write Errors: 0     AXI Read Errors: 0                 ‚??
# UVM_INFO C:/Documents/DoAnThietKeViMach/Project/SoC/VERIFICATION/Scoreboard/cpu_scoreboard.sv(225) @ 4295000: uvm_test_top.env.scoreboard [SCB] ‚??‚?ê‚?ê‚?ê‚?ê‚?ê‚?ê‚?ê‚?ê‚?ê‚?ê‚?ê‚?ê‚?ê‚?ê‚?ê‚?ê‚?ê‚?ê‚?ê‚?ê‚?ê‚?ê‚?ê‚?ê‚?ê‚?ê‚?ê‚?ê‚?ê‚?ê‚?ê‚?ê‚?ê‚?ê‚?ê‚?ê‚?ê‚?ê‚?ê‚?ê‚?ê‚?ê‚?ê‚?ê‚?ê‚?ê‚?ê‚?ê‚?ê‚?ê‚?ê‚?ê‚?ê‚?ê‚?ê‚?ê‚?ê‚?ê‚?ê‚?ê‚?ê‚?ê‚?ù
# UVM_INFO C:/Documents/DoAnThietKeViMach/Project/SoC/VERIFICATION/Scoreboard/cpu_scoreboard.sv(226) @ 4295000: uvm_test_top.env.scoreboard [SCB] 
# UVM_ERROR C:/Documents/DoAnThietKeViMach/Project/SoC/VERIFICATION/Scoreboard/cpu_scoreboard.sv(230) @ 4295000: uvm_test_top.env.scoreboard [SCB] SIMULATION FAILED ‚?? 8 register(s) mismatch
# 
# --- UVM Report Summary ---
# 
# ** Report counts by severity
# UVM_INFO :  432
# UVM_WARNING :    0
# UVM_ERROR :    1
# UVM_FATAL :    0
# ** Report counts by id
# [AXI_RD]   101
# [AXI_WR]     5
# [CPU_MON]     2
# [IF]   105
# [MEM]    20
# [Questa UVM]     2
# [RNTST]     1
# [SCB]    45
# [TEST]     3
# [TEST_DONE]     1
# [WB]   148
# ** Note: $finish    : C:/app/QuestaSim/win64/../verilog_src/uvm-1.1d/src/base/uvm_root.svh(430)
#    Time: 4295 ns  Iteration: 57  Instance: /top_tb
