--- [SIM ONLY] axi_random_wr_rd_test ---
MODE = UVM_MASTER
Reading C:/app/QuestaSim/tcl/vsim/pref.tcl 

# 10.2c

# vsim +UVM_TESTNAME=axi_random_wr_rd_test +UVM_MASTER +MEM_SEED=3928850739 -coverage -do {run -all; quit} -c -sv_seed 3928850739 vopt_top 
# //  Questa Sim-64
# //  Version 10.2c Unknown Platform Jul 19 2013
# //
# //  Copyright 1991-2013 Mentor Graphics Corporation
# //  All Rights Reserved.
# //
# //  THIS WORK CONTAINS TRADE SECRET AND PROPRIETARY INFORMATION
# //  WHICH IS THE PROPERTY OF MENTOR GRAPHICS CORPORATION OR ITS
# //  LICENSORS AND IS SUBJECT TO LICENSE TERMS.
# //
# Loading sv_std.std
# Loading mtiUvm.uvm_pkg
# Loading work.soc_pkg(fast)
# Loading work.top_tb(fast)
# Loading work.clk_rst_inf(fast)
# Loading work.soc_inf(fast)
# Loading work.cpu_monitor_inf(fast)
# Loading work.TOP(fast)
# Loading work.AXI_Master(fast)
# Loading work.CPU(fast)
# Loading work.pc_reg(fast)
# Loading work.IF_ID(fast)
# Loading work.ControlUnit(fast)
# Loading work.MainDecoder(fast)
# Loading work.ALUControl(fast)
# Loading work.RegFile(fast)
# Loading work.signExtend(fast)
# Loading work.ID_EX(fast)
# Loading work.ALU(fast)
# Loading work.EX_MEM(fast)
# Loading work.MEM_WB(fast)
# Loading work.HazardUnit(fast)
# Loading work.LSU(fast)
# Loading work.AXI4_Lite_Interconnect(fast)
# Loading work.IRAM(fast)
# Loading work.DRAM(fast)
# Loading work.Timer(fast)
# Loading work.UART(fast)
# Loading work.SPI(fast)
# Loading mtiUvm.questa_uvm_pkg(fast)
# Loading C:/app/QuestaSim/uvm-1.1d\win64\uvm_dpi.dll
# run -all 
# ----------------------------------------------------------------
# UVM-1.1d
# (C) 2007-2013 Mentor Graphics Corporation
# (C) 2007-2013 Cadence Design Systems, Inc.
# (C) 2006-2013 Synopsys, Inc.
# (C) 2011-2013 Cypress Semiconductor Corp.
# ----------------------------------------------------------------
# 
#   ***********       IMPORTANT RELEASE NOTES         ************
# 
#   You are using a version of the UVM library that has been compiled
#   with `UVM_NO_DEPRECATED undefined.
#   See http://www.eda.org/svdb/view.php?id=3313 for more details.
# 
#   You are using a version of the UVM library that has been compiled
#   with `UVM_OBJECT_MUST_HAVE_CONSTRUCTOR undefined.
#   See http://www.eda.org/svdb/view.php?id=3770 for more details.
# 
#       (Specify +UVM_NO_RELNOTES to turn off this notice)
# 
# UVM_INFO verilog_src/questa_uvm_pkg-1.2/src/questa_uvm_pkg.sv(215) @ 0: reporter [Questa UVM] QUESTA_UVM-1.2.2
# UVM_INFO verilog_src/questa_uvm_pkg-1.2/src/questa_uvm_pkg.sv(217) @ 0: reporter [Questa UVM]  questa_uvm::init(+struct)
# [IRAM] Loading file: instr.mem
# [IRAM] mem[0] = 100000b7
# [IRAM] mem[1] = 20000137
# [IRAM] mem[2] = 300001b7
# [IRAM] mem[3] = 40000237
# [IRAM] mem[4] = 02c002ef
# [IRAM] mem[5] = fffd4393
# [IRAM] mem[6] = 3340a383
# [IRAM] mem[7] = 017d8663
# [IRAM] mem[8] = 41be0cb3
# [IRAM] mem[9] = 4b80a223
# [IRAM] mem[10] = bd397e93
# [IRAM] mem[11] = 02400b6f
# [IRAM] mem[12] = e077c393
# [IRAM] mem[13] = 7ab0ac23
# [IRAM] mem[14] = ea88c993
# [IRAM] mem[15] = 027c0263
# [IRAM] mem[16] = 01e81ab3
# [IRAM] mem[17] = 2a90ac23
# [IRAM] mem[18] = 40a657b3
# [IRAM] mem[19] = 1e80af83
# [IRAM] mem[20] = 2640ab83
# [IRAM] mem[21] = 02c0096f
# [IRAM] mem[22] = 0270a623
# [IRAM] mem[23] = 028b0463
# [IRAM] mem[24] = 6e40a903
# [IRAM] mem[25] = 0092f5b3
# [IRAM] mem[26] = 34c0a983
# [IRAM] mem[27] = 01955fb3
# [IRAM] mem[28] = 5900ac83
# [IRAM] mem[29] = 016d46b3
# [IRAM] mem[30] = 00b8f2b3
# [IRAM] mem[31] = 4f278e13
# [IRAM] mem[32] = 22e8e893
# [IRAM] mem[33] = 0dc0ad03
# [IRAM] mem[34] = 00e60833
# [IRAM] mem[35] = 10c0a223
# [IRAM] mem[36] = 4c9ff793
# [IRAM] mem[37] = 41d35bb3
# [IRAM] mem[38] = 66c0aa23
# [IRAM] mem[39] = 00f67f33
# [IRAM] mem[40] = 02c00f6f
# [IRAM] mem[41] = 00bec8b3
# [IRAM] mem[42] = 01000bef
# [IRAM] mem[43] = 19e0a823
# [IRAM] mem[44] = 0d40a303
# [IRAM] mem[45] = 017928b3
# [IRAM] mem[46] = 00684733
# [IRAM] mem[47] = 8d976393
# [IRAM] mem[48] = 6e754f13
# [IRAM] mem[49] = 5100a983
# [IRAM] mem[50] = db8f0893
# [IRAM] mem[51] = 23c0a483
# [IRAM] mem[52] = 30a0aa23
# [IRAM] mem[53] = 009da5b3
# [IRAM] mem[54] = 31e0a623
# [IRAM] mem[55] = 01159933
# [IRAM] mem[56] = 026e0263
# [IRAM] mem[57] = 01bf6eb3
# [IRAM] mem[58] = 6100a983
# [IRAM] mem[59] = 50c0a623
# [IRAM] mem[60] = 11864513
# [IRAM] mem[61] = 4b32c393
# [IRAM] mem[62] = 6ef0a423
# [IRAM] mem[63] = 01296bb3
# [IRAM] mem[64] = 00f85833
# [IRAM] mem[65] = 413cdab3
# [IRAM] mem[66] = 01ccf733
# [IRAM] mem[67] = 4700a623
# [IRAM] mem[68] = ae0ac413
# [IRAM] mem[69] = 01489fb3
# [IRAM] mem[70] = 02a40863
# [IRAM] mem[71] = 34bc4b13
# [IRAM] mem[72] = 8c950293
# [IRAM] mem[73] = 01cf0bb3
# [IRAM] mem[74] = 38c0a503
# [IRAM] mem[75] = 9be76b13
# [IRAM] mem[76] = 008fd333
# [IRAM] mem[77] = f385ea93
# [IRAM] mem[78] = 4150a823
# [IRAM] mem[79] = 713c4393
# [IRAM] mem[80] = 306eeb13
# [IRAM] mem[81] = 38ebca93
# [IRAM] mem[82] = 72a0ae23
# [IRAM] mem[83] = aceae413
# [IRAM] mem[84] = c786cc13
# [IRAM] mem[85] = 0e40ad83
# [IRAM] mem[86] = 46a6e993
# [IRAM] mem[87] = 51dae993
# [IRAM] mem[88] = 410d02b3
# [IRAM] mem[89] = 405a0433
# [IRAM] mem[90] = 7b90a623
# [IRAM] mem[91] = 017b78b3
# [IRAM] mem[92] = 4a00a283
# [IRAM] mem[93] = 005d6cb3
# [IRAM] mem[94] = 41388c33
# [IRAM] mem[95] = 68c0ad83
# [IRAM] mem[96] = 48d0a423
# [IRAM] mem[97] = 5cdc0493
# [IRAM] mem[98] = 0574f913
# [IRAM] mem[99] = 2cf0aa23
# [IRAM] mem[100] = 4240ae83
# [TB] Mode: UVM MASTER â?? driver controls AXI bus
# UVM_INFO @ 0: reporter [RNTST] Running test axi_random_wr_rd_test...
# ** Warning: (vsim-PLI-8707) No address specified on line 2 of file "instr.mem" 
# 
# while loading into associative array using readmem command.    : C:/Documents/DoAnThietKeViMach/Project/SoC/VERIFICATION/Scoreboard/axi_scoreboard.sv(31)
#    Time: 0 ps  Iteration: 8  Region: /uvm_pkg::uvm_phase::m_run_phases
# UVM_INFO C:/Documents/DoAnThietKeViMach/Project/SoC/VERIFICATION/Sequence/axi_random_wr_rd.sv(23) @ 0: uvm_test_top.env.agent.sequencer@@seq [SEQ] --- STARTING SMART RANDOM TEST (ID 11, 12) ---
# [DRAM WRITE] addr=10000000 data=6241e9af
# UVM_INFO C:/Documents/DoAnThietKeViMach/Project/SoC/VERIFICATION/Monitor/axi_monitor.sv(55) @ 65000: uvm_test_top.env.agent.monitor [MON_WR] Detected WRITE : Addr=10000000 Data=6241e9af Strb=1111 Prot=xxx BResp=00
# UVM_INFO C:/Documents/DoAnThietKeViMach/Project/SoC/VERIFICATION/Driver/axi_driver.sv(63) @ 75000: uvm_test_top.env.agent.driver [DRV] Write Done: Addr=10000000 Data=6241e9af Prot=xxx
# [DRAM WRITE] addr=10000004 data=0f873a52
# UVM_INFO C:/Documents/DoAnThietKeViMach/Project/SoC/VERIFICATION/Monitor/axi_monitor.sv(55) @ 115000: uvm_test_top.env.agent.monitor [MON_WR] Detected WRITE : Addr=10000004 Data=0f873a52 Strb=1111 Prot=xxx BResp=00
# UVM_INFO C:/Documents/DoAnThietKeViMach/Project/SoC/VERIFICATION/Driver/axi_driver.sv(63) @ 125000: uvm_test_top.env.agent.driver [DRV] Write Done: Addr=10000004 Data=0f873a52 Prot=xxx
# [DRAM WRITE] addr=10000008 data=36954208
# UVM_INFO C:/Documents/DoAnThietKeViMach/Project/SoC/VERIFICATION/Monitor/axi_monitor.sv(55) @ 165000: uvm_test_top.env.agent.monitor [MON_WR] Detected WRITE : Addr=10000008 Data=36954208 Strb=1111 Prot=xxx BResp=00
# UVM_INFO C:/Documents/DoAnThietKeViMach/Project/SoC/VERIFICATION/Driver/axi_driver.sv(63) @ 175000: uvm_test_top.env.agent.driver [DRV] Write Done: Addr=10000008 Data=36954208 Prot=xxx
# [DRAM WRITE] addr=1000000c data=4f3db25c
# UVM_INFO C:/Documents/DoAnThietKeViMach/Project/SoC/VERIFICATION/Monitor/axi_monitor.sv(55) @ 215000: uvm_test_top.env.agent.monitor [MON_WR] Detected WRITE : Addr=1000000c Data=4f3db25c Strb=1111 Prot=xxx BResp=00
# UVM_INFO C:/Documents/DoAnThietKeViMach/Project/SoC/VERIFICATION/Driver/axi_driver.sv(63) @ 225000: uvm_test_top.env.agent.driver [DRV] Write Done: Addr=1000000c Data=4f3db25c Prot=xxx
# [DRAM WRITE] addr=10000010 data=b159e332
# UVM_INFO C:/Documents/DoAnThietKeViMach/Project/SoC/VERIFICATION/Monitor/axi_monitor.sv(55) @ 265000: uvm_test_top.env.agent.monitor [MON_WR] Detected WRITE : Addr=10000010 Data=b159e332 Strb=1111 Prot=xxx BResp=00
# UVM_INFO C:/Documents/DoAnThietKeViMach/Project/SoC/VERIFICATION/Driver/axi_driver.sv(63) @ 275000: uvm_test_top.env.agent.driver [DRV] Write Done: Addr=10000010 Data=b159e332 Prot=xxx
# [DRAM WRITE] addr=10000014 data=671e5c66
# UVM_INFO C:/Documents/DoAnThietKeViMach/Project/SoC/VERIFICATION/Monitor/axi_monitor.sv(55) @ 315000: uvm_test_top.env.agent.monitor [MON_WR] Detected WRITE : Addr=10000014 Data=671e5c66 Strb=1111 Prot=xxx BResp=00
# UVM_INFO C:/Documents/DoAnThietKeViMach/Project/SoC/VERIFICATION/Driver/axi_driver.sv(63) @ 325000: uvm_test_top.env.agent.driver [DRV] Write Done: Addr=10000014 Data=671e5c66 Prot=xxx
# [DRAM WRITE] addr=10000018 data=c1955c16
# UVM_INFO C:/Documents/DoAnThietKeViMach/Project/SoC/VERIFICATION/Monitor/axi_monitor.sv(55) @ 365000: uvm_test_top.env.agent.monitor [MON_WR] Detected WRITE : Addr=10000018 Data=c1955c16 Strb=1111 Prot=xxx BResp=00
# UVM_INFO C:/Documents/DoAnThietKeViMach/Project/SoC/VERIFICATION/Driver/axi_driver.sv(63) @ 375000: uvm_test_top.env.agent.driver [DRV] Write Done: Addr=10000018 Data=c1955c16 Prot=xxx
# [DRAM WRITE] addr=1000001c data=af84c4d0
# UVM_INFO C:/Documents/DoAnThietKeViMach/Project/SoC/VERIFICATION/Monitor/axi_monitor.sv(55) @ 415000: uvm_test_top.env.agent.monitor [MON_WR] Detected WRITE : Addr=1000001c Data=af84c4d0 Strb=1111 Prot=xxx BResp=00
# UVM_INFO C:/Documents/DoAnThietKeViMach/Project/SoC/VERIFICATION/Driver/axi_driver.sv(63) @ 425000: uvm_test_top.env.agent.driver [DRV] Write Done: Addr=1000001c Data=af84c4d0 Prot=xxx
# [DRAM WRITE] addr=10000020 data=dfc1f60c
# UVM_INFO C:/Documents/DoAnThietKeViMach/Project/SoC/VERIFICATION/Monitor/axi_monitor.sv(55) @ 465000: uvm_test_top.env.agent.monitor [MON_WR] Detected WRITE : Addr=10000020 Data=dfc1f60c Strb=1111 Prot=xxx BResp=00
# UVM_INFO C:/Documents/DoAnThietKeViMach/Project/SoC/VERIFICATION/Driver/axi_driver.sv(63) @ 475000: uvm_test_top.env.agent.driver [DRV] Write Done: Addr=10000020 Data=dfc1f60c Prot=xxx
# [DRAM WRITE] addr=10000024 data=b65f3025
# UVM_INFO C:/Documents/DoAnThietKeViMach/Project/SoC/VERIFICATION/Monitor/axi_monitor.sv(55) @ 515000: uvm_test_top.env.agent.monitor [MON_WR] Detected WRITE : Addr=10000024 Data=b65f3025 Strb=1111 Prot=xxx BResp=00
# UVM_INFO C:/Documents/DoAnThietKeViMach/Project/SoC/VERIFICATION/Driver/axi_driver.sv(63) @ 525000: uvm_test_top.env.agent.driver [DRV] Write Done: Addr=10000024 Data=b65f3025 Prot=xxx
# [DRAM WRITE] addr=10000028 data=cd525977
# UVM_INFO C:/Documents/DoAnThietKeViMach/Project/SoC/VERIFICATION/Monitor/axi_monitor.sv(55) @ 565000: uvm_test_top.env.agent.monitor [MON_WR] Detected WRITE : Addr=10000028 Data=cd525977 Strb=1111 Prot=xxx BResp=00
# UVM_INFO C:/Documents/DoAnThietKeViMach/Project/SoC/VERIFICATION/Driver/axi_driver.sv(63) @ 575000: uvm_test_top.env.agent.driver [DRV] Write Done: Addr=10000028 Data=cd525977 Prot=xxx
# [DRAM WRITE] addr=1000002c data=f2b36461
# UVM_INFO C:/Documents/DoAnThietKeViMach/Project/SoC/VERIFICATION/Monitor/axi_monitor.sv(55) @ 615000: uvm_test_top.env.agent.monitor [MON_WR] Detected WRITE : Addr=1000002c Data=f2b36461 Strb=1111 Prot=xxx BResp=00
# UVM_INFO C:/Documents/DoAnThietKeViMach/Project/SoC/VERIFICATION/Driver/axi_driver.sv(63) @ 625000: uvm_test_top.env.agent.driver [DRV] Write Done: Addr=1000002c Data=f2b36461 Prot=xxx
# [DRAM WRITE] addr=10000030 data=19f62874
# UVM_INFO C:/Documents/DoAnThietKeViMach/Project/SoC/VERIFICATION/Monitor/axi_monitor.sv(55) @ 665000: uvm_test_top.env.agent.monitor [MON_WR] Detected WRITE : Addr=10000030 Data=19f62874 Strb=1111 Prot=xxx BResp=00
# UVM_INFO C:/Documents/DoAnThietKeViMach/Project/SoC/VERIFICATION/Driver/axi_driver.sv(63) @ 675000: uvm_test_top.env.agent.driver [DRV] Write Done: Addr=10000030 Data=19f62874 Prot=xxx
# [DRAM WRITE] addr=10000034 data=7a662c05
# UVM_INFO C:/Documents/DoAnThietKeViMach/Project/SoC/VERIFICATION/Monitor/axi_monitor.sv(55) @ 715000: uvm_test_top.env.agent.monitor [MON_WR] Detected WRITE : Addr=10000034 Data=7a662c05 Strb=1111 Prot=xxx BResp=00
# UVM_INFO C:/Documents/DoAnThietKeViMach/Project/SoC/VERIFICATION/Driver/axi_driver.sv(63) @ 725000: uvm_test_top.env.agent.driver [DRV] Write Done: Addr=10000034 Data=7a662c05 Prot=xxx
# [DRAM WRITE] addr=10000038 data=d6a44eec
# UVM_INFO C:/Documents/DoAnThietKeViMach/Project/SoC/VERIFICATION/Monitor/axi_monitor.sv(55) @ 765000: uvm_test_top.env.agent.monitor [MON_WR] Detected WRITE : Addr=10000038 Data=d6a44eec Strb=1111 Prot=xxx BResp=00
# UVM_INFO C:/Documents/DoAnThietKeViMach/Project/SoC/VERIFICATION/Driver/axi_driver.sv(63) @ 775000: uvm_test_top.env.agent.driver [DRV] Write Done: Addr=10000038 Data=d6a44eec Prot=xxx
# [DRAM WRITE] addr=1000003c data=9335cc71
# UVM_INFO C:/Documents/DoAnThietKeViMach/Project/SoC/VERIFICATION/Monitor/axi_monitor.sv(55) @ 815000: uvm_test_top.env.agent.monitor [MON_WR] Detected WRITE : Addr=1000003c Data=9335cc71 Strb=1111 Prot=xxx BResp=00
# UVM_INFO C:/Documents/DoAnThietKeViMach/Project/SoC/VERIFICATION/Driver/axi_driver.sv(63) @ 825000: uvm_test_top.env.agent.driver [DRV] Write Done: Addr=1000003c Data=9335cc71 Prot=xxx
# [DRAM WRITE] addr=10000040 data=c512e7c7
# UVM_INFO C:/Documents/DoAnThietKeViMach/Project/SoC/VERIFICATION/Monitor/axi_monitor.sv(55) @ 865000: uvm_test_top.env.agent.monitor [MON_WR] Detected WRITE : Addr=10000040 Data=c512e7c7 Strb=1111 Prot=xxx BResp=00
# UVM_INFO C:/Documents/DoAnThietKeViMach/Project/SoC/VERIFICATION/Driver/axi_driver.sv(63) @ 875000: uvm_test_top.env.agent.driver [DRV] Write Done: Addr=10000040 Data=c512e7c7 Prot=xxx
# [DRAM WRITE] addr=10000044 data=4bb92919
# UVM_INFO C:/Documents/DoAnThietKeViMach/Project/SoC/VERIFICATION/Monitor/axi_monitor.sv(55) @ 915000: uvm_test_top.env.agent.monitor [MON_WR] Detected WRITE : Addr=10000044 Data=4bb92919 Strb=1111 Prot=xxx BResp=00
# UVM_INFO C:/Documents/DoAnThietKeViMach/Project/SoC/VERIFICATION/Driver/axi_driver.sv(63) @ 925000: uvm_test_top.env.agent.driver [DRV] Write Done: Addr=10000044 Data=4bb92919 Prot=xxx
# [DRAM WRITE] addr=10000048 data=e4d99d40
# UVM_INFO C:/Documents/DoAnThietKeViMach/Project/SoC/VERIFICATION/Monitor/axi_monitor.sv(55) @ 965000: uvm_test_top.env.agent.monitor [MON_WR] Detected WRITE : Addr=10000048 Data=e4d99d40 Strb=1111 Prot=xxx BResp=00
# UVM_INFO C:/Documents/DoAnThietKeViMach/Project/SoC/VERIFICATION/Driver/axi_driver.sv(63) @ 975000: uvm_test_top.env.agent.driver [DRV] Write Done: Addr=10000048 Data=e4d99d40 Prot=xxx
# [DRAM WRITE] addr=1000004c data=6a272ab9
# UVM_INFO C:/Documents/DoAnThietKeViMach/Project/SoC/VERIFICATION/Monitor/axi_monitor.sv(55) @ 1015000: uvm_test_top.env.agent.monitor [MON_WR] Detected WRITE : Addr=1000004c Data=6a272ab9 Strb=1111 Prot=xxx BResp=00
# UVM_INFO C:/Documents/DoAnThietKeViMach/Project/SoC/VERIFICATION/Driver/axi_driver.sv(63) @ 1025000: uvm_test_top.env.agent.driver [DRV] Write Done: Addr=1000004c Data=6a272ab9 Prot=xxx
# [DRAM WRITE] addr=10000050 data=5be6f549
# UVM_INFO C:/Documents/DoAnThietKeViMach/Project/SoC/VERIFICATION/Monitor/axi_monitor.sv(55) @ 1065000: uvm_test_top.env.agent.monitor [MON_WR] Detected WRITE : Addr=10000050 Data=5be6f549 Strb=1111 Prot=xxx BResp=00
# UVM_INFO C:/Documents/DoAnThietKeViMach/Project/SoC/VERIFICATION/Driver/axi_driver.sv(63) @ 1075000: uvm_test_top.env.agent.driver [DRV] Write Done: Addr=10000050 Data=5be6f549 Prot=xxx
# [DRAM WRITE] addr=10000054 data=f0c713e1
# UVM_INFO C:/Documents/DoAnThietKeViMach/Project/SoC/VERIFICATION/Monitor/axi_monitor.sv(55) @ 1115000: uvm_test_top.env.agent.monitor [MON_WR] Detected WRITE : Addr=10000054 Data=f0c713e1 Strb=1111 Prot=xxx BResp=00
# UVM_INFO C:/Documents/DoAnThietKeViMach/Project/SoC/VERIFICATION/Driver/axi_driver.sv(63) @ 1125000: uvm_test_top.env.agent.driver [DRV] Write Done: Addr=10000054 Data=f0c713e1 Prot=xxx
# [DRAM WRITE] addr=10000058 data=5ac25671
# UVM_INFO C:/Documents/DoAnThietKeViMach/Project/SoC/VERIFICATION/Monitor/axi_monitor.sv(55) @ 1165000: uvm_test_top.env.agent.monitor [MON_WR] Detected WRITE : Addr=10000058 Data=5ac25671 Strb=1111 Prot=xxx BResp=00
# UVM_INFO C:/Documents/DoAnThietKeViMach/Project/SoC/VERIFICATION/Driver/axi_driver.sv(63) @ 1175000: uvm_test_top.env.agent.driver [DRV] Write Done: Addr=10000058 Data=5ac25671 Prot=xxx
# [DRAM WRITE] addr=1000005c data=edc2e21d
# UVM_INFO C:/Documents/DoAnThietKeViMach/Project/SoC/VERIFICATION/Monitor/axi_monitor.sv(55) @ 1215000: uvm_test_top.env.agent.monitor [MON_WR] Detected WRITE : Addr=1000005c Data=edc2e21d Strb=1111 Prot=xxx BResp=00
# UVM_INFO C:/Documents/DoAnThietKeViMach/Project/SoC/VERIFICATION/Driver/axi_driver.sv(63) @ 1225000: uvm_test_top.env.agent.driver [DRV] Write Done: Addr=1000005c Data=edc2e21d Prot=xxx
# [DRAM WRITE] addr=10000060 data=b203832f
# UVM_INFO C:/Documents/DoAnThietKeViMach/Project/SoC/VERIFICATION/Monitor/axi_monitor.sv(55) @ 1265000: uvm_test_top.env.agent.monitor [MON_WR] Detected WRITE : Addr=10000060 Data=b203832f Strb=1111 Prot=xxx BResp=00
# UVM_INFO C:/Documents/DoAnThietKeViMach/Project/SoC/VERIFICATION/Driver/axi_driver.sv(63) @ 1275000: uvm_test_top.env.agent.driver [DRV] Write Done: Addr=10000060 Data=b203832f Prot=xxx
# [DRAM WRITE] addr=10000064 data=dbda7ce2
# UVM_INFO C:/Documents/DoAnThietKeViMach/Project/SoC/VERIFICATION/Monitor/axi_monitor.sv(55) @ 1315000: uvm_test_top.env.agent.monitor [MON_WR] Detected WRITE : Addr=10000064 Data=dbda7ce2 Strb=1111 Prot=xxx BResp=00
# UVM_INFO C:/Documents/DoAnThietKeViMach/Project/SoC/VERIFICATION/Driver/axi_driver.sv(63) @ 1325000: uvm_test_top.env.agent.driver [DRV] Write Done: Addr=10000064 Data=dbda7ce2 Prot=xxx
# [DRAM WRITE] addr=10000068 data=98d06978
# UVM_INFO C:/Documents/DoAnThietKeViMach/Project/SoC/VERIFICATION/Monitor/axi_monitor.sv(55) @ 1365000: uvm_test_top.env.agent.monitor [MON_WR] Detected WRITE : Addr=10000068 Data=98d06978 Strb=1111 Prot=xxx BResp=00
# UVM_INFO C:/Documents/DoAnThietKeViMach/Project/SoC/VERIFICATION/Driver/axi_driver.sv(63) @ 1375000: uvm_test_top.env.agent.driver [DRV] Write Done: Addr=10000068 Data=98d06978 Prot=xxx
# [DRAM WRITE] addr=1000006c data=d71b4d15
# UVM_INFO C:/Documents/DoAnThietKeViMach/Project/SoC/VERIFICATION/Monitor/axi_monitor.sv(55) @ 1415000: uvm_test_top.env.agent.monitor [MON_WR] Detected WRITE : Addr=1000006c Data=d71b4d15 Strb=1111 Prot=xxx BResp=00
# UVM_INFO C:/Documents/DoAnThietKeViMach/Project/SoC/VERIFICATION/Driver/axi_driver.sv(63) @ 1425000: uvm_test_top.env.agent.driver [DRV] Write Done: Addr=1000006c Data=d71b4d15 Prot=xxx
# [DRAM WRITE] addr=10000070 data=592c18e8
# UVM_INFO C:/Documents/DoAnThietKeViMach/Project/SoC/VERIFICATION/Monitor/axi_monitor.sv(55) @ 1465000: uvm_test_top.env.agent.monitor [MON_WR] Detected WRITE : Addr=10000070 Data=592c18e8 Strb=1111 Prot=xxx BResp=00
# UVM_INFO C:/Documents/DoAnThietKeViMach/Project/SoC/VERIFICATION/Driver/axi_driver.sv(63) @ 1475000: uvm_test_top.env.agent.driver [DRV] Write Done: Addr=10000070 Data=592c18e8 Prot=xxx
# [DRAM WRITE] addr=10000074 data=f4895780
# UVM_INFO C:/Documents/DoAnThietKeViMach/Project/SoC/VERIFICATION/Monitor/axi_monitor.sv(55) @ 1515000: uvm_test_top.env.agent.monitor [MON_WR] Detected WRITE : Addr=10000074 Data=f4895780 Strb=1111 Prot=xxx BResp=00
# UVM_INFO C:/Documents/DoAnThietKeViMach/Project/SoC/VERIFICATION/Driver/axi_driver.sv(63) @ 1525000: uvm_test_top.env.agent.driver [DRV] Write Done: Addr=10000074 Data=f4895780 Prot=xxx
# [DRAM WRITE] addr=10000078 data=fb504b27
# UVM_INFO C:/Documents/DoAnThietKeViMach/Project/SoC/VERIFICATION/Monitor/axi_monitor.sv(55) @ 1565000: uvm_test_top.env.agent.monitor [MON_WR] Detected WRITE : Addr=10000078 Data=fb504b27 Strb=1111 Prot=xxx BResp=00
# UVM_INFO C:/Documents/DoAnThietKeViMach/Project/SoC/VERIFICATION/Driver/axi_driver.sv(63) @ 1575000: uvm_test_top.env.agent.driver [DRV] Write Done: Addr=10000078 Data=fb504b27 Prot=xxx
# [DRAM WRITE] addr=1000007c data=924acb6b
# UVM_INFO C:/Documents/DoAnThietKeViMach/Project/SoC/VERIFICATION/Monitor/axi_monitor.sv(55) @ 1615000: uvm_test_top.env.agent.monitor [MON_WR] Detected WRITE : Addr=1000007c Data=924acb6b Strb=1111 Prot=xxx BResp=00
# UVM_INFO C:/Documents/DoAnThietKeViMach/Project/SoC/VERIFICATION/Driver/axi_driver.sv(63) @ 1625000: uvm_test_top.env.agent.driver [DRV] Write Done: Addr=1000007c Data=924acb6b Prot=xxx
# [DRAM WRITE] addr=10000080 data=4664c174
# UVM_INFO C:/Documents/DoAnThietKeViMach/Project/SoC/VERIFICATION/Monitor/axi_monitor.sv(55) @ 1665000: uvm_test_top.env.agent.monitor [MON_WR] Detected WRITE : Addr=10000080 Data=4664c174 Strb=1111 Prot=xxx BResp=00
# UVM_INFO C:/Documents/DoAnThietKeViMach/Project/SoC/VERIFICATION/Driver/axi_driver.sv(63) @ 1675000: uvm_test_top.env.agent.driver [DRV] Write Done: Addr=10000080 Data=4664c174 Prot=xxx
# [DRAM WRITE] addr=10000084 data=bb521ea3
# UVM_INFO C:/Documents/DoAnThietKeViMach/Project/SoC/VERIFICATION/Monitor/axi_monitor.sv(55) @ 1715000: uvm_test_top.env.agent.monitor [MON_WR] Detected WRITE : Addr=10000084 Data=bb521ea3 Strb=1111 Prot=xxx BResp=00
# UVM_INFO C:/Documents/DoAnThietKeViMach/Project/SoC/VERIFICATION/Driver/axi_driver.sv(63) @ 1725000: uvm_test_top.env.agent.driver [DRV] Write Done: Addr=10000084 Data=bb521ea3 Prot=xxx
# [DRAM WRITE] addr=10000088 data=9b5c961b
# UVM_INFO C:/Documents/DoAnThietKeViMach/Project/SoC/VERIFICATION/Monitor/axi_monitor.sv(55) @ 1765000: uvm_test_top.env.agent.monitor [MON_WR] Detected WRITE : Addr=10000088 Data=9b5c961b Strb=1111 Prot=xxx BResp=00
# UVM_INFO C:/Documents/DoAnThietKeViMach/Project/SoC/VERIFICATION/Driver/axi_driver.sv(63) @ 1775000: uvm_test_top.env.agent.driver [DRV] Write Done: Addr=10000088 Data=9b5c961b Prot=xxx
# [DRAM WRITE] addr=1000008c data=533a9ede
# UVM_INFO C:/Documents/DoAnThietKeViMach/Project/SoC/VERIFICATION/Monitor/axi_monitor.sv(55) @ 1815000: uvm_test_top.env.agent.monitor [MON_WR] Detected WRITE : Addr=1000008c Data=533a9ede Strb=1111 Prot=xxx BResp=00
# UVM_INFO C:/Documents/DoAnThietKeViMach/Project/SoC/VERIFICATION/Driver/axi_driver.sv(63) @ 1825000: uvm_test_top.env.agent.driver [DRV] Write Done: Addr=1000008c Data=533a9ede Prot=xxx
# [DRAM WRITE] addr=10000090 data=a4dfce70
# UVM_INFO C:/Documents/DoAnThietKeViMach/Project/SoC/VERIFICATION/Monitor/axi_monitor.sv(55) @ 1865000: uvm_test_top.env.agent.monitor [MON_WR] Detected WRITE : Addr=10000090 Data=a4dfce70 Strb=1111 Prot=xxx BResp=00
# UVM_INFO C:/Documents/DoAnThietKeViMach/Project/SoC/VERIFICATION/Driver/axi_driver.sv(63) @ 1875000: uvm_test_top.env.agent.driver [DRV] Write Done: Addr=10000090 Data=a4dfce70 Prot=xxx
# [DRAM WRITE] addr=10000094 data=284ab47b
# UVM_INFO C:/Documents/DoAnThietKeViMach/Project/SoC/VERIFICATION/Monitor/axi_monitor.sv(55) @ 1915000: uvm_test_top.env.agent.monitor [MON_WR] Detected WRITE : Addr=10000094 Data=284ab47b Strb=1111 Prot=xxx BResp=00
# UVM_INFO C:/Documents/DoAnThietKeViMach/Project/SoC/VERIFICATION/Driver/axi_driver.sv(63) @ 1925000: uvm_test_top.env.agent.driver [DRV] Write Done: Addr=10000094 Data=284ab47b Prot=xxx
# [DRAM WRITE] addr=10000098 data=e900af18
# UVM_INFO C:/Documents/DoAnThietKeViMach/Project/SoC/VERIFICATION/Monitor/axi_monitor.sv(55) @ 1965000: uvm_test_top.env.agent.monitor [MON_WR] Detected WRITE : Addr=10000098 Data=e900af18 Strb=1111 Prot=xxx BResp=00
# UVM_INFO C:/Documents/DoAnThietKeViMach/Project/SoC/VERIFICATION/Driver/axi_driver.sv(63) @ 1975000: uvm_test_top.env.agent.driver [DRV] Write Done: Addr=10000098 Data=e900af18 Prot=xxx
# [DRAM WRITE] addr=1000009c data=a4d2ee76
# UVM_INFO C:/Documents/DoAnThietKeViMach/Project/SoC/VERIFICATION/Monitor/axi_monitor.sv(55) @ 2015000: uvm_test_top.env.agent.monitor [MON_WR] Detected WRITE : Addr=1000009c Data=a4d2ee76 Strb=1111 Prot=xxx BResp=00
# UVM_INFO C:/Documents/DoAnThietKeViMach/Project/SoC/VERIFICATION/Driver/axi_driver.sv(63) @ 2025000: uvm_test_top.env.agent.driver [DRV] Write Done: Addr=1000009c Data=a4d2ee76 Prot=xxx
# [DRAM WRITE] addr=100000a0 data=a1faabec
# UVM_INFO C:/Documents/DoAnThietKeViMach/Project/SoC/VERIFICATION/Monitor/axi_monitor.sv(55) @ 2065000: uvm_test_top.env.agent.monitor [MON_WR] Detected WRITE : Addr=100000a0 Data=a1faabec Strb=1111 Prot=xxx BResp=00
# UVM_INFO C:/Documents/DoAnThietKeViMach/Project/SoC/VERIFICATION/Driver/axi_driver.sv(63) @ 2075000: uvm_test_top.env.agent.driver [DRV] Write Done: Addr=100000a0 Data=a1faabec Prot=xxx
# [DRAM WRITE] addr=100000a4 data=5ce3e708
# UVM_INFO C:/Documents/DoAnThietKeViMach/Project/SoC/VERIFICATION/Monitor/axi_monitor.sv(55) @ 2115000: uvm_test_top.env.agent.monitor [MON_WR] Detected WRITE : Addr=100000a4 Data=5ce3e708 Strb=1111 Prot=xxx BResp=00
# UVM_INFO C:/Documents/DoAnThietKeViMach/Project/SoC/VERIFICATION/Driver/axi_driver.sv(63) @ 2125000: uvm_test_top.env.agent.driver [DRV] Write Done: Addr=100000a4 Data=5ce3e708 Prot=xxx
# [DRAM WRITE] addr=100000a8 data=b9edd0f0
# UVM_INFO C:/Documents/DoAnThietKeViMach/Project/SoC/VERIFICATION/Monitor/axi_monitor.sv(55) @ 2165000: uvm_test_top.env.agent.monitor [MON_WR] Detected WRITE : Addr=100000a8 Data=b9edd0f0 Strb=1111 Prot=xxx BResp=00
# UVM_INFO C:/Documents/DoAnThietKeViMach/Project/SoC/VERIFICATION/Driver/axi_driver.sv(63) @ 2175000: uvm_test_top.env.agent.driver [DRV] Write Done: Addr=100000a8 Data=b9edd0f0 Prot=xxx
# [DRAM WRITE] addr=100000ac data=78824fe0
# UVM_INFO C:/Documents/DoAnThietKeViMach/Project/SoC/VERIFICATION/Monitor/axi_monitor.sv(55) @ 2215000: uvm_test_top.env.agent.monitor [MON_WR] Detected WRITE : Addr=100000ac Data=78824fe0 Strb=1111 Prot=xxx BResp=00
# UVM_INFO C:/Documents/DoAnThietKeViMach/Project/SoC/VERIFICATION/Driver/axi_driver.sv(63) @ 2225000: uvm_test_top.env.agent.driver [DRV] Write Done: Addr=100000ac Data=78824fe0 Prot=xxx
# [DRAM WRITE] addr=100000b0 data=b2b3121a
# UVM_INFO C:/Documents/DoAnThietKeViMach/Project/SoC/VERIFICATION/Monitor/axi_monitor.sv(55) @ 2265000: uvm_test_top.env.agent.monitor [MON_WR] Detected WRITE : Addr=100000b0 Data=b2b3121a Strb=1111 Prot=xxx BResp=00
# UVM_INFO C:/Documents/DoAnThietKeViMach/Project/SoC/VERIFICATION/Driver/axi_driver.sv(63) @ 2275000: uvm_test_top.env.agent.driver [DRV] Write Done: Addr=100000b0 Data=b2b3121a Prot=xxx
# [DRAM WRITE] addr=100000b4 data=170c9e2b
# UVM_INFO C:/Documents/DoAnThietKeViMach/Project/SoC/VERIFICATION/Monitor/axi_monitor.sv(55) @ 2315000: uvm_test_top.env.agent.monitor [MON_WR] Detected WRITE : Addr=100000b4 Data=170c9e2b Strb=1111 Prot=xxx BResp=00
# UVM_INFO C:/Documents/DoAnThietKeViMach/Project/SoC/VERIFICATION/Driver/axi_driver.sv(63) @ 2325000: uvm_test_top.env.agent.driver [DRV] Write Done: Addr=100000b4 Data=170c9e2b Prot=xxx
# [DRAM WRITE] addr=100000b8 data=fae67e53
# UVM_INFO C:/Documents/DoAnThietKeViMach/Project/SoC/VERIFICATION/Monitor/axi_monitor.sv(55) @ 2365000: uvm_test_top.env.agent.monitor [MON_WR] Detected WRITE : Addr=100000b8 Data=fae67e53 Strb=1111 Prot=xxx BResp=00
# UVM_INFO C:/Documents/DoAnThietKeViMach/Project/SoC/VERIFICATION/Driver/axi_driver.sv(63) @ 2375000: uvm_test_top.env.agent.driver [DRV] Write Done: Addr=100000b8 Data=fae67e53 Prot=xxx
# [DRAM WRITE] addr=100000bc data=38b99789
# UVM_INFO C:/Documents/DoAnThietKeViMach/Project/SoC/VERIFICATION/Monitor/axi_monitor.sv(55) @ 2415000: uvm_test_top.env.agent.monitor [MON_WR] Detected WRITE : Addr=100000bc Data=38b99789 Strb=1111 Prot=xxx BResp=00
# UVM_INFO C:/Documents/DoAnThietKeViMach/Project/SoC/VERIFICATION/Driver/axi_driver.sv(63) @ 2425000: uvm_test_top.env.agent.driver [DRV] Write Done: Addr=100000bc Data=38b99789 Prot=xxx
# [DRAM WRITE] addr=100000c0 data=dc6d4f18
# UVM_INFO C:/Documents/DoAnThietKeViMach/Project/SoC/VERIFICATION/Monitor/axi_monitor.sv(55) @ 2465000: uvm_test_top.env.agent.monitor [MON_WR] Detected WRITE : Addr=100000c0 Data=dc6d4f18 Strb=1111 Prot=xxx BResp=00
# UVM_INFO C:/Documents/DoAnThietKeViMach/Project/SoC/VERIFICATION/Driver/axi_driver.sv(63) @ 2475000: uvm_test_top.env.agent.driver [DRV] Write Done: Addr=100000c0 Data=dc6d4f18 Prot=xxx
# [DRAM WRITE] addr=100000c4 data=766d8405
# UVM_INFO C:/Documents/DoAnThietKeViMach/Project/SoC/VERIFICATION/Monitor/axi_monitor.sv(55) @ 2515000: uvm_test_top.env.agent.monitor [MON_WR] Detected WRITE : Addr=100000c4 Data=766d8405 Strb=1111 Prot=xxx BResp=00
# UVM_INFO C:/Documents/DoAnThietKeViMach/Project/SoC/VERIFICATION/Driver/axi_driver.sv(63) @ 2525000: uvm_test_top.env.agent.driver [DRV] Write Done: Addr=100000c4 Data=766d8405 Prot=xxx
# [DRAM WRITE] addr=100000c8 data=09c7b641
# UVM_INFO C:/Documents/DoAnThietKeViMach/Project/SoC/VERIFICATION/Monitor/axi_monitor.sv(55) @ 2565000: uvm_test_top.env.agent.monitor [MON_WR] Detected WRITE : Addr=100000c8 Data=09c7b641 Strb=1111 Prot=xxx BResp=00
# UVM_INFO C:/Documents/DoAnThietKeViMach/Project/SoC/VERIFICATION/Driver/axi_driver.sv(63) @ 2575000: uvm_test_top.env.agent.driver [DRV] Write Done: Addr=100000c8 Data=09c7b641 Prot=xxx
# [DRAM WRITE] addr=100000cc data=fdd6522d
# UVM_INFO C:/Documents/DoAnThietKeViMach/Project/SoC/VERIFICATION/Monitor/axi_monitor.sv(55) @ 2615000: uvm_test_top.env.agent.monitor [MON_WR] Detected WRITE : Addr=100000cc Data=fdd6522d Strb=1111 Prot=xxx BResp=00
# UVM_INFO C:/Documents/DoAnThietKeViMach/Project/SoC/VERIFICATION/Driver/axi_driver.sv(63) @ 2625000: uvm_test_top.env.agent.driver [DRV] Write Done: Addr=100000cc Data=fdd6522d Prot=xxx
# [DRAM WRITE] addr=100000d0 data=b9f5b90c
# UVM_INFO C:/Documents/DoAnThietKeViMach/Project/SoC/VERIFICATION/Monitor/axi_monitor.sv(55) @ 2665000: uvm_test_top.env.agent.monitor [MON_WR] Detected WRITE : Addr=100000d0 Data=b9f5b90c Strb=1111 Prot=xxx BResp=00
# UVM_INFO C:/Documents/DoAnThietKeViMach/Project/SoC/VERIFICATION/Driver/axi_driver.sv(63) @ 2675000: uvm_test_top.env.agent.driver [DRV] Write Done: Addr=100000d0 Data=b9f5b90c Prot=xxx
# [DRAM WRITE] addr=100000d4 data=f4e344a4
# UVM_INFO C:/Documents/DoAnThietKeViMach/Project/SoC/VERIFICATION/Monitor/axi_monitor.sv(55) @ 2715000: uvm_test_top.env.agent.monitor [MON_WR] Detected WRITE : Addr=100000d4 Data=f4e344a4 Strb=1111 Prot=xxx BResp=00
# UVM_INFO C:/Documents/DoAnThietKeViMach/Project/SoC/VERIFICATION/Driver/axi_driver.sv(63) @ 2725000: uvm_test_top.env.agent.driver [DRV] Write Done: Addr=100000d4 Data=f4e344a4 Prot=xxx
# [DRAM WRITE] addr=100000d8 data=13e8a037
# UVM_INFO C:/Documents/DoAnThietKeViMach/Project/SoC/VERIFICATION/Monitor/axi_monitor.sv(55) @ 2765000: uvm_test_top.env.agent.monitor [MON_WR] Detected WRITE : Addr=100000d8 Data=13e8a037 Strb=1111 Prot=xxx BResp=00
# UVM_INFO C:/Documents/DoAnThietKeViMach/Project/SoC/VERIFICATION/Driver/axi_driver.sv(63) @ 2775000: uvm_test_top.env.agent.driver [DRV] Write Done: Addr=100000d8 Data=13e8a037 Prot=xxx
# [DRAM WRITE] addr=100000dc data=32c43ec6
# UVM_INFO C:/Documents/DoAnThietKeViMach/Project/SoC/VERIFICATION/Monitor/axi_monitor.sv(55) @ 2815000: uvm_test_top.env.agent.monitor [MON_WR] Detected WRITE : Addr=100000dc Data=32c43ec6 Strb=1111 Prot=xxx BResp=00
# UVM_INFO C:/Documents/DoAnThietKeViMach/Project/SoC/VERIFICATION/Driver/axi_driver.sv(63) @ 2825000: uvm_test_top.env.agent.driver [DRV] Write Done: Addr=100000dc Data=32c43ec6 Prot=xxx
# [DRAM WRITE] addr=100000e0 data=756248c1
# UVM_INFO C:/Documents/DoAnThietKeViMach/Project/SoC/VERIFICATION/Monitor/axi_monitor.sv(55) @ 2865000: uvm_test_top.env.agent.monitor [MON_WR] Detected WRITE : Addr=100000e0 Data=756248c1 Strb=1111 Prot=xxx BResp=00
# UVM_INFO C:/Documents/DoAnThietKeViMach/Project/SoC/VERIFICATION/Driver/axi_driver.sv(63) @ 2875000: uvm_test_top.env.agent.driver [DRV] Write Done: Addr=100000e0 Data=756248c1 Prot=xxx
# [DRAM WRITE] addr=100000e4 data=9e5daa1b
# UVM_INFO C:/Documents/DoAnThietKeViMach/Project/SoC/VERIFICATION/Monitor/axi_monitor.sv(55) @ 2915000: uvm_test_top.env.agent.monitor [MON_WR] Detected WRITE : Addr=100000e4 Data=9e5daa1b Strb=1111 Prot=xxx BResp=00
# UVM_INFO C:/Documents/DoAnThietKeViMach/Project/SoC/VERIFICATION/Driver/axi_driver.sv(63) @ 2925000: uvm_test_top.env.agent.driver [DRV] Write Done: Addr=100000e4 Data=9e5daa1b Prot=xxx
# [DRAM WRITE] addr=100000e8 data=85743518
# UVM_INFO C:/Documents/DoAnThietKeViMach/Project/SoC/VERIFICATION/Monitor/axi_monitor.sv(55) @ 2965000: uvm_test_top.env.agent.monitor [MON_WR] Detected WRITE : Addr=100000e8 Data=85743518 Strb=1111 Prot=xxx BResp=00
# UVM_INFO C:/Documents/DoAnThietKeViMach/Project/SoC/VERIFICATION/Driver/axi_driver.sv(63) @ 2975000: uvm_test_top.env.agent.driver [DRV] Write Done: Addr=100000e8 Data=85743518 Prot=xxx
# [DRAM WRITE] addr=100000ec data=c2a7ef7e
# UVM_INFO C:/Documents/DoAnThietKeViMach/Project/SoC/VERIFICATION/Monitor/axi_monitor.sv(55) @ 3015000: uvm_test_top.env.agent.monitor [MON_WR] Detected WRITE : Addr=100000ec Data=c2a7ef7e Strb=1111 Prot=xxx BResp=00
# UVM_INFO C:/Documents/DoAnThietKeViMach/Project/SoC/VERIFICATION/Driver/axi_driver.sv(63) @ 3025000: uvm_test_top.env.agent.driver [DRV] Write Done: Addr=100000ec Data=c2a7ef7e Prot=xxx
# [DRAM WRITE] addr=100000f0 data=18d6a914
# UVM_INFO C:/Documents/DoAnThietKeViMach/Project/SoC/VERIFICATION/Monitor/axi_monitor.sv(55) @ 3065000: uvm_test_top.env.agent.monitor [MON_WR] Detected WRITE : Addr=100000f0 Data=18d6a914 Strb=1111 Prot=xxx BResp=00
# UVM_INFO C:/Documents/DoAnThietKeViMach/Project/SoC/VERIFICATION/Driver/axi_driver.sv(63) @ 3075000: uvm_test_top.env.agent.driver [DRV] Write Done: Addr=100000f0 Data=18d6a914 Prot=xxx
# [DRAM WRITE] addr=100000f4 data=3cfeca71
# UVM_INFO C:/Documents/DoAnThietKeViMach/Project/SoC/VERIFICATION/Monitor/axi_monitor.sv(55) @ 3115000: uvm_test_top.env.agent.monitor [MON_WR] Detected WRITE : Addr=100000f4 Data=3cfeca71 Strb=1111 Prot=xxx BResp=00
# UVM_INFO C:/Documents/DoAnThietKeViMach/Project/SoC/VERIFICATION/Driver/axi_driver.sv(63) @ 3125000: uvm_test_top.env.agent.driver [DRV] Write Done: Addr=100000f4 Data=3cfeca71 Prot=xxx
# [DRAM WRITE] addr=100000f8 data=28eb66a4
# UVM_INFO C:/Documents/DoAnThietKeViMach/Project/SoC/VERIFICATION/Monitor/axi_monitor.sv(55) @ 3165000: uvm_test_top.env.agent.monitor [MON_WR] Detected WRITE : Addr=100000f8 Data=28eb66a4 Strb=1111 Prot=xxx BResp=00
# UVM_INFO C:/Documents/DoAnThietKeViMach/Project/SoC/VERIFICATION/Driver/axi_driver.sv(63) @ 3175000: uvm_test_top.env.agent.driver [DRV] Write Done: Addr=100000f8 Data=28eb66a4 Prot=xxx
# [DRAM WRITE] addr=100000fc data=116266e8
# UVM_INFO C:/Documents/DoAnThietKeViMach/Project/SoC/VERIFICATION/Monitor/axi_monitor.sv(55) @ 3215000: uvm_test_top.env.agent.monitor [MON_WR] Detected WRITE : Addr=100000fc Data=116266e8 Strb=1111 Prot=xxx BResp=00
# UVM_INFO C:/Documents/DoAnThietKeViMach/Project/SoC/VERIFICATION/Driver/axi_driver.sv(63) @ 3225000: uvm_test_top.env.agent.driver [DRV] Write Done: Addr=100000fc Data=116266e8 Prot=xxx
# [DRAM WRITE] addr=10000100 data=c874a422
# UVM_INFO C:/Documents/DoAnThietKeViMach/Project/SoC/VERIFICATION/Monitor/axi_monitor.sv(55) @ 3265000: uvm_test_top.env.agent.monitor [MON_WR] Detected WRITE : Addr=10000100 Data=c874a422 Strb=1111 Prot=xxx BResp=00
# UVM_INFO C:/Documents/DoAnThietKeViMach/Project/SoC/VERIFICATION/Driver/axi_driver.sv(63) @ 3275000: uvm_test_top.env.agent.driver [DRV] Write Done: Addr=10000100 Data=c874a422 Prot=xxx
# [DRAM WRITE] addr=10000104 data=592ec6b0
# UVM_INFO C:/Documents/DoAnThietKeViMach/Project/SoC/VERIFICATION/Monitor/axi_monitor.sv(55) @ 3315000: uvm_test_top.env.agent.monitor [MON_WR] Detected WRITE : Addr=10000104 Data=592ec6b0 Strb=1111 Prot=xxx BResp=00
# UVM_INFO C:/Documents/DoAnThietKeViMach/Project/SoC/VERIFICATION/Driver/axi_driver.sv(63) @ 3325000: uvm_test_top.env.agent.driver [DRV] Write Done: Addr=10000104 Data=592ec6b0 Prot=xxx
# [DRAM WRITE] addr=10000108 data=b237029d
# UVM_INFO C:/Documents/DoAnThietKeViMach/Project/SoC/VERIFICATION/Monitor/axi_monitor.sv(55) @ 3365000: uvm_test_top.env.agent.monitor [MON_WR] Detected WRITE : Addr=10000108 Data=b237029d Strb=1111 Prot=xxx BResp=00
# UVM_INFO C:/Documents/DoAnThietKeViMach/Project/SoC/VERIFICATION/Driver/axi_driver.sv(63) @ 3375000: uvm_test_top.env.agent.driver [DRV] Write Done: Addr=10000108 Data=b237029d Prot=xxx
# [DRAM WRITE] addr=1000010c data=86d6ff58
# UVM_INFO C:/Documents/DoAnThietKeViMach/Project/SoC/VERIFICATION/Monitor/axi_monitor.sv(55) @ 3415000: uvm_test_top.env.agent.monitor [MON_WR] Detected WRITE : Addr=1000010c Data=86d6ff58 Strb=1111 Prot=xxx BResp=00
# UVM_INFO C:/Documents/DoAnThietKeViMach/Project/SoC/VERIFICATION/Driver/axi_driver.sv(63) @ 3425000: uvm_test_top.env.agent.driver [DRV] Write Done: Addr=1000010c Data=86d6ff58 Prot=xxx
# [DRAM WRITE] addr=10000110 data=ad6936b6
# UVM_INFO C:/Documents/DoAnThietKeViMach/Project/SoC/VERIFICATION/Monitor/axi_monitor.sv(55) @ 3465000: uvm_test_top.env.agent.monitor [MON_WR] Detected WRITE : Addr=10000110 Data=ad6936b6 Strb=1111 Prot=xxx BResp=00
# UVM_INFO C:/Documents/DoAnThietKeViMach/Project/SoC/VERIFICATION/Driver/axi_driver.sv(63) @ 3475000: uvm_test_top.env.agent.driver [DRV] Write Done: Addr=10000110 Data=ad6936b6 Prot=xxx
# [DRAM WRITE] addr=10000114 data=a74872b2
# UVM_INFO C:/Documents/DoAnThietKeViMach/Project/SoC/VERIFICATION/Monitor/axi_monitor.sv(55) @ 3515000: uvm_test_top.env.agent.monitor [MON_WR] Detected WRITE : Addr=10000114 Data=a74872b2 Strb=1111 Prot=xxx BResp=00
# UVM_INFO C:/Documents/DoAnThietKeViMach/Project/SoC/VERIFICATION/Driver/axi_driver.sv(63) @ 3525000: uvm_test_top.env.agent.driver [DRV] Write Done: Addr=10000114 Data=a74872b2 Prot=xxx
# [DRAM WRITE] addr=10000118 data=0e5809ad
# UVM_INFO C:/Documents/DoAnThietKeViMach/Project/SoC/VERIFICATION/Monitor/axi_monitor.sv(55) @ 3565000: uvm_test_top.env.agent.monitor [MON_WR] Detected WRITE : Addr=10000118 Data=0e5809ad Strb=1111 Prot=xxx BResp=00
# UVM_INFO C:/Documents/DoAnThietKeViMach/Project/SoC/VERIFICATION/Driver/axi_driver.sv(63) @ 3575000: uvm_test_top.env.agent.driver [DRV] Write Done: Addr=10000118 Data=0e5809ad Prot=xxx
# [DRAM WRITE] addr=1000011c data=dfbc5070
# UVM_INFO C:/Documents/DoAnThietKeViMach/Project/SoC/VERIFICATION/Monitor/axi_monitor.sv(55) @ 3615000: uvm_test_top.env.agent.monitor [MON_WR] Detected WRITE : Addr=1000011c Data=dfbc5070 Strb=1111 Prot=xxx BResp=00
# UVM_INFO C:/Documents/DoAnThietKeViMach/Project/SoC/VERIFICATION/Driver/axi_driver.sv(63) @ 3625000: uvm_test_top.env.agent.driver [DRV] Write Done: Addr=1000011c Data=dfbc5070 Prot=xxx
# [DRAM WRITE] addr=10000120 data=f4f20aa6
# UVM_INFO C:/Documents/DoAnThietKeViMach/Project/SoC/VERIFICATION/Monitor/axi_monitor.sv(55) @ 3665000: uvm_test_top.env.agent.monitor [MON_WR] Detected WRITE : Addr=10000120 Data=f4f20aa6 Strb=1111 Prot=xxx BResp=00
# UVM_INFO C:/Documents/DoAnThietKeViMach/Project/SoC/VERIFICATION/Driver/axi_driver.sv(63) @ 3675000: uvm_test_top.env.agent.driver [DRV] Write Done: Addr=10000120 Data=f4f20aa6 Prot=xxx
# [DRAM WRITE] addr=10000124 data=b2bfa8c6
# UVM_INFO C:/Documents/DoAnThietKeViMach/Project/SoC/VERIFICATION/Monitor/axi_monitor.sv(55) @ 3715000: uvm_test_top.env.agent.monitor [MON_WR] Detected WRITE : Addr=10000124 Data=b2bfa8c6 Strb=1111 Prot=xxx BResp=00
# UVM_INFO C:/Documents/DoAnThietKeViMach/Project/SoC/VERIFICATION/Driver/axi_driver.sv(63) @ 3725000: uvm_test_top.env.agent.driver [DRV] Write Done: Addr=10000124 Data=b2bfa8c6 Prot=xxx
# [DRAM WRITE] addr=10000128 data=8902cf6e
# UVM_INFO C:/Documents/DoAnThietKeViMach/Project/SoC/VERIFICATION/Monitor/axi_monitor.sv(55) @ 3765000: uvm_test_top.env.agent.monitor [MON_WR] Detected WRITE : Addr=10000128 Data=8902cf6e Strb=1111 Prot=xxx BResp=00
# UVM_INFO C:/Documents/DoAnThietKeViMach/Project/SoC/VERIFICATION/Driver/axi_driver.sv(63) @ 3775000: uvm_test_top.env.agent.driver [DRV] Write Done: Addr=10000128 Data=8902cf6e Prot=xxx
# [DRAM WRITE] addr=1000012c data=be034e07
# UVM_INFO C:/Documents/DoAnThietKeViMach/Project/SoC/VERIFICATION/Monitor/axi_monitor.sv(55) @ 3815000: uvm_test_top.env.agent.monitor [MON_WR] Detected WRITE : Addr=1000012c Data=be034e07 Strb=1111 Prot=xxx BResp=00
# UVM_INFO C:/Documents/DoAnThietKeViMach/Project/SoC/VERIFICATION/Driver/axi_driver.sv(63) @ 3825000: uvm_test_top.env.agent.driver [DRV] Write Done: Addr=1000012c Data=be034e07 Prot=xxx
# [DRAM WRITE] addr=10000130 data=b45c63e2
# UVM_INFO C:/Documents/DoAnThietKeViMach/Project/SoC/VERIFICATION/Monitor/axi_monitor.sv(55) @ 3865000: uvm_test_top.env.agent.monitor [MON_WR] Detected WRITE : Addr=10000130 Data=b45c63e2 Strb=1111 Prot=xxx BResp=00
# UVM_INFO C:/Documents/DoAnThietKeViMach/Project/SoC/VERIFICATION/Driver/axi_driver.sv(63) @ 3875000: uvm_test_top.env.agent.driver [DRV] Write Done: Addr=10000130 Data=b45c63e2 Prot=xxx
# [DRAM WRITE] addr=10000134 data=384a1a08
# UVM_INFO C:/Documents/DoAnThietKeViMach/Project/SoC/VERIFICATION/Monitor/axi_monitor.sv(55) @ 3915000: uvm_test_top.env.agent.monitor [MON_WR] Detected WRITE : Addr=10000134 Data=384a1a08 Strb=1111 Prot=xxx BResp=00
# UVM_INFO C:/Documents/DoAnThietKeViMach/Project/SoC/VERIFICATION/Driver/axi_driver.sv(63) @ 3925000: uvm_test_top.env.agent.driver [DRV] Write Done: Addr=10000134 Data=384a1a08 Prot=xxx
# [DRAM WRITE] addr=10000138 data=1a718c1d
# UVM_INFO C:/Documents/DoAnThietKeViMach/Project/SoC/VERIFICATION/Monitor/axi_monitor.sv(55) @ 3965000: uvm_test_top.env.agent.monitor [MON_WR] Detected WRITE : Addr=10000138 Data=1a718c1d Strb=1111 Prot=xxx BResp=00
# UVM_INFO C:/Documents/DoAnThietKeViMach/Project/SoC/VERIFICATION/Driver/axi_driver.sv(63) @ 3975000: uvm_test_top.env.agent.driver [DRV] Write Done: Addr=10000138 Data=1a718c1d Prot=xxx
# [DRAM WRITE] addr=1000013c data=0ef5affe
# UVM_INFO C:/Documents/DoAnThietKeViMach/Project/SoC/VERIFICATION/Monitor/axi_monitor.sv(55) @ 4015000: uvm_test_top.env.agent.monitor [MON_WR] Detected WRITE : Addr=1000013c Data=0ef5affe Strb=1111 Prot=xxx BResp=00
# UVM_INFO C:/Documents/DoAnThietKeViMach/Project/SoC/VERIFICATION/Driver/axi_driver.sv(63) @ 4025000: uvm_test_top.env.agent.driver [DRV] Write Done: Addr=1000013c Data=0ef5affe Prot=xxx
# [DRAM WRITE] addr=10000140 data=fc56edae
# UVM_INFO C:/Documents/DoAnThietKeViMach/Project/SoC/VERIFICATION/Monitor/axi_monitor.sv(55) @ 4065000: uvm_test_top.env.agent.monitor [MON_WR] Detected WRITE : Addr=10000140 Data=fc56edae Strb=1111 Prot=xxx BResp=00
# UVM_INFO C:/Documents/DoAnThietKeViMach/Project/SoC/VERIFICATION/Driver/axi_driver.sv(63) @ 4075000: uvm_test_top.env.agent.driver [DRV] Write Done: Addr=10000140 Data=fc56edae Prot=xxx
# [DRAM WRITE] addr=10000144 data=dbeb28ce
# UVM_INFO C:/Documents/DoAnThietKeViMach/Project/SoC/VERIFICATION/Monitor/axi_monitor.sv(55) @ 4115000: uvm_test_top.env.agent.monitor [MON_WR] Detected WRITE : Addr=10000144 Data=dbeb28ce Strb=1111 Prot=xxx BResp=00
# UVM_INFO C:/Documents/DoAnThietKeViMach/Project/SoC/VERIFICATION/Driver/axi_driver.sv(63) @ 4125000: uvm_test_top.env.agent.driver [DRV] Write Done: Addr=10000144 Data=dbeb28ce Prot=xxx
# [DRAM WRITE] addr=10000148 data=7947894e
# UVM_INFO C:/Documents/DoAnThietKeViMach/Project/SoC/VERIFICATION/Monitor/axi_monitor.sv(55) @ 4165000: uvm_test_top.env.agent.monitor [MON_WR] Detected WRITE : Addr=10000148 Data=7947894e Strb=1111 Prot=xxx BResp=00
# UVM_INFO C:/Documents/DoAnThietKeViMach/Project/SoC/VERIFICATION/Driver/axi_driver.sv(63) @ 4175000: uvm_test_top.env.agent.driver [DRV] Write Done: Addr=10000148 Data=7947894e Prot=xxx
# [DRAM WRITE] addr=1000014c data=524a98cc
# UVM_INFO C:/Documents/DoAnThietKeViMach/Project/SoC/VERIFICATION/Monitor/axi_monitor.sv(55) @ 4215000: uvm_test_top.env.agent.monitor [MON_WR] Detected WRITE : Addr=1000014c Data=524a98cc Strb=1111 Prot=xxx BResp=00
# UVM_INFO C:/Documents/DoAnThietKeViMach/Project/SoC/VERIFICATION/Driver/axi_driver.sv(63) @ 4225000: uvm_test_top.env.agent.driver [DRV] Write Done: Addr=1000014c Data=524a98cc Prot=xxx
# [DRAM WRITE] addr=10000150 data=fab71ee5
# UVM_INFO C:/Documents/DoAnThietKeViMach/Project/SoC/VERIFICATION/Monitor/axi_monitor.sv(55) @ 4265000: uvm_test_top.env.agent.monitor [MON_WR] Detected WRITE : Addr=10000150 Data=fab71ee5 Strb=1111 Prot=xxx BResp=00
# UVM_INFO C:/Documents/DoAnThietKeViMach/Project/SoC/VERIFICATION/Driver/axi_driver.sv(63) @ 4275000: uvm_test_top.env.agent.driver [DRV] Write Done: Addr=10000150 Data=fab71ee5 Prot=xxx
# [DRAM WRITE] addr=10000154 data=726c68a3
# UVM_INFO C:/Documents/DoAnThietKeViMach/Project/SoC/VERIFICATION/Monitor/axi_monitor.sv(55) @ 4315000: uvm_test_top.env.agent.monitor [MON_WR] Detected WRITE : Addr=10000154 Data=726c68a3 Strb=1111 Prot=xxx BResp=00
# UVM_INFO C:/Documents/DoAnThietKeViMach/Project/SoC/VERIFICATION/Driver/axi_driver.sv(63) @ 4325000: uvm_test_top.env.agent.driver [DRV] Write Done: Addr=10000154 Data=726c68a3 Prot=xxx
# [DRAM WRITE] addr=10000158 data=153a8c9d
# UVM_INFO C:/Documents/DoAnThietKeViMach/Project/SoC/VERIFICATION/Monitor/axi_monitor.sv(55) @ 4365000: uvm_test_top.env.agent.monitor [MON_WR] Detected WRITE : Addr=10000158 Data=153a8c9d Strb=1111 Prot=xxx BResp=00
# UVM_INFO C:/Documents/DoAnThietKeViMach/Project/SoC/VERIFICATION/Driver/axi_driver.sv(63) @ 4375000: uvm_test_top.env.agent.driver [DRV] Write Done: Addr=10000158 Data=153a8c9d Prot=xxx
# [DRAM WRITE] addr=1000015c data=68a65b2f
# UVM_INFO C:/Documents/DoAnThietKeViMach/Project/SoC/VERIFICATION/Monitor/axi_monitor.sv(55) @ 4415000: uvm_test_top.env.agent.monitor [MON_WR] Detected WRITE : Addr=1000015c Data=68a65b2f Strb=1111 Prot=xxx BResp=00
# UVM_INFO C:/Documents/DoAnThietKeViMach/Project/SoC/VERIFICATION/Driver/axi_driver.sv(63) @ 4425000: uvm_test_top.env.agent.driver [DRV] Write Done: Addr=1000015c Data=68a65b2f Prot=xxx
# [DRAM WRITE] addr=10000160 data=c8a454c8
# UVM_INFO C:/Documents/DoAnThietKeViMach/Project/SoC/VERIFICATION/Monitor/axi_monitor.sv(55) @ 4465000: uvm_test_top.env.agent.monitor [MON_WR] Detected WRITE : Addr=10000160 Data=c8a454c8 Strb=1111 Prot=xxx BResp=00
# UVM_INFO C:/Documents/DoAnThietKeViMach/Project/SoC/VERIFICATION/Driver/axi_driver.sv(63) @ 4475000: uvm_test_top.env.agent.driver [DRV] Write Done: Addr=10000160 Data=c8a454c8 Prot=xxx
# [DRAM WRITE] addr=10000164 data=fb79c756
# UVM_INFO C:/Documents/DoAnThietKeViMach/Project/SoC/VERIFICATION/Monitor/axi_monitor.sv(55) @ 4515000: uvm_test_top.env.agent.monitor [MON_WR] Detected WRITE : Addr=10000164 Data=fb79c756 Strb=1111 Prot=xxx BResp=00
# UVM_INFO C:/Documents/DoAnThietKeViMach/Project/SoC/VERIFICATION/Driver/axi_driver.sv(63) @ 4525000: uvm_test_top.env.agent.driver [DRV] Write Done: Addr=10000164 Data=fb79c756 Prot=xxx
# [DRAM WRITE] addr=10000168 data=3fedfa51
# UVM_INFO C:/Documents/DoAnThietKeViMach/Project/SoC/VERIFICATION/Monitor/axi_monitor.sv(55) @ 4565000: uvm_test_top.env.agent.monitor [MON_WR] Detected WRITE : Addr=10000168 Data=3fedfa51 Strb=1111 Prot=xxx BResp=00
# UVM_INFO C:/Documents/DoAnThietKeViMach/Project/SoC/VERIFICATION/Driver/axi_driver.sv(63) @ 4575000: uvm_test_top.env.agent.driver [DRV] Write Done: Addr=10000168 Data=3fedfa51 Prot=xxx
# [DRAM WRITE] addr=1000016c data=29ca030a
# UVM_INFO C:/Documents/DoAnThietKeViMach/Project/SoC/VERIFICATION/Monitor/axi_monitor.sv(55) @ 4615000: uvm_test_top.env.agent.monitor [MON_WR] Detected WRITE : Addr=1000016c Data=29ca030a Strb=1111 Prot=xxx BResp=00
# UVM_INFO C:/Documents/DoAnThietKeViMach/Project/SoC/VERIFICATION/Driver/axi_driver.sv(63) @ 4625000: uvm_test_top.env.agent.driver [DRV] Write Done: Addr=1000016c Data=29ca030a Prot=xxx
# [DRAM WRITE] addr=10000170 data=de4a49d3
# UVM_INFO C:/Documents/DoAnThietKeViMach/Project/SoC/VERIFICATION/Monitor/axi_monitor.sv(55) @ 4665000: uvm_test_top.env.agent.monitor [MON_WR] Detected WRITE : Addr=10000170 Data=de4a49d3 Strb=1111 Prot=xxx BResp=00
# UVM_INFO C:/Documents/DoAnThietKeViMach/Project/SoC/VERIFICATION/Driver/axi_driver.sv(63) @ 4675000: uvm_test_top.env.agent.driver [DRV] Write Done: Addr=10000170 Data=de4a49d3 Prot=xxx
# [DRAM WRITE] addr=10000174 data=e9bb6e8b
# UVM_INFO C:/Documents/DoAnThietKeViMach/Project/SoC/VERIFICATION/Monitor/axi_monitor.sv(55) @ 4715000: uvm_test_top.env.agent.monitor [MON_WR] Detected WRITE : Addr=10000174 Data=e9bb6e8b Strb=1111 Prot=xxx BResp=00
# UVM_INFO C:/Documents/DoAnThietKeViMach/Project/SoC/VERIFICATION/Driver/axi_driver.sv(63) @ 4725000: uvm_test_top.env.agent.driver [DRV] Write Done: Addr=10000174 Data=e9bb6e8b Prot=xxx
# [DRAM WRITE] addr=10000178 data=4b291106
# UVM_INFO C:/Documents/DoAnThietKeViMach/Project/SoC/VERIFICATION/Monitor/axi_monitor.sv(55) @ 4765000: uvm_test_top.env.agent.monitor [MON_WR] Detected WRITE : Addr=10000178 Data=4b291106 Strb=1111 Prot=xxx BResp=00
# UVM_INFO C:/Documents/DoAnThietKeViMach/Project/SoC/VERIFICATION/Driver/axi_driver.sv(63) @ 4775000: uvm_test_top.env.agent.driver [DRV] Write Done: Addr=10000178 Data=4b291106 Prot=xxx
# [DRAM WRITE] addr=1000017c data=79adfd42
# UVM_INFO C:/Documents/DoAnThietKeViMach/Project/SoC/VERIFICATION/Monitor/axi_monitor.sv(55) @ 4815000: uvm_test_top.env.agent.monitor [MON_WR] Detected WRITE : Addr=1000017c Data=79adfd42 Strb=1111 Prot=xxx BResp=00
# UVM_INFO C:/Documents/DoAnThietKeViMach/Project/SoC/VERIFICATION/Driver/axi_driver.sv(63) @ 4825000: uvm_test_top.env.agent.driver [DRV] Write Done: Addr=1000017c Data=79adfd42 Prot=xxx
# [DRAM WRITE] addr=10000180 data=6ff21bc4
# UVM_INFO C:/Documents/DoAnThietKeViMach/Project/SoC/VERIFICATION/Monitor/axi_monitor.sv(55) @ 4865000: uvm_test_top.env.agent.monitor [MON_WR] Detected WRITE : Addr=10000180 Data=6ff21bc4 Strb=1111 Prot=xxx BResp=00
# UVM_INFO C:/Documents/DoAnThietKeViMach/Project/SoC/VERIFICATION/Driver/axi_driver.sv(63) @ 4875000: uvm_test_top.env.agent.driver [DRV] Write Done: Addr=10000180 Data=6ff21bc4 Prot=xxx
# [DRAM WRITE] addr=10000184 data=ce94fc66
# UVM_INFO C:/Documents/DoAnThietKeViMach/Project/SoC/VERIFICATION/Monitor/axi_monitor.sv(55) @ 4915000: uvm_test_top.env.agent.monitor [MON_WR] Detected WRITE : Addr=10000184 Data=ce94fc66 Strb=1111 Prot=xxx BResp=00
# UVM_INFO C:/Documents/DoAnThietKeViMach/Project/SoC/VERIFICATION/Driver/axi_driver.sv(63) @ 4925000: uvm_test_top.env.agent.driver [DRV] Write Done: Addr=10000184 Data=ce94fc66 Prot=xxx
# [DRAM WRITE] addr=10000188 data=e117c6e6
# UVM_INFO C:/Documents/DoAnThietKeViMach/Project/SoC/VERIFICATION/Monitor/axi_monitor.sv(55) @ 4965000: uvm_test_top.env.agent.monitor [MON_WR] Detected WRITE : Addr=10000188 Data=e117c6e6 Strb=1111 Prot=xxx BResp=00
# UVM_INFO C:/Documents/DoAnThietKeViMach/Project/SoC/VERIFICATION/Driver/axi_driver.sv(63) @ 4975000: uvm_test_top.env.agent.driver [DRV] Write Done: Addr=10000188 Data=e117c6e6 Prot=xxx
# [DRAM WRITE] addr=1000018c data=72f8ac9a
# UVM_INFO C:/Documents/DoAnThietKeViMach/Project/SoC/VERIFICATION/Monitor/axi_monitor.sv(55) @ 5015000: uvm_test_top.env.agent.monitor [MON_WR] Detected WRITE : Addr=1000018c Data=72f8ac9a Strb=1111 Prot=xxx BResp=00
# UVM_INFO C:/Documents/DoAnThietKeViMach/Project/SoC/VERIFICATION/Driver/axi_driver.sv(63) @ 5025000: uvm_test_top.env.agent.driver [DRV] Write Done: Addr=1000018c Data=72f8ac9a Prot=xxx
# [DRAM WRITE] addr=10000190 data=a5c4f373
# UVM_INFO C:/Documents/DoAnThietKeViMach/Project/SoC/VERIFICATION/Monitor/axi_monitor.sv(55) @ 5065000: uvm_test_top.env.agent.monitor [MON_WR] Detected WRITE : Addr=10000190 Data=a5c4f373 Strb=1111 Prot=xxx BResp=00
# UVM_INFO C:/Documents/DoAnThietKeViMach/Project/SoC/VERIFICATION/Driver/axi_driver.sv(63) @ 5075000: uvm_test_top.env.agent.driver [DRV] Write Done: Addr=10000190 Data=a5c4f373 Prot=xxx
# [DRAM WRITE] addr=10000194 data=44506b84
# UVM_INFO C:/Documents/DoAnThietKeViMach/Project/SoC/VERIFICATION/Monitor/axi_monitor.sv(55) @ 5115000: uvm_test_top.env.agent.monitor [MON_WR] Detected WRITE : Addr=10000194 Data=44506b84 Strb=1111 Prot=xxx BResp=00
# UVM_INFO C:/Documents/DoAnThietKeViMach/Project/SoC/VERIFICATION/Driver/axi_driver.sv(63) @ 5125000: uvm_test_top.env.agent.driver [DRV] Write Done: Addr=10000194 Data=44506b84 Prot=xxx
# [DRAM WRITE] addr=10000198 data=db448054
# UVM_INFO C:/Documents/DoAnThietKeViMach/Project/SoC/VERIFICATION/Monitor/axi_monitor.sv(55) @ 5165000: uvm_test_top.env.agent.monitor [MON_WR] Detected WRITE : Addr=10000198 Data=db448054 Strb=1111 Prot=xxx BResp=00
# UVM_INFO C:/Documents/DoAnThietKeViMach/Project/SoC/VERIFICATION/Driver/axi_driver.sv(63) @ 5175000: uvm_test_top.env.agent.driver [DRV] Write Done: Addr=10000198 Data=db448054 Prot=xxx
# [DRAM WRITE] addr=1000019c data=fd0919d8
# UVM_INFO C:/Documents/DoAnThietKeViMach/Project/SoC/VERIFICATION/Monitor/axi_monitor.sv(55) @ 5215000: uvm_test_top.env.agent.monitor [MON_WR] Detected WRITE : Addr=1000019c Data=fd0919d8 Strb=1111 Prot=xxx BResp=00
# UVM_INFO C:/Documents/DoAnThietKeViMach/Project/SoC/VERIFICATION/Driver/axi_driver.sv(63) @ 5225000: uvm_test_top.env.agent.driver [DRV] Write Done: Addr=1000019c Data=fd0919d8 Prot=xxx
# [DRAM WRITE] addr=100001a0 data=a0ebb529
# UVM_INFO C:/Documents/DoAnThietKeViMach/Project/SoC/VERIFICATION/Monitor/axi_monitor.sv(55) @ 5265000: uvm_test_top.env.agent.monitor [MON_WR] Detected WRITE : Addr=100001a0 Data=a0ebb529 Strb=1111 Prot=xxx BResp=00
# UVM_INFO C:/Documents/DoAnThietKeViMach/Project/SoC/VERIFICATION/Driver/axi_driver.sv(63) @ 5275000: uvm_test_top.env.agent.driver [DRV] Write Done: Addr=100001a0 Data=a0ebb529 Prot=xxx
# [DRAM WRITE] addr=100001a4 data=dc64ee51
# UVM_INFO C:/Documents/DoAnThietKeViMach/Project/SoC/VERIFICATION/Monitor/axi_monitor.sv(55) @ 5315000: uvm_test_top.env.agent.monitor [MON_WR] Detected WRITE : Addr=100001a4 Data=dc64ee51 Strb=1111 Prot=xxx BResp=00
# UVM_INFO C:/Documents/DoAnThietKeViMach/Project/SoC/VERIFICATION/Driver/axi_driver.sv(63) @ 5325000: uvm_test_top.env.agent.driver [DRV] Write Done: Addr=100001a4 Data=dc64ee51 Prot=xxx
# [DRAM WRITE] addr=100001a8 data=1eeeda2b
# UVM_INFO C:/Documents/DoAnThietKeViMach/Project/SoC/VERIFICATION/Monitor/axi_monitor.sv(55) @ 5365000: uvm_test_top.env.agent.monitor [MON_WR] Detected WRITE : Addr=100001a8 Data=1eeeda2b Strb=1111 Prot=xxx BResp=00
# UVM_INFO C:/Documents/DoAnThietKeViMach/Project/SoC/VERIFICATION/Driver/axi_driver.sv(63) @ 5375000: uvm_test_top.env.agent.driver [DRV] Write Done: Addr=100001a8 Data=1eeeda2b Prot=xxx
# [DRAM WRITE] addr=100001ac data=354b21c1
# UVM_INFO C:/Documents/DoAnThietKeViMach/Project/SoC/VERIFICATION/Monitor/axi_monitor.sv(55) @ 5415000: uvm_test_top.env.agent.monitor [MON_WR] Detected WRITE : Addr=100001ac Data=354b21c1 Strb=1111 Prot=xxx BResp=00
# UVM_INFO C:/Documents/DoAnThietKeViMach/Project/SoC/VERIFICATION/Driver/axi_driver.sv(63) @ 5425000: uvm_test_top.env.agent.driver [DRV] Write Done: Addr=100001ac Data=354b21c1 Prot=xxx
# [DRAM WRITE] addr=100001b0 data=d6fa3dec
# UVM_INFO C:/Documents/DoAnThietKeViMach/Project/SoC/VERIFICATION/Monitor/axi_monitor.sv(55) @ 5465000: uvm_test_top.env.agent.monitor [MON_WR] Detected WRITE : Addr=100001b0 Data=d6fa3dec Strb=1111 Prot=xxx BResp=00
# UVM_INFO C:/Documents/DoAnThietKeViMach/Project/SoC/VERIFICATION/Driver/axi_driver.sv(63) @ 5475000: uvm_test_top.env.agent.driver [DRV] Write Done: Addr=100001b0 Data=d6fa3dec Prot=xxx
# [DRAM WRITE] addr=100001b4 data=d6780136
# UVM_INFO C:/Documents/DoAnThietKeViMach/Project/SoC/VERIFICATION/Monitor/axi_monitor.sv(55) @ 5515000: uvm_test_top.env.agent.monitor [MON_WR] Detected WRITE : Addr=100001b4 Data=d6780136 Strb=1111 Prot=xxx BResp=00
# UVM_INFO C:/Documents/DoAnThietKeViMach/Project/SoC/VERIFICATION/Driver/axi_driver.sv(63) @ 5525000: uvm_test_top.env.agent.driver [DRV] Write Done: Addr=100001b4 Data=d6780136 Prot=xxx
# [DRAM WRITE] addr=100001b8 data=34f6a924
# UVM_INFO C:/Documents/DoAnThietKeViMach/Project/SoC/VERIFICATION/Monitor/axi_monitor.sv(55) @ 5565000: uvm_test_top.env.agent.monitor [MON_WR] Detected WRITE : Addr=100001b8 Data=34f6a924 Strb=1111 Prot=xxx BResp=00
# UVM_INFO C:/Documents/DoAnThietKeViMach/Project/SoC/VERIFICATION/Driver/axi_driver.sv(63) @ 5575000: uvm_test_top.env.agent.driver [DRV] Write Done: Addr=100001b8 Data=34f6a924 Prot=xxx
# [DRAM WRITE] addr=100001bc data=2ef098f8
# UVM_INFO C:/Documents/DoAnThietKeViMach/Project/SoC/VERIFICATION/Monitor/axi_monitor.sv(55) @ 5615000: uvm_test_top.env.agent.monitor [MON_WR] Detected WRITE : Addr=100001bc Data=2ef098f8 Strb=1111 Prot=xxx BResp=00
# UVM_INFO C:/Documents/DoAnThietKeViMach/Project/SoC/VERIFICATION/Driver/axi_driver.sv(63) @ 5625000: uvm_test_top.env.agent.driver [DRV] Write Done: Addr=100001bc Data=2ef098f8 Prot=xxx
# [DRAM WRITE] addr=100001c0 data=f868a09c
# UVM_INFO C:/Documents/DoAnThietKeViMach/Project/SoC/VERIFICATION/Monitor/axi_monitor.sv(55) @ 5665000: uvm_test_top.env.agent.monitor [MON_WR] Detected WRITE : Addr=100001c0 Data=f868a09c Strb=1111 Prot=xxx BResp=00
# UVM_INFO C:/Documents/DoAnThietKeViMach/Project/SoC/VERIFICATION/Driver/axi_driver.sv(63) @ 5675000: uvm_test_top.env.agent.driver [DRV] Write Done: Addr=100001c0 Data=f868a09c Prot=xxx
# [DRAM WRITE] addr=100001c4 data=399e343d
# UVM_INFO C:/Documents/DoAnThietKeViMach/Project/SoC/VERIFICATION/Monitor/axi_monitor.sv(55) @ 5715000: uvm_test_top.env.agent.monitor [MON_WR] Detected WRITE : Addr=100001c4 Data=399e343d Strb=1111 Prot=xxx BResp=00
# UVM_INFO C:/Documents/DoAnThietKeViMach/Project/SoC/VERIFICATION/Driver/axi_driver.sv(63) @ 5725000: uvm_test_top.env.agent.driver [DRV] Write Done: Addr=100001c4 Data=399e343d Prot=xxx
# [DRAM WRITE] addr=100001c8 data=a8e8b88a
# UVM_INFO C:/Documents/DoAnThietKeViMach/Project/SoC/VERIFICATION/Monitor/axi_monitor.sv(55) @ 5765000: uvm_test_top.env.agent.monitor [MON_WR] Detected WRITE : Addr=100001c8 Data=a8e8b88a Strb=1111 Prot=xxx BResp=00
# UVM_INFO C:/Documents/DoAnThietKeViMach/Project/SoC/VERIFICATION/Driver/axi_driver.sv(63) @ 5775000: uvm_test_top.env.agent.driver [DRV] Write Done: Addr=100001c8 Data=a8e8b88a Prot=xxx
# [DRAM WRITE] addr=100001cc data=58f79df4
# UVM_INFO C:/Documents/DoAnThietKeViMach/Project/SoC/VERIFICATION/Monitor/axi_monitor.sv(55) @ 5815000: uvm_test_top.env.agent.monitor [MON_WR] Detected WRITE : Addr=100001cc Data=58f79df4 Strb=1111 Prot=xxx BResp=00
# UVM_INFO C:/Documents/DoAnThietKeViMach/Project/SoC/VERIFICATION/Driver/axi_driver.sv(63) @ 5825000: uvm_test_top.env.agent.driver [DRV] Write Done: Addr=100001cc Data=58f79df4 Prot=xxx
# [DRAM WRITE] addr=100001d0 data=beb0e205
# UVM_INFO C:/Documents/DoAnThietKeViMach/Project/SoC/VERIFICATION/Monitor/axi_monitor.sv(55) @ 5865000: uvm_test_top.env.agent.monitor [MON_WR] Detected WRITE : Addr=100001d0 Data=beb0e205 Strb=1111 Prot=xxx BResp=00
# UVM_INFO C:/Documents/DoAnThietKeViMach/Project/SoC/VERIFICATION/Driver/axi_driver.sv(63) @ 5875000: uvm_test_top.env.agent.driver [DRV] Write Done: Addr=100001d0 Data=beb0e205 Prot=xxx
# [DRAM WRITE] addr=100001d4 data=df07ac1b
# UVM_INFO C:/Documents/DoAnThietKeViMach/Project/SoC/VERIFICATION/Monitor/axi_monitor.sv(55) @ 5915000: uvm_test_top.env.agent.monitor [MON_WR] Detected WRITE : Addr=100001d4 Data=df07ac1b Strb=1111 Prot=xxx BResp=00
# UVM_INFO C:/Documents/DoAnThietKeViMach/Project/SoC/VERIFICATION/Driver/axi_driver.sv(63) @ 5925000: uvm_test_top.env.agent.driver [DRV] Write Done: Addr=100001d4 Data=df07ac1b Prot=xxx
# [DRAM WRITE] addr=100001d8 data=bdee1432
# UVM_INFO C:/Documents/DoAnThietKeViMach/Project/SoC/VERIFICATION/Monitor/axi_monitor.sv(55) @ 5965000: uvm_test_top.env.agent.monitor [MON_WR] Detected WRITE : Addr=100001d8 Data=bdee1432 Strb=1111 Prot=xxx BResp=00
# UVM_INFO C:/Documents/DoAnThietKeViMach/Project/SoC/VERIFICATION/Driver/axi_driver.sv(63) @ 5975000: uvm_test_top.env.agent.driver [DRV] Write Done: Addr=100001d8 Data=bdee1432 Prot=xxx
# [DRAM WRITE] addr=100001dc data=18814a29
# UVM_INFO C:/Documents/DoAnThietKeViMach/Project/SoC/VERIFICATION/Monitor/axi_monitor.sv(55) @ 6015000: uvm_test_top.env.agent.monitor [MON_WR] Detected WRITE : Addr=100001dc Data=18814a29 Strb=1111 Prot=xxx BResp=00
# UVM_INFO C:/Documents/DoAnThietKeViMach/Project/SoC/VERIFICATION/Driver/axi_driver.sv(63) @ 6025000: uvm_test_top.env.agent.driver [DRV] Write Done: Addr=100001dc Data=18814a29 Prot=xxx
# [DRAM WRITE] addr=100001e0 data=d40c6398
# UVM_INFO C:/Documents/DoAnThietKeViMach/Project/SoC/VERIFICATION/Monitor/axi_monitor.sv(55) @ 6065000: uvm_test_top.env.agent.monitor [MON_WR] Detected WRITE : Addr=100001e0 Data=d40c6398 Strb=1111 Prot=xxx BResp=00
# UVM_INFO C:/Documents/DoAnThietKeViMach/Project/SoC/VERIFICATION/Driver/axi_driver.sv(63) @ 6075000: uvm_test_top.env.agent.driver [DRV] Write Done: Addr=100001e0 Data=d40c6398 Prot=xxx
# [DRAM WRITE] addr=100001e4 data=15a8f798
# UVM_INFO C:/Documents/DoAnThietKeViMach/Project/SoC/VERIFICATION/Monitor/axi_monitor.sv(55) @ 6115000: uvm_test_top.env.agent.monitor [MON_WR] Detected WRITE : Addr=100001e4 Data=15a8f798 Strb=1111 Prot=xxx BResp=00
# UVM_INFO C:/Documents/DoAnThietKeViMach/Project/SoC/VERIFICATION/Driver/axi_driver.sv(63) @ 6125000: uvm_test_top.env.agent.driver [DRV] Write Done: Addr=100001e4 Data=15a8f798 Prot=xxx
# [DRAM WRITE] addr=100001e8 data=e1575c79
# UVM_INFO C:/Documents/DoAnThietKeViMach/Project/SoC/VERIFICATION/Monitor/axi_monitor.sv(55) @ 6165000: uvm_test_top.env.agent.monitor [MON_WR] Detected WRITE : Addr=100001e8 Data=e1575c79 Strb=1111 Prot=xxx BResp=00
# UVM_INFO C:/Documents/DoAnThietKeViMach/Project/SoC/VERIFICATION/Driver/axi_driver.sv(63) @ 6175000: uvm_test_top.env.agent.driver [DRV] Write Done: Addr=100001e8 Data=e1575c79 Prot=xxx
# [DRAM WRITE] addr=100001ec data=ddc85d0a
# UVM_INFO C:/Documents/DoAnThietKeViMach/Project/SoC/VERIFICATION/Monitor/axi_monitor.sv(55) @ 6215000: uvm_test_top.env.agent.monitor [MON_WR] Detected WRITE : Addr=100001ec Data=ddc85d0a Strb=1111 Prot=xxx BResp=00
# UVM_INFO C:/Documents/DoAnThietKeViMach/Project/SoC/VERIFICATION/Driver/axi_driver.sv(63) @ 6225000: uvm_test_top.env.agent.driver [DRV] Write Done: Addr=100001ec Data=ddc85d0a Prot=xxx
# [DRAM WRITE] addr=100001f0 data=2b1004b2
# UVM_INFO C:/Documents/DoAnThietKeViMach/Project/SoC/VERIFICATION/Monitor/axi_monitor.sv(55) @ 6265000: uvm_test_top.env.agent.monitor [MON_WR] Detected WRITE : Addr=100001f0 Data=2b1004b2 Strb=1111 Prot=xxx BResp=00
# UVM_INFO C:/Documents/DoAnThietKeViMach/Project/SoC/VERIFICATION/Driver/axi_driver.sv(63) @ 6275000: uvm_test_top.env.agent.driver [DRV] Write Done: Addr=100001f0 Data=2b1004b2 Prot=xxx
# [DRAM WRITE] addr=100001f4 data=ca87d74e
# UVM_INFO C:/Documents/DoAnThietKeViMach/Project/SoC/VERIFICATION/Monitor/axi_monitor.sv(55) @ 6315000: uvm_test_top.env.agent.monitor [MON_WR] Detected WRITE : Addr=100001f4 Data=ca87d74e Strb=1111 Prot=xxx BResp=00
# UVM_INFO C:/Documents/DoAnThietKeViMach/Project/SoC/VERIFICATION/Driver/axi_driver.sv(63) @ 6325000: uvm_test_top.env.agent.driver [DRV] Write Done: Addr=100001f4 Data=ca87d74e Prot=xxx
# [DRAM WRITE] addr=100001f8 data=7fc47ab3
# UVM_INFO C:/Documents/DoAnThietKeViMach/Project/SoC/VERIFICATION/Monitor/axi_monitor.sv(55) @ 6365000: uvm_test_top.env.agent.monitor [MON_WR] Detected WRITE : Addr=100001f8 Data=7fc47ab3 Strb=1111 Prot=xxx BResp=00
# UVM_INFO C:/Documents/DoAnThietKeViMach/Project/SoC/VERIFICATION/Driver/axi_driver.sv(63) @ 6375000: uvm_test_top.env.agent.driver [DRV] Write Done: Addr=100001f8 Data=7fc47ab3 Prot=xxx
# [DRAM WRITE] addr=100001fc data=6782a940
# UVM_INFO C:/Documents/DoAnThietKeViMach/Project/SoC/VERIFICATION/Monitor/axi_monitor.sv(55) @ 6415000: uvm_test_top.env.agent.monitor [MON_WR] Detected WRITE : Addr=100001fc Data=6782a940 Strb=1111 Prot=xxx BResp=00
# UVM_INFO C:/Documents/DoAnThietKeViMach/Project/SoC/VERIFICATION/Driver/axi_driver.sv(63) @ 6425000: uvm_test_top.env.agent.driver [DRV] Write Done: Addr=100001fc Data=6782a940 Prot=xxx
# [DRAM WRITE] addr=10000200 data=26680148
# UVM_INFO C:/Documents/DoAnThietKeViMach/Project/SoC/VERIFICATION/Monitor/axi_monitor.sv(55) @ 6465000: uvm_test_top.env.agent.monitor [MON_WR] Detected WRITE : Addr=10000200 Data=26680148 Strb=1111 Prot=xxx BResp=00
# UVM_INFO C:/Documents/DoAnThietKeViMach/Project/SoC/VERIFICATION/Driver/axi_driver.sv(63) @ 6475000: uvm_test_top.env.agent.driver [DRV] Write Done: Addr=10000200 Data=26680148 Prot=xxx
# [DRAM WRITE] addr=10000204 data=4548aa5d
# UVM_INFO C:/Documents/DoAnThietKeViMach/Project/SoC/VERIFICATION/Monitor/axi_monitor.sv(55) @ 6515000: uvm_test_top.env.agent.monitor [MON_WR] Detected WRITE : Addr=10000204 Data=4548aa5d Strb=1111 Prot=xxx BResp=00
# UVM_INFO C:/Documents/DoAnThietKeViMach/Project/SoC/VERIFICATION/Driver/axi_driver.sv(63) @ 6525000: uvm_test_top.env.agent.driver [DRV] Write Done: Addr=10000204 Data=4548aa5d Prot=xxx
# [DRAM WRITE] addr=10000208 data=658255ef
# UVM_INFO C:/Documents/DoAnThietKeViMach/Project/SoC/VERIFICATION/Monitor/axi_monitor.sv(55) @ 6565000: uvm_test_top.env.agent.monitor [MON_WR] Detected WRITE : Addr=10000208 Data=658255ef Strb=1111 Prot=xxx BResp=00
# UVM_INFO C:/Documents/DoAnThietKeViMach/Project/SoC/VERIFICATION/Driver/axi_driver.sv(63) @ 6575000: uvm_test_top.env.agent.driver [DRV] Write Done: Addr=10000208 Data=658255ef Prot=xxx
# [DRAM WRITE] addr=1000020c data=b4b3d7e7
# UVM_INFO C:/Documents/DoAnThietKeViMach/Project/SoC/VERIFICATION/Monitor/axi_monitor.sv(55) @ 6615000: uvm_test_top.env.agent.monitor [MON_WR] Detected WRITE : Addr=1000020c Data=b4b3d7e7 Strb=1111 Prot=xxx BResp=00
# UVM_INFO C:/Documents/DoAnThietKeViMach/Project/SoC/VERIFICATION/Driver/axi_driver.sv(63) @ 6625000: uvm_test_top.env.agent.driver [DRV] Write Done: Addr=1000020c Data=b4b3d7e7 Prot=xxx
# [DRAM WRITE] addr=10000210 data=0bb80368
# UVM_INFO C:/Documents/DoAnThietKeViMach/Project/SoC/VERIFICATION/Monitor/axi_monitor.sv(55) @ 6665000: uvm_test_top.env.agent.monitor [MON_WR] Detected WRITE : Addr=10000210 Data=0bb80368 Strb=1111 Prot=xxx BResp=00
# UVM_INFO C:/Documents/DoAnThietKeViMach/Project/SoC/VERIFICATION/Driver/axi_driver.sv(63) @ 6675000: uvm_test_top.env.agent.driver [DRV] Write Done: Addr=10000210 Data=0bb80368 Prot=xxx
# [DRAM WRITE] addr=10000214 data=71b94c9f
# UVM_INFO C:/Documents/DoAnThietKeViMach/Project/SoC/VERIFICATION/Monitor/axi_monitor.sv(55) @ 6715000: uvm_test_top.env.agent.monitor [MON_WR] Detected WRITE : Addr=10000214 Data=71b94c9f Strb=1111 Prot=xxx BResp=00
# UVM_INFO C:/Documents/DoAnThietKeViMach/Project/SoC/VERIFICATION/Driver/axi_driver.sv(63) @ 6725000: uvm_test_top.env.agent.driver [DRV] Write Done: Addr=10000214 Data=71b94c9f Prot=xxx
# [DRAM WRITE] addr=10000218 data=4764474c
# UVM_INFO C:/Documents/DoAnThietKeViMach/Project/SoC/VERIFICATION/Monitor/axi_monitor.sv(55) @ 6765000: uvm_test_top.env.agent.monitor [MON_WR] Detected WRITE : Addr=10000218 Data=4764474c Strb=1111 Prot=xxx BResp=00
# UVM_INFO C:/Documents/DoAnThietKeViMach/Project/SoC/VERIFICATION/Driver/axi_driver.sv(63) @ 6775000: uvm_test_top.env.agent.driver [DRV] Write Done: Addr=10000218 Data=4764474c Prot=xxx
# [DRAM WRITE] addr=1000021c data=737f8c7b
# UVM_INFO C:/Documents/DoAnThietKeViMach/Project/SoC/VERIFICATION/Monitor/axi_monitor.sv(55) @ 6815000: uvm_test_top.env.agent.monitor [MON_WR] Detected WRITE : Addr=1000021c Data=737f8c7b Strb=1111 Prot=xxx BResp=00
# UVM_INFO C:/Documents/DoAnThietKeViMach/Project/SoC/VERIFICATION/Driver/axi_driver.sv(63) @ 6825000: uvm_test_top.env.agent.driver [DRV] Write Done: Addr=1000021c Data=737f8c7b Prot=xxx
# [DRAM WRITE] addr=10000220 data=d7dc99cc
# UVM_INFO C:/Documents/DoAnThietKeViMach/Project/SoC/VERIFICATION/Monitor/axi_monitor.sv(55) @ 6865000: uvm_test_top.env.agent.monitor [MON_WR] Detected WRITE : Addr=10000220 Data=d7dc99cc Strb=1111 Prot=xxx BResp=00
# UVM_INFO C:/Documents/DoAnThietKeViMach/Project/SoC/VERIFICATION/Driver/axi_driver.sv(63) @ 6875000: uvm_test_top.env.agent.driver [DRV] Write Done: Addr=10000220 Data=d7dc99cc Prot=xxx
# [DRAM WRITE] addr=10000224 data=7f9fe481
# UVM_INFO C:/Documents/DoAnThietKeViMach/Project/SoC/VERIFICATION/Monitor/axi_monitor.sv(55) @ 6915000: uvm_test_top.env.agent.monitor [MON_WR] Detected WRITE : Addr=10000224 Data=7f9fe481 Strb=1111 Prot=xxx BResp=00
# UVM_INFO C:/Documents/DoAnThietKeViMach/Project/SoC/VERIFICATION/Driver/axi_driver.sv(63) @ 6925000: uvm_test_top.env.agent.driver [DRV] Write Done: Addr=10000224 Data=7f9fe481 Prot=xxx
# [DRAM WRITE] addr=10000228 data=aa1e9776
# UVM_INFO C:/Documents/DoAnThietKeViMach/Project/SoC/VERIFICATION/Monitor/axi_monitor.sv(55) @ 6965000: uvm_test_top.env.agent.monitor [MON_WR] Detected WRITE : Addr=10000228 Data=aa1e9776 Strb=1111 Prot=xxx BResp=00
# UVM_INFO C:/Documents/DoAnThietKeViMach/Project/SoC/VERIFICATION/Driver/axi_driver.sv(63) @ 6975000: uvm_test_top.env.agent.driver [DRV] Write Done: Addr=10000228 Data=aa1e9776 Prot=xxx
# [DRAM WRITE] addr=1000022c data=1874f347
# UVM_INFO C:/Documents/DoAnThietKeViMach/Project/SoC/VERIFICATION/Monitor/axi_monitor.sv(55) @ 7015000: uvm_test_top.env.agent.monitor [MON_WR] Detected WRITE : Addr=1000022c Data=1874f347 Strb=1111 Prot=xxx BResp=00
# UVM_INFO C:/Documents/DoAnThietKeViMach/Project/SoC/VERIFICATION/Driver/axi_driver.sv(63) @ 7025000: uvm_test_top.env.agent.driver [DRV] Write Done: Addr=1000022c Data=1874f347 Prot=xxx
# [DRAM WRITE] addr=10000230 data=d1f8c8a8
# UVM_INFO C:/Documents/DoAnThietKeViMach/Project/SoC/VERIFICATION/Monitor/axi_monitor.sv(55) @ 7065000: uvm_test_top.env.agent.monitor [MON_WR] Detected WRITE : Addr=10000230 Data=d1f8c8a8 Strb=1111 Prot=xxx BResp=00
# UVM_INFO C:/Documents/DoAnThietKeViMach/Project/SoC/VERIFICATION/Driver/axi_driver.sv(63) @ 7075000: uvm_test_top.env.agent.driver [DRV] Write Done: Addr=10000230 Data=d1f8c8a8 Prot=xxx
# [DRAM WRITE] addr=10000234 data=bfe2e584
# UVM_INFO C:/Documents/DoAnThietKeViMach/Project/SoC/VERIFICATION/Monitor/axi_monitor.sv(55) @ 7115000: uvm_test_top.env.agent.monitor [MON_WR] Detected WRITE : Addr=10000234 Data=bfe2e584 Strb=1111 Prot=xxx BResp=00
# UVM_INFO C:/Documents/DoAnThietKeViMach/Project/SoC/VERIFICATION/Driver/axi_driver.sv(63) @ 7125000: uvm_test_top.env.agent.driver [DRV] Write Done: Addr=10000234 Data=bfe2e584 Prot=xxx
# [DRAM WRITE] addr=10000238 data=31ace800
# UVM_INFO C:/Documents/DoAnThietKeViMach/Project/SoC/VERIFICATION/Monitor/axi_monitor.sv(55) @ 7165000: uvm_test_top.env.agent.monitor [MON_WR] Detected WRITE : Addr=10000238 Data=31ace800 Strb=1111 Prot=xxx BResp=00
# UVM_INFO C:/Documents/DoAnThietKeViMach/Project/SoC/VERIFICATION/Driver/axi_driver.sv(63) @ 7175000: uvm_test_top.env.agent.driver [DRV] Write Done: Addr=10000238 Data=31ace800 Prot=xxx
# [DRAM WRITE] addr=1000023c data=f2a5bdc1
# UVM_INFO C:/Documents/DoAnThietKeViMach/Project/SoC/VERIFICATION/Monitor/axi_monitor.sv(55) @ 7215000: uvm_test_top.env.agent.monitor [MON_WR] Detected WRITE : Addr=1000023c Data=f2a5bdc1 Strb=1111 Prot=xxx BResp=00
# UVM_INFO C:/Documents/DoAnThietKeViMach/Project/SoC/VERIFICATION/Driver/axi_driver.sv(63) @ 7225000: uvm_test_top.env.agent.driver [DRV] Write Done: Addr=1000023c Data=f2a5bdc1 Prot=xxx
# [DRAM WRITE] addr=10000240 data=481843ef
# UVM_INFO C:/Documents/DoAnThietKeViMach/Project/SoC/VERIFICATION/Monitor/axi_monitor.sv(55) @ 7265000: uvm_test_top.env.agent.monitor [MON_WR] Detected WRITE : Addr=10000240 Data=481843ef Strb=1111 Prot=xxx BResp=00
# UVM_INFO C:/Documents/DoAnThietKeViMach/Project/SoC/VERIFICATION/Driver/axi_driver.sv(63) @ 7275000: uvm_test_top.env.agent.driver [DRV] Write Done: Addr=10000240 Data=481843ef Prot=xxx
# [DRAM WRITE] addr=10000244 data=9f0c33ae
# UVM_INFO C:/Documents/DoAnThietKeViMach/Project/SoC/VERIFICATION/Monitor/axi_monitor.sv(55) @ 7315000: uvm_test_top.env.agent.monitor [MON_WR] Detected WRITE : Addr=10000244 Data=9f0c33ae Strb=1111 Prot=xxx BResp=00
# UVM_INFO C:/Documents/DoAnThietKeViMach/Project/SoC/VERIFICATION/Driver/axi_driver.sv(63) @ 7325000: uvm_test_top.env.agent.driver [DRV] Write Done: Addr=10000244 Data=9f0c33ae Prot=xxx
# [DRAM WRITE] addr=10000248 data=1777c734
# UVM_INFO C:/Documents/DoAnThietKeViMach/Project/SoC/VERIFICATION/Monitor/axi_monitor.sv(55) @ 7365000: uvm_test_top.env.agent.monitor [MON_WR] Detected WRITE : Addr=10000248 Data=1777c734 Strb=1111 Prot=xxx BResp=00
# UVM_INFO C:/Documents/DoAnThietKeViMach/Project/SoC/VERIFICATION/Driver/axi_driver.sv(63) @ 7375000: uvm_test_top.env.agent.driver [DRV] Write Done: Addr=10000248 Data=1777c734 Prot=xxx
# [DRAM WRITE] addr=1000024c data=d65b9f57
# UVM_INFO C:/Documents/DoAnThietKeViMach/Project/SoC/VERIFICATION/Monitor/axi_monitor.sv(55) @ 7415000: uvm_test_top.env.agent.monitor [MON_WR] Detected WRITE : Addr=1000024c Data=d65b9f57 Strb=1111 Prot=xxx BResp=00
# UVM_INFO C:/Documents/DoAnThietKeViMach/Project/SoC/VERIFICATION/Driver/axi_driver.sv(63) @ 7425000: uvm_test_top.env.agent.driver [DRV] Write Done: Addr=1000024c Data=d65b9f57 Prot=xxx
# [DRAM WRITE] addr=10000250 data=51470649
# UVM_INFO C:/Documents/DoAnThietKeViMach/Project/SoC/VERIFICATION/Monitor/axi_monitor.sv(55) @ 7465000: uvm_test_top.env.agent.monitor [MON_WR] Detected WRITE : Addr=10000250 Data=51470649 Strb=1111 Prot=xxx BResp=00
# UVM_INFO C:/Documents/DoAnThietKeViMach/Project/SoC/VERIFICATION/Driver/axi_driver.sv(63) @ 7475000: uvm_test_top.env.agent.driver [DRV] Write Done: Addr=10000250 Data=51470649 Prot=xxx
# [DRAM WRITE] addr=10000254 data=8054f868
# UVM_INFO C:/Documents/DoAnThietKeViMach/Project/SoC/VERIFICATION/Monitor/axi_monitor.sv(55) @ 7515000: uvm_test_top.env.agent.monitor [MON_WR] Detected WRITE : Addr=10000254 Data=8054f868 Strb=1111 Prot=xxx BResp=00
# UVM_INFO C:/Documents/DoAnThietKeViMach/Project/SoC/VERIFICATION/Driver/axi_driver.sv(63) @ 7525000: uvm_test_top.env.agent.driver [DRV] Write Done: Addr=10000254 Data=8054f868 Prot=xxx
# [DRAM WRITE] addr=10000258 data=a5e7cb9c
# UVM_INFO C:/Documents/DoAnThietKeViMach/Project/SoC/VERIFICATION/Monitor/axi_monitor.sv(55) @ 7565000: uvm_test_top.env.agent.monitor [MON_WR] Detected WRITE : Addr=10000258 Data=a5e7cb9c Strb=1111 Prot=xxx BResp=00
# UVM_INFO C:/Documents/DoAnThietKeViMach/Project/SoC/VERIFICATION/Driver/axi_driver.sv(63) @ 7575000: uvm_test_top.env.agent.driver [DRV] Write Done: Addr=10000258 Data=a5e7cb9c Prot=xxx
# [DRAM WRITE] addr=1000025c data=cb203720
# UVM_INFO C:/Documents/DoAnThietKeViMach/Project/SoC/VERIFICATION/Monitor/axi_monitor.sv(55) @ 7615000: uvm_test_top.env.agent.monitor [MON_WR] Detected WRITE : Addr=1000025c Data=cb203720 Strb=1111 Prot=xxx BResp=00
# UVM_INFO C:/Documents/DoAnThietKeViMach/Project/SoC/VERIFICATION/Driver/axi_driver.sv(63) @ 7625000: uvm_test_top.env.agent.driver [DRV] Write Done: Addr=1000025c Data=cb203720 Prot=xxx
# [DRAM WRITE] addr=10000260 data=56f89c22
# UVM_INFO C:/Documents/DoAnThietKeViMach/Project/SoC/VERIFICATION/Monitor/axi_monitor.sv(55) @ 7665000: uvm_test_top.env.agent.monitor [MON_WR] Detected WRITE : Addr=10000260 Data=56f89c22 Strb=1111 Prot=xxx BResp=00
# UVM_INFO C:/Documents/DoAnThietKeViMach/Project/SoC/VERIFICATION/Driver/axi_driver.sv(63) @ 7675000: uvm_test_top.env.agent.driver [DRV] Write Done: Addr=10000260 Data=56f89c22 Prot=xxx
# [DRAM WRITE] addr=10000264 data=1fe218b4
# UVM_INFO C:/Documents/DoAnThietKeViMach/Project/SoC/VERIFICATION/Monitor/axi_monitor.sv(55) @ 7715000: uvm_test_top.env.agent.monitor [MON_WR] Detected WRITE : Addr=10000264 Data=1fe218b4 Strb=1111 Prot=xxx BResp=00
# UVM_INFO C:/Documents/DoAnThietKeViMach/Project/SoC/VERIFICATION/Driver/axi_driver.sv(63) @ 7725000: uvm_test_top.env.agent.driver [DRV] Write Done: Addr=10000264 Data=1fe218b4 Prot=xxx
# [DRAM WRITE] addr=10000268 data=2b89f39d
# UVM_INFO C:/Documents/DoAnThietKeViMach/Project/SoC/VERIFICATION/Monitor/axi_monitor.sv(55) @ 7765000: uvm_test_top.env.agent.monitor [MON_WR] Detected WRITE : Addr=10000268 Data=2b89f39d Strb=1111 Prot=xxx BResp=00
# UVM_INFO C:/Documents/DoAnThietKeViMach/Project/SoC/VERIFICATION/Driver/axi_driver.sv(63) @ 7775000: uvm_test_top.env.agent.driver [DRV] Write Done: Addr=10000268 Data=2b89f39d Prot=xxx
# [DRAM WRITE] addr=1000026c data=6d7275ed
# UVM_INFO C:/Documents/DoAnThietKeViMach/Project/SoC/VERIFICATION/Monitor/axi_monitor.sv(55) @ 7815000: uvm_test_top.env.agent.monitor [MON_WR] Detected WRITE : Addr=1000026c Data=6d7275ed Strb=1111 Prot=xxx BResp=00
# UVM_INFO C:/Documents/DoAnThietKeViMach/Project/SoC/VERIFICATION/Driver/axi_driver.sv(63) @ 7825000: uvm_test_top.env.agent.driver [DRV] Write Done: Addr=1000026c Data=6d7275ed Prot=xxx
# [DRAM WRITE] addr=10000270 data=5bab0517
# UVM_INFO C:/Documents/DoAnThietKeViMach/Project/SoC/VERIFICATION/Monitor/axi_monitor.sv(55) @ 7865000: uvm_test_top.env.agent.monitor [MON_WR] Detected WRITE : Addr=10000270 Data=5bab0517 Strb=1111 Prot=xxx BResp=00
# UVM_INFO C:/Documents/DoAnThietKeViMach/Project/SoC/VERIFICATION/Driver/axi_driver.sv(63) @ 7875000: uvm_test_top.env.agent.driver [DRV] Write Done: Addr=10000270 Data=5bab0517 Prot=xxx
# [DRAM WRITE] addr=10000274 data=c4183be0
# UVM_INFO C:/Documents/DoAnThietKeViMach/Project/SoC/VERIFICATION/Monitor/axi_monitor.sv(55) @ 7915000: uvm_test_top.env.agent.monitor [MON_WR] Detected WRITE : Addr=10000274 Data=c4183be0 Strb=1111 Prot=xxx BResp=00
# UVM_INFO C:/Documents/DoAnThietKeViMach/Project/SoC/VERIFICATION/Driver/axi_driver.sv(63) @ 7925000: uvm_test_top.env.agent.driver [DRV] Write Done: Addr=10000274 Data=c4183be0 Prot=xxx
# [DRAM WRITE] addr=10000278 data=ceb9b00c
# UVM_INFO C:/Documents/DoAnThietKeViMach/Project/SoC/VERIFICATION/Monitor/axi_monitor.sv(55) @ 7965000: uvm_test_top.env.agent.monitor [MON_WR] Detected WRITE : Addr=10000278 Data=ceb9b00c Strb=1111 Prot=xxx BResp=00
# UVM_INFO C:/Documents/DoAnThietKeViMach/Project/SoC/VERIFICATION/Driver/axi_driver.sv(63) @ 7975000: uvm_test_top.env.agent.driver [DRV] Write Done: Addr=10000278 Data=ceb9b00c Prot=xxx
# [DRAM WRITE] addr=1000027c data=4e97269e
# UVM_INFO C:/Documents/DoAnThietKeViMach/Project/SoC/VERIFICATION/Monitor/axi_monitor.sv(55) @ 8015000: uvm_test_top.env.agent.monitor [MON_WR] Detected WRITE : Addr=1000027c Data=4e97269e Strb=1111 Prot=xxx BResp=00
# UVM_INFO C:/Documents/DoAnThietKeViMach/Project/SoC/VERIFICATION/Driver/axi_driver.sv(63) @ 8025000: uvm_test_top.env.agent.driver [DRV] Write Done: Addr=1000027c Data=4e97269e Prot=xxx
# [DRAM WRITE] addr=10000280 data=b775df30
# UVM_INFO C:/Documents/DoAnThietKeViMach/Project/SoC/VERIFICATION/Monitor/axi_monitor.sv(55) @ 8065000: uvm_test_top.env.agent.monitor [MON_WR] Detected WRITE : Addr=10000280 Data=b775df30 Strb=1111 Prot=xxx BResp=00
# UVM_INFO C:/Documents/DoAnThietKeViMach/Project/SoC/VERIFICATION/Driver/axi_driver.sv(63) @ 8075000: uvm_test_top.env.agent.driver [DRV] Write Done: Addr=10000280 Data=b775df30 Prot=xxx
# [DRAM WRITE] addr=10000284 data=27cf9907
# UVM_INFO C:/Documents/DoAnThietKeViMach/Project/SoC/VERIFICATION/Monitor/axi_monitor.sv(55) @ 8115000: uvm_test_top.env.agent.monitor [MON_WR] Detected WRITE : Addr=10000284 Data=27cf9907 Strb=1111 Prot=xxx BResp=00
# UVM_INFO C:/Documents/DoAnThietKeViMach/Project/SoC/VERIFICATION/Driver/axi_driver.sv(63) @ 8125000: uvm_test_top.env.agent.driver [DRV] Write Done: Addr=10000284 Data=27cf9907 Prot=xxx
# [DRAM WRITE] addr=10000288 data=b7ef880b
# UVM_INFO C:/Documents/DoAnThietKeViMach/Project/SoC/VERIFICATION/Monitor/axi_monitor.sv(55) @ 8165000: uvm_test_top.env.agent.monitor [MON_WR] Detected WRITE : Addr=10000288 Data=b7ef880b Strb=1111 Prot=xxx BResp=00
# UVM_INFO C:/Documents/DoAnThietKeViMach/Project/SoC/VERIFICATION/Driver/axi_driver.sv(63) @ 8175000: uvm_test_top.env.agent.driver [DRV] Write Done: Addr=10000288 Data=b7ef880b Prot=xxx
# [DRAM WRITE] addr=1000028c data=f0588db7
# UVM_INFO C:/Documents/DoAnThietKeViMach/Project/SoC/VERIFICATION/Monitor/axi_monitor.sv(55) @ 8215000: uvm_test_top.env.agent.monitor [MON_WR] Detected WRITE : Addr=1000028c Data=f0588db7 Strb=1111 Prot=xxx BResp=00
# UVM_INFO C:/Documents/DoAnThietKeViMach/Project/SoC/VERIFICATION/Driver/axi_driver.sv(63) @ 8225000: uvm_test_top.env.agent.driver [DRV] Write Done: Addr=1000028c Data=f0588db7 Prot=xxx
# [DRAM WRITE] addr=10000290 data=026832c5
# UVM_INFO C:/Documents/DoAnThietKeViMach/Project/SoC/VERIFICATION/Monitor/axi_monitor.sv(55) @ 8265000: uvm_test_top.env.agent.monitor [MON_WR] Detected WRITE : Addr=10000290 Data=026832c5 Strb=1111 Prot=xxx BResp=00
# UVM_INFO C:/Documents/DoAnThietKeViMach/Project/SoC/VERIFICATION/Driver/axi_driver.sv(63) @ 8275000: uvm_test_top.env.agent.driver [DRV] Write Done: Addr=10000290 Data=026832c5 Prot=xxx
# [DRAM WRITE] addr=10000294 data=28244605
# UVM_INFO C:/Documents/DoAnThietKeViMach/Project/SoC/VERIFICATION/Monitor/axi_monitor.sv(55) @ 8315000: uvm_test_top.env.agent.monitor [MON_WR] Detected WRITE : Addr=10000294 Data=28244605 Strb=1111 Prot=xxx BResp=00
# UVM_INFO C:/Documents/DoAnThietKeViMach/Project/SoC/VERIFICATION/Driver/axi_driver.sv(63) @ 8325000: uvm_test_top.env.agent.driver [DRV] Write Done: Addr=10000294 Data=28244605 Prot=xxx
# [DRAM WRITE] addr=10000298 data=fb82178d
# UVM_INFO C:/Documents/DoAnThietKeViMach/Project/SoC/VERIFICATION/Monitor/axi_monitor.sv(55) @ 8365000: uvm_test_top.env.agent.monitor [MON_WR] Detected WRITE : Addr=10000298 Data=fb82178d Strb=1111 Prot=xxx BResp=00
# UVM_INFO C:/Documents/DoAnThietKeViMach/Project/SoC/VERIFICATION/Driver/axi_driver.sv(63) @ 8375000: uvm_test_top.env.agent.driver [DRV] Write Done: Addr=10000298 Data=fb82178d Prot=xxx
# [DRAM WRITE] addr=1000029c data=15fc6cbb
# UVM_INFO C:/Documents/DoAnThietKeViMach/Project/SoC/VERIFICATION/Monitor/axi_monitor.sv(55) @ 8415000: uvm_test_top.env.agent.monitor [MON_WR] Detected WRITE : Addr=1000029c Data=15fc6cbb Strb=1111 Prot=xxx BResp=00
# UVM_INFO C:/Documents/DoAnThietKeViMach/Project/SoC/VERIFICATION/Driver/axi_driver.sv(63) @ 8425000: uvm_test_top.env.agent.driver [DRV] Write Done: Addr=1000029c Data=15fc6cbb Prot=xxx
# [DRAM WRITE] addr=100002a0 data=b2933bbf
# UVM_INFO C:/Documents/DoAnThietKeViMach/Project/SoC/VERIFICATION/Monitor/axi_monitor.sv(55) @ 8465000: uvm_test_top.env.agent.monitor [MON_WR] Detected WRITE : Addr=100002a0 Data=b2933bbf Strb=1111 Prot=xxx BResp=00
# UVM_INFO C:/Documents/DoAnThietKeViMach/Project/SoC/VERIFICATION/Driver/axi_driver.sv(63) @ 8475000: uvm_test_top.env.agent.driver [DRV] Write Done: Addr=100002a0 Data=b2933bbf Prot=xxx
# [DRAM WRITE] addr=100002a4 data=b28e3839
# UVM_INFO C:/Documents/DoAnThietKeViMach/Project/SoC/VERIFICATION/Monitor/axi_monitor.sv(55) @ 8515000: uvm_test_top.env.agent.monitor [MON_WR] Detected WRITE : Addr=100002a4 Data=b28e3839 Strb=1111 Prot=xxx BResp=00
# UVM_INFO C:/Documents/DoAnThietKeViMach/Project/SoC/VERIFICATION/Driver/axi_driver.sv(63) @ 8525000: uvm_test_top.env.agent.driver [DRV] Write Done: Addr=100002a4 Data=b28e3839 Prot=xxx
# [DRAM WRITE] addr=100002a8 data=f8858f12
# UVM_INFO C:/Documents/DoAnThietKeViMach/Project/SoC/VERIFICATION/Monitor/axi_monitor.sv(55) @ 8565000: uvm_test_top.env.agent.monitor [MON_WR] Detected WRITE : Addr=100002a8 Data=f8858f12 Strb=1111 Prot=xxx BResp=00
# UVM_INFO C:/Documents/DoAnThietKeViMach/Project/SoC/VERIFICATION/Driver/axi_driver.sv(63) @ 8575000: uvm_test_top.env.agent.driver [DRV] Write Done: Addr=100002a8 Data=f8858f12 Prot=xxx
# [DRAM WRITE] addr=100002ac data=01f1c7be
# UVM_INFO C:/Documents/DoAnThietKeViMach/Project/SoC/VERIFICATION/Monitor/axi_monitor.sv(55) @ 8615000: uvm_test_top.env.agent.monitor [MON_WR] Detected WRITE : Addr=100002ac Data=01f1c7be Strb=1111 Prot=xxx BResp=00
# UVM_INFO C:/Documents/DoAnThietKeViMach/Project/SoC/VERIFICATION/Driver/axi_driver.sv(63) @ 8625000: uvm_test_top.env.agent.driver [DRV] Write Done: Addr=100002ac Data=01f1c7be Prot=xxx
# [DRAM WRITE] addr=100002b0 data=e302ac14
# UVM_INFO C:/Documents/DoAnThietKeViMach/Project/SoC/VERIFICATION/Monitor/axi_monitor.sv(55) @ 8665000: uvm_test_top.env.agent.monitor [MON_WR] Detected WRITE : Addr=100002b0 Data=e302ac14 Strb=1111 Prot=xxx BResp=00
# UVM_INFO C:/Documents/DoAnThietKeViMach/Project/SoC/VERIFICATION/Driver/axi_driver.sv(63) @ 8675000: uvm_test_top.env.agent.driver [DRV] Write Done: Addr=100002b0 Data=e302ac14 Prot=xxx
# [DRAM WRITE] addr=100002b4 data=8c00ac2c
# UVM_INFO C:/Documents/DoAnThietKeViMach/Project/SoC/VERIFICATION/Monitor/axi_monitor.sv(55) @ 8715000: uvm_test_top.env.agent.monitor [MON_WR] Detected WRITE : Addr=100002b4 Data=8c00ac2c Strb=1111 Prot=xxx BResp=00
# UVM_INFO C:/Documents/DoAnThietKeViMach/Project/SoC/VERIFICATION/Driver/axi_driver.sv(63) @ 8725000: uvm_test_top.env.agent.driver [DRV] Write Done: Addr=100002b4 Data=8c00ac2c Prot=xxx
# [DRAM WRITE] addr=100002b8 data=0ddcce8c
# UVM_INFO C:/Documents/DoAnThietKeViMach/Project/SoC/VERIFICATION/Monitor/axi_monitor.sv(55) @ 8765000: uvm_test_top.env.agent.monitor [MON_WR] Detected WRITE : Addr=100002b8 Data=0ddcce8c Strb=1111 Prot=xxx BResp=00
# UVM_INFO C:/Documents/DoAnThietKeViMach/Project/SoC/VERIFICATION/Driver/axi_driver.sv(63) @ 8775000: uvm_test_top.env.agent.driver [DRV] Write Done: Addr=100002b8 Data=0ddcce8c Prot=xxx
# [DRAM WRITE] addr=100002bc data=31e31f7b
# UVM_INFO C:/Documents/DoAnThietKeViMach/Project/SoC/VERIFICATION/Monitor/axi_monitor.sv(55) @ 8815000: uvm_test_top.env.agent.monitor [MON_WR] Detected WRITE : Addr=100002bc Data=31e31f7b Strb=1111 Prot=xxx BResp=00
# UVM_INFO C:/Documents/DoAnThietKeViMach/Project/SoC/VERIFICATION/Driver/axi_driver.sv(63) @ 8825000: uvm_test_top.env.agent.driver [DRV] Write Done: Addr=100002bc Data=31e31f7b Prot=xxx
# [DRAM WRITE] addr=100002c0 data=6fb62760
# UVM_INFO C:/Documents/DoAnThietKeViMach/Project/SoC/VERIFICATION/Monitor/axi_monitor.sv(55) @ 8865000: uvm_test_top.env.agent.monitor [MON_WR] Detected WRITE : Addr=100002c0 Data=6fb62760 Strb=1111 Prot=xxx BResp=00
# UVM_INFO C:/Documents/DoAnThietKeViMach/Project/SoC/VERIFICATION/Driver/axi_driver.sv(63) @ 8875000: uvm_test_top.env.agent.driver [DRV] Write Done: Addr=100002c0 Data=6fb62760 Prot=xxx
# [DRAM WRITE] addr=100002c4 data=1cba690b
# UVM_INFO C:/Documents/DoAnThietKeViMach/Project/SoC/VERIFICATION/Monitor/axi_monitor.sv(55) @ 8915000: uvm_test_top.env.agent.monitor [MON_WR] Detected WRITE : Addr=100002c4 Data=1cba690b Strb=1111 Prot=xxx BResp=00
# UVM_INFO C:/Documents/DoAnThietKeViMach/Project/SoC/VERIFICATION/Driver/axi_driver.sv(63) @ 8925000: uvm_test_top.env.agent.driver [DRV] Write Done: Addr=100002c4 Data=1cba690b Prot=xxx
# [DRAM WRITE] addr=100002c8 data=91226c49
# UVM_INFO C:/Documents/DoAnThietKeViMach/Project/SoC/VERIFICATION/Monitor/axi_monitor.sv(55) @ 8965000: uvm_test_top.env.agent.monitor [MON_WR] Detected WRITE : Addr=100002c8 Data=91226c49 Strb=1111 Prot=xxx BResp=00
# UVM_INFO C:/Documents/DoAnThietKeViMach/Project/SoC/VERIFICATION/Driver/axi_driver.sv(63) @ 8975000: uvm_test_top.env.agent.driver [DRV] Write Done: Addr=100002c8 Data=91226c49 Prot=xxx
# [DRAM WRITE] addr=100002cc data=4a34043c
# UVM_INFO C:/Documents/DoAnThietKeViMach/Project/SoC/VERIFICATION/Monitor/axi_monitor.sv(55) @ 9015000: uvm_test_top.env.agent.monitor [MON_WR] Detected WRITE : Addr=100002cc Data=4a34043c Strb=1111 Prot=xxx BResp=00
# UVM_INFO C:/Documents/DoAnThietKeViMach/Project/SoC/VERIFICATION/Driver/axi_driver.sv(63) @ 9025000: uvm_test_top.env.agent.driver [DRV] Write Done: Addr=100002cc Data=4a34043c Prot=xxx
# [DRAM WRITE] addr=100002d0 data=95884a4e
# UVM_INFO C:/Documents/DoAnThietKeViMach/Project/SoC/VERIFICATION/Monitor/axi_monitor.sv(55) @ 9065000: uvm_test_top.env.agent.monitor [MON_WR] Detected WRITE : Addr=100002d0 Data=95884a4e Strb=1111 Prot=xxx BResp=00
# UVM_INFO C:/Documents/DoAnThietKeViMach/Project/SoC/VERIFICATION/Driver/axi_driver.sv(63) @ 9075000: uvm_test_top.env.agent.driver [DRV] Write Done: Addr=100002d0 Data=95884a4e Prot=xxx
# [DRAM WRITE] addr=100002d4 data=a1942252
# UVM_INFO C:/Documents/DoAnThietKeViMach/Project/SoC/VERIFICATION/Monitor/axi_monitor.sv(55) @ 9115000: uvm_test_top.env.agent.monitor [MON_WR] Detected WRITE : Addr=100002d4 Data=a1942252 Strb=1111 Prot=xxx BResp=00
# UVM_INFO C:/Documents/DoAnThietKeViMach/Project/SoC/VERIFICATION/Driver/axi_driver.sv(63) @ 9125000: uvm_test_top.env.agent.driver [DRV] Write Done: Addr=100002d4 Data=a1942252 Prot=xxx
# [DRAM WRITE] addr=100002d8 data=e0898f25
# UVM_INFO C:/Documents/DoAnThietKeViMach/Project/SoC/VERIFICATION/Monitor/axi_monitor.sv(55) @ 9165000: uvm_test_top.env.agent.monitor [MON_WR] Detected WRITE : Addr=100002d8 Data=e0898f25 Strb=1111 Prot=xxx BResp=00
# UVM_INFO C:/Documents/DoAnThietKeViMach/Project/SoC/VERIFICATION/Driver/axi_driver.sv(63) @ 9175000: uvm_test_top.env.agent.driver [DRV] Write Done: Addr=100002d8 Data=e0898f25 Prot=xxx
# [DRAM WRITE] addr=100002dc data=15e2ae45
# UVM_INFO C:/Documents/DoAnThietKeViMach/Project/SoC/VERIFICATION/Monitor/axi_monitor.sv(55) @ 9215000: uvm_test_top.env.agent.monitor [MON_WR] Detected WRITE : Addr=100002dc Data=15e2ae45 Strb=1111 Prot=xxx BResp=00
# UVM_INFO C:/Documents/DoAnThietKeViMach/Project/SoC/VERIFICATION/Driver/axi_driver.sv(63) @ 9225000: uvm_test_top.env.agent.driver [DRV] Write Done: Addr=100002dc Data=15e2ae45 Prot=xxx
# [DRAM WRITE] addr=100002e0 data=3f9d132e
# UVM_INFO C:/Documents/DoAnThietKeViMach/Project/SoC/VERIFICATION/Monitor/axi_monitor.sv(55) @ 9265000: uvm_test_top.env.agent.monitor [MON_WR] Detected WRITE : Addr=100002e0 Data=3f9d132e Strb=1111 Prot=xxx BResp=00
# UVM_INFO C:/Documents/DoAnThietKeViMach/Project/SoC/VERIFICATION/Driver/axi_driver.sv(63) @ 9275000: uvm_test_top.env.agent.driver [DRV] Write Done: Addr=100002e0 Data=3f9d132e Prot=xxx
# [DRAM WRITE] addr=100002e4 data=c762e8d8
# UVM_INFO C:/Documents/DoAnThietKeViMach/Project/SoC/VERIFICATION/Monitor/axi_monitor.sv(55) @ 9315000: uvm_test_top.env.agent.monitor [MON_WR] Detected WRITE : Addr=100002e4 Data=c762e8d8 Strb=1111 Prot=xxx BResp=00
# UVM_INFO C:/Documents/DoAnThietKeViMach/Project/SoC/VERIFICATION/Driver/axi_driver.sv(63) @ 9325000: uvm_test_top.env.agent.driver [DRV] Write Done: Addr=100002e4 Data=c762e8d8 Prot=xxx
# [DRAM WRITE] addr=100002e8 data=d15e3d09
# UVM_INFO C:/Documents/DoAnThietKeViMach/Project/SoC/VERIFICATION/Monitor/axi_monitor.sv(55) @ 9365000: uvm_test_top.env.agent.monitor [MON_WR] Detected WRITE : Addr=100002e8 Data=d15e3d09 Strb=1111 Prot=xxx BResp=00
# UVM_INFO C:/Documents/DoAnThietKeViMach/Project/SoC/VERIFICATION/Driver/axi_driver.sv(63) @ 9375000: uvm_test_top.env.agent.driver [DRV] Write Done: Addr=100002e8 Data=d15e3d09 Prot=xxx
# [DRAM WRITE] addr=100002ec data=bf3f9880
# UVM_INFO C:/Documents/DoAnThietKeViMach/Project/SoC/VERIFICATION/Monitor/axi_monitor.sv(55) @ 9415000: uvm_test_top.env.agent.monitor [MON_WR] Detected WRITE : Addr=100002ec Data=bf3f9880 Strb=1111 Prot=xxx BResp=00
# UVM_INFO C:/Documents/DoAnThietKeViMach/Project/SoC/VERIFICATION/Driver/axi_driver.sv(63) @ 9425000: uvm_test_top.env.agent.driver [DRV] Write Done: Addr=100002ec Data=bf3f9880 Prot=xxx
# [DRAM WRITE] addr=100002f0 data=29476395
# UVM_INFO C:/Documents/DoAnThietKeViMach/Project/SoC/VERIFICATION/Monitor/axi_monitor.sv(55) @ 9465000: uvm_test_top.env.agent.monitor [MON_WR] Detected WRITE : Addr=100002f0 Data=29476395 Strb=1111 Prot=xxx BResp=00
# UVM_INFO C:/Documents/DoAnThietKeViMach/Project/SoC/VERIFICATION/Driver/axi_driver.sv(63) @ 9475000: uvm_test_top.env.agent.driver [DRV] Write Done: Addr=100002f0 Data=29476395 Prot=xxx
# [DRAM WRITE] addr=100002f4 data=def54b6d
# UVM_INFO C:/Documents/DoAnThietKeViMach/Project/SoC/VERIFICATION/Monitor/axi_monitor.sv(55) @ 9515000: uvm_test_top.env.agent.monitor [MON_WR] Detected WRITE : Addr=100002f4 Data=def54b6d Strb=1111 Prot=xxx BResp=00
# UVM_INFO C:/Documents/DoAnThietKeViMach/Project/SoC/VERIFICATION/Driver/axi_driver.sv(63) @ 9525000: uvm_test_top.env.agent.driver [DRV] Write Done: Addr=100002f4 Data=def54b6d Prot=xxx
# [DRAM WRITE] addr=100002f8 data=2183a598
# UVM_INFO C:/Documents/DoAnThietKeViMach/Project/SoC/VERIFICATION/Monitor/axi_monitor.sv(55) @ 9565000: uvm_test_top.env.agent.monitor [MON_WR] Detected WRITE : Addr=100002f8 Data=2183a598 Strb=1111 Prot=xxx BResp=00
# UVM_INFO C:/Documents/DoAnThietKeViMach/Project/SoC/VERIFICATION/Driver/axi_driver.sv(63) @ 9575000: uvm_test_top.env.agent.driver [DRV] Write Done: Addr=100002f8 Data=2183a598 Prot=xxx
# [DRAM WRITE] addr=100002fc data=4077816e
# UVM_INFO C:/Documents/DoAnThietKeViMach/Project/SoC/VERIFICATION/Monitor/axi_monitor.sv(55) @ 9615000: uvm_test_top.env.agent.monitor [MON_WR] Detected WRITE : Addr=100002fc Data=4077816e Strb=1111 Prot=xxx BResp=00
# UVM_INFO C:/Documents/DoAnThietKeViMach/Project/SoC/VERIFICATION/Driver/axi_driver.sv(63) @ 9625000: uvm_test_top.env.agent.driver [DRV] Write Done: Addr=100002fc Data=4077816e Prot=xxx
# [DRAM WRITE] addr=10000300 data=3ee21790
# UVM_INFO C:/Documents/DoAnThietKeViMach/Project/SoC/VERIFICATION/Monitor/axi_monitor.sv(55) @ 9665000: uvm_test_top.env.agent.monitor [MON_WR] Detected WRITE : Addr=10000300 Data=3ee21790 Strb=1111 Prot=xxx BResp=00
# UVM_INFO C:/Documents/DoAnThietKeViMach/Project/SoC/VERIFICATION/Driver/axi_driver.sv(63) @ 9675000: uvm_test_top.env.agent.driver [DRV] Write Done: Addr=10000300 Data=3ee21790 Prot=xxx
# [DRAM WRITE] addr=10000304 data=c10119d0
# UVM_INFO C:/Documents/DoAnThietKeViMach/Project/SoC/VERIFICATION/Monitor/axi_monitor.sv(55) @ 9715000: uvm_test_top.env.agent.monitor [MON_WR] Detected WRITE : Addr=10000304 Data=c10119d0 Strb=1111 Prot=xxx BResp=00
# UVM_INFO C:/Documents/DoAnThietKeViMach/Project/SoC/VERIFICATION/Driver/axi_driver.sv(63) @ 9725000: uvm_test_top.env.agent.driver [DRV] Write Done: Addr=10000304 Data=c10119d0 Prot=xxx
# [DRAM WRITE] addr=10000308 data=aaa0d616
# UVM_INFO C:/Documents/DoAnThietKeViMach/Project/SoC/VERIFICATION/Monitor/axi_monitor.sv(55) @ 9765000: uvm_test_top.env.agent.monitor [MON_WR] Detected WRITE : Addr=10000308 Data=aaa0d616 Strb=1111 Prot=xxx BResp=00
# UVM_INFO C:/Documents/DoAnThietKeViMach/Project/SoC/VERIFICATION/Driver/axi_driver.sv(63) @ 9775000: uvm_test_top.env.agent.driver [DRV] Write Done: Addr=10000308 Data=aaa0d616 Prot=xxx
# [DRAM WRITE] addr=1000030c data=94987d74
# UVM_INFO C:/Documents/DoAnThietKeViMach/Project/SoC/VERIFICATION/Monitor/axi_monitor.sv(55) @ 9815000: uvm_test_top.env.agent.monitor [MON_WR] Detected WRITE : Addr=1000030c Data=94987d74 Strb=1111 Prot=xxx BResp=00
# UVM_INFO C:/Documents/DoAnThietKeViMach/Project/SoC/VERIFICATION/Driver/axi_driver.sv(63) @ 9825000: uvm_test_top.env.agent.driver [DRV] Write Done: Addr=1000030c Data=94987d74 Prot=xxx
# [DRAM WRITE] addr=10000310 data=7d9b36e1
# UVM_INFO C:/Documents/DoAnThietKeViMach/Project/SoC/VERIFICATION/Monitor/axi_monitor.sv(55) @ 9865000: uvm_test_top.env.agent.monitor [MON_WR] Detected WRITE : Addr=10000310 Data=7d9b36e1 Strb=1111 Prot=xxx BResp=00
# UVM_INFO C:/Documents/DoAnThietKeViMach/Project/SoC/VERIFICATION/Driver/axi_driver.sv(63) @ 9875000: uvm_test_top.env.agent.driver [DRV] Write Done: Addr=10000310 Data=7d9b36e1 Prot=xxx
# [DRAM WRITE] addr=10000314 data=56388628
# UVM_INFO C:/Documents/DoAnThietKeViMach/Project/SoC/VERIFICATION/Monitor/axi_monitor.sv(55) @ 9915000: uvm_test_top.env.agent.monitor [MON_WR] Detected WRITE : Addr=10000314 Data=56388628 Strb=1111 Prot=xxx BResp=00
# UVM_INFO C:/Documents/DoAnThietKeViMach/Project/SoC/VERIFICATION/Driver/axi_driver.sv(63) @ 9925000: uvm_test_top.env.agent.driver [DRV] Write Done: Addr=10000314 Data=56388628 Prot=xxx
# [DRAM WRITE] addr=10000318 data=ade8a21c
# UVM_INFO C:/Documents/DoAnThietKeViMach/Project/SoC/VERIFICATION/Monitor/axi_monitor.sv(55) @ 9965000: uvm_test_top.env.agent.monitor [MON_WR] Detected WRITE : Addr=10000318 Data=ade8a21c Strb=1111 Prot=xxx BResp=00
# UVM_INFO C:/Documents/DoAnThietKeViMach/Project/SoC/VERIFICATION/Driver/axi_driver.sv(63) @ 9975000: uvm_test_top.env.agent.driver [DRV] Write Done: Addr=10000318 Data=ade8a21c Prot=xxx
# [DRAM WRITE] addr=1000031c data=323fc047
# UVM_INFO C:/Documents/DoAnThietKeViMach/Project/SoC/VERIFICATION/Monitor/axi_monitor.sv(55) @ 10015000: uvm_test_top.env.agent.monitor [MON_WR] Detected WRITE : Addr=1000031c Data=323fc047 Strb=1111 Prot=xxx BResp=00
# UVM_INFO C:/Documents/DoAnThietKeViMach/Project/SoC/VERIFICATION/Driver/axi_driver.sv(63) @ 10025000: uvm_test_top.env.agent.driver [DRV] Write Done: Addr=1000031c Data=323fc047 Prot=xxx
# [DRAM WRITE] addr=10000320 data=b086a6a4
# UVM_INFO C:/Documents/DoAnThietKeViMach/Project/SoC/VERIFICATION/Monitor/axi_monitor.sv(55) @ 10065000: uvm_test_top.env.agent.monitor [MON_WR] Detected WRITE : Addr=10000320 Data=b086a6a4 Strb=1111 Prot=xxx BResp=00
# UVM_INFO C:/Documents/DoAnThietKeViMach/Project/SoC/VERIFICATION/Driver/axi_driver.sv(63) @ 10075000: uvm_test_top.env.agent.driver [DRV] Write Done: Addr=10000320 Data=b086a6a4 Prot=xxx
# [DRAM WRITE] addr=10000324 data=d55913f9
# UVM_INFO C:/Documents/DoAnThietKeViMach/Project/SoC/VERIFICATION/Monitor/axi_monitor.sv(55) @ 10115000: uvm_test_top.env.agent.monitor [MON_WR] Detected WRITE : Addr=10000324 Data=d55913f9 Strb=1111 Prot=xxx BResp=00
# UVM_INFO C:/Documents/DoAnThietKeViMach/Project/SoC/VERIFICATION/Driver/axi_driver.sv(63) @ 10125000: uvm_test_top.env.agent.driver [DRV] Write Done: Addr=10000324 Data=d55913f9 Prot=xxx
# [DRAM WRITE] addr=10000328 data=d5c37d64
# UVM_INFO C:/Documents/DoAnThietKeViMach/Project/SoC/VERIFICATION/Monitor/axi_monitor.sv(55) @ 10165000: uvm_test_top.env.agent.monitor [MON_WR] Detected WRITE : Addr=10000328 Data=d5c37d64 Strb=1111 Prot=xxx BResp=00
# UVM_INFO C:/Documents/DoAnThietKeViMach/Project/SoC/VERIFICATION/Driver/axi_driver.sv(63) @ 10175000: uvm_test_top.env.agent.driver [DRV] Write Done: Addr=10000328 Data=d5c37d64 Prot=xxx
# [DRAM WRITE] addr=1000032c data=883d5601
# UVM_INFO C:/Documents/DoAnThietKeViMach/Project/SoC/VERIFICATION/Monitor/axi_monitor.sv(55) @ 10215000: uvm_test_top.env.agent.monitor [MON_WR] Detected WRITE : Addr=1000032c Data=883d5601 Strb=1111 Prot=xxx BResp=00
# UVM_INFO C:/Documents/DoAnThietKeViMach/Project/SoC/VERIFICATION/Driver/axi_driver.sv(63) @ 10225000: uvm_test_top.env.agent.driver [DRV] Write Done: Addr=1000032c Data=883d5601 Prot=xxx
# [DRAM WRITE] addr=10000330 data=64aca45e
# UVM_INFO C:/Documents/DoAnThietKeViMach/Project/SoC/VERIFICATION/Monitor/axi_monitor.sv(55) @ 10265000: uvm_test_top.env.agent.monitor [MON_WR] Detected WRITE : Addr=10000330 Data=64aca45e Strb=1111 Prot=xxx BResp=00
# UVM_INFO C:/Documents/DoAnThietKeViMach/Project/SoC/VERIFICATION/Driver/axi_driver.sv(63) @ 10275000: uvm_test_top.env.agent.driver [DRV] Write Done: Addr=10000330 Data=64aca45e Prot=xxx
# [DRAM WRITE] addr=10000334 data=932fb35c
# UVM_INFO C:/Documents/DoAnThietKeViMach/Project/SoC/VERIFICATION/Monitor/axi_monitor.sv(55) @ 10315000: uvm_test_top.env.agent.monitor [MON_WR] Detected WRITE : Addr=10000334 Data=932fb35c Strb=1111 Prot=xxx BResp=00
# UVM_INFO C:/Documents/DoAnThietKeViMach/Project/SoC/VERIFICATION/Driver/axi_driver.sv(63) @ 10325000: uvm_test_top.env.agent.driver [DRV] Write Done: Addr=10000334 Data=932fb35c Prot=xxx
# [DRAM WRITE] addr=10000338 data=b3b97977
# UVM_INFO C:/Documents/DoAnThietKeViMach/Project/SoC/VERIFICATION/Monitor/axi_monitor.sv(55) @ 10365000: uvm_test_top.env.agent.monitor [MON_WR] Detected WRITE : Addr=10000338 Data=b3b97977 Strb=1111 Prot=xxx BResp=00
# UVM_INFO C:/Documents/DoAnThietKeViMach/Project/SoC/VERIFICATION/Driver/axi_driver.sv(63) @ 10375000: uvm_test_top.env.agent.driver [DRV] Write Done: Addr=10000338 Data=b3b97977 Prot=xxx
# [DRAM WRITE] addr=1000033c data=aa24aff9
