--- [SIM ONLY] axi_random_wr_rd_test ---
MODE = UVM_MASTER
Reading C:/app/QuestaSim/tcl/vsim/pref.tcl 

# 10.2c

# vsim +UVM_TESTNAME=axi_random_wr_rd_test +UVM_MASTER +MEM_SEED=1042794760 +CPU_INSTR_COUNT=200 -coverage -do {run -all; quit} -c -sv_seed 1042794760 vopt_top 
# //  Questa Sim-64
# //  Version 10.2c Unknown Platform Jul 19 2013
# //
# //  Copyright 1991-2013 Mentor Graphics Corporation
# //  All Rights Reserved.
# //
# //  THIS WORK CONTAINS TRADE SECRET AND PROPRIETARY INFORMATION
# //  WHICH IS THE PROPERTY OF MENTOR GRAPHICS CORPORATION OR ITS
# //  LICENSORS AND IS SUBJECT TO LICENSE TERMS.
# //
# Loading sv_std.std
# Loading mtiUvm.uvm_pkg
# Loading work.soc_pkg(fast)
# Loading work.top_tb(fast)
# Loading work.clk_rst_inf(fast)
# Loading work.soc_inf(fast)
# Loading work.cpu_monitor_inf(fast)
# Loading work.TOP(fast)
# Loading work.AXI_Master(fast)
# Loading work.CPU(fast)
# Loading work.pc_reg(fast)
# Loading work.IF_ID(fast)
# Loading work.ControlUnit(fast)
# Loading work.MainDecoder(fast)
# Loading work.ALUControl(fast)
# Loading work.RegFile(fast)
# Loading work.signExtend(fast)
# Loading work.ID_EX(fast)
# Loading work.ALU(fast)
# Loading work.EX_MEM(fast)
# Loading work.MEM_WB(fast)
# Loading work.HazardUnit(fast)
# Loading work.LSU(fast)
# Loading work.AXI4_Lite_Interconnect(fast)
# Loading work.IRAM(fast)
# Loading work.DRAM(fast)
# Loading work.Timer(fast)
# Loading work.UART(fast)
# Loading work.SPI(fast)
# Loading work.axi4_lite_sva(fast)
# Loading work.cpu_sva(fast)
# Loading mtiUvm.questa_uvm_pkg(fast)
# Loading C:/app/QuestaSim/uvm-1.1d\win64\uvm_dpi.dll
# run -all 
# ----------------------------------------------------------------
# UVM-1.1d
# (C) 2007-2013 Mentor Graphics Corporation
# (C) 2007-2013 Cadence Design Systems, Inc.
# (C) 2006-2013 Synopsys, Inc.
# (C) 2011-2013 Cypress Semiconductor Corp.
# ----------------------------------------------------------------
# 
#   ***********       IMPORTANT RELEASE NOTES         ************
# 
#   You are using a version of the UVM library that has been compiled
#   with `UVM_NO_DEPRECATED undefined.
#   See http://www.eda.org/svdb/view.php?id=3313 for more details.
# 
#   You are using a version of the UVM library that has been compiled
#   with `UVM_OBJECT_MUST_HAVE_CONSTRUCTOR undefined.
#   See http://www.eda.org/svdb/view.php?id=3770 for more details.
# 
#       (Specify +UVM_NO_RELNOTES to turn off this notice)
# 
# UVM_INFO verilog_src/questa_uvm_pkg-1.2/src/questa_uvm_pkg.sv(215) @ 0: reporter [Questa UVM] QUESTA_UVM-1.2.2
# UVM_INFO verilog_src/questa_uvm_pkg-1.2/src/questa_uvm_pkg.sv(217) @ 0: reporter [Questa UVM]  questa_uvm::init(+struct)
# [IRAM] Loading file: instr.mem
# [IRAM] mem[0] = 100000b7
# [IRAM] mem[1] = 20000137
# [IRAM] mem[2] = 300001b7
# [IRAM] mem[3] = 40000237
# [IRAM] mem[4] = 00012903
# [IRAM] mem[5] = 01501263
# [IRAM] mem[6] = 00000263
# [IRAM] mem[7] = 01004263
# [IRAM] mem[8] = 00005263
# [IRAM] mem[9] = 00ad77b3
# [IRAM] mem[10] = 093d4c13
# [IRAM] mem[11] = 00cc29b3
# [IRAM] mem[12] = 01892e33
# [IRAM] mem[13] = 00f482b3
# [IRAM] mem[14] = 41b35eb3
# [IRAM] mem[15] = 6120ac23
# [IRAM] mem[16] = 1e00aa83
# [IRAM] mem[17] = 01e8ed33
# [IRAM] mem[18] = 010448b3
# [IRAM] mem[19] = 00400c6f
# [IRAM] mem[20] = 00504263
# [IRAM] mem[21] = 01e12223
# [IRAM] mem[22] = 00cdadb3
# [IRAM] mem[23] = 1dfd8413
# [IRAM] mem[24] = 00007263
# [IRAM] mem[25] = fe28e793
# [IRAM] mem[26] = 00012283
# [IRAM] mem[27] = 42e0a223
# [IRAM] mem[28] = 0121a023
# [IRAM] mem[29] = 00812003
# [IRAM] mem[30] = 01d1a023
# [IRAM] mem[31] = 50a0a423
# [IRAM] mem[32] = 41d5d933
# [IRAM] mem[33] = 00b46333
# [IRAM] mem[34] = 00e01263
# [IRAM] mem[35] = 22988313
# [IRAM] mem[36] = 00c1a583
# [IRAM] mem[37] = 0041a003
# [IRAM] mem[38] = 01412223
# [IRAM] mem[39] = 00400f6f
# [IRAM] mem[40] = 00c22f83
# [IRAM] mem[41] = 00022003
# [IRAM] mem[42] = 007b8d33
# [IRAM] mem[43] = 00007263
# [IRAM] mem[44] = 0131a023
# [IRAM] mem[45] = 013dafb3
# [IRAM] mem[46] = 01a06263
# [IRAM] mem[47] = 004006ef
# [IRAM] mem[48] = 00422b03
# [IRAM] mem[49] = 00c1ae83
# [IRAM] mem[50] = 0051a023
# [IRAM] mem[51] = 01b1a023
# [IRAM] mem[52] = 0081a003
# [IRAM] mem[53] = 0151a023
# [IRAM] mem[54] = 00e12023
# [IRAM] mem[55] = 01df66b3
# [IRAM] mem[56] = 01cb03b3
# [IRAM] mem[57] = 18f0a623
# [IRAM] mem[58] = 412f0933
# [IRAM] mem[59] = 00c22483
# [IRAM] mem[60] = 7db8ad13
# [IRAM] mem[61] = 0041a003
# [IRAM] mem[62] = 00d30ab3
# [IRAM] mem[63] = a25a7b13
# [IRAM] mem[64] = 00412903
# [IRAM] mem[65] = 00812003
# [IRAM] mem[66] = 00d06263
# [IRAM] mem[67] = 00c1a703
# [IRAM] mem[68] = 49d0ac23
# [IRAM] mem[69] = 0081a003
# [IRAM] mem[70] = 9f974893
# [IRAM] mem[71] = 01c39db3
# [IRAM] mem[72] = 00b12023
# [IRAM] mem[73] = 00007263
# [IRAM] mem[74] = 01512023
# [IRAM] mem[75] = f69b7f13
# [IRAM] mem[76] = 014c08b3
# [IRAM] mem[77] = 417b0733
# [IRAM] mem[78] = 00022003
# [IRAM] mem[79] = 901df613
# [IRAM] mem[80] = 00000263
# [IRAM] mem[81] = 00422e03
# [IRAM] mem[82] = 00005263
# [IRAM] mem[83] = 0041a003
# [IRAM] mem[84] = 2980a023
# [IRAM] mem[85] = 017b8733
# [IRAM] mem[86] = 017d0a33
# [IRAM] mem[87] = 01fdd633
# [IRAM] mem[88] = 00012b83
# [IRAM] mem[89] = 01622023
# [IRAM] mem[90] = aaadf393
# [IRAM] mem[91] = 00005263
# [IRAM] mem[92] = 01104263
# [IRAM] mem[93] = 0041a003
# [IRAM] mem[94] = 00412883
# [IRAM] mem[95] = 00005263
# [IRAM] mem[96] = 4360aa23
# [IRAM] mem[97] = 01f06263
# [IRAM] mem[98] = 00000263
# [IRAM] mem[99] = 09b0a623
# [IRAM] mem[100] = 004007ef
# [IRAM] mem[101] = 0081a003
# [IRAM] mem[102] = 0151a623
# [IRAM] mem[103] = 00c1a623
# [IRAM] mem[104] = 01f22223
# [IRAM] mem[105] = 00e01263
# [IRAM] mem[106] = 00005263
# [IRAM] mem[107] = 0077cd33
# [IRAM] mem[108] = 5190a823
# [IRAM] mem[109] = 39e3a813
# [IRAM] mem[110] = 00412683
# [IRAM] mem[111] = 00c1a883
# [IRAM] mem[112] = 01b1a623
# [IRAM] mem[113] = 00b12223
# [IRAM] mem[114] = 2600a503
# [IRAM] mem[115] = 62df0a13
# [IRAM] mem[116] = 01f12023
# [IRAM] mem[117] = 00012a83
# [IRAM] mem[118] = 00007263
# [IRAM] mem[119] = 01d4f733
# [IRAM] mem[120] = 00801263
# [IRAM] mem[121] = 00812003
# [IRAM] mem[122] = 0191a623
# [IRAM] mem[123] = 00400bef
# [IRAM] mem[124] = 728e8693
# [IRAM] mem[125] = 00822003
# [IRAM] mem[126] = 0081a003
# [IRAM] mem[127] = 01522023
# [IRAM] mem[128] = 01712023
# [IRAM] mem[129] = 019f6b33
# [IRAM] mem[130] = 611f7c13
# [IRAM] mem[131] = 00e04263
# [IRAM] mem[132] = 0041a003
# [IRAM] mem[133] = 00412683
# [IRAM] mem[134] = 00c1ae03
# [IRAM] mem[135] = 00012f83
# [IRAM] mem[136] = 00007263
# [IRAM] mem[137] = 0081a003
# [IRAM] mem[138] = 0041a003
# [IRAM] mem[139] = 01f04263
# [IRAM] mem[140] = 00812003
# [IRAM] mem[141] = 00e22623
# [IRAM] mem[142] = 00000263
# [IRAM] mem[143] = 0051a623
# [IRAM] mem[144] = 7d98f693
# [IRAM] mem[145] = 6d40ae23
# [IRAM] mem[146] = 01529733
# [IRAM] mem[147] = 00812003
# [IRAM] mem[148] = 84956e93
# [IRAM] mem[149] = 01106263
# [IRAM] mem[150] = 00c1ab83
# [IRAM] mem[151] = 00007263
# [IRAM] mem[152] = 01004263
# [IRAM] mem[153] = 00000263
# [IRAM] mem[154] = 01f22023
# [IRAM] mem[155] = 00000263
# [IRAM] mem[156] = 00005263
# [IRAM] mem[157] = 01f8a3b3
# [IRAM] mem[158] = 00822003
# [IRAM] mem[159] = 01201263
# [IRAM] mem[160] = 00412b03
# [IRAM] mem[161] = 01fdecb3
# [IRAM] mem[162] = 417cd733
# [IRAM] mem[163] = 00801263
# [IRAM] mem[164] = 00d04263
# [IRAM] mem[165] = ec3d8593
# [IRAM] mem[166] = 5980af03
# [IRAM] mem[167] = 01006263
# [IRAM] mem[168] = 00812003
# [IRAM] mem[169] = 16aeaa93
# [IRAM] mem[170] = 01912223
# [IRAM] mem[171] = 00c22703
# [IRAM] mem[172] = 41f8d7b3
# [IRAM] mem[173] = 01bedd33
# [IRAM] mem[174] = 622eaa13
# [IRAM] mem[175] = 00822003
# [IRAM] mem[176] = 00412f83
# [IRAM] mem[177] = 91b57d13
# [IRAM] mem[178] = 00806263
# [IRAM] mem[179] = 01e06263
# [IRAM] mem[180] = 01901263
# [IRAM] mem[181] = 41ad8ab3
# [IRAM] mem[182] = 00400def
# [IRAM] mem[183] = 0151a623
# [IRAM] mem[184] = 01d22623
# [IRAM] mem[185] = 00007263
# [IRAM] mem[186] = 00f22223
# [IRAM] mem[187] = 00512223
# [IRAM] mem[188] = 00022003
# [IRAM] mem[189] = 0081a003
# [IRAM] mem[190] = 004009ef
# [IRAM] mem[191] = 01412223
# [IRAM] mem[192] = 01112023
# [IRAM] mem[193] = 84ce2613
# [IRAM] mem[194] = 00012983
# [IRAM] mem[195] = 00400b6f
# [IRAM] mem[196] = 00422d83
# [IRAM] mem[197] = 01722223
# [IRAM] mem[198] = 0132cd33
# [IRAM] mem[199] = 01e6a433
# [IRAM] mem[200] = 00000013
# [IRAM] mem[201] = 00000013
# [IRAM] mem[202] = 00000013
# [IRAM] mem[203] = 00000013
# [IRAM] mem[204] = 00000013
# [IRAM] mem[205] = 00000013
# [IRAM] mem[206] = 00000013
# [IRAM] mem[207] = 00000013
# [IRAM] mem[208] = 00000013
# [IRAM] mem[209] = 00000013
# [IRAM] mem[210] = 00000013
# [IRAM] mem[211] = 00000013
# [IRAM] mem[212] = 00000013
# [IRAM] mem[213] = 00000013
# [IRAM] mem[214] = 00000013
# [IRAM] mem[215] = 00000013
# [IRAM] mem[216] = 00000013
# [IRAM] mem[217] = 00000013
# [IRAM] mem[218] = 00000013
# [IRAM] mem[219] = 00000013
# [IRAM] mem[220] = 00000013
# [IRAM] mem[221] = 00000013
# [IRAM] mem[222] = 00000013
# [IRAM] mem[223] = 00000013
# [IRAM] mem[224] = 00000013
# [IRAM] mem[225] = 00000013
# [IRAM] mem[226] = 00000013
# [IRAM] mem[227] = 00000013
# [IRAM] mem[228] = 00000013
# [IRAM] mem[229] = 00000013
# [IRAM] mem[230] = 00000013
# [IRAM] mem[231] = 00000013
# [IRAM] mem[232] = 00000013
# [IRAM] mem[233] = 00000013
# [IRAM] mem[234] = 00000013
# [IRAM] mem[235] = 00000013
# [IRAM] mem[236] = 00000013
# [IRAM] mem[237] = 00000013
# [IRAM] mem[238] = 00000013
# [IRAM] mem[239] = 00000013
# [IRAM] mem[240] = 00000013
# [IRAM] mem[241] = 00000013
# [IRAM] mem[242] = 00000013
# [IRAM] mem[243] = 00000013
# [IRAM] mem[244] = 00000013
# [IRAM] mem[245] = 00000013
# [IRAM] mem[246] = 00000013
# [IRAM] mem[247] = 00000013
# [IRAM] mem[248] = 00000013
# [IRAM] mem[249] = 00000013
# [IRAM] mem[250] = 00000013
# [IRAM] mem[251] = 00000013
# [IRAM] mem[252] = 00000013
# [IRAM] mem[253] = 00000013
# [IRAM] mem[254] = 00000013
# [IRAM] mem[255] = 00000013
# [IRAM] Loaded 16384 instruction words
# [TB] Mode: UVM MASTER => driver controls AXI bus
# UVM_INFO @ 0: reporter [RNTST] Running test axi_random_wr_rd_test...
# ** Warning: (vsim-PLI-8707) No address specified on line 3 of file "instr.mem" 
# 
# while loading into associative array using readmem command.    : C:/Documents/DoAnThietKeViMach/Project/SoC/VERIFICATION/Scoreboard/axi_scoreboard.sv(31)
#    Time: 0 ps  Iteration: 8  Region: /uvm_pkg::uvm_phase::m_run_phases
# UVM_INFO C:/Documents/DoAnThietKeViMach/Project/SoC/VERIFICATION/Sequence/axi_random_wr_rd.sv(26) @ 0: uvm_test_top.env.agent.sequencer@@seq [SEQ] --- STARTING SMART RANDOM TEST (ID 11, 12) ---
# [DRAM WRITE] addr=10000000 data=9b8d9064
# UVM_INFO C:/Documents/DoAnThietKeViMach/Project/SoC/VERIFICATION/Monitor/axi_monitor.sv(51) @ 65000: uvm_test_top.env.agent.monitor [MON_WR] Detected WRITE : Addr=10000000 Data=9b8d9064 Strb=1111 Prot=000 BResp=00
# UVM_INFO C:/Documents/DoAnThietKeViMach/Project/SoC/VERIFICATION/Driver/axi_driver.sv(63) @ 75000: uvm_test_top.env.agent.driver [DRV] Write Done: Addr=10000000 Data=9b8d9064 Prot=000
# [DRAM WRITE] addr=10000004 data=7ebbc993
# UVM_INFO C:/Documents/DoAnThietKeViMach/Project/SoC/VERIFICATION/Monitor/axi_monitor.sv(51) @ 115000: uvm_test_top.env.agent.monitor [MON_WR] Detected WRITE : Addr=10000004 Data=7ebbc993 Strb=1111 Prot=000 BResp=00
# UVM_INFO C:/Documents/DoAnThietKeViMach/Project/SoC/VERIFICATION/Driver/axi_driver.sv(63) @ 125000: uvm_test_top.env.agent.driver [DRV] Write Done: Addr=10000004 Data=7ebbc993 Prot=000
# [DRAM WRITE] addr=10000008 data=f8f0b940
# UVM_INFO C:/Documents/DoAnThietKeViMach/Project/SoC/VERIFICATION/Monitor/axi_monitor.sv(51) @ 165000: uvm_test_top.env.agent.monitor [MON_WR] Detected WRITE : Addr=10000008 Data=f8f0b940 Strb=1111 Prot=000 BResp=00
# UVM_INFO C:/Documents/DoAnThietKeViMach/Project/SoC/VERIFICATION/Driver/axi_driver.sv(63) @ 175000: uvm_test_top.env.agent.driver [DRV] Write Done: Addr=10000008 Data=f8f0b940 Prot=000
# [DRAM WRITE] addr=1000000c data=ad9fcec3
# UVM_INFO C:/Documents/DoAnThietKeViMach/Project/SoC/VERIFICATION/Monitor/axi_monitor.sv(51) @ 215000: uvm_test_top.env.agent.monitor [MON_WR] Detected WRITE : Addr=1000000c Data=ad9fcec3 Strb=1111 Prot=000 BResp=00
# UVM_INFO C:/Documents/DoAnThietKeViMach/Project/SoC/VERIFICATION/Driver/axi_driver.sv(63) @ 225000: uvm_test_top.env.agent.driver [DRV] Write Done: Addr=1000000c Data=ad9fcec3 Prot=000
# [DRAM WRITE] addr=10000010 data=d46743f2
# UVM_INFO C:/Documents/DoAnThietKeViMach/Project/SoC/VERIFICATION/Monitor/axi_monitor.sv(51) @ 265000: uvm_test_top.env.agent.monitor [MON_WR] Detected WRITE : Addr=10000010 Data=d46743f2 Strb=1111 Prot=000 BResp=00
# UVM_INFO C:/Documents/DoAnThietKeViMach/Project/SoC/VERIFICATION/Driver/axi_driver.sv(63) @ 275000: uvm_test_top.env.agent.driver [DRV] Write Done: Addr=10000010 Data=d46743f2 Prot=000
# [DRAM WRITE] addr=10000014 data=30626b31
# UVM_INFO C:/Documents/DoAnThietKeViMach/Project/SoC/VERIFICATION/Monitor/axi_monitor.sv(51) @ 315000: uvm_test_top.env.agent.monitor [MON_WR] Detected WRITE : Addr=10000014 Data=30626b31 Strb=1111 Prot=000 BResp=00
# UVM_INFO C:/Documents/DoAnThietKeViMach/Project/SoC/VERIFICATION/Driver/axi_driver.sv(63) @ 325000: uvm_test_top.env.agent.driver [DRV] Write Done: Addr=10000014 Data=30626b31 Prot=000
# [DRAM WRITE] addr=10000018 data=19a7f212
# UVM_INFO C:/Documents/DoAnThietKeViMach/Project/SoC/VERIFICATION/Monitor/axi_monitor.sv(51) @ 365000: uvm_test_top.env.agent.monitor [MON_WR] Detected WRITE : Addr=10000018 Data=19a7f212 Strb=1111 Prot=000 BResp=00
# UVM_INFO C:/Documents/DoAnThietKeViMach/Project/SoC/VERIFICATION/Driver/axi_driver.sv(63) @ 375000: uvm_test_top.env.agent.driver [DRV] Write Done: Addr=10000018 Data=19a7f212 Prot=000
# [DRAM WRITE] addr=1000001c data=e3447c0b
# UVM_INFO C:/Documents/DoAnThietKeViMach/Project/SoC/VERIFICATION/Monitor/axi_monitor.sv(51) @ 415000: uvm_test_top.env.agent.monitor [MON_WR] Detected WRITE : Addr=1000001c Data=e3447c0b Strb=1111 Prot=000 BResp=00
# UVM_INFO C:/Documents/DoAnThietKeViMach/Project/SoC/VERIFICATION/Driver/axi_driver.sv(63) @ 425000: uvm_test_top.env.agent.driver [DRV] Write Done: Addr=1000001c Data=e3447c0b Prot=000
# [DRAM WRITE] addr=10000020 data=0c2f0835
# UVM_INFO C:/Documents/DoAnThietKeViMach/Project/SoC/VERIFICATION/Monitor/axi_monitor.sv(51) @ 465000: uvm_test_top.env.agent.monitor [MON_WR] Detected WRITE : Addr=10000020 Data=0c2f0835 Strb=1111 Prot=000 BResp=00
# UVM_INFO C:/Documents/DoAnThietKeViMach/Project/SoC/VERIFICATION/Driver/axi_driver.sv(63) @ 475000: uvm_test_top.env.agent.driver [DRV] Write Done: Addr=10000020 Data=0c2f0835 Prot=000
# [DRAM WRITE] addr=10000024 data=5acbfefa
# UVM_INFO C:/Documents/DoAnThietKeViMach/Project/SoC/VERIFICATION/Monitor/axi_monitor.sv(51) @ 515000: uvm_test_top.env.agent.monitor [MON_WR] Detected WRITE : Addr=10000024 Data=5acbfefa Strb=1111 Prot=000 BResp=00
# UVM_INFO C:/Documents/DoAnThietKeViMach/Project/SoC/VERIFICATION/Driver/axi_driver.sv(63) @ 525000: uvm_test_top.env.agent.driver [DRV] Write Done: Addr=10000024 Data=5acbfefa Prot=000
# [DRAM WRITE] addr=10000028 data=b3a31060
# UVM_INFO C:/Documents/DoAnThietKeViMach/Project/SoC/VERIFICATION/Monitor/axi_monitor.sv(51) @ 565000: uvm_test_top.env.agent.monitor [MON_WR] Detected WRITE : Addr=10000028 Data=b3a31060 Strb=1111 Prot=000 BResp=00
# UVM_INFO C:/Documents/DoAnThietKeViMach/Project/SoC/VERIFICATION/Driver/axi_driver.sv(63) @ 575000: uvm_test_top.env.agent.driver [DRV] Write Done: Addr=10000028 Data=b3a31060 Prot=000
# [DRAM WRITE] addr=1000002c data=6719c090
# UVM_INFO C:/Documents/DoAnThietKeViMach/Project/SoC/VERIFICATION/Monitor/axi_monitor.sv(51) @ 615000: uvm_test_top.env.agent.monitor [MON_WR] Detected WRITE : Addr=1000002c Data=6719c090 Strb=1111 Prot=000 BResp=00
# UVM_INFO C:/Documents/DoAnThietKeViMach/Project/SoC/VERIFICATION/Driver/axi_driver.sv(63) @ 625000: uvm_test_top.env.agent.driver [DRV] Write Done: Addr=1000002c Data=6719c090 Prot=000
# [DRAM WRITE] addr=10000030 data=57f9c7d2
# UVM_INFO C:/Documents/DoAnThietKeViMach/Project/SoC/VERIFICATION/Monitor/axi_monitor.sv(51) @ 665000: uvm_test_top.env.agent.monitor [MON_WR] Detected WRITE : Addr=10000030 Data=57f9c7d2 Strb=1111 Prot=000 BResp=00
# UVM_INFO C:/Documents/DoAnThietKeViMach/Project/SoC/VERIFICATION/Driver/axi_driver.sv(63) @ 675000: uvm_test_top.env.agent.driver [DRV] Write Done: Addr=10000030 Data=57f9c7d2 Prot=000
# [DRAM WRITE] addr=10000034 data=b12370f5
# UVM_INFO C:/Documents/DoAnThietKeViMach/Project/SoC/VERIFICATION/Monitor/axi_monitor.sv(51) @ 715000: uvm_test_top.env.agent.monitor [MON_WR] Detected WRITE : Addr=10000034 Data=b12370f5 Strb=1111 Prot=000 BResp=00
# UVM_INFO C:/Documents/DoAnThietKeViMach/Project/SoC/VERIFICATION/Driver/axi_driver.sv(63) @ 725000: uvm_test_top.env.agent.driver [DRV] Write Done: Addr=10000034 Data=b12370f5 Prot=000
# [DRAM WRITE] addr=10000038 data=5c3ae52f
# UVM_INFO C:/Documents/DoAnThietKeViMach/Project/SoC/VERIFICATION/Monitor/axi_monitor.sv(51) @ 765000: uvm_test_top.env.agent.monitor [MON_WR] Detected WRITE : Addr=10000038 Data=5c3ae52f Strb=1111 Prot=000 BResp=00
# UVM_INFO C:/Documents/DoAnThietKeViMach/Project/SoC/VERIFICATION/Driver/axi_driver.sv(63) @ 775000: uvm_test_top.env.agent.driver [DRV] Write Done: Addr=10000038 Data=5c3ae52f Prot=000
# [DRAM WRITE] addr=1000003c data=0ad32288
# UVM_INFO C:/Documents/DoAnThietKeViMach/Project/SoC/VERIFICATION/Monitor/axi_monitor.sv(51) @ 815000: uvm_test_top.env.agent.monitor [MON_WR] Detected WRITE : Addr=1000003c Data=0ad32288 Strb=1111 Prot=000 BResp=00
# UVM_INFO C:/Documents/DoAnThietKeViMach/Project/SoC/VERIFICATION/Driver/axi_driver.sv(63) @ 825000: uvm_test_top.env.agent.driver [DRV] Write Done: Addr=1000003c Data=0ad32288 Prot=000
# [DRAM WRITE] addr=10000040 data=901dedab
# UVM_INFO C:/Documents/DoAnThietKeViMach/Project/SoC/VERIFICATION/Monitor/axi_monitor.sv(51) @ 865000: uvm_test_top.env.agent.monitor [MON_WR] Detected WRITE : Addr=10000040 Data=901dedab Strb=1111 Prot=000 BResp=00
# UVM_INFO C:/Documents/DoAnThietKeViMach/Project/SoC/VERIFICATION/Driver/axi_driver.sv(63) @ 875000: uvm_test_top.env.agent.driver [DRV] Write Done: Addr=10000040 Data=901dedab Prot=000
# [DRAM WRITE] addr=10000044 data=4a233486
# UVM_INFO C:/Documents/DoAnThietKeViMach/Project/SoC/VERIFICATION/Monitor/axi_monitor.sv(51) @ 915000: uvm_test_top.env.agent.monitor [MON_WR] Detected WRITE : Addr=10000044 Data=4a233486 Strb=1111 Prot=000 BResp=00
# UVM_INFO C:/Documents/DoAnThietKeViMach/Project/SoC/VERIFICATION/Driver/axi_driver.sv(63) @ 925000: uvm_test_top.env.agent.driver [DRV] Write Done: Addr=10000044 Data=4a233486 Prot=000
# [DRAM WRITE] addr=10000048 data=a7a39a13
# UVM_INFO C:/Documents/DoAnThietKeViMach/Project/SoC/VERIFICATION/Monitor/axi_monitor.sv(51) @ 965000: uvm_test_top.env.agent.monitor [MON_WR] Detected WRITE : Addr=10000048 Data=a7a39a13 Strb=1111 Prot=000 BResp=00
# UVM_INFO C:/Documents/DoAnThietKeViMach/Project/SoC/VERIFICATION/Driver/axi_driver.sv(63) @ 975000: uvm_test_top.env.agent.driver [DRV] Write Done: Addr=10000048 Data=a7a39a13 Prot=000
# [DRAM WRITE] addr=1000004c data=1aaa274b
# UVM_INFO C:/Documents/DoAnThietKeViMach/Project/SoC/VERIFICATION/Monitor/axi_monitor.sv(51) @ 1015000: uvm_test_top.env.agent.monitor [MON_WR] Detected WRITE : Addr=1000004c Data=1aaa274b Strb=1111 Prot=000 BResp=00
# UVM_INFO C:/Documents/DoAnThietKeViMach/Project/SoC/VERIFICATION/Driver/axi_driver.sv(63) @ 1025000: uvm_test_top.env.agent.driver [DRV] Write Done: Addr=1000004c Data=1aaa274b Prot=000
# [DRAM WRITE] addr=10000050 data=9fda45d3
# UVM_INFO C:/Documents/DoAnThietKeViMach/Project/SoC/VERIFICATION/Monitor/axi_monitor.sv(51) @ 1065000: uvm_test_top.env.agent.monitor [MON_WR] Detected WRITE : Addr=10000050 Data=9fda45d3 Strb=1111 Prot=000 BResp=00
# UVM_INFO C:/Documents/DoAnThietKeViMach/Project/SoC/VERIFICATION/Driver/axi_driver.sv(63) @ 1075000: uvm_test_top.env.agent.driver [DRV] Write Done: Addr=10000050 Data=9fda45d3 Prot=000
# [DRAM WRITE] addr=10000054 data=b07630f6
# UVM_INFO C:/Documents/DoAnThietKeViMach/Project/SoC/VERIFICATION/Monitor/axi_monitor.sv(51) @ 1115000: uvm_test_top.env.agent.monitor [MON_WR] Detected WRITE : Addr=10000054 Data=b07630f6 Strb=1111 Prot=000 BResp=00
# UVM_INFO C:/Documents/DoAnThietKeViMach/Project/SoC/VERIFICATION/Driver/axi_driver.sv(63) @ 1125000: uvm_test_top.env.agent.driver [DRV] Write Done: Addr=10000054 Data=b07630f6 Prot=000
# [DRAM WRITE] addr=10000058 data=0fde8d58
# UVM_INFO C:/Documents/DoAnThietKeViMach/Project/SoC/VERIFICATION/Monitor/axi_monitor.sv(51) @ 1165000: uvm_test_top.env.agent.monitor [MON_WR] Detected WRITE : Addr=10000058 Data=0fde8d58 Strb=1111 Prot=000 BResp=00
# UVM_INFO C:/Documents/DoAnThietKeViMach/Project/SoC/VERIFICATION/Driver/axi_driver.sv(63) @ 1175000: uvm_test_top.env.agent.driver [DRV] Write Done: Addr=10000058 Data=0fde8d58 Prot=000
# [DRAM WRITE] addr=1000005c data=74032403
# UVM_INFO C:/Documents/DoAnThietKeViMach/Project/SoC/VERIFICATION/Monitor/axi_monitor.sv(51) @ 1215000: uvm_test_top.env.agent.monitor [MON_WR] Detected WRITE : Addr=1000005c Data=74032403 Strb=1111 Prot=000 BResp=00
# UVM_INFO C:/Documents/DoAnThietKeViMach/Project/SoC/VERIFICATION/Driver/axi_driver.sv(63) @ 1225000: uvm_test_top.env.agent.driver [DRV] Write Done: Addr=1000005c Data=74032403 Prot=000
# [DRAM WRITE] addr=10000060 data=6c84508e
# UVM_INFO C:/Documents/DoAnThietKeViMach/Project/SoC/VERIFICATION/Monitor/axi_monitor.sv(51) @ 1265000: uvm_test_top.env.agent.monitor [MON_WR] Detected WRITE : Addr=10000060 Data=6c84508e Strb=1111 Prot=000 BResp=00
# UVM_INFO C:/Documents/DoAnThietKeViMach/Project/SoC/VERIFICATION/Driver/axi_driver.sv(63) @ 1275000: uvm_test_top.env.agent.driver [DRV] Write Done: Addr=10000060 Data=6c84508e Prot=000
# [DRAM WRITE] addr=10000064 data=718a4561
# UVM_INFO C:/Documents/DoAnThietKeViMach/Project/SoC/VERIFICATION/Monitor/axi_monitor.sv(51) @ 1315000: uvm_test_top.env.agent.monitor [MON_WR] Detected WRITE : Addr=10000064 Data=718a4561 Strb=1111 Prot=000 BResp=00
# UVM_INFO C:/Documents/DoAnThietKeViMach/Project/SoC/VERIFICATION/Driver/axi_driver.sv(63) @ 1325000: uvm_test_top.env.agent.driver [DRV] Write Done: Addr=10000064 Data=718a4561 Prot=000
# [DRAM WRITE] addr=10000068 data=3209bc7b
# UVM_INFO C:/Documents/DoAnThietKeViMach/Project/SoC/VERIFICATION/Monitor/axi_monitor.sv(51) @ 1365000: uvm_test_top.env.agent.monitor [MON_WR] Detected WRITE : Addr=10000068 Data=3209bc7b Strb=1111 Prot=000 BResp=00
# UVM_INFO C:/Documents/DoAnThietKeViMach/Project/SoC/VERIFICATION/Driver/axi_driver.sv(63) @ 1375000: uvm_test_top.env.agent.driver [DRV] Write Done: Addr=10000068 Data=3209bc7b Prot=000
# [DRAM WRITE] addr=1000006c data=c4f972f3
# UVM_INFO C:/Documents/DoAnThietKeViMach/Project/SoC/VERIFICATION/Monitor/axi_monitor.sv(51) @ 1415000: uvm_test_top.env.agent.monitor [MON_WR] Detected WRITE : Addr=1000006c Data=c4f972f3 Strb=1111 Prot=000 BResp=00
# UVM_INFO C:/Documents/DoAnThietKeViMach/Project/SoC/VERIFICATION/Driver/axi_driver.sv(63) @ 1425000: uvm_test_top.env.agent.driver [DRV] Write Done: Addr=1000006c Data=c4f972f3 Prot=000
# [DRAM WRITE] addr=10000070 data=8c2d4b0f
# UVM_INFO C:/Documents/DoAnThietKeViMach/Project/SoC/VERIFICATION/Monitor/axi_monitor.sv(51) @ 1465000: uvm_test_top.env.agent.monitor [MON_WR] Detected WRITE : Addr=10000070 Data=8c2d4b0f Strb=1111 Prot=000 BResp=00
# UVM_INFO C:/Documents/DoAnThietKeViMach/Project/SoC/VERIFICATION/Driver/axi_driver.sv(63) @ 1475000: uvm_test_top.env.agent.driver [DRV] Write Done: Addr=10000070 Data=8c2d4b0f Prot=000
# [DRAM WRITE] addr=10000074 data=e60fd6ec
# UVM_INFO C:/Documents/DoAnThietKeViMach/Project/SoC/VERIFICATION/Monitor/axi_monitor.sv(51) @ 1515000: uvm_test_top.env.agent.monitor [MON_WR] Detected WRITE : Addr=10000074 Data=e60fd6ec Strb=1111 Prot=000 BResp=00
# UVM_INFO C:/Documents/DoAnThietKeViMach/Project/SoC/VERIFICATION/Driver/axi_driver.sv(63) @ 1525000: uvm_test_top.env.agent.driver [DRV] Write Done: Addr=10000074 Data=e60fd6ec Prot=000
# [DRAM WRITE] addr=10000078 data=9610bb0d
# UVM_INFO C:/Documents/DoAnThietKeViMach/Project/SoC/VERIFICATION/Monitor/axi_monitor.sv(51) @ 1565000: uvm_test_top.env.agent.monitor [MON_WR] Detected WRITE : Addr=10000078 Data=9610bb0d Strb=1111 Prot=000 BResp=00
# UVM_INFO C:/Documents/DoAnThietKeViMach/Project/SoC/VERIFICATION/Driver/axi_driver.sv(63) @ 1575000: uvm_test_top.env.agent.driver [DRV] Write Done: Addr=10000078 Data=9610bb0d Prot=000
# [DRAM WRITE] addr=1000007c data=a1e01047
# UVM_INFO C:/Documents/DoAnThietKeViMach/Project/SoC/VERIFICATION/Monitor/axi_monitor.sv(51) @ 1615000: uvm_test_top.env.agent.monitor [MON_WR] Detected WRITE : Addr=1000007c Data=a1e01047 Strb=1111 Prot=000 BResp=00
# UVM_INFO C:/Documents/DoAnThietKeViMach/Project/SoC/VERIFICATION/Driver/axi_driver.sv(63) @ 1625000: uvm_test_top.env.agent.driver [DRV] Write Done: Addr=1000007c Data=a1e01047 Prot=000
# [DRAM WRITE] addr=10000080 data=cabd40d6
# UVM_INFO C:/Documents/DoAnThietKeViMach/Project/SoC/VERIFICATION/Monitor/axi_monitor.sv(51) @ 1665000: uvm_test_top.env.agent.monitor [MON_WR] Detected WRITE : Addr=10000080 Data=cabd40d6 Strb=1111 Prot=000 BResp=00
# UVM_INFO C:/Documents/DoAnThietKeViMach/Project/SoC/VERIFICATION/Driver/axi_driver.sv(63) @ 1675000: uvm_test_top.env.agent.driver [DRV] Write Done: Addr=10000080 Data=cabd40d6 Prot=000
# [DRAM WRITE] addr=10000084 data=4733a3ea
# UVM_INFO C:/Documents/DoAnThietKeViMach/Project/SoC/VERIFICATION/Monitor/axi_monitor.sv(51) @ 1715000: uvm_test_top.env.agent.monitor [MON_WR] Detected WRITE : Addr=10000084 Data=4733a3ea Strb=1111 Prot=000 BResp=00
# UVM_INFO C:/Documents/DoAnThietKeViMach/Project/SoC/VERIFICATION/Driver/axi_driver.sv(63) @ 1725000: uvm_test_top.env.agent.driver [DRV] Write Done: Addr=10000084 Data=4733a3ea Prot=000
# [DRAM WRITE] addr=10000088 data=d46e2055
# UVM_INFO C:/Documents/DoAnThietKeViMach/Project/SoC/VERIFICATION/Monitor/axi_monitor.sv(51) @ 1765000: uvm_test_top.env.agent.monitor [MON_WR] Detected WRITE : Addr=10000088 Data=d46e2055 Strb=1111 Prot=000 BResp=00
# UVM_INFO C:/Documents/DoAnThietKeViMach/Project/SoC/VERIFICATION/Driver/axi_driver.sv(63) @ 1775000: uvm_test_top.env.agent.driver [DRV] Write Done: Addr=10000088 Data=d46e2055 Prot=000
# [DRAM WRITE] addr=1000008c data=97e20025
# UVM_INFO C:/Documents/DoAnThietKeViMach/Project/SoC/VERIFICATION/Monitor/axi_monitor.sv(51) @ 1815000: uvm_test_top.env.agent.monitor [MON_WR] Detected WRITE : Addr=1000008c Data=97e20025 Strb=1111 Prot=000 BResp=00
# UVM_INFO C:/Documents/DoAnThietKeViMach/Project/SoC/VERIFICATION/Driver/axi_driver.sv(63) @ 1825000: uvm_test_top.env.agent.driver [DRV] Write Done: Addr=1000008c Data=97e20025 Prot=000
# [DRAM WRITE] addr=10000090 data=c73cf3de
# UVM_INFO C:/Documents/DoAnThietKeViMach/Project/SoC/VERIFICATION/Monitor/axi_monitor.sv(51) @ 1865000: uvm_test_top.env.agent.monitor [MON_WR] Detected WRITE : Addr=10000090 Data=c73cf3de Strb=1111 Prot=000 BResp=00
# UVM_INFO C:/Documents/DoAnThietKeViMach/Project/SoC/VERIFICATION/Driver/axi_driver.sv(63) @ 1875000: uvm_test_top.env.agent.driver [DRV] Write Done: Addr=10000090 Data=c73cf3de Prot=000
# [DRAM WRITE] addr=10000094 data=37a17129
# UVM_INFO C:/Documents/DoAnThietKeViMach/Project/SoC/VERIFICATION/Monitor/axi_monitor.sv(51) @ 1915000: uvm_test_top.env.agent.monitor [MON_WR] Detected WRITE : Addr=10000094 Data=37a17129 Strb=1111 Prot=000 BResp=00
# UVM_INFO C:/Documents/DoAnThietKeViMach/Project/SoC/VERIFICATION/Driver/axi_driver.sv(63) @ 1925000: uvm_test_top.env.agent.driver [DRV] Write Done: Addr=10000094 Data=37a17129 Prot=000
# [DRAM WRITE] addr=10000098 data=8ede1a8a
# UVM_INFO C:/Documents/DoAnThietKeViMach/Project/SoC/VERIFICATION/Monitor/axi_monitor.sv(51) @ 1965000: uvm_test_top.env.agent.monitor [MON_WR] Detected WRITE : Addr=10000098 Data=8ede1a8a Strb=1111 Prot=000 BResp=00
# UVM_INFO C:/Documents/DoAnThietKeViMach/Project/SoC/VERIFICATION/Driver/axi_driver.sv(63) @ 1975000: uvm_test_top.env.agent.driver [DRV] Write Done: Addr=10000098 Data=8ede1a8a Prot=000
# [DRAM WRITE] addr=1000009c data=6701db3f
# UVM_INFO C:/Documents/DoAnThietKeViMach/Project/SoC/VERIFICATION/Monitor/axi_monitor.sv(51) @ 2015000: uvm_test_top.env.agent.monitor [MON_WR] Detected WRITE : Addr=1000009c Data=6701db3f Strb=1111 Prot=000 BResp=00
# UVM_INFO C:/Documents/DoAnThietKeViMach/Project/SoC/VERIFICATION/Driver/axi_driver.sv(63) @ 2025000: uvm_test_top.env.agent.driver [DRV] Write Done: Addr=1000009c Data=6701db3f Prot=000
# [DRAM WRITE] addr=100000a0 data=83b8d25e
# UVM_INFO C:/Documents/DoAnThietKeViMach/Project/SoC/VERIFICATION/Monitor/axi_monitor.sv(51) @ 2065000: uvm_test_top.env.agent.monitor [MON_WR] Detected WRITE : Addr=100000a0 Data=83b8d25e Strb=1111 Prot=000 BResp=00
# UVM_INFO C:/Documents/DoAnThietKeViMach/Project/SoC/VERIFICATION/Driver/axi_driver.sv(63) @ 2075000: uvm_test_top.env.agent.driver [DRV] Write Done: Addr=100000a0 Data=83b8d25e Prot=000
# [DRAM WRITE] addr=100000a4 data=ba78c621
# UVM_INFO C:/Documents/DoAnThietKeViMach/Project/SoC/VERIFICATION/Monitor/axi_monitor.sv(51) @ 2115000: uvm_test_top.env.agent.monitor [MON_WR] Detected WRITE : Addr=100000a4 Data=ba78c621 Strb=1111 Prot=000 BResp=00
# UVM_INFO C:/Documents/DoAnThietKeViMach/Project/SoC/VERIFICATION/Driver/axi_driver.sv(63) @ 2125000: uvm_test_top.env.agent.driver [DRV] Write Done: Addr=100000a4 Data=ba78c621 Prot=000
# [DRAM WRITE] addr=100000a8 data=3026cddd
# UVM_INFO C:/Documents/DoAnThietKeViMach/Project/SoC/VERIFICATION/Monitor/axi_monitor.sv(51) @ 2165000: uvm_test_top.env.agent.monitor [MON_WR] Detected WRITE : Addr=100000a8 Data=3026cddd Strb=1111 Prot=000 BResp=00
# UVM_INFO C:/Documents/DoAnThietKeViMach/Project/SoC/VERIFICATION/Driver/axi_driver.sv(63) @ 2175000: uvm_test_top.env.agent.driver [DRV] Write Done: Addr=100000a8 Data=3026cddd Prot=000
# [DRAM WRITE] addr=100000ac data=c4ce25fa
# UVM_INFO C:/Documents/DoAnThietKeViMach/Project/SoC/VERIFICATION/Monitor/axi_monitor.sv(51) @ 2215000: uvm_test_top.env.agent.monitor [MON_WR] Detected WRITE : Addr=100000ac Data=c4ce25fa Strb=1111 Prot=000 BResp=00
# UVM_INFO C:/Documents/DoAnThietKeViMach/Project/SoC/VERIFICATION/Driver/axi_driver.sv(63) @ 2225000: uvm_test_top.env.agent.driver [DRV] Write Done: Addr=100000ac Data=c4ce25fa Prot=000
# [DRAM WRITE] addr=100000b0 data=d56c8400
# UVM_INFO C:/Documents/DoAnThietKeViMach/Project/SoC/VERIFICATION/Monitor/axi_monitor.sv(51) @ 2265000: uvm_test_top.env.agent.monitor [MON_WR] Detected WRITE : Addr=100000b0 Data=d56c8400 Strb=1111 Prot=000 BResp=00
# UVM_INFO C:/Documents/DoAnThietKeViMach/Project/SoC/VERIFICATION/Driver/axi_driver.sv(63) @ 2275000: uvm_test_top.env.agent.driver [DRV] Write Done: Addr=100000b0 Data=d56c8400 Prot=000
# [DRAM WRITE] addr=100000b4 data=57ac87e6
# UVM_INFO C:/Documents/DoAnThietKeViMach/Project/SoC/VERIFICATION/Monitor/axi_monitor.sv(51) @ 2315000: uvm_test_top.env.agent.monitor [MON_WR] Detected WRITE : Addr=100000b4 Data=57ac87e6 Strb=1111 Prot=000 BResp=00
# UVM_INFO C:/Documents/DoAnThietKeViMach/Project/SoC/VERIFICATION/Driver/axi_driver.sv(63) @ 2325000: uvm_test_top.env.agent.driver [DRV] Write Done: Addr=100000b4 Data=57ac87e6 Prot=000
# [DRAM WRITE] addr=100000b8 data=3b61bc3d
# UVM_INFO C:/Documents/DoAnThietKeViMach/Project/SoC/VERIFICATION/Monitor/axi_monitor.sv(51) @ 2365000: uvm_test_top.env.agent.monitor [MON_WR] Detected WRITE : Addr=100000b8 Data=3b61bc3d Strb=1111 Prot=000 BResp=00
# UVM_INFO C:/Documents/DoAnThietKeViMach/Project/SoC/VERIFICATION/Driver/axi_driver.sv(63) @ 2375000: uvm_test_top.env.agent.driver [DRV] Write Done: Addr=100000b8 Data=3b61bc3d Prot=000
# [DRAM WRITE] addr=100000bc data=2ad319dc
# UVM_INFO C:/Documents/DoAnThietKeViMach/Project/SoC/VERIFICATION/Monitor/axi_monitor.sv(51) @ 2415000: uvm_test_top.env.agent.monitor [MON_WR] Detected WRITE : Addr=100000bc Data=2ad319dc Strb=1111 Prot=000 BResp=00
# UVM_INFO C:/Documents/DoAnThietKeViMach/Project/SoC/VERIFICATION/Driver/axi_driver.sv(63) @ 2425000: uvm_test_top.env.agent.driver [DRV] Write Done: Addr=100000bc Data=2ad319dc Prot=000
# [DRAM WRITE] addr=100000c0 data=28f0a114
# UVM_INFO C:/Documents/DoAnThietKeViMach/Project/SoC/VERIFICATION/Monitor/axi_monitor.sv(51) @ 2465000: uvm_test_top.env.agent.monitor [MON_WR] Detected WRITE : Addr=100000c0 Data=28f0a114 Strb=1111 Prot=000 BResp=00
# UVM_INFO C:/Documents/DoAnThietKeViMach/Project/SoC/VERIFICATION/Driver/axi_driver.sv(63) @ 2475000: uvm_test_top.env.agent.driver [DRV] Write Done: Addr=100000c0 Data=28f0a114 Prot=000
# [DRAM WRITE] addr=100000c4 data=e20fe90b
# UVM_INFO C:/Documents/DoAnThietKeViMach/Project/SoC/VERIFICATION/Monitor/axi_monitor.sv(51) @ 2515000: uvm_test_top.env.agent.monitor [MON_WR] Detected WRITE : Addr=100000c4 Data=e20fe90b Strb=1111 Prot=000 BResp=00
# UVM_INFO C:/Documents/DoAnThietKeViMach/Project/SoC/VERIFICATION/Driver/axi_driver.sv(63) @ 2525000: uvm_test_top.env.agent.driver [DRV] Write Done: Addr=100000c4 Data=e20fe90b Prot=000
# [DRAM WRITE] addr=100000c8 data=31bb63a0
# UVM_INFO C:/Documents/DoAnThietKeViMach/Project/SoC/VERIFICATION/Monitor/axi_monitor.sv(51) @ 2565000: uvm_test_top.env.agent.monitor [MON_WR] Detected WRITE : Addr=100000c8 Data=31bb63a0 Strb=1111 Prot=000 BResp=00
# UVM_INFO C:/Documents/DoAnThietKeViMach/Project/SoC/VERIFICATION/Driver/axi_driver.sv(63) @ 2575000: uvm_test_top.env.agent.driver [DRV] Write Done: Addr=100000c8 Data=31bb63a0 Prot=000
# [DRAM WRITE] addr=100000cc data=021ff24b
# UVM_INFO C:/Documents/DoAnThietKeViMach/Project/SoC/VERIFICATION/Monitor/axi_monitor.sv(51) @ 2615000: uvm_test_top.env.agent.monitor [MON_WR] Detected WRITE : Addr=100000cc Data=021ff24b Strb=1111 Prot=000 BResp=00
# UVM_INFO C:/Documents/DoAnThietKeViMach/Project/SoC/VERIFICATION/Driver/axi_driver.sv(63) @ 2625000: uvm_test_top.env.agent.driver [DRV] Write Done: Addr=100000cc Data=021ff24b Prot=000
# [DRAM WRITE] addr=100000d0 data=d8ba0eee
# UVM_INFO C:/Documents/DoAnThietKeViMach/Project/SoC/VERIFICATION/Monitor/axi_monitor.sv(51) @ 2665000: uvm_test_top.env.agent.monitor [MON_WR] Detected WRITE : Addr=100000d0 Data=d8ba0eee Strb=1111 Prot=000 BResp=00
# UVM_INFO C:/Documents/DoAnThietKeViMach/Project/SoC/VERIFICATION/Driver/axi_driver.sv(63) @ 2675000: uvm_test_top.env.agent.driver [DRV] Write Done: Addr=100000d0 Data=d8ba0eee Prot=000
# [DRAM WRITE] addr=100000d4 data=789a364f
# UVM_INFO C:/Documents/DoAnThietKeViMach/Project/SoC/VERIFICATION/Monitor/axi_monitor.sv(51) @ 2715000: uvm_test_top.env.agent.monitor [MON_WR] Detected WRITE : Addr=100000d4 Data=789a364f Strb=1111 Prot=000 BResp=00
# UVM_INFO C:/Documents/DoAnThietKeViMach/Project/SoC/VERIFICATION/Driver/axi_driver.sv(63) @ 2725000: uvm_test_top.env.agent.driver [DRV] Write Done: Addr=100000d4 Data=789a364f Prot=000
# [DRAM WRITE] addr=100000d8 data=39b91f91
# UVM_INFO C:/Documents/DoAnThietKeViMach/Project/SoC/VERIFICATION/Monitor/axi_monitor.sv(51) @ 2765000: uvm_test_top.env.agent.monitor [MON_WR] Detected WRITE : Addr=100000d8 Data=39b91f91 Strb=1111 Prot=000 BResp=00
# UVM_INFO C:/Documents/DoAnThietKeViMach/Project/SoC/VERIFICATION/Driver/axi_driver.sv(63) @ 2775000: uvm_test_top.env.agent.driver [DRV] Write Done: Addr=100000d8 Data=39b91f91 Prot=000
# [DRAM WRITE] addr=100000dc data=b0543157
# UVM_INFO C:/Documents/DoAnThietKeViMach/Project/SoC/VERIFICATION/Monitor/axi_monitor.sv(51) @ 2815000: uvm_test_top.env.agent.monitor [MON_WR] Detected WRITE : Addr=100000dc Data=b0543157 Strb=1111 Prot=000 BResp=00
# UVM_INFO C:/Documents/DoAnThietKeViMach/Project/SoC/VERIFICATION/Driver/axi_driver.sv(63) @ 2825000: uvm_test_top.env.agent.driver [DRV] Write Done: Addr=100000dc Data=b0543157 Prot=000
# [DRAM WRITE] addr=100000e0 data=1ef6b8bf
# UVM_INFO C:/Documents/DoAnThietKeViMach/Project/SoC/VERIFICATION/Monitor/axi_monitor.sv(51) @ 2865000: uvm_test_top.env.agent.monitor [MON_WR] Detected WRITE : Addr=100000e0 Data=1ef6b8bf Strb=1111 Prot=000 BResp=00
# UVM_INFO C:/Documents/DoAnThietKeViMach/Project/SoC/VERIFICATION/Driver/axi_driver.sv(63) @ 2875000: uvm_test_top.env.agent.driver [DRV] Write Done: Addr=100000e0 Data=1ef6b8bf Prot=000
# [DRAM WRITE] addr=100000e4 data=4c0d9ee6
# UVM_INFO C:/Documents/DoAnThietKeViMach/Project/SoC/VERIFICATION/Monitor/axi_monitor.sv(51) @ 2915000: uvm_test_top.env.agent.monitor [MON_WR] Detected WRITE : Addr=100000e4 Data=4c0d9ee6 Strb=1111 Prot=000 BResp=00
# UVM_INFO C:/Documents/DoAnThietKeViMach/Project/SoC/VERIFICATION/Driver/axi_driver.sv(63) @ 2925000: uvm_test_top.env.agent.driver [DRV] Write Done: Addr=100000e4 Data=4c0d9ee6 Prot=000
# [DRAM WRITE] addr=100000e8 data=23e485f9
# UVM_INFO C:/Documents/DoAnThietKeViMach/Project/SoC/VERIFICATION/Monitor/axi_monitor.sv(51) @ 2965000: uvm_test_top.env.agent.monitor [MON_WR] Detected WRITE : Addr=100000e8 Data=23e485f9 Strb=1111 Prot=000 BResp=00
# UVM_INFO C:/Documents/DoAnThietKeViMach/Project/SoC/VERIFICATION/Driver/axi_driver.sv(63) @ 2975000: uvm_test_top.env.agent.driver [DRV] Write Done: Addr=100000e8 Data=23e485f9 Prot=000
# [DRAM WRITE] addr=100000ec data=b397b723
# UVM_INFO C:/Documents/DoAnThietKeViMach/Project/SoC/VERIFICATION/Monitor/axi_monitor.sv(51) @ 3015000: uvm_test_top.env.agent.monitor [MON_WR] Detected WRITE : Addr=100000ec Data=b397b723 Strb=1111 Prot=000 BResp=00
# UVM_INFO C:/Documents/DoAnThietKeViMach/Project/SoC/VERIFICATION/Driver/axi_driver.sv(63) @ 3025000: uvm_test_top.env.agent.driver [DRV] Write Done: Addr=100000ec Data=b397b723 Prot=000
# [DRAM WRITE] addr=100000f0 data=2095b240
# UVM_INFO C:/Documents/DoAnThietKeViMach/Project/SoC/VERIFICATION/Monitor/axi_monitor.sv(51) @ 3065000: uvm_test_top.env.agent.monitor [MON_WR] Detected WRITE : Addr=100000f0 Data=2095b240 Strb=1111 Prot=000 BResp=00
# UVM_INFO C:/Documents/DoAnThietKeViMach/Project/SoC/VERIFICATION/Driver/axi_driver.sv(63) @ 3075000: uvm_test_top.env.agent.driver [DRV] Write Done: Addr=100000f0 Data=2095b240 Prot=000
# [DRAM WRITE] addr=100000f4 data=cd649136
# UVM_INFO C:/Documents/DoAnThietKeViMach/Project/SoC/VERIFICATION/Monitor/axi_monitor.sv(51) @ 3115000: uvm_test_top.env.agent.monitor [MON_WR] Detected WRITE : Addr=100000f4 Data=cd649136 Strb=1111 Prot=000 BResp=00
# UVM_INFO C:/Documents/DoAnThietKeViMach/Project/SoC/VERIFICATION/Driver/axi_driver.sv(63) @ 3125000: uvm_test_top.env.agent.driver [DRV] Write Done: Addr=100000f4 Data=cd649136 Prot=000
# [DRAM WRITE] addr=100000f8 data=f55441c6
# UVM_INFO C:/Documents/DoAnThietKeViMach/Project/SoC/VERIFICATION/Monitor/axi_monitor.sv(51) @ 3165000: uvm_test_top.env.agent.monitor [MON_WR] Detected WRITE : Addr=100000f8 Data=f55441c6 Strb=1111 Prot=000 BResp=00
# UVM_INFO C:/Documents/DoAnThietKeViMach/Project/SoC/VERIFICATION/Driver/axi_driver.sv(63) @ 3175000: uvm_test_top.env.agent.driver [DRV] Write Done: Addr=100000f8 Data=f55441c6 Prot=000
# [DRAM WRITE] addr=100000fc data=1c8ae2d8
# UVM_INFO C:/Documents/DoAnThietKeViMach/Project/SoC/VERIFICATION/Monitor/axi_monitor.sv(51) @ 3215000: uvm_test_top.env.agent.monitor [MON_WR] Detected WRITE : Addr=100000fc Data=1c8ae2d8 Strb=1111 Prot=000 BResp=00
# UVM_INFO C:/Documents/DoAnThietKeViMach/Project/SoC/VERIFICATION/Driver/axi_driver.sv(63) @ 3225000: uvm_test_top.env.agent.driver [DRV] Write Done: Addr=100000fc Data=1c8ae2d8 Prot=000
# [DRAM WRITE] addr=10000100 data=40111dc7
# UVM_INFO C:/Documents/DoAnThietKeViMach/Project/SoC/VERIFICATION/Monitor/axi_monitor.sv(51) @ 3265000: uvm_test_top.env.agent.monitor [MON_WR] Detected WRITE : Addr=10000100 Data=40111dc7 Strb=1111 Prot=000 BResp=00
# UVM_INFO C:/Documents/DoAnThietKeViMach/Project/SoC/VERIFICATION/Driver/axi_driver.sv(63) @ 3275000: uvm_test_top.env.agent.driver [DRV] Write Done: Addr=10000100 Data=40111dc7 Prot=000
# [DRAM WRITE] addr=10000104 data=bd0b71c0
# UVM_INFO C:/Documents/DoAnThietKeViMach/Project/SoC/VERIFICATION/Monitor/axi_monitor.sv(51) @ 3315000: uvm_test_top.env.agent.monitor [MON_WR] Detected WRITE : Addr=10000104 Data=bd0b71c0 Strb=1111 Prot=000 BResp=00
# UVM_INFO C:/Documents/DoAnThietKeViMach/Project/SoC/VERIFICATION/Driver/axi_driver.sv(63) @ 3325000: uvm_test_top.env.agent.driver [DRV] Write Done: Addr=10000104 Data=bd0b71c0 Prot=000
# [DRAM WRITE] addr=10000108 data=3749cc7d
# UVM_INFO C:/Documents/DoAnThietKeViMach/Project/SoC/VERIFICATION/Monitor/axi_monitor.sv(51) @ 3365000: uvm_test_top.env.agent.monitor [MON_WR] Detected WRITE : Addr=10000108 Data=3749cc7d Strb=1111 Prot=000 BResp=00
# UVM_INFO C:/Documents/DoAnThietKeViMach/Project/SoC/VERIFICATION/Driver/axi_driver.sv(63) @ 3375000: uvm_test_top.env.agent.driver [DRV] Write Done: Addr=10000108 Data=3749cc7d Prot=000
# [DRAM WRITE] addr=1000010c data=7571337d
# UVM_INFO C:/Documents/DoAnThietKeViMach/Project/SoC/VERIFICATION/Monitor/axi_monitor.sv(51) @ 3415000: uvm_test_top.env.agent.monitor [MON_WR] Detected WRITE : Addr=1000010c Data=7571337d Strb=1111 Prot=000 BResp=00
# UVM_INFO C:/Documents/DoAnThietKeViMach/Project/SoC/VERIFICATION/Driver/axi_driver.sv(63) @ 3425000: uvm_test_top.env.agent.driver [DRV] Write Done: Addr=1000010c Data=7571337d Prot=000
# [DRAM WRITE] addr=10000110 data=04e1fe97
# UVM_INFO C:/Documents/DoAnThietKeViMach/Project/SoC/VERIFICATION/Monitor/axi_monitor.sv(51) @ 3465000: uvm_test_top.env.agent.monitor [MON_WR] Detected WRITE : Addr=10000110 Data=04e1fe97 Strb=1111 Prot=000 BResp=00
# UVM_INFO C:/Documents/DoAnThietKeViMach/Project/SoC/VERIFICATION/Driver/axi_driver.sv(63) @ 3475000: uvm_test_top.env.agent.driver [DRV] Write Done: Addr=10000110 Data=04e1fe97 Prot=000
# [DRAM WRITE] addr=10000114 data=ee092ddd
# UVM_INFO C:/Documents/DoAnThietKeViMach/Project/SoC/VERIFICATION/Monitor/axi_monitor.sv(51) @ 3515000: uvm_test_top.env.agent.monitor [MON_WR] Detected WRITE : Addr=10000114 Data=ee092ddd Strb=1111 Prot=000 BResp=00
# UVM_INFO C:/Documents/DoAnThietKeViMach/Project/SoC/VERIFICATION/Driver/axi_driver.sv(63) @ 3525000: uvm_test_top.env.agent.driver [DRV] Write Done: Addr=10000114 Data=ee092ddd Prot=000
# [DRAM WRITE] addr=10000118 data=58fc0a7e
# UVM_INFO C:/Documents/DoAnThietKeViMach/Project/SoC/VERIFICATION/Monitor/axi_monitor.sv(51) @ 3565000: uvm_test_top.env.agent.monitor [MON_WR] Detected WRITE : Addr=10000118 Data=58fc0a7e Strb=1111 Prot=000 BResp=00
# UVM_INFO C:/Documents/DoAnThietKeViMach/Project/SoC/VERIFICATION/Driver/axi_driver.sv(63) @ 3575000: uvm_test_top.env.agent.driver [DRV] Write Done: Addr=10000118 Data=58fc0a7e Prot=000
# [DRAM WRITE] addr=1000011c data=edf236f5
# UVM_INFO C:/Documents/DoAnThietKeViMach/Project/SoC/VERIFICATION/Monitor/axi_monitor.sv(51) @ 3615000: uvm_test_top.env.agent.monitor [MON_WR] Detected WRITE : Addr=1000011c Data=edf236f5 Strb=1111 Prot=000 BResp=00
# UVM_INFO C:/Documents/DoAnThietKeViMach/Project/SoC/VERIFICATION/Driver/axi_driver.sv(63) @ 3625000: uvm_test_top.env.agent.driver [DRV] Write Done: Addr=1000011c Data=edf236f5 Prot=000
# [DRAM WRITE] addr=10000120 data=2d071d10
# UVM_INFO C:/Documents/DoAnThietKeViMach/Project/SoC/VERIFICATION/Monitor/axi_monitor.sv(51) @ 3665000: uvm_test_top.env.agent.monitor [MON_WR] Detected WRITE : Addr=10000120 Data=2d071d10 Strb=1111 Prot=000 BResp=00
# UVM_INFO C:/Documents/DoAnThietKeViMach/Project/SoC/VERIFICATION/Driver/axi_driver.sv(63) @ 3675000: uvm_test_top.env.agent.driver [DRV] Write Done: Addr=10000120 Data=2d071d10 Prot=000
# [DRAM WRITE] addr=10000124 data=02b737ed
# UVM_INFO C:/Documents/DoAnThietKeViMach/Project/SoC/VERIFICATION/Monitor/axi_monitor.sv(51) @ 3715000: uvm_test_top.env.agent.monitor [MON_WR] Detected WRITE : Addr=10000124 Data=02b737ed Strb=1111 Prot=000 BResp=00
# UVM_INFO C:/Documents/DoAnThietKeViMach/Project/SoC/VERIFICATION/Driver/axi_driver.sv(63) @ 3725000: uvm_test_top.env.agent.driver [DRV] Write Done: Addr=10000124 Data=02b737ed Prot=000
# [DRAM WRITE] addr=10000128 data=3585e544
# UVM_INFO C:/Documents/DoAnThietKeViMach/Project/SoC/VERIFICATION/Monitor/axi_monitor.sv(51) @ 3765000: uvm_test_top.env.agent.monitor [MON_WR] Detected WRITE : Addr=10000128 Data=3585e544 Strb=1111 Prot=000 BResp=00
# UVM_INFO C:/Documents/DoAnThietKeViMach/Project/SoC/VERIFICATION/Driver/axi_driver.sv(63) @ 3775000: uvm_test_top.env.agent.driver [DRV] Write Done: Addr=10000128 Data=3585e544 Prot=000
# [DRAM WRITE] addr=1000012c data=5dba318a
# UVM_INFO C:/Documents/DoAnThietKeViMach/Project/SoC/VERIFICATION/Monitor/axi_monitor.sv(51) @ 3815000: uvm_test_top.env.agent.monitor [MON_WR] Detected WRITE : Addr=1000012c Data=5dba318a Strb=1111 Prot=000 BResp=00
# UVM_INFO C:/Documents/DoAnThietKeViMach/Project/SoC/VERIFICATION/Driver/axi_driver.sv(63) @ 3825000: uvm_test_top.env.agent.driver [DRV] Write Done: Addr=1000012c Data=5dba318a Prot=000
# [DRAM WRITE] addr=10000130 data=4ca2e7ea
# UVM_INFO C:/Documents/DoAnThietKeViMach/Project/SoC/VERIFICATION/Monitor/axi_monitor.sv(51) @ 3865000: uvm_test_top.env.agent.monitor [MON_WR] Detected WRITE : Addr=10000130 Data=4ca2e7ea Strb=1111 Prot=000 BResp=00
# UVM_INFO C:/Documents/DoAnThietKeViMach/Project/SoC/VERIFICATION/Driver/axi_driver.sv(63) @ 3875000: uvm_test_top.env.agent.driver [DRV] Write Done: Addr=10000130 Data=4ca2e7ea Prot=000
# [DRAM WRITE] addr=10000134 data=bd9a5361
# UVM_INFO C:/Documents/DoAnThietKeViMach/Project/SoC/VERIFICATION/Monitor/axi_monitor.sv(51) @ 3915000: uvm_test_top.env.agent.monitor [MON_WR] Detected WRITE : Addr=10000134 Data=bd9a5361 Strb=1111 Prot=000 BResp=00
# UVM_INFO C:/Documents/DoAnThietKeViMach/Project/SoC/VERIFICATION/Driver/axi_driver.sv(63) @ 3925000: uvm_test_top.env.agent.driver [DRV] Write Done: Addr=10000134 Data=bd9a5361 Prot=000
# [DRAM WRITE] addr=10000138 data=3c7c2676
# UVM_INFO C:/Documents/DoAnThietKeViMach/Project/SoC/VERIFICATION/Monitor/axi_monitor.sv(51) @ 3965000: uvm_test_top.env.agent.monitor [MON_WR] Detected WRITE : Addr=10000138 Data=3c7c2676 Strb=1111 Prot=000 BResp=00
# UVM_INFO C:/Documents/DoAnThietKeViMach/Project/SoC/VERIFICATION/Driver/axi_driver.sv(63) @ 3975000: uvm_test_top.env.agent.driver [DRV] Write Done: Addr=10000138 Data=3c7c2676 Prot=000
# [DRAM WRITE] addr=1000013c data=21d1d758
# UVM_INFO C:/Documents/DoAnThietKeViMach/Project/SoC/VERIFICATION/Monitor/axi_monitor.sv(51) @ 4015000: uvm_test_top.env.agent.monitor [MON_WR] Detected WRITE : Addr=1000013c Data=21d1d758 Strb=1111 Prot=000 BResp=00
# UVM_INFO C:/Documents/DoAnThietKeViMach/Project/SoC/VERIFICATION/Driver/axi_driver.sv(63) @ 4025000: uvm_test_top.env.agent.driver [DRV] Write Done: Addr=1000013c Data=21d1d758 Prot=000
# [DRAM WRITE] addr=10000140 data=f9091426
# UVM_INFO C:/Documents/DoAnThietKeViMach/Project/SoC/VERIFICATION/Monitor/axi_monitor.sv(51) @ 4065000: uvm_test_top.env.agent.monitor [MON_WR] Detected WRITE : Addr=10000140 Data=f9091426 Strb=1111 Prot=000 BResp=00
# UVM_INFO C:/Documents/DoAnThietKeViMach/Project/SoC/VERIFICATION/Driver/axi_driver.sv(63) @ 4075000: uvm_test_top.env.agent.driver [DRV] Write Done: Addr=10000140 Data=f9091426 Prot=000
# [DRAM WRITE] addr=10000144 data=9c060483
# UVM_INFO C:/Documents/DoAnThietKeViMach/Project/SoC/VERIFICATION/Monitor/axi_monitor.sv(51) @ 4115000: uvm_test_top.env.agent.monitor [MON_WR] Detected WRITE : Addr=10000144 Data=9c060483 Strb=1111 Prot=000 BResp=00
# UVM_INFO C:/Documents/DoAnThietKeViMach/Project/SoC/VERIFICATION/Driver/axi_driver.sv(63) @ 4125000: uvm_test_top.env.agent.driver [DRV] Write Done: Addr=10000144 Data=9c060483 Prot=000
# [DRAM WRITE] addr=10000148 data=78b30631
# UVM_INFO C:/Documents/DoAnThietKeViMach/Project/SoC/VERIFICATION/Monitor/axi_monitor.sv(51) @ 4165000: uvm_test_top.env.agent.monitor [MON_WR] Detected WRITE : Addr=10000148 Data=78b30631 Strb=1111 Prot=000 BResp=00
# UVM_INFO C:/Documents/DoAnThietKeViMach/Project/SoC/VERIFICATION/Driver/axi_driver.sv(63) @ 4175000: uvm_test_top.env.agent.driver [DRV] Write Done: Addr=10000148 Data=78b30631 Prot=000
# [DRAM WRITE] addr=1000014c data=ea2e556f
# UVM_INFO C:/Documents/DoAnThietKeViMach/Project/SoC/VERIFICATION/Monitor/axi_monitor.sv(51) @ 4215000: uvm_test_top.env.agent.monitor [MON_WR] Detected WRITE : Addr=1000014c Data=ea2e556f Strb=1111 Prot=000 BResp=00
# UVM_INFO C:/Documents/DoAnThietKeViMach/Project/SoC/VERIFICATION/Driver/axi_driver.sv(63) @ 4225000: uvm_test_top.env.agent.driver [DRV] Write Done: Addr=1000014c Data=ea2e556f Prot=000
# [DRAM WRITE] addr=10000150 data=90ce9d60
# UVM_INFO C:/Documents/DoAnThietKeViMach/Project/SoC/VERIFICATION/Monitor/axi_monitor.sv(51) @ 4265000: uvm_test_top.env.agent.monitor [MON_WR] Detected WRITE : Addr=10000150 Data=90ce9d60 Strb=1111 Prot=000 BResp=00
# UVM_INFO C:/Documents/DoAnThietKeViMach/Project/SoC/VERIFICATION/Driver/axi_driver.sv(63) @ 4275000: uvm_test_top.env.agent.driver [DRV] Write Done: Addr=10000150 Data=90ce9d60 Prot=000
# [DRAM WRITE] addr=10000154 data=957f699f
# UVM_INFO C:/Documents/DoAnThietKeViMach/Project/SoC/VERIFICATION/Monitor/axi_monitor.sv(51) @ 4315000: uvm_test_top.env.agent.monitor [MON_WR] Detected WRITE : Addr=10000154 Data=957f699f Strb=1111 Prot=000 BResp=00
# UVM_INFO C:/Documents/DoAnThietKeViMach/Project/SoC/VERIFICATION/Driver/axi_driver.sv(63) @ 4325000: uvm_test_top.env.agent.driver [DRV] Write Done: Addr=10000154 Data=957f699f Prot=000
# [DRAM WRITE] addr=10000158 data=bdf4ab46
# UVM_INFO C:/Documents/DoAnThietKeViMach/Project/SoC/VERIFICATION/Monitor/axi_monitor.sv(51) @ 4365000: uvm_test_top.env.agent.monitor [MON_WR] Detected WRITE : Addr=10000158 Data=bdf4ab46 Strb=1111 Prot=000 BResp=00
# UVM_INFO C:/Documents/DoAnThietKeViMach/Project/SoC/VERIFICATION/Driver/axi_driver.sv(63) @ 4375000: uvm_test_top.env.agent.driver [DRV] Write Done: Addr=10000158 Data=bdf4ab46 Prot=000
# [DRAM WRITE] addr=1000015c data=3a1d547c
# UVM_INFO C:/Documents/DoAnThietKeViMach/Project/SoC/VERIFICATION/Monitor/axi_monitor.sv(51) @ 4415000: uvm_test_top.env.agent.monitor [MON_WR] Detected WRITE : Addr=1000015c Data=3a1d547c Strb=1111 Prot=000 BResp=00
# UVM_INFO C:/Documents/DoAnThietKeViMach/Project/SoC/VERIFICATION/Driver/axi_driver.sv(63) @ 4425000: uvm_test_top.env.agent.driver [DRV] Write Done: Addr=1000015c Data=3a1d547c Prot=000
# [DRAM WRITE] addr=10000160 data=752b8d96
# UVM_INFO C:/Documents/DoAnThietKeViMach/Project/SoC/VERIFICATION/Monitor/axi_monitor.sv(51) @ 4465000: uvm_test_top.env.agent.monitor [MON_WR] Detected WRITE : Addr=10000160 Data=752b8d96 Strb=1111 Prot=000 BResp=00
# UVM_INFO C:/Documents/DoAnThietKeViMach/Project/SoC/VERIFICATION/Driver/axi_driver.sv(63) @ 4475000: uvm_test_top.env.agent.driver [DRV] Write Done: Addr=10000160 Data=752b8d96 Prot=000
# [DRAM WRITE] addr=10000164 data=b51dc5ad
# UVM_INFO C:/Documents/DoAnThietKeViMach/Project/SoC/VERIFICATION/Monitor/axi_monitor.sv(51) @ 4515000: uvm_test_top.env.agent.monitor [MON_WR] Detected WRITE : Addr=10000164 Data=b51dc5ad Strb=1111 Prot=000 BResp=00
# UVM_INFO C:/Documents/DoAnThietKeViMach/Project/SoC/VERIFICATION/Driver/axi_driver.sv(63) @ 4525000: uvm_test_top.env.agent.driver [DRV] Write Done: Addr=10000164 Data=b51dc5ad Prot=000
# [DRAM WRITE] addr=10000168 data=cdcfd4a4
# UVM_INFO C:/Documents/DoAnThietKeViMach/Project/SoC/VERIFICATION/Monitor/axi_monitor.sv(51) @ 4565000: uvm_test_top.env.agent.monitor [MON_WR] Detected WRITE : Addr=10000168 Data=cdcfd4a4 Strb=1111 Prot=000 BResp=00
# UVM_INFO C:/Documents/DoAnThietKeViMach/Project/SoC/VERIFICATION/Driver/axi_driver.sv(63) @ 4575000: uvm_test_top.env.agent.driver [DRV] Write Done: Addr=10000168 Data=cdcfd4a4 Prot=000
# [DRAM WRITE] addr=1000016c data=14b1b052
# UVM_INFO C:/Documents/DoAnThietKeViMach/Project/SoC/VERIFICATION/Monitor/axi_monitor.sv(51) @ 4615000: uvm_test_top.env.agent.monitor [MON_WR] Detected WRITE : Addr=1000016c Data=14b1b052 Strb=1111 Prot=000 BResp=00
# UVM_INFO C:/Documents/DoAnThietKeViMach/Project/SoC/VERIFICATION/Driver/axi_driver.sv(63) @ 4625000: uvm_test_top.env.agent.driver [DRV] Write Done: Addr=1000016c Data=14b1b052 Prot=000
# [DRAM WRITE] addr=10000170 data=8ebf7ad6
# UVM_INFO C:/Documents/DoAnThietKeViMach/Project/SoC/VERIFICATION/Monitor/axi_monitor.sv(51) @ 4665000: uvm_test_top.env.agent.monitor [MON_WR] Detected WRITE : Addr=10000170 Data=8ebf7ad6 Strb=1111 Prot=000 BResp=00
# UVM_INFO C:/Documents/DoAnThietKeViMach/Project/SoC/VERIFICATION/Driver/axi_driver.sv(63) @ 4675000: uvm_test_top.env.agent.driver [DRV] Write Done: Addr=10000170 Data=8ebf7ad6 Prot=000
# [DRAM WRITE] addr=10000174 data=84aed4af
# UVM_INFO C:/Documents/DoAnThietKeViMach/Project/SoC/VERIFICATION/Monitor/axi_monitor.sv(51) @ 4715000: uvm_test_top.env.agent.monitor [MON_WR] Detected WRITE : Addr=10000174 Data=84aed4af Strb=1111 Prot=000 BResp=00
# UVM_INFO C:/Documents/DoAnThietKeViMach/Project/SoC/VERIFICATION/Driver/axi_driver.sv(63) @ 4725000: uvm_test_top.env.agent.driver [DRV] Write Done: Addr=10000174 Data=84aed4af Prot=000
# [DRAM WRITE] addr=10000178 data=8ff9bd9a
# UVM_INFO C:/Documents/DoAnThietKeViMach/Project/SoC/VERIFICATION/Monitor/axi_monitor.sv(51) @ 4765000: uvm_test_top.env.agent.monitor [MON_WR] Detected WRITE : Addr=10000178 Data=8ff9bd9a Strb=1111 Prot=000 BResp=00
# UVM_INFO C:/Documents/DoAnThietKeViMach/Project/SoC/VERIFICATION/Driver/axi_driver.sv(63) @ 4775000: uvm_test_top.env.agent.driver [DRV] Write Done: Addr=10000178 Data=8ff9bd9a Prot=000
# [DRAM WRITE] addr=1000017c data=0e256fa0
# UVM_INFO C:/Documents/DoAnThietKeViMach/Project/SoC/VERIFICATION/Monitor/axi_monitor.sv(51) @ 4815000: uvm_test_top.env.agent.monitor [MON_WR] Detected WRITE : Addr=1000017c Data=0e256fa0 Strb=1111 Prot=000 BResp=00
# UVM_INFO C:/Documents/DoAnThietKeViMach/Project/SoC/VERIFICATION/Driver/axi_driver.sv(63) @ 4825000: uvm_test_top.env.agent.driver [DRV] Write Done: Addr=1000017c Data=0e256fa0 Prot=000
# [DRAM WRITE] addr=10000180 data=1319bc87
# UVM_INFO C:/Documents/DoAnThietKeViMach/Project/SoC/VERIFICATION/Monitor/axi_monitor.sv(51) @ 4865000: uvm_test_top.env.agent.monitor [MON_WR] Detected WRITE : Addr=10000180 Data=1319bc87 Strb=1111 Prot=000 BResp=00
# UVM_INFO C:/Documents/DoAnThietKeViMach/Project/SoC/VERIFICATION/Driver/axi_driver.sv(63) @ 4875000: uvm_test_top.env.agent.driver [DRV] Write Done: Addr=10000180 Data=1319bc87 Prot=000
# [DRAM WRITE] addr=10000184 data=bc300957
# UVM_INFO C:/Documents/DoAnThietKeViMach/Project/SoC/VERIFICATION/Monitor/axi_monitor.sv(51) @ 4915000: uvm_test_top.env.agent.monitor [MON_WR] Detected WRITE : Addr=10000184 Data=bc300957 Strb=1111 Prot=000 BResp=00
# UVM_INFO C:/Documents/DoAnThietKeViMach/Project/SoC/VERIFICATION/Driver/axi_driver.sv(63) @ 4925000: uvm_test_top.env.agent.driver [DRV] Write Done: Addr=10000184 Data=bc300957 Prot=000
# [DRAM WRITE] addr=10000188 data=cb8d988e
# UVM_INFO C:/Documents/DoAnThietKeViMach/Project/SoC/VERIFICATION/Monitor/axi_monitor.sv(51) @ 4965000: uvm_test_top.env.agent.monitor [MON_WR] Detected WRITE : Addr=10000188 Data=cb8d988e Strb=1111 Prot=000 BResp=00
# UVM_INFO C:/Documents/DoAnThietKeViMach/Project/SoC/VERIFICATION/Driver/axi_driver.sv(63) @ 4975000: uvm_test_top.env.agent.driver [DRV] Write Done: Addr=10000188 Data=cb8d988e Prot=000
# [DRAM WRITE] addr=1000018c data=2929554e
# UVM_INFO C:/Documents/DoAnThietKeViMach/Project/SoC/VERIFICATION/Monitor/axi_monitor.sv(51) @ 5015000: uvm_test_top.env.agent.monitor [MON_WR] Detected WRITE : Addr=1000018c Data=2929554e Strb=1111 Prot=000 BResp=00
# UVM_INFO C:/Documents/DoAnThietKeViMach/Project/SoC/VERIFICATION/Driver/axi_driver.sv(63) @ 5025000: uvm_test_top.env.agent.driver [DRV] Write Done: Addr=1000018c Data=2929554e Prot=000
# [DRAM WRITE] addr=10000190 data=69bf870f
# UVM_INFO C:/Documents/DoAnThietKeViMach/Project/SoC/VERIFICATION/Monitor/axi_monitor.sv(51) @ 5065000: uvm_test_top.env.agent.monitor [MON_WR] Detected WRITE : Addr=10000190 Data=69bf870f Strb=1111 Prot=000 BResp=00
# UVM_INFO C:/Documents/DoAnThietKeViMach/Project/SoC/VERIFICATION/Driver/axi_driver.sv(63) @ 5075000: uvm_test_top.env.agent.driver [DRV] Write Done: Addr=10000190 Data=69bf870f Prot=000
# [DRAM WRITE] addr=10000194 data=31067355
# UVM_INFO C:/Documents/DoAnThietKeViMach/Project/SoC/VERIFICATION/Monitor/axi_monitor.sv(51) @ 5115000: uvm_test_top.env.agent.monitor [MON_WR] Detected WRITE : Addr=10000194 Data=31067355 Strb=1111 Prot=000 BResp=00
# UVM_INFO C:/Documents/DoAnThietKeViMach/Project/SoC/VERIFICATION/Driver/axi_driver.sv(63) @ 5125000: uvm_test_top.env.agent.driver [DRV] Write Done: Addr=10000194 Data=31067355 Prot=000
# [DRAM WRITE] addr=10000198 data=7fb57693
# UVM_INFO C:/Documents/DoAnThietKeViMach/Project/SoC/VERIFICATION/Monitor/axi_monitor.sv(51) @ 5165000: uvm_test_top.env.agent.monitor [MON_WR] Detected WRITE : Addr=10000198 Data=7fb57693 Strb=1111 Prot=000 BResp=00
# UVM_INFO C:/Documents/DoAnThietKeViMach/Project/SoC/VERIFICATION/Driver/axi_driver.sv(63) @ 5175000: uvm_test_top.env.agent.driver [DRV] Write Done: Addr=10000198 Data=7fb57693 Prot=000
# [DRAM WRITE] addr=1000019c data=77f849dc
# UVM_INFO C:/Documents/DoAnThietKeViMach/Project/SoC/VERIFICATION/Monitor/axi_monitor.sv(51) @ 5215000: uvm_test_top.env.agent.monitor [MON_WR] Detected WRITE : Addr=1000019c Data=77f849dc Strb=1111 Prot=000 BResp=00
# UVM_INFO C:/Documents/DoAnThietKeViMach/Project/SoC/VERIFICATION/Driver/axi_driver.sv(63) @ 5225000: uvm_test_top.env.agent.driver [DRV] Write Done: Addr=1000019c Data=77f849dc Prot=000
# [DRAM WRITE] addr=100001a0 data=84ff959b
# UVM_INFO C:/Documents/DoAnThietKeViMach/Project/SoC/VERIFICATION/Monitor/axi_monitor.sv(51) @ 5265000: uvm_test_top.env.agent.monitor [MON_WR] Detected WRITE : Addr=100001a0 Data=84ff959b Strb=1111 Prot=000 BResp=00
# UVM_INFO C:/Documents/DoAnThietKeViMach/Project/SoC/VERIFICATION/Driver/axi_driver.sv(63) @ 5275000: uvm_test_top.env.agent.driver [DRV] Write Done: Addr=100001a0 Data=84ff959b Prot=000
# [DRAM WRITE] addr=100001a4 data=b1a05981
# UVM_INFO C:/Documents/DoAnThietKeViMach/Project/SoC/VERIFICATION/Monitor/axi_monitor.sv(51) @ 5315000: uvm_test_top.env.agent.monitor [MON_WR] Detected WRITE : Addr=100001a4 Data=b1a05981 Strb=1111 Prot=000 BResp=00
# UVM_INFO C:/Documents/DoAnThietKeViMach/Project/SoC/VERIFICATION/Driver/axi_driver.sv(63) @ 5325000: uvm_test_top.env.agent.driver [DRV] Write Done: Addr=100001a4 Data=b1a05981 Prot=000
# [DRAM WRITE] addr=100001a8 data=6b6c59d2
# UVM_INFO C:/Documents/DoAnThietKeViMach/Project/SoC/VERIFICATION/Monitor/axi_monitor.sv(51) @ 5365000: uvm_test_top.env.agent.monitor [MON_WR] Detected WRITE : Addr=100001a8 Data=6b6c59d2 Strb=1111 Prot=000 BResp=00
# UVM_INFO C:/Documents/DoAnThietKeViMach/Project/SoC/VERIFICATION/Driver/axi_driver.sv(63) @ 5375000: uvm_test_top.env.agent.driver [DRV] Write Done: Addr=100001a8 Data=6b6c59d2 Prot=000
# [DRAM WRITE] addr=100001ac data=8fddf230
# UVM_INFO C:/Documents/DoAnThietKeViMach/Project/SoC/VERIFICATION/Monitor/axi_monitor.sv(51) @ 5415000: uvm_test_top.env.agent.monitor [MON_WR] Detected WRITE : Addr=100001ac Data=8fddf230 Strb=1111 Prot=000 BResp=00
# UVM_INFO C:/Documents/DoAnThietKeViMach/Project/SoC/VERIFICATION/Driver/axi_driver.sv(63) @ 5425000: uvm_test_top.env.agent.driver [DRV] Write Done: Addr=100001ac Data=8fddf230 Prot=000
# [DRAM WRITE] addr=100001b0 data=93e42d3f
# UVM_INFO C:/Documents/DoAnThietKeViMach/Project/SoC/VERIFICATION/Monitor/axi_monitor.sv(51) @ 5465000: uvm_test_top.env.agent.monitor [MON_WR] Detected WRITE : Addr=100001b0 Data=93e42d3f Strb=1111 Prot=000 BResp=00
# UVM_INFO C:/Documents/DoAnThietKeViMach/Project/SoC/VERIFICATION/Driver/axi_driver.sv(63) @ 5475000: uvm_test_top.env.agent.driver [DRV] Write Done: Addr=100001b0 Data=93e42d3f Prot=000
# [DRAM WRITE] addr=100001b4 data=4bd2da69
# UVM_INFO C:/Documents/DoAnThietKeViMach/Project/SoC/VERIFICATION/Monitor/axi_monitor.sv(51) @ 5515000: uvm_test_top.env.agent.monitor [MON_WR] Detected WRITE : Addr=100001b4 Data=4bd2da69 Strb=1111 Prot=000 BResp=00
# UVM_INFO C:/Documents/DoAnThietKeViMach/Project/SoC/VERIFICATION/Driver/axi_driver.sv(63) @ 5525000: uvm_test_top.env.agent.driver [DRV] Write Done: Addr=100001b4 Data=4bd2da69 Prot=000
# [DRAM WRITE] addr=100001b8 data=10d28074
# UVM_INFO C:/Documents/DoAnThietKeViMach/Project/SoC/VERIFICATION/Monitor/axi_monitor.sv(51) @ 5565000: uvm_test_top.env.agent.monitor [MON_WR] Detected WRITE : Addr=100001b8 Data=10d28074 Strb=1111 Prot=000 BResp=00
# UVM_INFO C:/Documents/DoAnThietKeViMach/Project/SoC/VERIFICATION/Driver/axi_driver.sv(63) @ 5575000: uvm_test_top.env.agent.driver [DRV] Write Done: Addr=100001b8 Data=10d28074 Prot=000
# [DRAM WRITE] addr=100001bc data=7a577ad1
# UVM_INFO C:/Documents/DoAnThietKeViMach/Project/SoC/VERIFICATION/Monitor/axi_monitor.sv(51) @ 5615000: uvm_test_top.env.agent.monitor [MON_WR] Detected WRITE : Addr=100001bc Data=7a577ad1 Strb=1111 Prot=000 BResp=00
# UVM_INFO C:/Documents/DoAnThietKeViMach/Project/SoC/VERIFICATION/Driver/axi_driver.sv(63) @ 5625000: uvm_test_top.env.agent.driver [DRV] Write Done: Addr=100001bc Data=7a577ad1 Prot=000
# [DRAM WRITE] addr=100001c0 data=be18f207
# UVM_INFO C:/Documents/DoAnThietKeViMach/Project/SoC/VERIFICATION/Monitor/axi_monitor.sv(51) @ 5665000: uvm_test_top.env.agent.monitor [MON_WR] Detected WRITE : Addr=100001c0 Data=be18f207 Strb=1111 Prot=000 BResp=00
# UVM_INFO C:/Documents/DoAnThietKeViMach/Project/SoC/VERIFICATION/Driver/axi_driver.sv(63) @ 5675000: uvm_test_top.env.agent.driver [DRV] Write Done: Addr=100001c0 Data=be18f207 Prot=000
# [DRAM WRITE] addr=100001c4 data=d4de3dc3
# UVM_INFO C:/Documents/DoAnThietKeViMach/Project/SoC/VERIFICATION/Monitor/axi_monitor.sv(51) @ 5715000: uvm_test_top.env.agent.monitor [MON_WR] Detected WRITE : Addr=100001c4 Data=d4de3dc3 Strb=1111 Prot=000 BResp=00
# UVM_INFO C:/Documents/DoAnThietKeViMach/Project/SoC/VERIFICATION/Driver/axi_driver.sv(63) @ 5725000: uvm_test_top.env.agent.driver [DRV] Write Done: Addr=100001c4 Data=d4de3dc3 Prot=000
# [DRAM WRITE] addr=100001c8 data=cd74c996
# UVM_INFO C:/Documents/DoAnThietKeViMach/Project/SoC/VERIFICATION/Monitor/axi_monitor.sv(51) @ 5765000: uvm_test_top.env.agent.monitor [MON_WR] Detected WRITE : Addr=100001c8 Data=cd74c996 Strb=1111 Prot=000 BResp=00
# UVM_INFO C:/Documents/DoAnThietKeViMach/Project/SoC/VERIFICATION/Driver/axi_driver.sv(63) @ 5775000: uvm_test_top.env.agent.driver [DRV] Write Done: Addr=100001c8 Data=cd74c996 Prot=000
# [DRAM WRITE] addr=100001cc data=79aa9d95
# UVM_INFO C:/Documents/DoAnThietKeViMach/Project/SoC/VERIFICATION/Monitor/axi_monitor.sv(51) @ 5815000: uvm_test_top.env.agent.monitor [MON_WR] Detected WRITE : Addr=100001cc Data=79aa9d95 Strb=1111 Prot=000 BResp=00
# UVM_INFO C:/Documents/DoAnThietKeViMach/Project/SoC/VERIFICATION/Driver/axi_driver.sv(63) @ 5825000: uvm_test_top.env.agent.driver [DRV] Write Done: Addr=100001cc Data=79aa9d95 Prot=000
# [DRAM WRITE] addr=100001d0 data=4aa5cc0b
# UVM_INFO C:/Documents/DoAnThietKeViMach/Project/SoC/VERIFICATION/Monitor/axi_monitor.sv(51) @ 5865000: uvm_test_top.env.agent.monitor [MON_WR] Detected WRITE : Addr=100001d0 Data=4aa5cc0b Strb=1111 Prot=000 BResp=00
# UVM_INFO C:/Documents/DoAnThietKeViMach/Project/SoC/VERIFICATION/Driver/axi_driver.sv(63) @ 5875000: uvm_test_top.env.agent.driver [DRV] Write Done: Addr=100001d0 Data=4aa5cc0b Prot=000
# [DRAM WRITE] addr=100001d4 data=b35b00aa
# UVM_INFO C:/Documents/DoAnThietKeViMach/Project/SoC/VERIFICATION/Monitor/axi_monitor.sv(51) @ 5915000: uvm_test_top.env.agent.monitor [MON_WR] Detected WRITE : Addr=100001d4 Data=b35b00aa Strb=1111 Prot=000 BResp=00
# UVM_INFO C:/Documents/DoAnThietKeViMach/Project/SoC/VERIFICATION/Driver/axi_driver.sv(63) @ 5925000: uvm_test_top.env.agent.driver [DRV] Write Done: Addr=100001d4 Data=b35b00aa Prot=000
# [DRAM WRITE] addr=100001d8 data=c14b0836
# UVM_INFO C:/Documents/DoAnThietKeViMach/Project/SoC/VERIFICATION/Monitor/axi_monitor.sv(51) @ 5965000: uvm_test_top.env.agent.monitor [MON_WR] Detected WRITE : Addr=100001d8 Data=c14b0836 Strb=1111 Prot=000 BResp=00
# UVM_INFO C:/Documents/DoAnThietKeViMach/Project/SoC/VERIFICATION/Driver/axi_driver.sv(63) @ 5975000: uvm_test_top.env.agent.driver [DRV] Write Done: Addr=100001d8 Data=c14b0836 Prot=000
# [DRAM WRITE] addr=100001dc data=54c9b2d3
# UVM_INFO C:/Documents/DoAnThietKeViMach/Project/SoC/VERIFICATION/Monitor/axi_monitor.sv(51) @ 6015000: uvm_test_top.env.agent.monitor [MON_WR] Detected WRITE : Addr=100001dc Data=54c9b2d3 Strb=1111 Prot=000 BResp=00
# UVM_INFO C:/Documents/DoAnThietKeViMach/Project/SoC/VERIFICATION/Driver/axi_driver.sv(63) @ 6025000: uvm_test_top.env.agent.driver [DRV] Write Done: Addr=100001dc Data=54c9b2d3 Prot=000
# [DRAM WRITE] addr=100001e0 data=809eef89
# UVM_INFO C:/Documents/DoAnThietKeViMach/Project/SoC/VERIFICATION/Monitor/axi_monitor.sv(51) @ 6065000: uvm_test_top.env.agent.monitor [MON_WR] Detected WRITE : Addr=100001e0 Data=809eef89 Strb=1111 Prot=000 BResp=00
# UVM_INFO C:/Documents/DoAnThietKeViMach/Project/SoC/VERIFICATION/Driver/axi_driver.sv(63) @ 6075000: uvm_test_top.env.agent.driver [DRV] Write Done: Addr=100001e0 Data=809eef89 Prot=000
# [DRAM WRITE] addr=100001e4 data=3ae20550
# UVM_INFO C:/Documents/DoAnThietKeViMach/Project/SoC/VERIFICATION/Monitor/axi_monitor.sv(51) @ 6115000: uvm_test_top.env.agent.monitor [MON_WR] Detected WRITE : Addr=100001e4 Data=3ae20550 Strb=1111 Prot=000 BResp=00
# UVM_INFO C:/Documents/DoAnThietKeViMach/Project/SoC/VERIFICATION/Driver/axi_driver.sv(63) @ 6125000: uvm_test_top.env.agent.driver [DRV] Write Done: Addr=100001e4 Data=3ae20550 Prot=000
# [DRAM WRITE] addr=100001e8 data=e2331202
# UVM_INFO C:/Documents/DoAnThietKeViMach/Project/SoC/VERIFICATION/Monitor/axi_monitor.sv(51) @ 6165000: uvm_test_top.env.agent.monitor [MON_WR] Detected WRITE : Addr=100001e8 Data=e2331202 Strb=1111 Prot=000 BResp=00
# UVM_INFO C:/Documents/DoAnThietKeViMach/Project/SoC/VERIFICATION/Driver/axi_driver.sv(63) @ 6175000: uvm_test_top.env.agent.driver [DRV] Write Done: Addr=100001e8 Data=e2331202 Prot=000
# [DRAM WRITE] addr=100001ec data=b7b33661
# UVM_INFO C:/Documents/DoAnThietKeViMach/Project/SoC/VERIFICATION/Monitor/axi_monitor.sv(51) @ 6215000: uvm_test_top.env.agent.monitor [MON_WR] Detected WRITE : Addr=100001ec Data=b7b33661 Strb=1111 Prot=000 BResp=00
# UVM_INFO C:/Documents/DoAnThietKeViMach/Project/SoC/VERIFICATION/Driver/axi_driver.sv(63) @ 6225000: uvm_test_top.env.agent.driver [DRV] Write Done: Addr=100001ec Data=b7b33661 Prot=000
# [DRAM WRITE] addr=100001f0 data=312df9e5
# UVM_INFO C:/Documents/DoAnThietKeViMach/Project/SoC/VERIFICATION/Monitor/axi_monitor.sv(51) @ 6265000: uvm_test_top.env.agent.monitor [MON_WR] Detected WRITE : Addr=100001f0 Data=312df9e5 Strb=1111 Prot=000 BResp=00
# UVM_INFO C:/Documents/DoAnThietKeViMach/Project/SoC/VERIFICATION/Driver/axi_driver.sv(63) @ 6275000: uvm_test_top.env.agent.driver [DRV] Write Done: Addr=100001f0 Data=312df9e5 Prot=000
# [DRAM WRITE] addr=100001f4 data=cbe7c366
# UVM_INFO C:/Documents/DoAnThietKeViMach/Project/SoC/VERIFICATION/Monitor/axi_monitor.sv(51) @ 6315000: uvm_test_top.env.agent.monitor [MON_WR] Detected WRITE : Addr=100001f4 Data=cbe7c366 Strb=1111 Prot=000 BResp=00
# UVM_INFO C:/Documents/DoAnThietKeViMach/Project/SoC/VERIFICATION/Driver/axi_driver.sv(63) @ 6325000: uvm_test_top.env.agent.driver [DRV] Write Done: Addr=100001f4 Data=cbe7c366 Prot=000
# [DRAM WRITE] addr=100001f8 data=59a7a3db
# UVM_INFO C:/Documents/DoAnThietKeViMach/Project/SoC/VERIFICATION/Monitor/axi_monitor.sv(51) @ 6365000: uvm_test_top.env.agent.monitor [MON_WR] Detected WRITE : Addr=100001f8 Data=59a7a3db Strb=1111 Prot=000 BResp=00
# UVM_INFO C:/Documents/DoAnThietKeViMach/Project/SoC/VERIFICATION/Driver/axi_driver.sv(63) @ 6375000: uvm_test_top.env.agent.driver [DRV] Write Done: Addr=100001f8 Data=59a7a3db Prot=000
# [DRAM WRITE] addr=100001fc data=fd4d74e1
# UVM_INFO C:/Documents/DoAnThietKeViMach/Project/SoC/VERIFICATION/Monitor/axi_monitor.sv(51) @ 6415000: uvm_test_top.env.agent.monitor [MON_WR] Detected WRITE : Addr=100001fc Data=fd4d74e1 Strb=1111 Prot=000 BResp=00
# UVM_INFO C:/Documents/DoAnThietKeViMach/Project/SoC/VERIFICATION/Driver/axi_driver.sv(63) @ 6425000: uvm_test_top.env.agent.driver [DRV] Write Done: Addr=100001fc Data=fd4d74e1 Prot=000
# [DRAM WRITE] addr=10000200 data=da1ec378
# UVM_INFO C:/Documents/DoAnThietKeViMach/Project/SoC/VERIFICATION/Monitor/axi_monitor.sv(51) @ 6465000: uvm_test_top.env.agent.monitor [MON_WR] Detected WRITE : Addr=10000200 Data=da1ec378 Strb=1111 Prot=000 BResp=00
# UVM_INFO C:/Documents/DoAnThietKeViMach/Project/SoC/VERIFICATION/Driver/axi_driver.sv(63) @ 6475000: uvm_test_top.env.agent.driver [DRV] Write Done: Addr=10000200 Data=da1ec378 Prot=000
# [DRAM WRITE] addr=10000204 data=16417936
# UVM_INFO C:/Documents/DoAnThietKeViMach/Project/SoC/VERIFICATION/Monitor/axi_monitor.sv(51) @ 6515000: uvm_test_top.env.agent.monitor [MON_WR] Detected WRITE : Addr=10000204 Data=16417936 Strb=1111 Prot=000 BResp=00
# UVM_INFO C:/Documents/DoAnThietKeViMach/Project/SoC/VERIFICATION/Driver/axi_driver.sv(63) @ 6525000: uvm_test_top.env.agent.driver [DRV] Write Done: Addr=10000204 Data=16417936 Prot=000
# [DRAM WRITE] addr=10000208 data=29a56069
# UVM_INFO C:/Documents/DoAnThietKeViMach/Project/SoC/VERIFICATION/Monitor/axi_monitor.sv(51) @ 6565000: uvm_test_top.env.agent.monitor [MON_WR] Detected WRITE : Addr=10000208 Data=29a56069 Strb=1111 Prot=000 BResp=00
# UVM_INFO C:/Documents/DoAnThietKeViMach/Project/SoC/VERIFICATION/Driver/axi_driver.sv(63) @ 6575000: uvm_test_top.env.agent.driver [DRV] Write Done: Addr=10000208 Data=29a56069 Prot=000
# [DRAM WRITE] addr=1000020c data=416237d9
# UVM_INFO C:/Documents/DoAnThietKeViMach/Project/SoC/VERIFICATION/Monitor/axi_monitor.sv(51) @ 6615000: uvm_test_top.env.agent.monitor [MON_WR] Detected WRITE : Addr=1000020c Data=416237d9 Strb=1111 Prot=000 BResp=00
# UVM_INFO C:/Documents/DoAnThietKeViMach/Project/SoC/VERIFICATION/Driver/axi_driver.sv(63) @ 6625000: uvm_test_top.env.agent.driver [DRV] Write Done: Addr=1000020c Data=416237d9 Prot=000
# [DRAM WRITE] addr=10000210 data=fc7b2716
# UVM_INFO C:/Documents/DoAnThietKeViMach/Project/SoC/VERIFICATION/Monitor/axi_monitor.sv(51) @ 6665000: uvm_test_top.env.agent.monitor [MON_WR] Detected WRITE : Addr=10000210 Data=fc7b2716 Strb=1111 Prot=000 BResp=00
# UVM_INFO C:/Documents/DoAnThietKeViMach/Project/SoC/VERIFICATION/Driver/axi_driver.sv(63) @ 6675000: uvm_test_top.env.agent.driver [DRV] Write Done: Addr=10000210 Data=fc7b2716 Prot=000
# [DRAM WRITE] addr=10000214 data=0188aa23
# UVM_INFO C:/Documents/DoAnThietKeViMach/Project/SoC/VERIFICATION/Monitor/axi_monitor.sv(51) @ 6715000: uvm_test_top.env.agent.monitor [MON_WR] Detected WRITE : Addr=10000214 Data=0188aa23 Strb=1111 Prot=000 BResp=00
# UVM_INFO C:/Documents/DoAnThietKeViMach/Project/SoC/VERIFICATION/Driver/axi_driver.sv(63) @ 6725000: uvm_test_top.env.agent.driver [DRV] Write Done: Addr=10000214 Data=0188aa23 Prot=000
# [DRAM WRITE] addr=10000218 data=2989771b
# UVM_INFO C:/Documents/DoAnThietKeViMach/Project/SoC/VERIFICATION/Monitor/axi_monitor.sv(51) @ 6765000: uvm_test_top.env.agent.monitor [MON_WR] Detected WRITE : Addr=10000218 Data=2989771b Strb=1111 Prot=000 BResp=00
# UVM_INFO C:/Documents/DoAnThietKeViMach/Project/SoC/VERIFICATION/Driver/axi_driver.sv(63) @ 6775000: uvm_test_top.env.agent.driver [DRV] Write Done: Addr=10000218 Data=2989771b Prot=000
# [DRAM WRITE] addr=1000021c data=50d7bf28
# UVM_INFO C:/Documents/DoAnThietKeViMach/Project/SoC/VERIFICATION/Monitor/axi_monitor.sv(51) @ 6815000: uvm_test_top.env.agent.monitor [MON_WR] Detected WRITE : Addr=1000021c Data=50d7bf28 Strb=1111 Prot=000 BResp=00
# UVM_INFO C:/Documents/DoAnThietKeViMach/Project/SoC/VERIFICATION/Driver/axi_driver.sv(63) @ 6825000: uvm_test_top.env.agent.driver [DRV] Write Done: Addr=1000021c Data=50d7bf28 Prot=000
# [DRAM WRITE] addr=10000220 data=dcd5c4d7
# UVM_INFO C:/Documents/DoAnThietKeViMach/Project/SoC/VERIFICATION/Monitor/axi_monitor.sv(51) @ 6865000: uvm_test_top.env.agent.monitor [MON_WR] Detected WRITE : Addr=10000220 Data=dcd5c4d7 Strb=1111 Prot=000 BResp=00
# UVM_INFO C:/Documents/DoAnThietKeViMach/Project/SoC/VERIFICATION/Driver/axi_driver.sv(63) @ 6875000: uvm_test_top.env.agent.driver [DRV] Write Done: Addr=10000220 Data=dcd5c4d7 Prot=000
# [DRAM WRITE] addr=10000224 data=e0780047
# UVM_INFO C:/Documents/DoAnThietKeViMach/Project/SoC/VERIFICATION/Monitor/axi_monitor.sv(51) @ 6915000: uvm_test_top.env.agent.monitor [MON_WR] Detected WRITE : Addr=10000224 Data=e0780047 Strb=1111 Prot=000 BResp=00
# UVM_INFO C:/Documents/DoAnThietKeViMach/Project/SoC/VERIFICATION/Driver/axi_driver.sv(63) @ 6925000: uvm_test_top.env.agent.driver [DRV] Write Done: Addr=10000224 Data=e0780047 Prot=000
# [DRAM WRITE] addr=10000228 data=ddc4e28b
# UVM_INFO C:/Documents/DoAnThietKeViMach/Project/SoC/VERIFICATION/Monitor/axi_monitor.sv(51) @ 6965000: uvm_test_top.env.agent.monitor [MON_WR] Detected WRITE : Addr=10000228 Data=ddc4e28b Strb=1111 Prot=000 BResp=00
# UVM_INFO C:/Documents/DoAnThietKeViMach/Project/SoC/VERIFICATION/Driver/axi_driver.sv(63) @ 6975000: uvm_test_top.env.agent.driver [DRV] Write Done: Addr=10000228 Data=ddc4e28b Prot=000
# [DRAM WRITE] addr=1000022c data=01e7be09
# UVM_INFO C:/Documents/DoAnThietKeViMach/Project/SoC/VERIFICATION/Monitor/axi_monitor.sv(51) @ 7015000: uvm_test_top.env.agent.monitor [MON_WR] Detected WRITE : Addr=1000022c Data=01e7be09 Strb=1111 Prot=000 BResp=00
# UVM_INFO C:/Documents/DoAnThietKeViMach/Project/SoC/VERIFICATION/Driver/axi_driver.sv(63) @ 7025000: uvm_test_top.env.agent.driver [DRV] Write Done: Addr=1000022c Data=01e7be09 Prot=000
# [DRAM WRITE] addr=10000230 data=ba53c4ac
# UVM_INFO C:/Documents/DoAnThietKeViMach/Project/SoC/VERIFICATION/Monitor/axi_monitor.sv(51) @ 7065000: uvm_test_top.env.agent.monitor [MON_WR] Detected WRITE : Addr=10000230 Data=ba53c4ac Strb=1111 Prot=000 BResp=00
# UVM_INFO C:/Documents/DoAnThietKeViMach/Project/SoC/VERIFICATION/Driver/axi_driver.sv(63) @ 7075000: uvm_test_top.env.agent.driver [DRV] Write Done: Addr=10000230 Data=ba53c4ac Prot=000
# [DRAM WRITE] addr=10000234 data=b3dfe133
# UVM_INFO C:/Documents/DoAnThietKeViMach/Project/SoC/VERIFICATION/Monitor/axi_monitor.sv(51) @ 7115000: uvm_test_top.env.agent.monitor [MON_WR] Detected WRITE : Addr=10000234 Data=b3dfe133 Strb=1111 Prot=000 BResp=00
# UVM_INFO C:/Documents/DoAnThietKeViMach/Project/SoC/VERIFICATION/Driver/axi_driver.sv(63) @ 7125000: uvm_test_top.env.agent.driver [DRV] Write Done: Addr=10000234 Data=b3dfe133 Prot=000
# [DRAM WRITE] addr=10000238 data=86b7617d
# UVM_INFO C:/Documents/DoAnThietKeViMach/Project/SoC/VERIFICATION/Monitor/axi_monitor.sv(51) @ 7165000: uvm_test_top.env.agent.monitor [MON_WR] Detected WRITE : Addr=10000238 Data=86b7617d Strb=1111 Prot=000 BResp=00
# UVM_INFO C:/Documents/DoAnThietKeViMach/Project/SoC/VERIFICATION/Driver/axi_driver.sv(63) @ 7175000: uvm_test_top.env.agent.driver [DRV] Write Done: Addr=10000238 Data=86b7617d Prot=000
# [DRAM WRITE] addr=1000023c data=f7b1c21e
# UVM_INFO C:/Documents/DoAnThietKeViMach/Project/SoC/VERIFICATION/Monitor/axi_monitor.sv(51) @ 7215000: uvm_test_top.env.agent.monitor [MON_WR] Detected WRITE : Addr=1000023c Data=f7b1c21e Strb=1111 Prot=000 BResp=00
# UVM_INFO C:/Documents/DoAnThietKeViMach/Project/SoC/VERIFICATION/Driver/axi_driver.sv(63) @ 7225000: uvm_test_top.env.agent.driver [DRV] Write Done: Addr=1000023c Data=f7b1c21e Prot=000
# [DRAM WRITE] addr=10000240 data=86a99dbe
# UVM_INFO C:/Documents/DoAnThietKeViMach/Project/SoC/VERIFICATION/Monitor/axi_monitor.sv(51) @ 7265000: uvm_test_top.env.agent.monitor [MON_WR] Detected WRITE : Addr=10000240 Data=86a99dbe Strb=1111 Prot=000 BResp=00
# UVM_INFO C:/Documents/DoAnThietKeViMach/Project/SoC/VERIFICATION/Driver/axi_driver.sv(63) @ 7275000: uvm_test_top.env.agent.driver [DRV] Write Done: Addr=10000240 Data=86a99dbe Prot=000
# [DRAM WRITE] addr=10000244 data=6bef130d
# UVM_INFO C:/Documents/DoAnThietKeViMach/Project/SoC/VERIFICATION/Monitor/axi_monitor.sv(51) @ 7315000: uvm_test_top.env.agent.monitor [MON_WR] Detected WRITE : Addr=10000244 Data=6bef130d Strb=1111 Prot=000 BResp=00
# UVM_INFO C:/Documents/DoAnThietKeViMach/Project/SoC/VERIFICATION/Driver/axi_driver.sv(63) @ 7325000: uvm_test_top.env.agent.driver [DRV] Write Done: Addr=10000244 Data=6bef130d Prot=000
# [DRAM WRITE] addr=10000248 data=601c1438
# UVM_INFO C:/Documents/DoAnThietKeViMach/Project/SoC/VERIFICATION/Monitor/axi_monitor.sv(51) @ 7365000: uvm_test_top.env.agent.monitor [MON_WR] Detected WRITE : Addr=10000248 Data=601c1438 Strb=1111 Prot=000 BResp=00
# UVM_INFO C:/Documents/DoAnThietKeViMach/Project/SoC/VERIFICATION/Driver/axi_driver.sv(63) @ 7375000: uvm_test_top.env.agent.driver [DRV] Write Done: Addr=10000248 Data=601c1438 Prot=000
# [DRAM WRITE] addr=1000024c data=8e818fc2
# UVM_INFO C:/Documents/DoAnThietKeViMach/Project/SoC/VERIFICATION/Monitor/axi_monitor.sv(51) @ 7415000: uvm_test_top.env.agent.monitor [MON_WR] Detected WRITE : Addr=1000024c Data=8e818fc2 Strb=1111 Prot=000 BResp=00
# UVM_INFO C:/Documents/DoAnThietKeViMach/Project/SoC/VERIFICATION/Driver/axi_driver.sv(63) @ 7425000: uvm_test_top.env.agent.driver [DRV] Write Done: Addr=1000024c Data=8e818fc2 Prot=000
# [DRAM WRITE] addr=10000250 data=75640809
# UVM_INFO C:/Documents/DoAnThietKeViMach/Project/SoC/VERIFICATION/Monitor/axi_monitor.sv(51) @ 7465000: uvm_test_top.env.agent.monitor [MON_WR] Detected WRITE : Addr=10000250 Data=75640809 Strb=1111 Prot=000 BResp=00
# UVM_INFO C:/Documents/DoAnThietKeViMach/Project/SoC/VERIFICATION/Driver/axi_driver.sv(63) @ 7475000: uvm_test_top.env.agent.driver [DRV] Write Done: Addr=10000250 Data=75640809 Prot=000
# [DRAM WRITE] addr=10000254 data=10134247
# UVM_INFO C:/Documents/DoAnThietKeViMach/Project/SoC/VERIFICATION/Monitor/axi_monitor.sv(51) @ 7515000: uvm_test_top.env.agent.monitor [MON_WR] Detected WRITE : Addr=10000254 Data=10134247 Strb=1111 Prot=000 BResp=00
# UVM_INFO C:/Documents/DoAnThietKeViMach/Project/SoC/VERIFICATION/Driver/axi_driver.sv(63) @ 7525000: uvm_test_top.env.agent.driver [DRV] Write Done: Addr=10000254 Data=10134247 Prot=000
# [DRAM WRITE] addr=10000258 data=64e51c89
# UVM_INFO C:/Documents/DoAnThietKeViMach/Project/SoC/VERIFICATION/Monitor/axi_monitor.sv(51) @ 7565000: uvm_test_top.env.agent.monitor [MON_WR] Detected WRITE : Addr=10000258 Data=64e51c89 Strb=1111 Prot=000 BResp=00
# UVM_INFO C:/Documents/DoAnThietKeViMach/Project/SoC/VERIFICATION/Driver/axi_driver.sv(63) @ 7575000: uvm_test_top.env.agent.driver [DRV] Write Done: Addr=10000258 Data=64e51c89 Prot=000
# [DRAM WRITE] addr=1000025c data=7616dec6
# UVM_INFO C:/Documents/DoAnThietKeViMach/Project/SoC/VERIFICATION/Monitor/axi_monitor.sv(51) @ 7615000: uvm_test_top.env.agent.monitor [MON_WR] Detected WRITE : Addr=1000025c Data=7616dec6 Strb=1111 Prot=000 BResp=00
# UVM_INFO C:/Documents/DoAnThietKeViMach/Project/SoC/VERIFICATION/Driver/axi_driver.sv(63) @ 7625000: uvm_test_top.env.agent.driver [DRV] Write Done: Addr=1000025c Data=7616dec6 Prot=000
# [DRAM WRITE] addr=10000260 data=b161cfb8
# UVM_INFO C:/Documents/DoAnThietKeViMach/Project/SoC/VERIFICATION/Monitor/axi_monitor.sv(51) @ 7665000: uvm_test_top.env.agent.monitor [MON_WR] Detected WRITE : Addr=10000260 Data=b161cfb8 Strb=1111 Prot=000 BResp=00
# UVM_INFO C:/Documents/DoAnThietKeViMach/Project/SoC/VERIFICATION/Driver/axi_driver.sv(63) @ 7675000: uvm_test_top.env.agent.driver [DRV] Write Done: Addr=10000260 Data=b161cfb8 Prot=000
# [DRAM WRITE] addr=10000264 data=2cc598f5
# UVM_INFO C:/Documents/DoAnThietKeViMach/Project/SoC/VERIFICATION/Monitor/axi_monitor.sv(51) @ 7715000: uvm_test_top.env.agent.monitor [MON_WR] Detected WRITE : Addr=10000264 Data=2cc598f5 Strb=1111 Prot=000 BResp=00
# UVM_INFO C:/Documents/DoAnThietKeViMach/Project/SoC/VERIFICATION/Driver/axi_driver.sv(63) @ 7725000: uvm_test_top.env.agent.driver [DRV] Write Done: Addr=10000264 Data=2cc598f5 Prot=000
# [DRAM WRITE] addr=10000268 data=7f803ed1
# UVM_INFO C:/Documents/DoAnThietKeViMach/Project/SoC/VERIFICATION/Monitor/axi_monitor.sv(51) @ 7765000: uvm_test_top.env.agent.monitor [MON_WR] Detected WRITE : Addr=10000268 Data=7f803ed1 Strb=1111 Prot=000 BResp=00
# UVM_INFO C:/Documents/DoAnThietKeViMach/Project/SoC/VERIFICATION/Driver/axi_driver.sv(63) @ 7775000: uvm_test_top.env.agent.driver [DRV] Write Done: Addr=10000268 Data=7f803ed1 Prot=000
# [DRAM WRITE] addr=1000026c data=d5821f28
# UVM_INFO C:/Documents/DoAnThietKeViMach/Project/SoC/VERIFICATION/Monitor/axi_monitor.sv(51) @ 7815000: uvm_test_top.env.agent.monitor [MON_WR] Detected WRITE : Addr=1000026c Data=d5821f28 Strb=1111 Prot=000 BResp=00
# UVM_INFO C:/Documents/DoAnThietKeViMach/Project/SoC/VERIFICATION/Driver/axi_driver.sv(63) @ 7825000: uvm_test_top.env.agent.driver [DRV] Write Done: Addr=1000026c Data=d5821f28 Prot=000
# [DRAM WRITE] addr=10000270 data=3d70710a
# UVM_INFO C:/Documents/DoAnThietKeViMach/Project/SoC/VERIFICATION/Monitor/axi_monitor.sv(51) @ 7865000: uvm_test_top.env.agent.monitor [MON_WR] Detected WRITE : Addr=10000270 Data=3d70710a Strb=1111 Prot=000 BResp=00
# UVM_INFO C:/Documents/DoAnThietKeViMach/Project/SoC/VERIFICATION/Driver/axi_driver.sv(63) @ 7875000: uvm_test_top.env.agent.driver [DRV] Write Done: Addr=10000270 Data=3d70710a Prot=000
# [DRAM WRITE] addr=10000274 data=cad599ef
# UVM_INFO C:/Documents/DoAnThietKeViMach/Project/SoC/VERIFICATION/Monitor/axi_monitor.sv(51) @ 7915000: uvm_test_top.env.agent.monitor [MON_WR] Detected WRITE : Addr=10000274 Data=cad599ef Strb=1111 Prot=000 BResp=00
# UVM_INFO C:/Documents/DoAnThietKeViMach/Project/SoC/VERIFICATION/Driver/axi_driver.sv(63) @ 7925000: uvm_test_top.env.agent.driver [DRV] Write Done: Addr=10000274 Data=cad599ef Prot=000
# [DRAM WRITE] addr=10000278 data=6bb9ec0d
# UVM_INFO C:/Documents/DoAnThietKeViMach/Project/SoC/VERIFICATION/Monitor/axi_monitor.sv(51) @ 7965000: uvm_test_top.env.agent.monitor [MON_WR] Detected WRITE : Addr=10000278 Data=6bb9ec0d Strb=1111 Prot=000 BResp=00
# UVM_INFO C:/Documents/DoAnThietKeViMach/Project/SoC/VERIFICATION/Driver/axi_driver.sv(63) @ 7975000: uvm_test_top.env.agent.driver [DRV] Write Done: Addr=10000278 Data=6bb9ec0d Prot=000
# [DRAM WRITE] addr=1000027c data=4307b8d8
# UVM_INFO C:/Documents/DoAnThietKeViMach/Project/SoC/VERIFICATION/Monitor/axi_monitor.sv(51) @ 8015000: uvm_test_top.env.agent.monitor [MON_WR] Detected WRITE : Addr=1000027c Data=4307b8d8 Strb=1111 Prot=000 BResp=00
# UVM_INFO C:/Documents/DoAnThietKeViMach/Project/SoC/VERIFICATION/Driver/axi_driver.sv(63) @ 8025000: uvm_test_top.env.agent.driver [DRV] Write Done: Addr=1000027c Data=4307b8d8 Prot=000
# [DRAM WRITE] addr=10000280 data=92546e5a
# UVM_INFO C:/Documents/DoAnThietKeViMach/Project/SoC/VERIFICATION/Monitor/axi_monitor.sv(51) @ 8065000: uvm_test_top.env.agent.monitor [MON_WR] Detected WRITE : Addr=10000280 Data=92546e5a Strb=1111 Prot=000 BResp=00
# UVM_INFO C:/Documents/DoAnThietKeViMach/Project/SoC/VERIFICATION/Driver/axi_driver.sv(63) @ 8075000: uvm_test_top.env.agent.driver [DRV] Write Done: Addr=10000280 Data=92546e5a Prot=000
# [DRAM WRITE] addr=10000284 data=133b5d3d
# UVM_INFO C:/Documents/DoAnThietKeViMach/Project/SoC/VERIFICATION/Monitor/axi_monitor.sv(51) @ 8115000: uvm_test_top.env.agent.monitor [MON_WR] Detected WRITE : Addr=10000284 Data=133b5d3d Strb=1111 Prot=000 BResp=00
# UVM_INFO C:/Documents/DoAnThietKeViMach/Project/SoC/VERIFICATION/Driver/axi_driver.sv(63) @ 8125000: uvm_test_top.env.agent.driver [DRV] Write Done: Addr=10000284 Data=133b5d3d Prot=000
# [DRAM WRITE] addr=10000288 data=85ad813d
# UVM_INFO C:/Documents/DoAnThietKeViMach/Project/SoC/VERIFICATION/Monitor/axi_monitor.sv(51) @ 8165000: uvm_test_top.env.agent.monitor [MON_WR] Detected WRITE : Addr=10000288 Data=85ad813d Strb=1111 Prot=000 BResp=00
# UVM_INFO C:/Documents/DoAnThietKeViMach/Project/SoC/VERIFICATION/Driver/axi_driver.sv(63) @ 8175000: uvm_test_top.env.agent.driver [DRV] Write Done: Addr=10000288 Data=85ad813d Prot=000
# [DRAM WRITE] addr=1000028c data=c09206f9
# UVM_INFO C:/Documents/DoAnThietKeViMach/Project/SoC/VERIFICATION/Monitor/axi_monitor.sv(51) @ 8215000: uvm_test_top.env.agent.monitor [MON_WR] Detected WRITE : Addr=1000028c Data=c09206f9 Strb=1111 Prot=000 BResp=00
# UVM_INFO C:/Documents/DoAnThietKeViMach/Project/SoC/VERIFICATION/Driver/axi_driver.sv(63) @ 8225000: uvm_test_top.env.agent.driver [DRV] Write Done: Addr=1000028c Data=c09206f9 Prot=000
# [DRAM WRITE] addr=10000290 data=c7d49789
# UVM_INFO C:/Documents/DoAnThietKeViMach/Project/SoC/VERIFICATION/Monitor/axi_monitor.sv(51) @ 8265000: uvm_test_top.env.agent.monitor [MON_WR] Detected WRITE : Addr=10000290 Data=c7d49789 Strb=1111 Prot=000 BResp=00
# UVM_INFO C:/Documents/DoAnThietKeViMach/Project/SoC/VERIFICATION/Driver/axi_driver.sv(63) @ 8275000: uvm_test_top.env.agent.driver [DRV] Write Done: Addr=10000290 Data=c7d49789 Prot=000
# [DRAM WRITE] addr=10000294 data=8292b378
# UVM_INFO C:/Documents/DoAnThietKeViMach/Project/SoC/VERIFICATION/Monitor/axi_monitor.sv(51) @ 8315000: uvm_test_top.env.agent.monitor [MON_WR] Detected WRITE : Addr=10000294 Data=8292b378 Strb=1111 Prot=000 BResp=00
# UVM_INFO C:/Documents/DoAnThietKeViMach/Project/SoC/VERIFICATION/Driver/axi_driver.sv(63) @ 8325000: uvm_test_top.env.agent.driver [DRV] Write Done: Addr=10000294 Data=8292b378 Prot=000
# [DRAM WRITE] addr=10000298 data=8ee3d441
# UVM_INFO C:/Documents/DoAnThietKeViMach/Project/SoC/VERIFICATION/Monitor/axi_monitor.sv(51) @ 8365000: uvm_test_top.env.agent.monitor [MON_WR] Detected WRITE : Addr=10000298 Data=8ee3d441 Strb=1111 Prot=000 BResp=00
# UVM_INFO C:/Documents/DoAnThietKeViMach/Project/SoC/VERIFICATION/Driver/axi_driver.sv(63) @ 8375000: uvm_test_top.env.agent.driver [DRV] Write Done: Addr=10000298 Data=8ee3d441 Prot=000
# [DRAM WRITE] addr=1000029c data=c7afbba9
# UVM_INFO C:/Documents/DoAnThietKeViMach/Project/SoC/VERIFICATION/Monitor/axi_monitor.sv(51) @ 8415000: uvm_test_top.env.agent.monitor [MON_WR] Detected WRITE : Addr=1000029c Data=c7afbba9 Strb=1111 Prot=000 BResp=00
# UVM_INFO C:/Documents/DoAnThietKeViMach/Project/SoC/VERIFICATION/Driver/axi_driver.sv(63) @ 8425000: uvm_test_top.env.agent.driver [DRV] Write Done: Addr=1000029c Data=c7afbba9 Prot=000
# [DRAM WRITE] addr=100002a0 data=6993e266
# UVM_INFO C:/Documents/DoAnThietKeViMach/Project/SoC/VERIFICATION/Monitor/axi_monitor.sv(51) @ 8465000: uvm_test_top.env.agent.monitor [MON_WR] Detected WRITE : Addr=100002a0 Data=6993e266 Strb=1111 Prot=000 BResp=00
# UVM_INFO C:/Documents/DoAnThietKeViMach/Project/SoC/VERIFICATION/Driver/axi_driver.sv(63) @ 8475000: uvm_test_top.env.agent.driver [DRV] Write Done: Addr=100002a0 Data=6993e266 Prot=000
# [DRAM WRITE] addr=100002a4 data=b6ed891a
# UVM_INFO C:/Documents/DoAnThietKeViMach/Project/SoC/VERIFICATION/Monitor/axi_monitor.sv(51) @ 8515000: uvm_test_top.env.agent.monitor [MON_WR] Detected WRITE : Addr=100002a4 Data=b6ed891a Strb=1111 Prot=000 BResp=00
# UVM_INFO C:/Documents/DoAnThietKeViMach/Project/SoC/VERIFICATION/Driver/axi_driver.sv(63) @ 8525000: uvm_test_top.env.agent.driver [DRV] Write Done: Addr=100002a4 Data=b6ed891a Prot=000
# [DRAM WRITE] addr=100002a8 data=fd541e0e
# UVM_INFO C:/Documents/DoAnThietKeViMach/Project/SoC/VERIFICATION/Monitor/axi_monitor.sv(51) @ 8565000: uvm_test_top.env.agent.monitor [MON_WR] Detected WRITE : Addr=100002a8 Data=fd541e0e Strb=1111 Prot=000 BResp=00
# UVM_INFO C:/Documents/DoAnThietKeViMach/Project/SoC/VERIFICATION/Driver/axi_driver.sv(63) @ 8575000: uvm_test_top.env.agent.driver [DRV] Write Done: Addr=100002a8 Data=fd541e0e Prot=000
# [DRAM WRITE] addr=100002ac data=48e4b356
# UVM_INFO C:/Documents/DoAnThietKeViMach/Project/SoC/VERIFICATION/Monitor/axi_monitor.sv(51) @ 8615000: uvm_test_top.env.agent.monitor [MON_WR] Detected WRITE : Addr=100002ac Data=48e4b356 Strb=1111 Prot=000 BResp=00
# UVM_INFO C:/Documents/DoAnThietKeViMach/Project/SoC/VERIFICATION/Driver/axi_driver.sv(63) @ 8625000: uvm_test_top.env.agent.driver [DRV] Write Done: Addr=100002ac Data=48e4b356 Prot=000
# [DRAM WRITE] addr=100002b0 data=e8b562d2
# UVM_INFO C:/Documents/DoAnThietKeViMach/Project/SoC/VERIFICATION/Monitor/axi_monitor.sv(51) @ 8665000: uvm_test_top.env.agent.monitor [MON_WR] Detected WRITE : Addr=100002b0 Data=e8b562d2 Strb=1111 Prot=000 BResp=00
# UVM_INFO C:/Documents/DoAnThietKeViMach/Project/SoC/VERIFICATION/Driver/axi_driver.sv(63) @ 8675000: uvm_test_top.env.agent.driver [DRV] Write Done: Addr=100002b0 Data=e8b562d2 Prot=000
# [DRAM WRITE] addr=100002b4 data=3ba20aba
# UVM_INFO C:/Documents/DoAnThietKeViMach/Project/SoC/VERIFICATION/Monitor/axi_monitor.sv(51) @ 8715000: uvm_test_top.env.agent.monitor [MON_WR] Detected WRITE : Addr=100002b4 Data=3ba20aba Strb=1111 Prot=000 BResp=00
# UVM_INFO C:/Documents/DoAnThietKeViMach/Project/SoC/VERIFICATION/Driver/axi_driver.sv(63) @ 8725000: uvm_test_top.env.agent.driver [DRV] Write Done: Addr=100002b4 Data=3ba20aba Prot=000
# [DRAM WRITE] addr=100002b8 data=cca259d6
# UVM_INFO C:/Documents/DoAnThietKeViMach/Project/SoC/VERIFICATION/Monitor/axi_monitor.sv(51) @ 8765000: uvm_test_top.env.agent.monitor [MON_WR] Detected WRITE : Addr=100002b8 Data=cca259d6 Strb=1111 Prot=000 BResp=00
# UVM_INFO C:/Documents/DoAnThietKeViMach/Project/SoC/VERIFICATION/Driver/axi_driver.sv(63) @ 8775000: uvm_test_top.env.agent.driver [DRV] Write Done: Addr=100002b8 Data=cca259d6 Prot=000
# [DRAM WRITE] addr=100002bc data=698221d0
# UVM_INFO C:/Documents/DoAnThietKeViMach/Project/SoC/VERIFICATION/Monitor/axi_monitor.sv(51) @ 8815000: uvm_test_top.env.agent.monitor [MON_WR] Detected WRITE : Addr=100002bc Data=698221d0 Strb=1111 Prot=000 BResp=00
# UVM_INFO C:/Documents/DoAnThietKeViMach/Project/SoC/VERIFICATION/Driver/axi_driver.sv(63) @ 8825000: uvm_test_top.env.agent.driver [DRV] Write Done: Addr=100002bc Data=698221d0 Prot=000
# [DRAM WRITE] addr=100002c0 data=4b8ee0a5
# UVM_INFO C:/Documents/DoAnThietKeViMach/Project/SoC/VERIFICATION/Monitor/axi_monitor.sv(51) @ 8865000: uvm_test_top.env.agent.monitor [MON_WR] Detected WRITE : Addr=100002c0 Data=4b8ee0a5 Strb=1111 Prot=000 BResp=00
# UVM_INFO C:/Documents/DoAnThietKeViMach/Project/SoC/VERIFICATION/Driver/axi_driver.sv(63) @ 8875000: uvm_test_top.env.agent.driver [DRV] Write Done: Addr=100002c0 Data=4b8ee0a5 Prot=000
# [DRAM WRITE] addr=100002c4 data=94a3b12b
# UVM_INFO C:/Documents/DoAnThietKeViMach/Project/SoC/VERIFICATION/Monitor/axi_monitor.sv(51) @ 8915000: uvm_test_top.env.agent.monitor [MON_WR] Detected WRITE : Addr=100002c4 Data=94a3b12b Strb=1111 Prot=000 BResp=00
# UVM_INFO C:/Documents/DoAnThietKeViMach/Project/SoC/VERIFICATION/Driver/axi_driver.sv(63) @ 8925000: uvm_test_top.env.agent.driver [DRV] Write Done: Addr=100002c4 Data=94a3b12b Prot=000
# [DRAM WRITE] addr=100002c8 data=9ca0f62d
# UVM_INFO C:/Documents/DoAnThietKeViMach/Project/SoC/VERIFICATION/Monitor/axi_monitor.sv(51) @ 8965000: uvm_test_top.env.agent.monitor [MON_WR] Detected WRITE : Addr=100002c8 Data=9ca0f62d Strb=1111 Prot=000 BResp=00
# UVM_INFO C:/Documents/DoAnThietKeViMach/Project/SoC/VERIFICATION/Driver/axi_driver.sv(63) @ 8975000: uvm_test_top.env.agent.driver [DRV] Write Done: Addr=100002c8 Data=9ca0f62d Prot=000
# [DRAM WRITE] addr=100002cc data=4dd33eda
# UVM_INFO C:/Documents/DoAnThietKeViMach/Project/SoC/VERIFICATION/Monitor/axi_monitor.sv(51) @ 9015000: uvm_test_top.env.agent.monitor [MON_WR] Detected WRITE : Addr=100002cc Data=4dd33eda Strb=1111 Prot=000 BResp=00
# UVM_INFO C:/Documents/DoAnThietKeViMach/Project/SoC/VERIFICATION/Driver/axi_driver.sv(63) @ 9025000: uvm_test_top.env.agent.driver [DRV] Write Done: Addr=100002cc Data=4dd33eda Prot=000
# [DRAM WRITE] addr=100002d0 data=a40a2285
# UVM_INFO C:/Documents/DoAnThietKeViMach/Project/SoC/VERIFICATION/Monitor/axi_monitor.sv(51) @ 9065000: uvm_test_top.env.agent.monitor [MON_WR] Detected WRITE : Addr=100002d0 Data=a40a2285 Strb=1111 Prot=000 BResp=00
# UVM_INFO C:/Documents/DoAnThietKeViMach/Project/SoC/VERIFICATION/Driver/axi_driver.sv(63) @ 9075000: uvm_test_top.env.agent.driver [DRV] Write Done: Addr=100002d0 Data=a40a2285 Prot=000
# [DRAM WRITE] addr=100002d4 data=c856c28d
# UVM_INFO C:/Documents/DoAnThietKeViMach/Project/SoC/VERIFICATION/Monitor/axi_monitor.sv(51) @ 9115000: uvm_test_top.env.agent.monitor [MON_WR] Detected WRITE : Addr=100002d4 Data=c856c28d Strb=1111 Prot=000 BResp=00
# UVM_INFO C:/Documents/DoAnThietKeViMach/Project/SoC/VERIFICATION/Driver/axi_driver.sv(63) @ 9125000: uvm_test_top.env.agent.driver [DRV] Write Done: Addr=100002d4 Data=c856c28d Prot=000
# [DRAM WRITE] addr=100002d8 data=3269b92a
# UVM_INFO C:/Documents/DoAnThietKeViMach/Project/SoC/VERIFICATION/Monitor/axi_monitor.sv(51) @ 9165000: uvm_test_top.env.agent.monitor [MON_WR] Detected WRITE : Addr=100002d8 Data=3269b92a Strb=1111 Prot=000 BResp=00
# UVM_INFO C:/Documents/DoAnThietKeViMach/Project/SoC/VERIFICATION/Driver/axi_driver.sv(63) @ 9175000: uvm_test_top.env.agent.driver [DRV] Write Done: Addr=100002d8 Data=3269b92a Prot=000
# [DRAM WRITE] addr=100002dc data=0136c4cf
# UVM_INFO C:/Documents/DoAnThietKeViMach/Project/SoC/VERIFICATION/Monitor/axi_monitor.sv(51) @ 9215000: uvm_test_top.env.agent.monitor [MON_WR] Detected WRITE : Addr=100002dc Data=0136c4cf Strb=1111 Prot=000 BResp=00
# UVM_INFO C:/Documents/DoAnThietKeViMach/Project/SoC/VERIFICATION/Driver/axi_driver.sv(63) @ 9225000: uvm_test_top.env.agent.driver [DRV] Write Done: Addr=100002dc Data=0136c4cf Prot=000
# [DRAM WRITE] addr=100002e0 data=e4ad1d47
# UVM_INFO C:/Documents/DoAnThietKeViMach/Project/SoC/VERIFICATION/Monitor/axi_monitor.sv(51) @ 9265000: uvm_test_top.env.agent.monitor [MON_WR] Detected WRITE : Addr=100002e0 Data=e4ad1d47 Strb=1111 Prot=000 BResp=00
# UVM_INFO C:/Documents/DoAnThietKeViMach/Project/SoC/VERIFICATION/Driver/axi_driver.sv(63) @ 9275000: uvm_test_top.env.agent.driver [DRV] Write Done: Addr=100002e0 Data=e4ad1d47 Prot=000
# [DRAM WRITE] addr=100002e4 data=ab5a5042
# UVM_INFO C:/Documents/DoAnThietKeViMach/Project/SoC/VERIFICATION/Monitor/axi_monitor.sv(51) @ 9315000: uvm_test_top.env.agent.monitor [MON_WR] Detected WRITE : Addr=100002e4 Data=ab5a5042 Strb=1111 Prot=000 BResp=00
# UVM_INFO C:/Documents/DoAnThietKeViMach/Project/SoC/VERIFICATION/Driver/axi_driver.sv(63) @ 9325000: uvm_test_top.env.agent.driver [DRV] Write Done: Addr=100002e4 Data=ab5a5042 Prot=000
# [DRAM WRITE] addr=100002e8 data=393294c8
# UVM_INFO C:/Documents/DoAnThietKeViMach/Project/SoC/VERIFICATION/Monitor/axi_monitor.sv(51) @ 9365000: uvm_test_top.env.agent.monitor [MON_WR] Detected WRITE : Addr=100002e8 Data=393294c8 Strb=1111 Prot=000 BResp=00
# UVM_INFO C:/Documents/DoAnThietKeViMach/Project/SoC/VERIFICATION/Driver/axi_driver.sv(63) @ 9375000: uvm_test_top.env.agent.driver [DRV] Write Done: Addr=100002e8 Data=393294c8 Prot=000
# [DRAM WRITE] addr=100002ec data=f245b0f7
# UVM_INFO C:/Documents/DoAnThietKeViMach/Project/SoC/VERIFICATION/Monitor/axi_monitor.sv(51) @ 9415000: uvm_test_top.env.agent.monitor [MON_WR] Detected WRITE : Addr=100002ec Data=f245b0f7 Strb=1111 Prot=000 BResp=00
# UVM_INFO C:/Documents/DoAnThietKeViMach/Project/SoC/VERIFICATION/Driver/axi_driver.sv(63) @ 9425000: uvm_test_top.env.agent.driver [DRV] Write Done: Addr=100002ec Data=f245b0f7 Prot=000
# [DRAM WRITE] addr=100002f0 data=00ac048a
# UVM_INFO C:/Documents/DoAnThietKeViMach/Project/SoC/VERIFICATION/Monitor/axi_monitor.sv(51) @ 9465000: uvm_test_top.env.agent.monitor [MON_WR] Detected WRITE : Addr=100002f0 Data=00ac048a Strb=1111 Prot=000 BResp=00
# UVM_INFO C:/Documents/DoAnThietKeViMach/Project/SoC/VERIFICATION/Driver/axi_driver.sv(63) @ 9475000: uvm_test_top.env.agent.driver [DRV] Write Done: Addr=100002f0 Data=00ac048a Prot=000
# [DRAM WRITE] addr=100002f4 data=03b4c480
# UVM_INFO C:/Documents/DoAnThietKeViMach/Project/SoC/VERIFICATION/Monitor/axi_monitor.sv(51) @ 9515000: uvm_test_top.env.agent.monitor [MON_WR] Detected WRITE : Addr=100002f4 Data=03b4c480 Strb=1111 Prot=000 BResp=00
# UVM_INFO C:/Documents/DoAnThietKeViMach/Project/SoC/VERIFICATION/Driver/axi_driver.sv(63) @ 9525000: uvm_test_top.env.agent.driver [DRV] Write Done: Addr=100002f4 Data=03b4c480 Prot=000
# [DRAM WRITE] addr=100002f8 data=115d809f
# UVM_INFO C:/Documents/DoAnThietKeViMach/Project/SoC/VERIFICATION/Monitor/axi_monitor.sv(51) @ 9565000: uvm_test_top.env.agent.monitor [MON_WR] Detected WRITE : Addr=100002f8 Data=115d809f Strb=1111 Prot=000 BResp=00
# UVM_INFO C:/Documents/DoAnThietKeViMach/Project/SoC/VERIFICATION/Driver/axi_driver.sv(63) @ 9575000: uvm_test_top.env.agent.driver [DRV] Write Done: Addr=100002f8 Data=115d809f Prot=000
# [DRAM WRITE] addr=100002fc data=a98fc8f3
# UVM_INFO C:/Documents/DoAnThietKeViMach/Project/SoC/VERIFICATION/Monitor/axi_monitor.sv(51) @ 9615000: uvm_test_top.env.agent.monitor [MON_WR] Detected WRITE : Addr=100002fc Data=a98fc8f3 Strb=1111 Prot=000 BResp=00
# UVM_INFO C:/Documents/DoAnThietKeViMach/Project/SoC/VERIFICATION/Driver/axi_driver.sv(63) @ 9625000: uvm_test_top.env.agent.driver [DRV] Write Done: Addr=100002fc Data=a98fc8f3 Prot=000
# [DRAM WRITE] addr=10000300 data=8e0e1804
# UVM_INFO C:/Documents/DoAnThietKeViMach/Project/SoC/VERIFICATION/Monitor/axi_monitor.sv(51) @ 9665000: uvm_test_top.env.agent.monitor [MON_WR] Detected WRITE : Addr=10000300 Data=8e0e1804 Strb=1111 Prot=000 BResp=00
# UVM_INFO C:/Documents/DoAnThietKeViMach/Project/SoC/VERIFICATION/Driver/axi_driver.sv(63) @ 9675000: uvm_test_top.env.agent.driver [DRV] Write Done: Addr=10000300 Data=8e0e1804 Prot=000
# [DRAM WRITE] addr=10000304 data=43046475
# UVM_INFO C:/Documents/DoAnThietKeViMach/Project/SoC/VERIFICATION/Monitor/axi_monitor.sv(51) @ 9715000: uvm_test_top.env.agent.monitor [MON_WR] Detected WRITE : Addr=10000304 Data=43046475 Strb=1111 Prot=000 BResp=00
# UVM_INFO C:/Documents/DoAnThietKeViMach/Project/SoC/VERIFICATION/Driver/axi_driver.sv(63) @ 9725000: uvm_test_top.env.agent.driver [DRV] Write Done: Addr=10000304 Data=43046475 Prot=000
# [DRAM WRITE] addr=10000308 data=5d985876
# UVM_INFO C:/Documents/DoAnThietKeViMach/Project/SoC/VERIFICATION/Monitor/axi_monitor.sv(51) @ 9765000: uvm_test_top.env.agent.monitor [MON_WR] Detected WRITE : Addr=10000308 Data=5d985876 Strb=1111 Prot=000 BResp=00
# UVM_INFO C:/Documents/DoAnThietKeViMach/Project/SoC/VERIFICATION/Driver/axi_driver.sv(63) @ 9775000: uvm_test_top.env.agent.driver [DRV] Write Done: Addr=10000308 Data=5d985876 Prot=000
# [DRAM WRITE] addr=1000030c data=eefb50ec
# UVM_INFO C:/Documents/DoAnThietKeViMach/Project/SoC/VERIFICATION/Monitor/axi_monitor.sv(51) @ 9815000: uvm_test_top.env.agent.monitor [MON_WR] Detected WRITE : Addr=1000030c Data=eefb50ec Strb=1111 Prot=000 BResp=00
# UVM_INFO C:/Documents/DoAnThietKeViMach/Project/SoC/VERIFICATION/Driver/axi_driver.sv(63) @ 9825000: uvm_test_top.env.agent.driver [DRV] Write Done: Addr=1000030c Data=eefb50ec Prot=000
# [DRAM WRITE] addr=10000310 data=ed21bc25
# UVM_INFO C:/Documents/DoAnThietKeViMach/Project/SoC/VERIFICATION/Monitor/axi_monitor.sv(51) @ 9865000: uvm_test_top.env.agent.monitor [MON_WR] Detected WRITE : Addr=10000310 Data=ed21bc25 Strb=1111 Prot=000 BResp=00
# UVM_INFO C:/Documents/DoAnThietKeViMach/Project/SoC/VERIFICATION/Driver/axi_driver.sv(63) @ 9875000: uvm_test_top.env.agent.driver [DRV] Write Done: Addr=10000310 Data=ed21bc25 Prot=000
# [DRAM WRITE] addr=10000314 data=7d22f06a
# UVM_INFO C:/Documents/DoAnThietKeViMach/Project/SoC/VERIFICATION/Monitor/axi_monitor.sv(51) @ 9915000: uvm_test_top.env.agent.monitor [MON_WR] Detected WRITE : Addr=10000314 Data=7d22f06a Strb=1111 Prot=000 BResp=00
# UVM_INFO C:/Documents/DoAnThietKeViMach/Project/SoC/VERIFICATION/Driver/axi_driver.sv(63) @ 9925000: uvm_test_top.env.agent.driver [DRV] Write Done: Addr=10000314 Data=7d22f06a Prot=000
# [DRAM WRITE] addr=10000318 data=7fc649c8
# UVM_INFO C:/Documents/DoAnThietKeViMach/Project/SoC/VERIFICATION/Monitor/axi_monitor.sv(51) @ 9965000: uvm_test_top.env.agent.monitor [MON_WR] Detected WRITE : Addr=10000318 Data=7fc649c8 Strb=1111 Prot=000 BResp=00
