--- [SIM ONLY] axi_random_wr_rd_test ---
MODE = UVM_MASTER
Reading C:/app/QuestaSim/tcl/vsim/pref.tcl 

# 10.2c

# vsim +UVM_TESTNAME=axi_random_wr_rd_test +UVM_MASTER +MEM_SEED=3138316618 -coverage -do {run -all; quit} -c -sv_seed 3138316618 vopt_top 
# //  Questa Sim-64
# //  Version 10.2c Unknown Platform Jul 19 2013
# //
# //  Copyright 1991-2013 Mentor Graphics Corporation
# //  All Rights Reserved.
# //
# //  THIS WORK CONTAINS TRADE SECRET AND PROPRIETARY INFORMATION
# //  WHICH IS THE PROPERTY OF MENTOR GRAPHICS CORPORATION OR ITS
# //  LICENSORS AND IS SUBJECT TO LICENSE TERMS.
# //
# Loading sv_std.std
# Loading mtiUvm.uvm_pkg
# Loading work.soc_pkg(fast)
# Loading work.top_tb(fast)
# Loading work.clk_rst_inf(fast)
# Loading work.soc_inf(fast)
# Loading work.cpu_monitor_inf(fast)
# Loading work.TOP(fast)
# Loading work.AXI_Master(fast)
# Loading work.CPU(fast)
# Loading work.pc_reg(fast)
# Loading work.IF_ID(fast)
# Loading work.ControlUnit(fast)
# Loading work.MainDecoder(fast)
# Loading work.ALUControl(fast)
# Loading work.RegFile(fast)
# Loading work.signExtend(fast)
# Loading work.ID_EX(fast)
# Loading work.ALU(fast)
# Loading work.EX_MEM(fast)
# Loading work.MEM_WB(fast)
# Loading work.HazardUnit(fast)
# Loading work.LSU(fast)
# Loading work.AXI4_Lite_Interconnect(fast)
# Loading work.IRAM(fast)
# Loading work.DRAM(fast)
# Loading work.Timer(fast)
# Loading work.UART(fast)
# Loading work.SPI(fast)
# Loading mtiUvm.questa_uvm_pkg(fast)
# ** Warning: (vsim-3017) C:/Documents/DoAnThietKeViMach/Project/SoC/VERIFICATION/top_tb.sv(13): [TFMPC] - Too few port connections. Expected 2, found 0.
# 
#         Region: /top_tb/cr_if
# ** Warning: (vsim-3722) C:/Documents/DoAnThietKeViMach/Project/SoC/VERIFICATION/top_tb.sv(13): [TFMPC] - Missing connection for port 'clk'.
# 
# ** Warning: (vsim-3722) C:/Documents/DoAnThietKeViMach/Project/SoC/VERIFICATION/top_tb.sv(13): [TFMPC] - Missing connection for port 'rstn'.
# 
# Loading C:/app/QuestaSim/uvm-1.1d\win64\uvm_dpi.dll
# run -all 
# ----------------------------------------------------------------
# UVM-1.1d
# (C) 2007-2013 Mentor Graphics Corporation
# (C) 2007-2013 Cadence Design Systems, Inc.
# (C) 2006-2013 Synopsys, Inc.
# (C) 2011-2013 Cypress Semiconductor Corp.
# ----------------------------------------------------------------
# 
#   ***********       IMPORTANT RELEASE NOTES         ************
# 
#   You are using a version of the UVM library that has been compiled
#   with `UVM_NO_DEPRECATED undefined.
#   See http://www.eda.org/svdb/view.php?id=3313 for more details.
# 
#   You are using a version of the UVM library that has been compiled
#   with `UVM_OBJECT_MUST_HAVE_CONSTRUCTOR undefined.
#   See http://www.eda.org/svdb/view.php?id=3770 for more details.
# 
#       (Specify +UVM_NO_RELNOTES to turn off this notice)
# 
# UVM_INFO verilog_src/questa_uvm_pkg-1.2/src/questa_uvm_pkg.sv(215) @ 0: reporter [Questa UVM] QUESTA_UVM-1.2.2
# UVM_INFO verilog_src/questa_uvm_pkg-1.2/src/questa_uvm_pkg.sv(217) @ 0: reporter [Questa UVM]  questa_uvm::init(+struct)
# [IRAM] Loading file: instr.mem
# [IRAM] mem[0] = 100000b7
# [IRAM] mem[1] = 01bc5933
# [IRAM] mem[2] = 635fcc13
# [IRAM] mem[3] = 3eb0a023
# [IRAM] mem[4] = 1fc0a503
# [IRAM] mem[5] = 0540a803
# [IRAM] mem[6] = 0106c3b3
# [IRAM] mem[7] = ae417b93
# [IRAM] mem[8] = 09a0a423
# [IRAM] mem[9] = fe5ff6ef
# [IRAM] mem[10] = 01d3e1b3
# [IRAM] mem[11] = 00777f33
# [IRAM] mem[12] = 70788b93
# [IRAM] mem[13] = 02730463
# [IRAM] mem[14] = 0a998393
# [IRAM] mem[15] = adcec993
# [IRAM] mem[16] = fb22c313
# [IRAM] mem[17] = 51a0aa23
# [IRAM] mem[18] = ff0d8ae3
# [IRAM] mem[19] = 406188b3
# [IRAM] mem[20] = 66410c13
# [IRAM] mem[21] = 014005ef
# [IRAM] mem[22] = 00420263
# [IRAM] mem[23] = 76f0aa23
# [IRAM] mem[24] = 40f80533
# [IRAM] mem[25] = 6a20a023
# [IRAM] mem[26] = 41760ab3
# [IRAM] mem[27] = 475be893
# [IRAM] mem[28] = 007c9433
# [IRAM] mem[29] = 0140096f
# [IRAM] mem[30] = 41f906b3
# [IRAM] mem[31] = 00e91b33
# [IRAM] mem[32] = 00756a33
# [IRAM] mem[33] = 7c70a623
# [IRAM] mem[34] = 0020ac23
# [IRAM] mem[35] = 01d71db3
# [IRAM] mem[36] = 002ece33
# [IRAM] mem[37] = 3240a183
# [IRAM] mem[38] = fff18ee3
# [IRAM] mem[39] = 9b4cca93
# [IRAM] mem[40] = 01650463
# [IRAM] mem[41] = 41e6d8b3
# [IRAM] mem[42] = 16f1ff93
# [IRAM] mem[43] = 4480a483
# [IRAM] mem[44] = 015a7b33
# [IRAM] mem[45] = 41e30333
# [IRAM] mem[46] = 01c8e433
# [IRAM] mem[47] = b6478193
# [IRAM] mem[48] = 0c90ac23
# [IRAM] mem[49] = 01f9fcb3
# [IRAM] mem[50] = 4e736293
# [IRAM] mem[51] = 3bb0aa23
# [IRAM] mem[52] = 015576b3
# [IRAM] mem[53] = 0100096f
# [IRAM] mem[54] = 01be8fb3
# [IRAM] mem[55] = 0240096f
# [IRAM] mem[56] = 1630a823
# [IRAM] mem[57] = 2180ac03
# [IRAM] mem[58] = 207ccb13
# [IRAM] mem[59] = 53714893
# [IRAM] mem[60] = 40a75bb3
# [IRAM] mem[61] = 0156ffb3
# [IRAM] mem[62] = 011144b3
# [IRAM] mem[63] = 0ec0a623
# [IRAM] mem[64] = 16988113
# [IRAM] mem[65] = 7a850613
# [IRAM] mem[66] = 0099cd33
# [IRAM] mem[67] = 79376a13
# [IRAM] mem[68] = 48c0a683
# [IRAM] mem[69] = 00550c33
# [IRAM] mem[70] = 005a71b3
# [IRAM] mem[71] = 5a067e13
# [IRAM] mem[72] = 00592233
# [IRAM] mem[73] = 009cd133
# [IRAM] mem[74] = 1430a623
# [IRAM] mem[75] = 0dc0aa03
# [IRAM] mem[76] = 01f5fb33
# [IRAM] mem[77] = 7b324e93
# [IRAM] mem[78] = 01d1dbb3
# [IRAM] mem[79] = 0111feb3
# [IRAM] mem[80] = 7b764993
# [IRAM] mem[81] = 013f9833
# [IRAM] mem[82] = 29c0a603
# [IRAM] mem[83] = 014c2333
# [IRAM] mem[84] = 4740a303
# [IRAM] mem[85] = 0a40aa23
# [IRAM] mem[86] = 64c0a023
# [IRAM] mem[87] = 40fede33
# [IRAM] mem[88] = 40d10a33
# [IRAM] mem[89] = 0022a933
# [IRAM] mem[90] = 01cc62b3
# [IRAM] mem[91] = 00af6e33
# [IRAM] mem[92] = 41328e33
# [IRAM] mem[93] = c6016a13
# [IRAM] mem[94] = 010e2cb3
# [IRAM] mem[95] = 2f00ad83
# [IRAM] mem[96] = 28956a13
# [IRAM] mem[97] = 1615e113
# [IRAM] mem[98] = 3630ac23
# [IRAM] mem[99] = 3100af03
# [IRAM] mem[100] = 403e0833
# [TB] Mode: UVM MASTER â?? driver controls AXI bus
# UVM_INFO @ 0: reporter [RNTST] Running test axi_random_wr_rd_test...
# ** Warning: (vsim-PLI-8707) No address specified on line 2 of file "instr.mem" 
# 
# while loading into associative array using readmem command.    : C:/Documents/DoAnThietKeViMach/Project/SoC/VERIFICATION/Scoreboard/axi_scoreboard.sv(31)
#    Time: 0 ps  Iteration: 8  Region: /uvm_pkg::uvm_phase::m_run_phases
# UVM_INFO C:/Documents/DoAnThietKeViMach/Project/SoC/VERIFICATION/Sequence/axi_random_wr_rd.sv(23) @ 0: uvm_test_top.env.agent.sequencer@@seq [SEQ] --- STARTING SMART RANDOM TEST (ID 11, 12) ---
# [DRAM WRITE] addr=10000000 data=d91d82a6
# UVM_INFO C:/Documents/DoAnThietKeViMach/Project/SoC/VERIFICATION/Monitor/axi_monitor.sv(55) @ 65000: uvm_test_top.env.agent.monitor [MON_WR] Detected WRITE : Addr=10000000 Data=d91d82a6 Strb=1111 Prot=xxx BResp=00
# UVM_INFO C:/Documents/DoAnThietKeViMach/Project/SoC/VERIFICATION/Driver/axi_driver.sv(63) @ 75000: uvm_test_top.env.agent.driver [DRV] Write Done: Addr=10000000 Data=d91d82a6 Prot=xxx
# [DRAM WRITE] addr=10000004 data=369cb492
# UVM_INFO C:/Documents/DoAnThietKeViMach/Project/SoC/VERIFICATION/Monitor/axi_monitor.sv(55) @ 115000: uvm_test_top.env.agent.monitor [MON_WR] Detected WRITE : Addr=10000004 Data=369cb492 Strb=1111 Prot=xxx BResp=00
# UVM_INFO C:/Documents/DoAnThietKeViMach/Project/SoC/VERIFICATION/Driver/axi_driver.sv(63) @ 125000: uvm_test_top.env.agent.driver [DRV] Write Done: Addr=10000004 Data=369cb492 Prot=xxx
# [DRAM WRITE] addr=10000008 data=15596427
# UVM_INFO C:/Documents/DoAnThietKeViMach/Project/SoC/VERIFICATION/Monitor/axi_monitor.sv(55) @ 165000: uvm_test_top.env.agent.monitor [MON_WR] Detected WRITE : Addr=10000008 Data=15596427 Strb=1111 Prot=xxx BResp=00
# UVM_INFO C:/Documents/DoAnThietKeViMach/Project/SoC/VERIFICATION/Driver/axi_driver.sv(63) @ 175000: uvm_test_top.env.agent.driver [DRV] Write Done: Addr=10000008 Data=15596427 Prot=xxx
# [DRAM WRITE] addr=1000000c data=7221109f
# UVM_INFO C:/Documents/DoAnThietKeViMach/Project/SoC/VERIFICATION/Monitor/axi_monitor.sv(55) @ 215000: uvm_test_top.env.agent.monitor [MON_WR] Detected WRITE : Addr=1000000c Data=7221109f Strb=1111 Prot=xxx BResp=00
# UVM_INFO C:/Documents/DoAnThietKeViMach/Project/SoC/VERIFICATION/Driver/axi_driver.sv(63) @ 225000: uvm_test_top.env.agent.driver [DRV] Write Done: Addr=1000000c Data=7221109f Prot=xxx
# [DRAM WRITE] addr=10000010 data=076bcfde
# UVM_INFO C:/Documents/DoAnThietKeViMach/Project/SoC/VERIFICATION/Monitor/axi_monitor.sv(55) @ 265000: uvm_test_top.env.agent.monitor [MON_WR] Detected WRITE : Addr=10000010 Data=076bcfde Strb=1111 Prot=xxx BResp=00
# UVM_INFO C:/Documents/DoAnThietKeViMach/Project/SoC/VERIFICATION/Driver/axi_driver.sv(63) @ 275000: uvm_test_top.env.agent.driver [DRV] Write Done: Addr=10000010 Data=076bcfde Prot=xxx
# [DRAM WRITE] addr=10000014 data=b8d61e84
# UVM_INFO C:/Documents/DoAnThietKeViMach/Project/SoC/VERIFICATION/Monitor/axi_monitor.sv(55) @ 315000: uvm_test_top.env.agent.monitor [MON_WR] Detected WRITE : Addr=10000014 Data=b8d61e84 Strb=1111 Prot=xxx BResp=00
# UVM_INFO C:/Documents/DoAnThietKeViMach/Project/SoC/VERIFICATION/Driver/axi_driver.sv(63) @ 325000: uvm_test_top.env.agent.driver [DRV] Write Done: Addr=10000014 Data=b8d61e84 Prot=xxx
# [DRAM WRITE] addr=10000018 data=f7745b32
# UVM_INFO C:/Documents/DoAnThietKeViMach/Project/SoC/VERIFICATION/Monitor/axi_monitor.sv(55) @ 365000: uvm_test_top.env.agent.monitor [MON_WR] Detected WRITE : Addr=10000018 Data=f7745b32 Strb=1111 Prot=xxx BResp=00
# UVM_INFO C:/Documents/DoAnThietKeViMach/Project/SoC/VERIFICATION/Driver/axi_driver.sv(63) @ 375000: uvm_test_top.env.agent.driver [DRV] Write Done: Addr=10000018 Data=f7745b32 Prot=xxx
# [DRAM WRITE] addr=1000001c data=5e87f4e9
# UVM_INFO C:/Documents/DoAnThietKeViMach/Project/SoC/VERIFICATION/Monitor/axi_monitor.sv(55) @ 415000: uvm_test_top.env.agent.monitor [MON_WR] Detected WRITE : Addr=1000001c Data=5e87f4e9 Strb=1111 Prot=xxx BResp=00
# UVM_INFO C:/Documents/DoAnThietKeViMach/Project/SoC/VERIFICATION/Driver/axi_driver.sv(63) @ 425000: uvm_test_top.env.agent.driver [DRV] Write Done: Addr=1000001c Data=5e87f4e9 Prot=xxx
# [DRAM WRITE] addr=10000020 data=98c8ad69
# UVM_INFO C:/Documents/DoAnThietKeViMach/Project/SoC/VERIFICATION/Monitor/axi_monitor.sv(55) @ 465000: uvm_test_top.env.agent.monitor [MON_WR] Detected WRITE : Addr=10000020 Data=98c8ad69 Strb=1111 Prot=xxx BResp=00
# UVM_INFO C:/Documents/DoAnThietKeViMach/Project/SoC/VERIFICATION/Driver/axi_driver.sv(63) @ 475000: uvm_test_top.env.agent.driver [DRV] Write Done: Addr=10000020 Data=98c8ad69 Prot=xxx
# [DRAM WRITE] addr=10000024 data=adb5dc44
# UVM_INFO C:/Documents/DoAnThietKeViMach/Project/SoC/VERIFICATION/Monitor/axi_monitor.sv(55) @ 515000: uvm_test_top.env.agent.monitor [MON_WR] Detected WRITE : Addr=10000024 Data=adb5dc44 Strb=1111 Prot=xxx BResp=00
# UVM_INFO C:/Documents/DoAnThietKeViMach/Project/SoC/VERIFICATION/Driver/axi_driver.sv(63) @ 525000: uvm_test_top.env.agent.driver [DRV] Write Done: Addr=10000024 Data=adb5dc44 Prot=xxx
# [DRAM WRITE] addr=10000028 data=7a1f302b
# UVM_INFO C:/Documents/DoAnThietKeViMach/Project/SoC/VERIFICATION/Monitor/axi_monitor.sv(55) @ 565000: uvm_test_top.env.agent.monitor [MON_WR] Detected WRITE : Addr=10000028 Data=7a1f302b Strb=1111 Prot=xxx BResp=00
# UVM_INFO C:/Documents/DoAnThietKeViMach/Project/SoC/VERIFICATION/Driver/axi_driver.sv(63) @ 575000: uvm_test_top.env.agent.driver [DRV] Write Done: Addr=10000028 Data=7a1f302b Prot=xxx
# [DRAM WRITE] addr=1000002c data=5ec0f65d
# UVM_INFO C:/Documents/DoAnThietKeViMach/Project/SoC/VERIFICATION/Monitor/axi_monitor.sv(55) @ 615000: uvm_test_top.env.agent.monitor [MON_WR] Detected WRITE : Addr=1000002c Data=5ec0f65d Strb=1111 Prot=xxx BResp=00
# UVM_INFO C:/Documents/DoAnThietKeViMach/Project/SoC/VERIFICATION/Driver/axi_driver.sv(63) @ 625000: uvm_test_top.env.agent.driver [DRV] Write Done: Addr=1000002c Data=5ec0f65d Prot=xxx
# [DRAM WRITE] addr=10000030 data=2515da98
# UVM_INFO C:/Documents/DoAnThietKeViMach/Project/SoC/VERIFICATION/Monitor/axi_monitor.sv(55) @ 665000: uvm_test_top.env.agent.monitor [MON_WR] Detected WRITE : Addr=10000030 Data=2515da98 Strb=1111 Prot=xxx BResp=00
# UVM_INFO C:/Documents/DoAnThietKeViMach/Project/SoC/VERIFICATION/Driver/axi_driver.sv(63) @ 675000: uvm_test_top.env.agent.driver [DRV] Write Done: Addr=10000030 Data=2515da98 Prot=xxx
# [DRAM WRITE] addr=10000034 data=f7a25e7c
# UVM_INFO C:/Documents/DoAnThietKeViMach/Project/SoC/VERIFICATION/Monitor/axi_monitor.sv(55) @ 715000: uvm_test_top.env.agent.monitor [MON_WR] Detected WRITE : Addr=10000034 Data=f7a25e7c Strb=1111 Prot=xxx BResp=00
# UVM_INFO C:/Documents/DoAnThietKeViMach/Project/SoC/VERIFICATION/Driver/axi_driver.sv(63) @ 725000: uvm_test_top.env.agent.driver [DRV] Write Done: Addr=10000034 Data=f7a25e7c Prot=xxx
# [DRAM WRITE] addr=10000038 data=c29b129a
# UVM_INFO C:/Documents/DoAnThietKeViMach/Project/SoC/VERIFICATION/Monitor/axi_monitor.sv(55) @ 765000: uvm_test_top.env.agent.monitor [MON_WR] Detected WRITE : Addr=10000038 Data=c29b129a Strb=1111 Prot=xxx BResp=00
# UVM_INFO C:/Documents/DoAnThietKeViMach/Project/SoC/VERIFICATION/Driver/axi_driver.sv(63) @ 775000: uvm_test_top.env.agent.driver [DRV] Write Done: Addr=10000038 Data=c29b129a Prot=xxx
# [DRAM WRITE] addr=1000003c data=6d2ceb17
# UVM_INFO C:/Documents/DoAnThietKeViMach/Project/SoC/VERIFICATION/Monitor/axi_monitor.sv(55) @ 815000: uvm_test_top.env.agent.monitor [MON_WR] Detected WRITE : Addr=1000003c Data=6d2ceb17 Strb=1111 Prot=xxx BResp=00
# UVM_INFO C:/Documents/DoAnThietKeViMach/Project/SoC/VERIFICATION/Driver/axi_driver.sv(63) @ 825000: uvm_test_top.env.agent.driver [DRV] Write Done: Addr=1000003c Data=6d2ceb17 Prot=xxx
# [DRAM WRITE] addr=10000040 data=e2867a9c
# UVM_INFO C:/Documents/DoAnThietKeViMach/Project/SoC/VERIFICATION/Monitor/axi_monitor.sv(55) @ 865000: uvm_test_top.env.agent.monitor [MON_WR] Detected WRITE : Addr=10000040 Data=e2867a9c Strb=1111 Prot=xxx BResp=00
# UVM_INFO C:/Documents/DoAnThietKeViMach/Project/SoC/VERIFICATION/Driver/axi_driver.sv(63) @ 875000: uvm_test_top.env.agent.driver [DRV] Write Done: Addr=10000040 Data=e2867a9c Prot=xxx
# [DRAM WRITE] addr=10000044 data=73887770
# UVM_INFO C:/Documents/DoAnThietKeViMach/Project/SoC/VERIFICATION/Monitor/axi_monitor.sv(55) @ 915000: uvm_test_top.env.agent.monitor [MON_WR] Detected WRITE : Addr=10000044 Data=73887770 Strb=1111 Prot=xxx BResp=00
# UVM_INFO C:/Documents/DoAnThietKeViMach/Project/SoC/VERIFICATION/Driver/axi_driver.sv(63) @ 925000: uvm_test_top.env.agent.driver [DRV] Write Done: Addr=10000044 Data=73887770 Prot=xxx
# [DRAM WRITE] addr=10000048 data=c06c7c55
# UVM_INFO C:/Documents/DoAnThietKeViMach/Project/SoC/VERIFICATION/Monitor/axi_monitor.sv(55) @ 965000: uvm_test_top.env.agent.monitor [MON_WR] Detected WRITE : Addr=10000048 Data=c06c7c55 Strb=1111 Prot=xxx BResp=00
# UVM_INFO C:/Documents/DoAnThietKeViMach/Project/SoC/VERIFICATION/Driver/axi_driver.sv(63) @ 975000: uvm_test_top.env.agent.driver [DRV] Write Done: Addr=10000048 Data=c06c7c55 Prot=xxx
# [DRAM WRITE] addr=1000004c data=b8ac4d94
# UVM_INFO C:/Documents/DoAnThietKeViMach/Project/SoC/VERIFICATION/Monitor/axi_monitor.sv(55) @ 1015000: uvm_test_top.env.agent.monitor [MON_WR] Detected WRITE : Addr=1000004c Data=b8ac4d94 Strb=1111 Prot=xxx BResp=00
# UVM_INFO C:/Documents/DoAnThietKeViMach/Project/SoC/VERIFICATION/Driver/axi_driver.sv(63) @ 1025000: uvm_test_top.env.agent.driver [DRV] Write Done: Addr=1000004c Data=b8ac4d94 Prot=xxx
# [DRAM WRITE] addr=10000050 data=5e47634a
# UVM_INFO C:/Documents/DoAnThietKeViMach/Project/SoC/VERIFICATION/Monitor/axi_monitor.sv(55) @ 1065000: uvm_test_top.env.agent.monitor [MON_WR] Detected WRITE : Addr=10000050 Data=5e47634a Strb=1111 Prot=xxx BResp=00
# UVM_INFO C:/Documents/DoAnThietKeViMach/Project/SoC/VERIFICATION/Driver/axi_driver.sv(63) @ 1075000: uvm_test_top.env.agent.driver [DRV] Write Done: Addr=10000050 Data=5e47634a Prot=xxx
# [DRAM WRITE] addr=10000054 data=a35fab9e
# UVM_INFO C:/Documents/DoAnThietKeViMach/Project/SoC/VERIFICATION/Monitor/axi_monitor.sv(55) @ 1115000: uvm_test_top.env.agent.monitor [MON_WR] Detected WRITE : Addr=10000054 Data=a35fab9e Strb=1111 Prot=xxx BResp=00
# UVM_INFO C:/Documents/DoAnThietKeViMach/Project/SoC/VERIFICATION/Driver/axi_driver.sv(63) @ 1125000: uvm_test_top.env.agent.driver [DRV] Write Done: Addr=10000054 Data=a35fab9e Prot=xxx
# [DRAM WRITE] addr=10000058 data=cc21429e
# UVM_INFO C:/Documents/DoAnThietKeViMach/Project/SoC/VERIFICATION/Monitor/axi_monitor.sv(55) @ 1165000: uvm_test_top.env.agent.monitor [MON_WR] Detected WRITE : Addr=10000058 Data=cc21429e Strb=1111 Prot=xxx BResp=00
# UVM_INFO C:/Documents/DoAnThietKeViMach/Project/SoC/VERIFICATION/Driver/axi_driver.sv(63) @ 1175000: uvm_test_top.env.agent.driver [DRV] Write Done: Addr=10000058 Data=cc21429e Prot=xxx
# [DRAM WRITE] addr=1000005c data=41111533
# UVM_INFO C:/Documents/DoAnThietKeViMach/Project/SoC/VERIFICATION/Monitor/axi_monitor.sv(55) @ 1215000: uvm_test_top.env.agent.monitor [MON_WR] Detected WRITE : Addr=1000005c Data=41111533 Strb=1111 Prot=xxx BResp=00
# UVM_INFO C:/Documents/DoAnThietKeViMach/Project/SoC/VERIFICATION/Driver/axi_driver.sv(63) @ 1225000: uvm_test_top.env.agent.driver [DRV] Write Done: Addr=1000005c Data=41111533 Prot=xxx
# [DRAM WRITE] addr=10000060 data=377f2dfc
# UVM_INFO C:/Documents/DoAnThietKeViMach/Project/SoC/VERIFICATION/Monitor/axi_monitor.sv(55) @ 1265000: uvm_test_top.env.agent.monitor [MON_WR] Detected WRITE : Addr=10000060 Data=377f2dfc Strb=1111 Prot=xxx BResp=00
# UVM_INFO C:/Documents/DoAnThietKeViMach/Project/SoC/VERIFICATION/Driver/axi_driver.sv(63) @ 1275000: uvm_test_top.env.agent.driver [DRV] Write Done: Addr=10000060 Data=377f2dfc Prot=xxx
# [DRAM WRITE] addr=10000064 data=b37a8a90
# UVM_INFO C:/Documents/DoAnThietKeViMach/Project/SoC/VERIFICATION/Monitor/axi_monitor.sv(55) @ 1315000: uvm_test_top.env.agent.monitor [MON_WR] Detected WRITE : Addr=10000064 Data=b37a8a90 Strb=1111 Prot=xxx BResp=00
# UVM_INFO C:/Documents/DoAnThietKeViMach/Project/SoC/VERIFICATION/Driver/axi_driver.sv(63) @ 1325000: uvm_test_top.env.agent.driver [DRV] Write Done: Addr=10000064 Data=b37a8a90 Prot=xxx
# [DRAM WRITE] addr=10000068 data=7d2efa6d
# UVM_INFO C:/Documents/DoAnThietKeViMach/Project/SoC/VERIFICATION/Monitor/axi_monitor.sv(55) @ 1365000: uvm_test_top.env.agent.monitor [MON_WR] Detected WRITE : Addr=10000068 Data=7d2efa6d Strb=1111 Prot=xxx BResp=00
# UVM_INFO C:/Documents/DoAnThietKeViMach/Project/SoC/VERIFICATION/Driver/axi_driver.sv(63) @ 1375000: uvm_test_top.env.agent.driver [DRV] Write Done: Addr=10000068 Data=7d2efa6d Prot=xxx
# [DRAM WRITE] addr=1000006c data=0a4ed48d
# UVM_INFO C:/Documents/DoAnThietKeViMach/Project/SoC/VERIFICATION/Monitor/axi_monitor.sv(55) @ 1415000: uvm_test_top.env.agent.monitor [MON_WR] Detected WRITE : Addr=1000006c Data=0a4ed48d Strb=1111 Prot=xxx BResp=00
# UVM_INFO C:/Documents/DoAnThietKeViMach/Project/SoC/VERIFICATION/Driver/axi_driver.sv(63) @ 1425000: uvm_test_top.env.agent.driver [DRV] Write Done: Addr=1000006c Data=0a4ed48d Prot=xxx
# [DRAM WRITE] addr=10000070 data=1370d686
# UVM_INFO C:/Documents/DoAnThietKeViMach/Project/SoC/VERIFICATION/Monitor/axi_monitor.sv(55) @ 1465000: uvm_test_top.env.agent.monitor [MON_WR] Detected WRITE : Addr=10000070 Data=1370d686 Strb=1111 Prot=xxx BResp=00
# UVM_INFO C:/Documents/DoAnThietKeViMach/Project/SoC/VERIFICATION/Driver/axi_driver.sv(63) @ 1475000: uvm_test_top.env.agent.driver [DRV] Write Done: Addr=10000070 Data=1370d686 Prot=xxx
# [DRAM WRITE] addr=10000074 data=3463f1f1
# UVM_INFO C:/Documents/DoAnThietKeViMach/Project/SoC/VERIFICATION/Monitor/axi_monitor.sv(55) @ 1515000: uvm_test_top.env.agent.monitor [MON_WR] Detected WRITE : Addr=10000074 Data=3463f1f1 Strb=1111 Prot=xxx BResp=00
# UVM_INFO C:/Documents/DoAnThietKeViMach/Project/SoC/VERIFICATION/Driver/axi_driver.sv(63) @ 1525000: uvm_test_top.env.agent.driver [DRV] Write Done: Addr=10000074 Data=3463f1f1 Prot=xxx
# [DRAM WRITE] addr=10000078 data=d9003981
# UVM_INFO C:/Documents/DoAnThietKeViMach/Project/SoC/VERIFICATION/Monitor/axi_monitor.sv(55) @ 1565000: uvm_test_top.env.agent.monitor [MON_WR] Detected WRITE : Addr=10000078 Data=d9003981 Strb=1111 Prot=xxx BResp=00
# UVM_INFO C:/Documents/DoAnThietKeViMach/Project/SoC/VERIFICATION/Driver/axi_driver.sv(63) @ 1575000: uvm_test_top.env.agent.driver [DRV] Write Done: Addr=10000078 Data=d9003981 Prot=xxx
# [DRAM WRITE] addr=1000007c data=56bcff55
# UVM_INFO C:/Documents/DoAnThietKeViMach/Project/SoC/VERIFICATION/Monitor/axi_monitor.sv(55) @ 1615000: uvm_test_top.env.agent.monitor [MON_WR] Detected WRITE : Addr=1000007c Data=56bcff55 Strb=1111 Prot=xxx BResp=00
# UVM_INFO C:/Documents/DoAnThietKeViMach/Project/SoC/VERIFICATION/Driver/axi_driver.sv(63) @ 1625000: uvm_test_top.env.agent.driver [DRV] Write Done: Addr=1000007c Data=56bcff55 Prot=xxx
# [DRAM WRITE] addr=10000080 data=01cdf8b9
# UVM_INFO C:/Documents/DoAnThietKeViMach/Project/SoC/VERIFICATION/Monitor/axi_monitor.sv(55) @ 1665000: uvm_test_top.env.agent.monitor [MON_WR] Detected WRITE : Addr=10000080 Data=01cdf8b9 Strb=1111 Prot=xxx BResp=00
# UVM_INFO C:/Documents/DoAnThietKeViMach/Project/SoC/VERIFICATION/Driver/axi_driver.sv(63) @ 1675000: uvm_test_top.env.agent.driver [DRV] Write Done: Addr=10000080 Data=01cdf8b9 Prot=xxx
# [DRAM WRITE] addr=10000084 data=8845c315
# UVM_INFO C:/Documents/DoAnThietKeViMach/Project/SoC/VERIFICATION/Monitor/axi_monitor.sv(55) @ 1715000: uvm_test_top.env.agent.monitor [MON_WR] Detected WRITE : Addr=10000084 Data=8845c315 Strb=1111 Prot=xxx BResp=00
# UVM_INFO C:/Documents/DoAnThietKeViMach/Project/SoC/VERIFICATION/Driver/axi_driver.sv(63) @ 1725000: uvm_test_top.env.agent.driver [DRV] Write Done: Addr=10000084 Data=8845c315 Prot=xxx
# [DRAM WRITE] addr=10000088 data=fd50f6fb
# UVM_INFO C:/Documents/DoAnThietKeViMach/Project/SoC/VERIFICATION/Monitor/axi_monitor.sv(55) @ 1765000: uvm_test_top.env.agent.monitor [MON_WR] Detected WRITE : Addr=10000088 Data=fd50f6fb Strb=1111 Prot=xxx BResp=00
# UVM_INFO C:/Documents/DoAnThietKeViMach/Project/SoC/VERIFICATION/Driver/axi_driver.sv(63) @ 1775000: uvm_test_top.env.agent.driver [DRV] Write Done: Addr=10000088 Data=fd50f6fb Prot=xxx
# [DRAM WRITE] addr=1000008c data=29059f6e
# UVM_INFO C:/Documents/DoAnThietKeViMach/Project/SoC/VERIFICATION/Monitor/axi_monitor.sv(55) @ 1815000: uvm_test_top.env.agent.monitor [MON_WR] Detected WRITE : Addr=1000008c Data=29059f6e Strb=1111 Prot=xxx BResp=00
# UVM_INFO C:/Documents/DoAnThietKeViMach/Project/SoC/VERIFICATION/Driver/axi_driver.sv(63) @ 1825000: uvm_test_top.env.agent.driver [DRV] Write Done: Addr=1000008c Data=29059f6e Prot=xxx
# [DRAM WRITE] addr=10000090 data=a615331e
# UVM_INFO C:/Documents/DoAnThietKeViMach/Project/SoC/VERIFICATION/Monitor/axi_monitor.sv(55) @ 1865000: uvm_test_top.env.agent.monitor [MON_WR] Detected WRITE : Addr=10000090 Data=a615331e Strb=1111 Prot=xxx BResp=00
# UVM_INFO C:/Documents/DoAnThietKeViMach/Project/SoC/VERIFICATION/Driver/axi_driver.sv(63) @ 1875000: uvm_test_top.env.agent.driver [DRV] Write Done: Addr=10000090 Data=a615331e Prot=xxx
# [DRAM WRITE] addr=10000094 data=75eae515
# UVM_INFO C:/Documents/DoAnThietKeViMach/Project/SoC/VERIFICATION/Monitor/axi_monitor.sv(55) @ 1915000: uvm_test_top.env.agent.monitor [MON_WR] Detected WRITE : Addr=10000094 Data=75eae515 Strb=1111 Prot=xxx BResp=00
# UVM_INFO C:/Documents/DoAnThietKeViMach/Project/SoC/VERIFICATION/Driver/axi_driver.sv(63) @ 1925000: uvm_test_top.env.agent.driver [DRV] Write Done: Addr=10000094 Data=75eae515 Prot=xxx
# [DRAM WRITE] addr=10000098 data=99579733
# UVM_INFO C:/Documents/DoAnThietKeViMach/Project/SoC/VERIFICATION/Monitor/axi_monitor.sv(55) @ 1965000: uvm_test_top.env.agent.monitor [MON_WR] Detected WRITE : Addr=10000098 Data=99579733 Strb=1111 Prot=xxx BResp=00
# UVM_INFO C:/Documents/DoAnThietKeViMach/Project/SoC/VERIFICATION/Driver/axi_driver.sv(63) @ 1975000: uvm_test_top.env.agent.driver [DRV] Write Done: Addr=10000098 Data=99579733 Prot=xxx
# [DRAM WRITE] addr=1000009c data=8122fd71
# UVM_INFO C:/Documents/DoAnThietKeViMach/Project/SoC/VERIFICATION/Monitor/axi_monitor.sv(55) @ 2015000: uvm_test_top.env.agent.monitor [MON_WR] Detected WRITE : Addr=1000009c Data=8122fd71 Strb=1111 Prot=xxx BResp=00
# UVM_INFO C:/Documents/DoAnThietKeViMach/Project/SoC/VERIFICATION/Driver/axi_driver.sv(63) @ 2025000: uvm_test_top.env.agent.driver [DRV] Write Done: Addr=1000009c Data=8122fd71 Prot=xxx
# [DRAM WRITE] addr=100000a0 data=c9f05c97
# UVM_INFO C:/Documents/DoAnThietKeViMach/Project/SoC/VERIFICATION/Monitor/axi_monitor.sv(55) @ 2065000: uvm_test_top.env.agent.monitor [MON_WR] Detected WRITE : Addr=100000a0 Data=c9f05c97 Strb=1111 Prot=xxx BResp=00
# UVM_INFO C:/Documents/DoAnThietKeViMach/Project/SoC/VERIFICATION/Driver/axi_driver.sv(63) @ 2075000: uvm_test_top.env.agent.driver [DRV] Write Done: Addr=100000a0 Data=c9f05c97 Prot=xxx
# [DRAM WRITE] addr=100000a4 data=9d9ab91d
# UVM_INFO C:/Documents/DoAnThietKeViMach/Project/SoC/VERIFICATION/Monitor/axi_monitor.sv(55) @ 2115000: uvm_test_top.env.agent.monitor [MON_WR] Detected WRITE : Addr=100000a4 Data=9d9ab91d Strb=1111 Prot=xxx BResp=00
# UVM_INFO C:/Documents/DoAnThietKeViMach/Project/SoC/VERIFICATION/Driver/axi_driver.sv(63) @ 2125000: uvm_test_top.env.agent.driver [DRV] Write Done: Addr=100000a4 Data=9d9ab91d Prot=xxx
# [DRAM WRITE] addr=100000a8 data=26a041a2
# UVM_INFO C:/Documents/DoAnThietKeViMach/Project/SoC/VERIFICATION/Monitor/axi_monitor.sv(55) @ 2165000: uvm_test_top.env.agent.monitor [MON_WR] Detected WRITE : Addr=100000a8 Data=26a041a2 Strb=1111 Prot=xxx BResp=00
# UVM_INFO C:/Documents/DoAnThietKeViMach/Project/SoC/VERIFICATION/Driver/axi_driver.sv(63) @ 2175000: uvm_test_top.env.agent.driver [DRV] Write Done: Addr=100000a8 Data=26a041a2 Prot=xxx
# [DRAM WRITE] addr=100000ac data=1c92a2e6
# UVM_INFO C:/Documents/DoAnThietKeViMach/Project/SoC/VERIFICATION/Monitor/axi_monitor.sv(55) @ 2215000: uvm_test_top.env.agent.monitor [MON_WR] Detected WRITE : Addr=100000ac Data=1c92a2e6 Strb=1111 Prot=xxx BResp=00
# UVM_INFO C:/Documents/DoAnThietKeViMach/Project/SoC/VERIFICATION/Driver/axi_driver.sv(63) @ 2225000: uvm_test_top.env.agent.driver [DRV] Write Done: Addr=100000ac Data=1c92a2e6 Prot=xxx
# [DRAM WRITE] addr=100000b0 data=f8610b13
# UVM_INFO C:/Documents/DoAnThietKeViMach/Project/SoC/VERIFICATION/Monitor/axi_monitor.sv(55) @ 2265000: uvm_test_top.env.agent.monitor [MON_WR] Detected WRITE : Addr=100000b0 Data=f8610b13 Strb=1111 Prot=xxx BResp=00
# UVM_INFO C:/Documents/DoAnThietKeViMach/Project/SoC/VERIFICATION/Driver/axi_driver.sv(63) @ 2275000: uvm_test_top.env.agent.driver [DRV] Write Done: Addr=100000b0 Data=f8610b13 Prot=xxx
# [DRAM WRITE] addr=100000b4 data=0ef3c4da
# UVM_INFO C:/Documents/DoAnThietKeViMach/Project/SoC/VERIFICATION/Monitor/axi_monitor.sv(55) @ 2315000: uvm_test_top.env.agent.monitor [MON_WR] Detected WRITE : Addr=100000b4 Data=0ef3c4da Strb=1111 Prot=xxx BResp=00
# UVM_INFO C:/Documents/DoAnThietKeViMach/Project/SoC/VERIFICATION/Driver/axi_driver.sv(63) @ 2325000: uvm_test_top.env.agent.driver [DRV] Write Done: Addr=100000b4 Data=0ef3c4da Prot=xxx
# [DRAM WRITE] addr=100000b8 data=0e14efbb
# UVM_INFO C:/Documents/DoAnThietKeViMach/Project/SoC/VERIFICATION/Monitor/axi_monitor.sv(55) @ 2365000: uvm_test_top.env.agent.monitor [MON_WR] Detected WRITE : Addr=100000b8 Data=0e14efbb Strb=1111 Prot=xxx BResp=00
# UVM_INFO C:/Documents/DoAnThietKeViMach/Project/SoC/VERIFICATION/Driver/axi_driver.sv(63) @ 2375000: uvm_test_top.env.agent.driver [DRV] Write Done: Addr=100000b8 Data=0e14efbb Prot=xxx
# [DRAM WRITE] addr=100000bc data=97e88098
# UVM_INFO C:/Documents/DoAnThietKeViMach/Project/SoC/VERIFICATION/Monitor/axi_monitor.sv(55) @ 2415000: uvm_test_top.env.agent.monitor [MON_WR] Detected WRITE : Addr=100000bc Data=97e88098 Strb=1111 Prot=xxx BResp=00
# UVM_INFO C:/Documents/DoAnThietKeViMach/Project/SoC/VERIFICATION/Driver/axi_driver.sv(63) @ 2425000: uvm_test_top.env.agent.driver [DRV] Write Done: Addr=100000bc Data=97e88098 Prot=xxx
# [DRAM WRITE] addr=100000c0 data=7bb58c29
# UVM_INFO C:/Documents/DoAnThietKeViMach/Project/SoC/VERIFICATION/Monitor/axi_monitor.sv(55) @ 2465000: uvm_test_top.env.agent.monitor [MON_WR] Detected WRITE : Addr=100000c0 Data=7bb58c29 Strb=1111 Prot=xxx BResp=00
# UVM_INFO C:/Documents/DoAnThietKeViMach/Project/SoC/VERIFICATION/Driver/axi_driver.sv(63) @ 2475000: uvm_test_top.env.agent.driver [DRV] Write Done: Addr=100000c0 Data=7bb58c29 Prot=xxx
# [DRAM WRITE] addr=100000c4 data=2d72aae6
# UVM_INFO C:/Documents/DoAnThietKeViMach/Project/SoC/VERIFICATION/Monitor/axi_monitor.sv(55) @ 2515000: uvm_test_top.env.agent.monitor [MON_WR] Detected WRITE : Addr=100000c4 Data=2d72aae6 Strb=1111 Prot=xxx BResp=00
# UVM_INFO C:/Documents/DoAnThietKeViMach/Project/SoC/VERIFICATION/Driver/axi_driver.sv(63) @ 2525000: uvm_test_top.env.agent.driver [DRV] Write Done: Addr=100000c4 Data=2d72aae6 Prot=xxx
# [DRAM WRITE] addr=100000c8 data=ff2ed0bf
# UVM_INFO C:/Documents/DoAnThietKeViMach/Project/SoC/VERIFICATION/Monitor/axi_monitor.sv(55) @ 2565000: uvm_test_top.env.agent.monitor [MON_WR] Detected WRITE : Addr=100000c8 Data=ff2ed0bf Strb=1111 Prot=xxx BResp=00
# UVM_INFO C:/Documents/DoAnThietKeViMach/Project/SoC/VERIFICATION/Driver/axi_driver.sv(63) @ 2575000: uvm_test_top.env.agent.driver [DRV] Write Done: Addr=100000c8 Data=ff2ed0bf Prot=xxx
# [DRAM WRITE] addr=100000cc data=2f311c15
# UVM_INFO C:/Documents/DoAnThietKeViMach/Project/SoC/VERIFICATION/Monitor/axi_monitor.sv(55) @ 2615000: uvm_test_top.env.agent.monitor [MON_WR] Detected WRITE : Addr=100000cc Data=2f311c15 Strb=1111 Prot=xxx BResp=00
# UVM_INFO C:/Documents/DoAnThietKeViMach/Project/SoC/VERIFICATION/Driver/axi_driver.sv(63) @ 2625000: uvm_test_top.env.agent.driver [DRV] Write Done: Addr=100000cc Data=2f311c15 Prot=xxx
# [DRAM WRITE] addr=100000d0 data=f8151966
# UVM_INFO C:/Documents/DoAnThietKeViMach/Project/SoC/VERIFICATION/Monitor/axi_monitor.sv(55) @ 2665000: uvm_test_top.env.agent.monitor [MON_WR] Detected WRITE : Addr=100000d0 Data=f8151966 Strb=1111 Prot=xxx BResp=00
# UVM_INFO C:/Documents/DoAnThietKeViMach/Project/SoC/VERIFICATION/Driver/axi_driver.sv(63) @ 2675000: uvm_test_top.env.agent.driver [DRV] Write Done: Addr=100000d0 Data=f8151966 Prot=xxx
# [DRAM WRITE] addr=100000d4 data=47b45646
# UVM_INFO C:/Documents/DoAnThietKeViMach/Project/SoC/VERIFICATION/Monitor/axi_monitor.sv(55) @ 2715000: uvm_test_top.env.agent.monitor [MON_WR] Detected WRITE : Addr=100000d4 Data=47b45646 Strb=1111 Prot=xxx BResp=00
# UVM_INFO C:/Documents/DoAnThietKeViMach/Project/SoC/VERIFICATION/Driver/axi_driver.sv(63) @ 2725000: uvm_test_top.env.agent.driver [DRV] Write Done: Addr=100000d4 Data=47b45646 Prot=xxx
# [DRAM WRITE] addr=100000d8 data=116a785d
# UVM_INFO C:/Documents/DoAnThietKeViMach/Project/SoC/VERIFICATION/Monitor/axi_monitor.sv(55) @ 2765000: uvm_test_top.env.agent.monitor [MON_WR] Detected WRITE : Addr=100000d8 Data=116a785d Strb=1111 Prot=xxx BResp=00
# UVM_INFO C:/Documents/DoAnThietKeViMach/Project/SoC/VERIFICATION/Driver/axi_driver.sv(63) @ 2775000: uvm_test_top.env.agent.driver [DRV] Write Done: Addr=100000d8 Data=116a785d Prot=xxx
# [DRAM WRITE] addr=100000dc data=88de5a26
# UVM_INFO C:/Documents/DoAnThietKeViMach/Project/SoC/VERIFICATION/Monitor/axi_monitor.sv(55) @ 2815000: uvm_test_top.env.agent.monitor [MON_WR] Detected WRITE : Addr=100000dc Data=88de5a26 Strb=1111 Prot=xxx BResp=00
# UVM_INFO C:/Documents/DoAnThietKeViMach/Project/SoC/VERIFICATION/Driver/axi_driver.sv(63) @ 2825000: uvm_test_top.env.agent.driver [DRV] Write Done: Addr=100000dc Data=88de5a26 Prot=xxx
# [DRAM WRITE] addr=100000e0 data=b45caa42
# UVM_INFO C:/Documents/DoAnThietKeViMach/Project/SoC/VERIFICATION/Monitor/axi_monitor.sv(55) @ 2865000: uvm_test_top.env.agent.monitor [MON_WR] Detected WRITE : Addr=100000e0 Data=b45caa42 Strb=1111 Prot=xxx BResp=00
# UVM_INFO C:/Documents/DoAnThietKeViMach/Project/SoC/VERIFICATION/Driver/axi_driver.sv(63) @ 2875000: uvm_test_top.env.agent.driver [DRV] Write Done: Addr=100000e0 Data=b45caa42 Prot=xxx
# [DRAM WRITE] addr=100000e4 data=c4bf5f18
# UVM_INFO C:/Documents/DoAnThietKeViMach/Project/SoC/VERIFICATION/Monitor/axi_monitor.sv(55) @ 2915000: uvm_test_top.env.agent.monitor [MON_WR] Detected WRITE : Addr=100000e4 Data=c4bf5f18 Strb=1111 Prot=xxx BResp=00
# UVM_INFO C:/Documents/DoAnThietKeViMach/Project/SoC/VERIFICATION/Driver/axi_driver.sv(63) @ 2925000: uvm_test_top.env.agent.driver [DRV] Write Done: Addr=100000e4 Data=c4bf5f18 Prot=xxx
# [DRAM WRITE] addr=100000e8 data=83bc2be1
# UVM_INFO C:/Documents/DoAnThietKeViMach/Project/SoC/VERIFICATION/Monitor/axi_monitor.sv(55) @ 2965000: uvm_test_top.env.agent.monitor [MON_WR] Detected WRITE : Addr=100000e8 Data=83bc2be1 Strb=1111 Prot=xxx BResp=00
# UVM_INFO C:/Documents/DoAnThietKeViMach/Project/SoC/VERIFICATION/Driver/axi_driver.sv(63) @ 2975000: uvm_test_top.env.agent.driver [DRV] Write Done: Addr=100000e8 Data=83bc2be1 Prot=xxx
# [DRAM WRITE] addr=100000ec data=10a622ee
# UVM_INFO C:/Documents/DoAnThietKeViMach/Project/SoC/VERIFICATION/Monitor/axi_monitor.sv(55) @ 3015000: uvm_test_top.env.agent.monitor [MON_WR] Detected WRITE : Addr=100000ec Data=10a622ee Strb=1111 Prot=xxx BResp=00
# UVM_INFO C:/Documents/DoAnThietKeViMach/Project/SoC/VERIFICATION/Driver/axi_driver.sv(63) @ 3025000: uvm_test_top.env.agent.driver [DRV] Write Done: Addr=100000ec Data=10a622ee Prot=xxx
# [DRAM WRITE] addr=100000f0 data=e97f3e5d
# UVM_INFO C:/Documents/DoAnThietKeViMach/Project/SoC/VERIFICATION/Monitor/axi_monitor.sv(55) @ 3065000: uvm_test_top.env.agent.monitor [MON_WR] Detected WRITE : Addr=100000f0 Data=e97f3e5d Strb=1111 Prot=xxx BResp=00
# UVM_INFO C:/Documents/DoAnThietKeViMach/Project/SoC/VERIFICATION/Driver/axi_driver.sv(63) @ 3075000: uvm_test_top.env.agent.driver [DRV] Write Done: Addr=100000f0 Data=e97f3e5d Prot=xxx
# [DRAM WRITE] addr=100000f4 data=13216994
# UVM_INFO C:/Documents/DoAnThietKeViMach/Project/SoC/VERIFICATION/Monitor/axi_monitor.sv(55) @ 3115000: uvm_test_top.env.agent.monitor [MON_WR] Detected WRITE : Addr=100000f4 Data=13216994 Strb=1111 Prot=xxx BResp=00
# UVM_INFO C:/Documents/DoAnThietKeViMach/Project/SoC/VERIFICATION/Driver/axi_driver.sv(63) @ 3125000: uvm_test_top.env.agent.driver [DRV] Write Done: Addr=100000f4 Data=13216994 Prot=xxx
# [DRAM WRITE] addr=100000f8 data=a6329a81
# UVM_INFO C:/Documents/DoAnThietKeViMach/Project/SoC/VERIFICATION/Monitor/axi_monitor.sv(55) @ 3165000: uvm_test_top.env.agent.monitor [MON_WR] Detected WRITE : Addr=100000f8 Data=a6329a81 Strb=1111 Prot=xxx BResp=00
# UVM_INFO C:/Documents/DoAnThietKeViMach/Project/SoC/VERIFICATION/Driver/axi_driver.sv(63) @ 3175000: uvm_test_top.env.agent.driver [DRV] Write Done: Addr=100000f8 Data=a6329a81 Prot=xxx
# [DRAM WRITE] addr=100000fc data=9547bb94
# UVM_INFO C:/Documents/DoAnThietKeViMach/Project/SoC/VERIFICATION/Monitor/axi_monitor.sv(55) @ 3215000: uvm_test_top.env.agent.monitor [MON_WR] Detected WRITE : Addr=100000fc Data=9547bb94 Strb=1111 Prot=xxx BResp=00
# UVM_INFO C:/Documents/DoAnThietKeViMach/Project/SoC/VERIFICATION/Driver/axi_driver.sv(63) @ 3225000: uvm_test_top.env.agent.driver [DRV] Write Done: Addr=100000fc Data=9547bb94 Prot=xxx
# [DRAM WRITE] addr=10000100 data=1332cd7b
# UVM_INFO C:/Documents/DoAnThietKeViMach/Project/SoC/VERIFICATION/Monitor/axi_monitor.sv(55) @ 3265000: uvm_test_top.env.agent.monitor [MON_WR] Detected WRITE : Addr=10000100 Data=1332cd7b Strb=1111 Prot=xxx BResp=00
# UVM_INFO C:/Documents/DoAnThietKeViMach/Project/SoC/VERIFICATION/Driver/axi_driver.sv(63) @ 3275000: uvm_test_top.env.agent.driver [DRV] Write Done: Addr=10000100 Data=1332cd7b Prot=xxx
# [DRAM WRITE] addr=10000104 data=c3da9c7b
# UVM_INFO C:/Documents/DoAnThietKeViMach/Project/SoC/VERIFICATION/Monitor/axi_monitor.sv(55) @ 3315000: uvm_test_top.env.agent.monitor [MON_WR] Detected WRITE : Addr=10000104 Data=c3da9c7b Strb=1111 Prot=xxx BResp=00
# UVM_INFO C:/Documents/DoAnThietKeViMach/Project/SoC/VERIFICATION/Driver/axi_driver.sv(63) @ 3325000: uvm_test_top.env.agent.driver [DRV] Write Done: Addr=10000104 Data=c3da9c7b Prot=xxx
# [DRAM WRITE] addr=10000108 data=c707c7d4
# UVM_INFO C:/Documents/DoAnThietKeViMach/Project/SoC/VERIFICATION/Monitor/axi_monitor.sv(55) @ 3365000: uvm_test_top.env.agent.monitor [MON_WR] Detected WRITE : Addr=10000108 Data=c707c7d4 Strb=1111 Prot=xxx BResp=00
# UVM_INFO C:/Documents/DoAnThietKeViMach/Project/SoC/VERIFICATION/Driver/axi_driver.sv(63) @ 3375000: uvm_test_top.env.agent.driver [DRV] Write Done: Addr=10000108 Data=c707c7d4 Prot=xxx
# [DRAM WRITE] addr=1000010c data=9b6e55fa
# UVM_INFO C:/Documents/DoAnThietKeViMach/Project/SoC/VERIFICATION/Monitor/axi_monitor.sv(55) @ 3415000: uvm_test_top.env.agent.monitor [MON_WR] Detected WRITE : Addr=1000010c Data=9b6e55fa Strb=1111 Prot=xxx BResp=00
# UVM_INFO C:/Documents/DoAnThietKeViMach/Project/SoC/VERIFICATION/Driver/axi_driver.sv(63) @ 3425000: uvm_test_top.env.agent.driver [DRV] Write Done: Addr=1000010c Data=9b6e55fa Prot=xxx
# [DRAM WRITE] addr=10000110 data=e9045b0b
# UVM_INFO C:/Documents/DoAnThietKeViMach/Project/SoC/VERIFICATION/Monitor/axi_monitor.sv(55) @ 3465000: uvm_test_top.env.agent.monitor [MON_WR] Detected WRITE : Addr=10000110 Data=e9045b0b Strb=1111 Prot=xxx BResp=00
# UVM_INFO C:/Documents/DoAnThietKeViMach/Project/SoC/VERIFICATION/Driver/axi_driver.sv(63) @ 3475000: uvm_test_top.env.agent.driver [DRV] Write Done: Addr=10000110 Data=e9045b0b Prot=xxx
# [DRAM WRITE] addr=10000114 data=688dca49
# UVM_INFO C:/Documents/DoAnThietKeViMach/Project/SoC/VERIFICATION/Monitor/axi_monitor.sv(55) @ 3515000: uvm_test_top.env.agent.monitor [MON_WR] Detected WRITE : Addr=10000114 Data=688dca49 Strb=1111 Prot=xxx BResp=00
# UVM_INFO C:/Documents/DoAnThietKeViMach/Project/SoC/VERIFICATION/Driver/axi_driver.sv(63) @ 3525000: uvm_test_top.env.agent.driver [DRV] Write Done: Addr=10000114 Data=688dca49 Prot=xxx
# [DRAM WRITE] addr=10000118 data=16439a3e
# UVM_INFO C:/Documents/DoAnThietKeViMach/Project/SoC/VERIFICATION/Monitor/axi_monitor.sv(55) @ 3565000: uvm_test_top.env.agent.monitor [MON_WR] Detected WRITE : Addr=10000118 Data=16439a3e Strb=1111 Prot=xxx BResp=00
# UVM_INFO C:/Documents/DoAnThietKeViMach/Project/SoC/VERIFICATION/Driver/axi_driver.sv(63) @ 3575000: uvm_test_top.env.agent.driver [DRV] Write Done: Addr=10000118 Data=16439a3e Prot=xxx
# [DRAM WRITE] addr=1000011c data=9ed90c7f
# UVM_INFO C:/Documents/DoAnThietKeViMach/Project/SoC/VERIFICATION/Monitor/axi_monitor.sv(55) @ 3615000: uvm_test_top.env.agent.monitor [MON_WR] Detected WRITE : Addr=1000011c Data=9ed90c7f Strb=1111 Prot=xxx BResp=00
# UVM_INFO C:/Documents/DoAnThietKeViMach/Project/SoC/VERIFICATION/Driver/axi_driver.sv(63) @ 3625000: uvm_test_top.env.agent.driver [DRV] Write Done: Addr=1000011c Data=9ed90c7f Prot=xxx
# [DRAM WRITE] addr=10000120 data=68fdf658
# UVM_INFO C:/Documents/DoAnThietKeViMach/Project/SoC/VERIFICATION/Monitor/axi_monitor.sv(55) @ 3665000: uvm_test_top.env.agent.monitor [MON_WR] Detected WRITE : Addr=10000120 Data=68fdf658 Strb=1111 Prot=xxx BResp=00
# UVM_INFO C:/Documents/DoAnThietKeViMach/Project/SoC/VERIFICATION/Driver/axi_driver.sv(63) @ 3675000: uvm_test_top.env.agent.driver [DRV] Write Done: Addr=10000120 Data=68fdf658 Prot=xxx
# [DRAM WRITE] addr=10000124 data=1e3945d0
# UVM_INFO C:/Documents/DoAnThietKeViMach/Project/SoC/VERIFICATION/Monitor/axi_monitor.sv(55) @ 3715000: uvm_test_top.env.agent.monitor [MON_WR] Detected WRITE : Addr=10000124 Data=1e3945d0 Strb=1111 Prot=xxx BResp=00
# UVM_INFO C:/Documents/DoAnThietKeViMach/Project/SoC/VERIFICATION/Driver/axi_driver.sv(63) @ 3725000: uvm_test_top.env.agent.driver [DRV] Write Done: Addr=10000124 Data=1e3945d0 Prot=xxx
# [DRAM WRITE] addr=10000128 data=f5f60a8c
# UVM_INFO C:/Documents/DoAnThietKeViMach/Project/SoC/VERIFICATION/Monitor/axi_monitor.sv(55) @ 3765000: uvm_test_top.env.agent.monitor [MON_WR] Detected WRITE : Addr=10000128 Data=f5f60a8c Strb=1111 Prot=xxx BResp=00
# UVM_INFO C:/Documents/DoAnThietKeViMach/Project/SoC/VERIFICATION/Driver/axi_driver.sv(63) @ 3775000: uvm_test_top.env.agent.driver [DRV] Write Done: Addr=10000128 Data=f5f60a8c Prot=xxx
# [DRAM WRITE] addr=1000012c data=cb43e7f0
# UVM_INFO C:/Documents/DoAnThietKeViMach/Project/SoC/VERIFICATION/Monitor/axi_monitor.sv(55) @ 3815000: uvm_test_top.env.agent.monitor [MON_WR] Detected WRITE : Addr=1000012c Data=cb43e7f0 Strb=1111 Prot=xxx BResp=00
# UVM_INFO C:/Documents/DoAnThietKeViMach/Project/SoC/VERIFICATION/Driver/axi_driver.sv(63) @ 3825000: uvm_test_top.env.agent.driver [DRV] Write Done: Addr=1000012c Data=cb43e7f0 Prot=xxx
# [DRAM WRITE] addr=10000130 data=5cd80411
# UVM_INFO C:/Documents/DoAnThietKeViMach/Project/SoC/VERIFICATION/Monitor/axi_monitor.sv(55) @ 3865000: uvm_test_top.env.agent.monitor [MON_WR] Detected WRITE : Addr=10000130 Data=5cd80411 Strb=1111 Prot=xxx BResp=00
# UVM_INFO C:/Documents/DoAnThietKeViMach/Project/SoC/VERIFICATION/Driver/axi_driver.sv(63) @ 3875000: uvm_test_top.env.agent.driver [DRV] Write Done: Addr=10000130 Data=5cd80411 Prot=xxx
# [DRAM WRITE] addr=10000134 data=94065878
# UVM_INFO C:/Documents/DoAnThietKeViMach/Project/SoC/VERIFICATION/Monitor/axi_monitor.sv(55) @ 3915000: uvm_test_top.env.agent.monitor [MON_WR] Detected WRITE : Addr=10000134 Data=94065878 Strb=1111 Prot=xxx BResp=00
# UVM_INFO C:/Documents/DoAnThietKeViMach/Project/SoC/VERIFICATION/Driver/axi_driver.sv(63) @ 3925000: uvm_test_top.env.agent.driver [DRV] Write Done: Addr=10000134 Data=94065878 Prot=xxx
# [DRAM WRITE] addr=10000138 data=33c2e2fc
# UVM_INFO C:/Documents/DoAnThietKeViMach/Project/SoC/VERIFICATION/Monitor/axi_monitor.sv(55) @ 3965000: uvm_test_top.env.agent.monitor [MON_WR] Detected WRITE : Addr=10000138 Data=33c2e2fc Strb=1111 Prot=xxx BResp=00
# UVM_INFO C:/Documents/DoAnThietKeViMach/Project/SoC/VERIFICATION/Driver/axi_driver.sv(63) @ 3975000: uvm_test_top.env.agent.driver [DRV] Write Done: Addr=10000138 Data=33c2e2fc Prot=xxx
# [DRAM WRITE] addr=1000013c data=cfc263b3
# UVM_INFO C:/Documents/DoAnThietKeViMach/Project/SoC/VERIFICATION/Monitor/axi_monitor.sv(55) @ 4015000: uvm_test_top.env.agent.monitor [MON_WR] Detected WRITE : Addr=1000013c Data=cfc263b3 Strb=1111 Prot=xxx BResp=00
# UVM_INFO C:/Documents/DoAnThietKeViMach/Project/SoC/VERIFICATION/Driver/axi_driver.sv(63) @ 4025000: uvm_test_top.env.agent.driver [DRV] Write Done: Addr=1000013c Data=cfc263b3 Prot=xxx
# [DRAM WRITE] addr=10000140 data=fc223366
# UVM_INFO C:/Documents/DoAnThietKeViMach/Project/SoC/VERIFICATION/Monitor/axi_monitor.sv(55) @ 4065000: uvm_test_top.env.agent.monitor [MON_WR] Detected WRITE : Addr=10000140 Data=fc223366 Strb=1111 Prot=xxx BResp=00
# UVM_INFO C:/Documents/DoAnThietKeViMach/Project/SoC/VERIFICATION/Driver/axi_driver.sv(63) @ 4075000: uvm_test_top.env.agent.driver [DRV] Write Done: Addr=10000140 Data=fc223366 Prot=xxx
# [DRAM WRITE] addr=10000144 data=29a583a8
# UVM_INFO C:/Documents/DoAnThietKeViMach/Project/SoC/VERIFICATION/Monitor/axi_monitor.sv(55) @ 4115000: uvm_test_top.env.agent.monitor [MON_WR] Detected WRITE : Addr=10000144 Data=29a583a8 Strb=1111 Prot=xxx BResp=00
# UVM_INFO C:/Documents/DoAnThietKeViMach/Project/SoC/VERIFICATION/Driver/axi_driver.sv(63) @ 4125000: uvm_test_top.env.agent.driver [DRV] Write Done: Addr=10000144 Data=29a583a8 Prot=xxx
# [DRAM WRITE] addr=10000148 data=12b8c37d
# UVM_INFO C:/Documents/DoAnThietKeViMach/Project/SoC/VERIFICATION/Monitor/axi_monitor.sv(55) @ 4165000: uvm_test_top.env.agent.monitor [MON_WR] Detected WRITE : Addr=10000148 Data=12b8c37d Strb=1111 Prot=xxx BResp=00
# UVM_INFO C:/Documents/DoAnThietKeViMach/Project/SoC/VERIFICATION/Driver/axi_driver.sv(63) @ 4175000: uvm_test_top.env.agent.driver [DRV] Write Done: Addr=10000148 Data=12b8c37d Prot=xxx
# [DRAM WRITE] addr=1000014c data=855257dd
# UVM_INFO C:/Documents/DoAnThietKeViMach/Project/SoC/VERIFICATION/Monitor/axi_monitor.sv(55) @ 4215000: uvm_test_top.env.agent.monitor [MON_WR] Detected WRITE : Addr=1000014c Data=855257dd Strb=1111 Prot=xxx BResp=00
# UVM_INFO C:/Documents/DoAnThietKeViMach/Project/SoC/VERIFICATION/Driver/axi_driver.sv(63) @ 4225000: uvm_test_top.env.agent.driver [DRV] Write Done: Addr=1000014c Data=855257dd Prot=xxx
# [DRAM WRITE] addr=10000150 data=cb02e9d0
# UVM_INFO C:/Documents/DoAnThietKeViMach/Project/SoC/VERIFICATION/Monitor/axi_monitor.sv(55) @ 4265000: uvm_test_top.env.agent.monitor [MON_WR] Detected WRITE : Addr=10000150 Data=cb02e9d0 Strb=1111 Prot=xxx BResp=00
# UVM_INFO C:/Documents/DoAnThietKeViMach/Project/SoC/VERIFICATION/Driver/axi_driver.sv(63) @ 4275000: uvm_test_top.env.agent.driver [DRV] Write Done: Addr=10000150 Data=cb02e9d0 Prot=xxx
# [DRAM WRITE] addr=10000154 data=902efa98
# UVM_INFO C:/Documents/DoAnThietKeViMach/Project/SoC/VERIFICATION/Monitor/axi_monitor.sv(55) @ 4315000: uvm_test_top.env.agent.monitor [MON_WR] Detected WRITE : Addr=10000154 Data=902efa98 Strb=1111 Prot=xxx BResp=00
# UVM_INFO C:/Documents/DoAnThietKeViMach/Project/SoC/VERIFICATION/Driver/axi_driver.sv(63) @ 4325000: uvm_test_top.env.agent.driver [DRV] Write Done: Addr=10000154 Data=902efa98 Prot=xxx
# [DRAM WRITE] addr=10000158 data=281404a7
# UVM_INFO C:/Documents/DoAnThietKeViMach/Project/SoC/VERIFICATION/Monitor/axi_monitor.sv(55) @ 4365000: uvm_test_top.env.agent.monitor [MON_WR] Detected WRITE : Addr=10000158 Data=281404a7 Strb=1111 Prot=xxx BResp=00
# UVM_INFO C:/Documents/DoAnThietKeViMach/Project/SoC/VERIFICATION/Driver/axi_driver.sv(63) @ 4375000: uvm_test_top.env.agent.driver [DRV] Write Done: Addr=10000158 Data=281404a7 Prot=xxx
# [DRAM WRITE] addr=1000015c data=74de8c45
# UVM_INFO C:/Documents/DoAnThietKeViMach/Project/SoC/VERIFICATION/Monitor/axi_monitor.sv(55) @ 4415000: uvm_test_top.env.agent.monitor [MON_WR] Detected WRITE : Addr=1000015c Data=74de8c45 Strb=1111 Prot=xxx BResp=00
# UVM_INFO C:/Documents/DoAnThietKeViMach/Project/SoC/VERIFICATION/Driver/axi_driver.sv(63) @ 4425000: uvm_test_top.env.agent.driver [DRV] Write Done: Addr=1000015c Data=74de8c45 Prot=xxx
# [DRAM WRITE] addr=10000160 data=942b0148
# UVM_INFO C:/Documents/DoAnThietKeViMach/Project/SoC/VERIFICATION/Monitor/axi_monitor.sv(55) @ 4465000: uvm_test_top.env.agent.monitor [MON_WR] Detected WRITE : Addr=10000160 Data=942b0148 Strb=1111 Prot=xxx BResp=00
# UVM_INFO C:/Documents/DoAnThietKeViMach/Project/SoC/VERIFICATION/Driver/axi_driver.sv(63) @ 4475000: uvm_test_top.env.agent.driver [DRV] Write Done: Addr=10000160 Data=942b0148 Prot=xxx
# [DRAM WRITE] addr=10000164 data=e548ebcb
# UVM_INFO C:/Documents/DoAnThietKeViMach/Project/SoC/VERIFICATION/Monitor/axi_monitor.sv(55) @ 4515000: uvm_test_top.env.agent.monitor [MON_WR] Detected WRITE : Addr=10000164 Data=e548ebcb Strb=1111 Prot=xxx BResp=00
# UVM_INFO C:/Documents/DoAnThietKeViMach/Project/SoC/VERIFICATION/Driver/axi_driver.sv(63) @ 4525000: uvm_test_top.env.agent.driver [DRV] Write Done: Addr=10000164 Data=e548ebcb Prot=xxx
# [DRAM WRITE] addr=10000168 data=ae52acfb
# UVM_INFO C:/Documents/DoAnThietKeViMach/Project/SoC/VERIFICATION/Monitor/axi_monitor.sv(55) @ 4565000: uvm_test_top.env.agent.monitor [MON_WR] Detected WRITE : Addr=10000168 Data=ae52acfb Strb=1111 Prot=xxx BResp=00
# UVM_INFO C:/Documents/DoAnThietKeViMach/Project/SoC/VERIFICATION/Driver/axi_driver.sv(63) @ 4575000: uvm_test_top.env.agent.driver [DRV] Write Done: Addr=10000168 Data=ae52acfb Prot=xxx
# [DRAM WRITE] addr=1000016c data=4232f0f8
# UVM_INFO C:/Documents/DoAnThietKeViMach/Project/SoC/VERIFICATION/Monitor/axi_monitor.sv(55) @ 4615000: uvm_test_top.env.agent.monitor [MON_WR] Detected WRITE : Addr=1000016c Data=4232f0f8 Strb=1111 Prot=xxx BResp=00
# UVM_INFO C:/Documents/DoAnThietKeViMach/Project/SoC/VERIFICATION/Driver/axi_driver.sv(63) @ 4625000: uvm_test_top.env.agent.driver [DRV] Write Done: Addr=1000016c Data=4232f0f8 Prot=xxx
# [DRAM WRITE] addr=10000170 data=e5893624
# UVM_INFO C:/Documents/DoAnThietKeViMach/Project/SoC/VERIFICATION/Monitor/axi_monitor.sv(55) @ 4665000: uvm_test_top.env.agent.monitor [MON_WR] Detected WRITE : Addr=10000170 Data=e5893624 Strb=1111 Prot=xxx BResp=00
# UVM_INFO C:/Documents/DoAnThietKeViMach/Project/SoC/VERIFICATION/Driver/axi_driver.sv(63) @ 4675000: uvm_test_top.env.agent.driver [DRV] Write Done: Addr=10000170 Data=e5893624 Prot=xxx
# [DRAM WRITE] addr=10000174 data=aba00276
# UVM_INFO C:/Documents/DoAnThietKeViMach/Project/SoC/VERIFICATION/Monitor/axi_monitor.sv(55) @ 4715000: uvm_test_top.env.agent.monitor [MON_WR] Detected WRITE : Addr=10000174 Data=aba00276 Strb=1111 Prot=xxx BResp=00
# UVM_INFO C:/Documents/DoAnThietKeViMach/Project/SoC/VERIFICATION/Driver/axi_driver.sv(63) @ 4725000: uvm_test_top.env.agent.driver [DRV] Write Done: Addr=10000174 Data=aba00276 Prot=xxx
# [DRAM WRITE] addr=10000178 data=e44b12f0
# UVM_INFO C:/Documents/DoAnThietKeViMach/Project/SoC/VERIFICATION/Monitor/axi_monitor.sv(55) @ 4765000: uvm_test_top.env.agent.monitor [MON_WR] Detected WRITE : Addr=10000178 Data=e44b12f0 Strb=1111 Prot=xxx BResp=00
# UVM_INFO C:/Documents/DoAnThietKeViMach/Project/SoC/VERIFICATION/Driver/axi_driver.sv(63) @ 4775000: uvm_test_top.env.agent.driver [DRV] Write Done: Addr=10000178 Data=e44b12f0 Prot=xxx
# [DRAM WRITE] addr=1000017c data=097ddf85
# UVM_INFO C:/Documents/DoAnThietKeViMach/Project/SoC/VERIFICATION/Monitor/axi_monitor.sv(55) @ 4815000: uvm_test_top.env.agent.monitor [MON_WR] Detected WRITE : Addr=1000017c Data=097ddf85 Strb=1111 Prot=xxx BResp=00
# UVM_INFO C:/Documents/DoAnThietKeViMach/Project/SoC/VERIFICATION/Driver/axi_driver.sv(63) @ 4825000: uvm_test_top.env.agent.driver [DRV] Write Done: Addr=1000017c Data=097ddf85 Prot=xxx
# [DRAM WRITE] addr=10000180 data=1681ec18
# UVM_INFO C:/Documents/DoAnThietKeViMach/Project/SoC/VERIFICATION/Monitor/axi_monitor.sv(55) @ 4865000: uvm_test_top.env.agent.monitor [MON_WR] Detected WRITE : Addr=10000180 Data=1681ec18 Strb=1111 Prot=xxx BResp=00
# UVM_INFO C:/Documents/DoAnThietKeViMach/Project/SoC/VERIFICATION/Driver/axi_driver.sv(63) @ 4875000: uvm_test_top.env.agent.driver [DRV] Write Done: Addr=10000180 Data=1681ec18 Prot=xxx
# [DRAM WRITE] addr=10000184 data=5467e783
# UVM_INFO C:/Documents/DoAnThietKeViMach/Project/SoC/VERIFICATION/Monitor/axi_monitor.sv(55) @ 4915000: uvm_test_top.env.agent.monitor [MON_WR] Detected WRITE : Addr=10000184 Data=5467e783 Strb=1111 Prot=xxx BResp=00
# UVM_INFO C:/Documents/DoAnThietKeViMach/Project/SoC/VERIFICATION/Driver/axi_driver.sv(63) @ 4925000: uvm_test_top.env.agent.driver [DRV] Write Done: Addr=10000184 Data=5467e783 Prot=xxx
# [DRAM WRITE] addr=10000188 data=9913027e
# UVM_INFO C:/Documents/DoAnThietKeViMach/Project/SoC/VERIFICATION/Monitor/axi_monitor.sv(55) @ 4965000: uvm_test_top.env.agent.monitor [MON_WR] Detected WRITE : Addr=10000188 Data=9913027e Strb=1111 Prot=xxx BResp=00
# UVM_INFO C:/Documents/DoAnThietKeViMach/Project/SoC/VERIFICATION/Driver/axi_driver.sv(63) @ 4975000: uvm_test_top.env.agent.driver [DRV] Write Done: Addr=10000188 Data=9913027e Prot=xxx
# [DRAM WRITE] addr=1000018c data=0306de27
# UVM_INFO C:/Documents/DoAnThietKeViMach/Project/SoC/VERIFICATION/Monitor/axi_monitor.sv(55) @ 5015000: uvm_test_top.env.agent.monitor [MON_WR] Detected WRITE : Addr=1000018c Data=0306de27 Strb=1111 Prot=xxx BResp=00
# UVM_INFO C:/Documents/DoAnThietKeViMach/Project/SoC/VERIFICATION/Driver/axi_driver.sv(63) @ 5025000: uvm_test_top.env.agent.driver [DRV] Write Done: Addr=1000018c Data=0306de27 Prot=xxx
# [DRAM WRITE] addr=10000190 data=6d58d1a0
# UVM_INFO C:/Documents/DoAnThietKeViMach/Project/SoC/VERIFICATION/Monitor/axi_monitor.sv(55) @ 5065000: uvm_test_top.env.agent.monitor [MON_WR] Detected WRITE : Addr=10000190 Data=6d58d1a0 Strb=1111 Prot=xxx BResp=00
# UVM_INFO C:/Documents/DoAnThietKeViMach/Project/SoC/VERIFICATION/Driver/axi_driver.sv(63) @ 5075000: uvm_test_top.env.agent.driver [DRV] Write Done: Addr=10000190 Data=6d58d1a0 Prot=xxx
# [DRAM WRITE] addr=10000194 data=0d7324e2
# UVM_INFO C:/Documents/DoAnThietKeViMach/Project/SoC/VERIFICATION/Monitor/axi_monitor.sv(55) @ 5115000: uvm_test_top.env.agent.monitor [MON_WR] Detected WRITE : Addr=10000194 Data=0d7324e2 Strb=1111 Prot=xxx BResp=00
# UVM_INFO C:/Documents/DoAnThietKeViMach/Project/SoC/VERIFICATION/Driver/axi_driver.sv(63) @ 5125000: uvm_test_top.env.agent.driver [DRV] Write Done: Addr=10000194 Data=0d7324e2 Prot=xxx
# [DRAM WRITE] addr=10000198 data=2f7010a1
# UVM_INFO C:/Documents/DoAnThietKeViMach/Project/SoC/VERIFICATION/Monitor/axi_monitor.sv(55) @ 5165000: uvm_test_top.env.agent.monitor [MON_WR] Detected WRITE : Addr=10000198 Data=2f7010a1 Strb=1111 Prot=xxx BResp=00
# UVM_INFO C:/Documents/DoAnThietKeViMach/Project/SoC/VERIFICATION/Driver/axi_driver.sv(63) @ 5175000: uvm_test_top.env.agent.driver [DRV] Write Done: Addr=10000198 Data=2f7010a1 Prot=xxx
# [DRAM WRITE] addr=1000019c data=e6bcd1a4
# UVM_INFO C:/Documents/DoAnThietKeViMach/Project/SoC/VERIFICATION/Monitor/axi_monitor.sv(55) @ 5215000: uvm_test_top.env.agent.monitor [MON_WR] Detected WRITE : Addr=1000019c Data=e6bcd1a4 Strb=1111 Prot=xxx BResp=00
# UVM_INFO C:/Documents/DoAnThietKeViMach/Project/SoC/VERIFICATION/Driver/axi_driver.sv(63) @ 5225000: uvm_test_top.env.agent.driver [DRV] Write Done: Addr=1000019c Data=e6bcd1a4 Prot=xxx
# [DRAM WRITE] addr=100001a0 data=69198b01
# UVM_INFO C:/Documents/DoAnThietKeViMach/Project/SoC/VERIFICATION/Monitor/axi_monitor.sv(55) @ 5265000: uvm_test_top.env.agent.monitor [MON_WR] Detected WRITE : Addr=100001a0 Data=69198b01 Strb=1111 Prot=xxx BResp=00
# UVM_INFO C:/Documents/DoAnThietKeViMach/Project/SoC/VERIFICATION/Driver/axi_driver.sv(63) @ 5275000: uvm_test_top.env.agent.driver [DRV] Write Done: Addr=100001a0 Data=69198b01 Prot=xxx
# [DRAM WRITE] addr=100001a4 data=3efce4f6
# UVM_INFO C:/Documents/DoAnThietKeViMach/Project/SoC/VERIFICATION/Monitor/axi_monitor.sv(55) @ 5315000: uvm_test_top.env.agent.monitor [MON_WR] Detected WRITE : Addr=100001a4 Data=3efce4f6 Strb=1111 Prot=xxx BResp=00
# UVM_INFO C:/Documents/DoAnThietKeViMach/Project/SoC/VERIFICATION/Driver/axi_driver.sv(63) @ 5325000: uvm_test_top.env.agent.driver [DRV] Write Done: Addr=100001a4 Data=3efce4f6 Prot=xxx
# [DRAM WRITE] addr=100001a8 data=7be2ace7
# UVM_INFO C:/Documents/DoAnThietKeViMach/Project/SoC/VERIFICATION/Monitor/axi_monitor.sv(55) @ 5365000: uvm_test_top.env.agent.monitor [MON_WR] Detected WRITE : Addr=100001a8 Data=7be2ace7 Strb=1111 Prot=xxx BResp=00
# UVM_INFO C:/Documents/DoAnThietKeViMach/Project/SoC/VERIFICATION/Driver/axi_driver.sv(63) @ 5375000: uvm_test_top.env.agent.driver [DRV] Write Done: Addr=100001a8 Data=7be2ace7 Prot=xxx
# [DRAM WRITE] addr=100001ac data=8602c33c
# UVM_INFO C:/Documents/DoAnThietKeViMach/Project/SoC/VERIFICATION/Monitor/axi_monitor.sv(55) @ 5415000: uvm_test_top.env.agent.monitor [MON_WR] Detected WRITE : Addr=100001ac Data=8602c33c Strb=1111 Prot=xxx BResp=00
# UVM_INFO C:/Documents/DoAnThietKeViMach/Project/SoC/VERIFICATION/Driver/axi_driver.sv(63) @ 5425000: uvm_test_top.env.agent.driver [DRV] Write Done: Addr=100001ac Data=8602c33c Prot=xxx
# [DRAM WRITE] addr=100001b0 data=3d695554
# UVM_INFO C:/Documents/DoAnThietKeViMach/Project/SoC/VERIFICATION/Monitor/axi_monitor.sv(55) @ 5465000: uvm_test_top.env.agent.monitor [MON_WR] Detected WRITE : Addr=100001b0 Data=3d695554 Strb=1111 Prot=xxx BResp=00
# UVM_INFO C:/Documents/DoAnThietKeViMach/Project/SoC/VERIFICATION/Driver/axi_driver.sv(63) @ 5475000: uvm_test_top.env.agent.driver [DRV] Write Done: Addr=100001b0 Data=3d695554 Prot=xxx
# [DRAM WRITE] addr=100001b4 data=a3bcf64b
# UVM_INFO C:/Documents/DoAnThietKeViMach/Project/SoC/VERIFICATION/Monitor/axi_monitor.sv(55) @ 5515000: uvm_test_top.env.agent.monitor [MON_WR] Detected WRITE : Addr=100001b4 Data=a3bcf64b Strb=1111 Prot=xxx BResp=00
# UVM_INFO C:/Documents/DoAnThietKeViMach/Project/SoC/VERIFICATION/Driver/axi_driver.sv(63) @ 5525000: uvm_test_top.env.agent.driver [DRV] Write Done: Addr=100001b4 Data=a3bcf64b Prot=xxx
# [DRAM WRITE] addr=100001b8 data=bcdf9eb2
# UVM_INFO C:/Documents/DoAnThietKeViMach/Project/SoC/VERIFICATION/Monitor/axi_monitor.sv(55) @ 5565000: uvm_test_top.env.agent.monitor [MON_WR] Detected WRITE : Addr=100001b8 Data=bcdf9eb2 Strb=1111 Prot=xxx BResp=00
# UVM_INFO C:/Documents/DoAnThietKeViMach/Project/SoC/VERIFICATION/Driver/axi_driver.sv(63) @ 5575000: uvm_test_top.env.agent.driver [DRV] Write Done: Addr=100001b8 Data=bcdf9eb2 Prot=xxx
# [DRAM WRITE] addr=100001bc data=588907ac
# UVM_INFO C:/Documents/DoAnThietKeViMach/Project/SoC/VERIFICATION/Monitor/axi_monitor.sv(55) @ 5615000: uvm_test_top.env.agent.monitor [MON_WR] Detected WRITE : Addr=100001bc Data=588907ac Strb=1111 Prot=xxx BResp=00
# UVM_INFO C:/Documents/DoAnThietKeViMach/Project/SoC/VERIFICATION/Driver/axi_driver.sv(63) @ 5625000: uvm_test_top.env.agent.driver [DRV] Write Done: Addr=100001bc Data=588907ac Prot=xxx
# [DRAM WRITE] addr=100001c0 data=12ae5f2a
# UVM_INFO C:/Documents/DoAnThietKeViMach/Project/SoC/VERIFICATION/Monitor/axi_monitor.sv(55) @ 5665000: uvm_test_top.env.agent.monitor [MON_WR] Detected WRITE : Addr=100001c0 Data=12ae5f2a Strb=1111 Prot=xxx BResp=00
# UVM_INFO C:/Documents/DoAnThietKeViMach/Project/SoC/VERIFICATION/Driver/axi_driver.sv(63) @ 5675000: uvm_test_top.env.agent.driver [DRV] Write Done: Addr=100001c0 Data=12ae5f2a Prot=xxx
# [DRAM WRITE] addr=100001c4 data=2317672c
# UVM_INFO C:/Documents/DoAnThietKeViMach/Project/SoC/VERIFICATION/Monitor/axi_monitor.sv(55) @ 5715000: uvm_test_top.env.agent.monitor [MON_WR] Detected WRITE : Addr=100001c4 Data=2317672c Strb=1111 Prot=xxx BResp=00
# UVM_INFO C:/Documents/DoAnThietKeViMach/Project/SoC/VERIFICATION/Driver/axi_driver.sv(63) @ 5725000: uvm_test_top.env.agent.driver [DRV] Write Done: Addr=100001c4 Data=2317672c Prot=xxx
# [DRAM WRITE] addr=100001c8 data=d1dc52dc
# UVM_INFO C:/Documents/DoAnThietKeViMach/Project/SoC/VERIFICATION/Monitor/axi_monitor.sv(55) @ 5765000: uvm_test_top.env.agent.monitor [MON_WR] Detected WRITE : Addr=100001c8 Data=d1dc52dc Strb=1111 Prot=xxx BResp=00
# UVM_INFO C:/Documents/DoAnThietKeViMach/Project/SoC/VERIFICATION/Driver/axi_driver.sv(63) @ 5775000: uvm_test_top.env.agent.driver [DRV] Write Done: Addr=100001c8 Data=d1dc52dc Prot=xxx
# [DRAM WRITE] addr=100001cc data=23378c4c
# UVM_INFO C:/Documents/DoAnThietKeViMach/Project/SoC/VERIFICATION/Monitor/axi_monitor.sv(55) @ 5815000: uvm_test_top.env.agent.monitor [MON_WR] Detected WRITE : Addr=100001cc Data=23378c4c Strb=1111 Prot=xxx BResp=00
# UVM_INFO C:/Documents/DoAnThietKeViMach/Project/SoC/VERIFICATION/Driver/axi_driver.sv(63) @ 5825000: uvm_test_top.env.agent.driver [DRV] Write Done: Addr=100001cc Data=23378c4c Prot=xxx
# [DRAM WRITE] addr=100001d0 data=b14823f6
# UVM_INFO C:/Documents/DoAnThietKeViMach/Project/SoC/VERIFICATION/Monitor/axi_monitor.sv(55) @ 5865000: uvm_test_top.env.agent.monitor [MON_WR] Detected WRITE : Addr=100001d0 Data=b14823f6 Strb=1111 Prot=xxx BResp=00
# UVM_INFO C:/Documents/DoAnThietKeViMach/Project/SoC/VERIFICATION/Driver/axi_driver.sv(63) @ 5875000: uvm_test_top.env.agent.driver [DRV] Write Done: Addr=100001d0 Data=b14823f6 Prot=xxx
# [DRAM WRITE] addr=100001d4 data=dc25381e
# UVM_INFO C:/Documents/DoAnThietKeViMach/Project/SoC/VERIFICATION/Monitor/axi_monitor.sv(55) @ 5915000: uvm_test_top.env.agent.monitor [MON_WR] Detected WRITE : Addr=100001d4 Data=dc25381e Strb=1111 Prot=xxx BResp=00
# UVM_INFO C:/Documents/DoAnThietKeViMach/Project/SoC/VERIFICATION/Driver/axi_driver.sv(63) @ 5925000: uvm_test_top.env.agent.driver [DRV] Write Done: Addr=100001d4 Data=dc25381e Prot=xxx
# [DRAM WRITE] addr=100001d8 data=3d53045d
# UVM_INFO C:/Documents/DoAnThietKeViMach/Project/SoC/VERIFICATION/Monitor/axi_monitor.sv(55) @ 5965000: uvm_test_top.env.agent.monitor [MON_WR] Detected WRITE : Addr=100001d8 Data=3d53045d Strb=1111 Prot=xxx BResp=00
# UVM_INFO C:/Documents/DoAnThietKeViMach/Project/SoC/VERIFICATION/Driver/axi_driver.sv(63) @ 5975000: uvm_test_top.env.agent.driver [DRV] Write Done: Addr=100001d8 Data=3d53045d Prot=xxx
# [DRAM WRITE] addr=100001dc data=b2a34c4c
# UVM_INFO C:/Documents/DoAnThietKeViMach/Project/SoC/VERIFICATION/Monitor/axi_monitor.sv(55) @ 6015000: uvm_test_top.env.agent.monitor [MON_WR] Detected WRITE : Addr=100001dc Data=b2a34c4c Strb=1111 Prot=xxx BResp=00
# UVM_INFO C:/Documents/DoAnThietKeViMach/Project/SoC/VERIFICATION/Driver/axi_driver.sv(63) @ 6025000: uvm_test_top.env.agent.driver [DRV] Write Done: Addr=100001dc Data=b2a34c4c Prot=xxx
# [DRAM WRITE] addr=100001e0 data=a5df1c37
# UVM_INFO C:/Documents/DoAnThietKeViMach/Project/SoC/VERIFICATION/Monitor/axi_monitor.sv(55) @ 6065000: uvm_test_top.env.agent.monitor [MON_WR] Detected WRITE : Addr=100001e0 Data=a5df1c37 Strb=1111 Prot=xxx BResp=00
# UVM_INFO C:/Documents/DoAnThietKeViMach/Project/SoC/VERIFICATION/Driver/axi_driver.sv(63) @ 6075000: uvm_test_top.env.agent.driver [DRV] Write Done: Addr=100001e0 Data=a5df1c37 Prot=xxx
# [DRAM WRITE] addr=100001e4 data=02377c54
# UVM_INFO C:/Documents/DoAnThietKeViMach/Project/SoC/VERIFICATION/Monitor/axi_monitor.sv(55) @ 6115000: uvm_test_top.env.agent.monitor [MON_WR] Detected WRITE : Addr=100001e4 Data=02377c54 Strb=1111 Prot=xxx BResp=00
# UVM_INFO C:/Documents/DoAnThietKeViMach/Project/SoC/VERIFICATION/Driver/axi_driver.sv(63) @ 6125000: uvm_test_top.env.agent.driver [DRV] Write Done: Addr=100001e4 Data=02377c54 Prot=xxx
# [DRAM WRITE] addr=100001e8 data=96cc5b6f
# UVM_INFO C:/Documents/DoAnThietKeViMach/Project/SoC/VERIFICATION/Monitor/axi_monitor.sv(55) @ 6165000: uvm_test_top.env.agent.monitor [MON_WR] Detected WRITE : Addr=100001e8 Data=96cc5b6f Strb=1111 Prot=xxx BResp=00
# UVM_INFO C:/Documents/DoAnThietKeViMach/Project/SoC/VERIFICATION/Driver/axi_driver.sv(63) @ 6175000: uvm_test_top.env.agent.driver [DRV] Write Done: Addr=100001e8 Data=96cc5b6f Prot=xxx
# [DRAM WRITE] addr=100001ec data=bce945a4
# UVM_INFO C:/Documents/DoAnThietKeViMach/Project/SoC/VERIFICATION/Monitor/axi_monitor.sv(55) @ 6215000: uvm_test_top.env.agent.monitor [MON_WR] Detected WRITE : Addr=100001ec Data=bce945a4 Strb=1111 Prot=xxx BResp=00
# UVM_INFO C:/Documents/DoAnThietKeViMach/Project/SoC/VERIFICATION/Driver/axi_driver.sv(63) @ 6225000: uvm_test_top.env.agent.driver [DRV] Write Done: Addr=100001ec Data=bce945a4 Prot=xxx
# [DRAM WRITE] addr=100001f0 data=e548e29f
# UVM_INFO C:/Documents/DoAnThietKeViMach/Project/SoC/VERIFICATION/Monitor/axi_monitor.sv(55) @ 6265000: uvm_test_top.env.agent.monitor [MON_WR] Detected WRITE : Addr=100001f0 Data=e548e29f Strb=1111 Prot=xxx BResp=00
# UVM_INFO C:/Documents/DoAnThietKeViMach/Project/SoC/VERIFICATION/Driver/axi_driver.sv(63) @ 6275000: uvm_test_top.env.agent.driver [DRV] Write Done: Addr=100001f0 Data=e548e29f Prot=xxx
# [DRAM WRITE] addr=100001f4 data=44e55814
# UVM_INFO C:/Documents/DoAnThietKeViMach/Project/SoC/VERIFICATION/Monitor/axi_monitor.sv(55) @ 6315000: uvm_test_top.env.agent.monitor [MON_WR] Detected WRITE : Addr=100001f4 Data=44e55814 Strb=1111 Prot=xxx BResp=00
# UVM_INFO C:/Documents/DoAnThietKeViMach/Project/SoC/VERIFICATION/Driver/axi_driver.sv(63) @ 6325000: uvm_test_top.env.agent.driver [DRV] Write Done: Addr=100001f4 Data=44e55814 Prot=xxx
# [DRAM WRITE] addr=100001f8 data=4095f322
# UVM_INFO C:/Documents/DoAnThietKeViMach/Project/SoC/VERIFICATION/Monitor/axi_monitor.sv(55) @ 6365000: uvm_test_top.env.agent.monitor [MON_WR] Detected WRITE : Addr=100001f8 Data=4095f322 Strb=1111 Prot=xxx BResp=00
# UVM_INFO C:/Documents/DoAnThietKeViMach/Project/SoC/VERIFICATION/Driver/axi_driver.sv(63) @ 6375000: uvm_test_top.env.agent.driver [DRV] Write Done: Addr=100001f8 Data=4095f322 Prot=xxx
# [DRAM WRITE] addr=100001fc data=c1140007
# UVM_INFO C:/Documents/DoAnThietKeViMach/Project/SoC/VERIFICATION/Monitor/axi_monitor.sv(55) @ 6415000: uvm_test_top.env.agent.monitor [MON_WR] Detected WRITE : Addr=100001fc Data=c1140007 Strb=1111 Prot=xxx BResp=00
# UVM_INFO C:/Documents/DoAnThietKeViMach/Project/SoC/VERIFICATION/Driver/axi_driver.sv(63) @ 6425000: uvm_test_top.env.agent.driver [DRV] Write Done: Addr=100001fc Data=c1140007 Prot=xxx
# [DRAM WRITE] addr=10000200 data=ad6a51b3
# UVM_INFO C:/Documents/DoAnThietKeViMach/Project/SoC/VERIFICATION/Monitor/axi_monitor.sv(55) @ 6465000: uvm_test_top.env.agent.monitor [MON_WR] Detected WRITE : Addr=10000200 Data=ad6a51b3 Strb=1111 Prot=xxx BResp=00
# UVM_INFO C:/Documents/DoAnThietKeViMach/Project/SoC/VERIFICATION/Driver/axi_driver.sv(63) @ 6475000: uvm_test_top.env.agent.driver [DRV] Write Done: Addr=10000200 Data=ad6a51b3 Prot=xxx
# [DRAM WRITE] addr=10000204 data=5ab8f570
# UVM_INFO C:/Documents/DoAnThietKeViMach/Project/SoC/VERIFICATION/Monitor/axi_monitor.sv(55) @ 6515000: uvm_test_top.env.agent.monitor [MON_WR] Detected WRITE : Addr=10000204 Data=5ab8f570 Strb=1111 Prot=xxx BResp=00
# UVM_INFO C:/Documents/DoAnThietKeViMach/Project/SoC/VERIFICATION/Driver/axi_driver.sv(63) @ 6525000: uvm_test_top.env.agent.driver [DRV] Write Done: Addr=10000204 Data=5ab8f570 Prot=xxx
# [DRAM WRITE] addr=10000208 data=ef41c152
# UVM_INFO C:/Documents/DoAnThietKeViMach/Project/SoC/VERIFICATION/Monitor/axi_monitor.sv(55) @ 6565000: uvm_test_top.env.agent.monitor [MON_WR] Detected WRITE : Addr=10000208 Data=ef41c152 Strb=1111 Prot=xxx BResp=00
# UVM_INFO C:/Documents/DoAnThietKeViMach/Project/SoC/VERIFICATION/Driver/axi_driver.sv(63) @ 6575000: uvm_test_top.env.agent.driver [DRV] Write Done: Addr=10000208 Data=ef41c152 Prot=xxx
# [DRAM WRITE] addr=1000020c data=ba6f9268
# UVM_INFO C:/Documents/DoAnThietKeViMach/Project/SoC/VERIFICATION/Monitor/axi_monitor.sv(55) @ 6615000: uvm_test_top.env.agent.monitor [MON_WR] Detected WRITE : Addr=1000020c Data=ba6f9268 Strb=1111 Prot=xxx BResp=00
# UVM_INFO C:/Documents/DoAnThietKeViMach/Project/SoC/VERIFICATION/Driver/axi_driver.sv(63) @ 6625000: uvm_test_top.env.agent.driver [DRV] Write Done: Addr=1000020c Data=ba6f9268 Prot=xxx
# [DRAM WRITE] addr=10000210 data=3f23b038
# UVM_INFO C:/Documents/DoAnThietKeViMach/Project/SoC/VERIFICATION/Monitor/axi_monitor.sv(55) @ 6665000: uvm_test_top.env.agent.monitor [MON_WR] Detected WRITE : Addr=10000210 Data=3f23b038 Strb=1111 Prot=xxx BResp=00
# UVM_INFO C:/Documents/DoAnThietKeViMach/Project/SoC/VERIFICATION/Driver/axi_driver.sv(63) @ 6675000: uvm_test_top.env.agent.driver [DRV] Write Done: Addr=10000210 Data=3f23b038 Prot=xxx
# [DRAM WRITE] addr=10000214 data=961aaf02
# UVM_INFO C:/Documents/DoAnThietKeViMach/Project/SoC/VERIFICATION/Monitor/axi_monitor.sv(55) @ 6715000: uvm_test_top.env.agent.monitor [MON_WR] Detected WRITE : Addr=10000214 Data=961aaf02 Strb=1111 Prot=xxx BResp=00
# UVM_INFO C:/Documents/DoAnThietKeViMach/Project/SoC/VERIFICATION/Driver/axi_driver.sv(63) @ 6725000: uvm_test_top.env.agent.driver [DRV] Write Done: Addr=10000214 Data=961aaf02 Prot=xxx
# [DRAM WRITE] addr=10000218 data=ffc846ec
# UVM_INFO C:/Documents/DoAnThietKeViMach/Project/SoC/VERIFICATION/Monitor/axi_monitor.sv(55) @ 6765000: uvm_test_top.env.agent.monitor [MON_WR] Detected WRITE : Addr=10000218 Data=ffc846ec Strb=1111 Prot=xxx BResp=00
# UVM_INFO C:/Documents/DoAnThietKeViMach/Project/SoC/VERIFICATION/Driver/axi_driver.sv(63) @ 6775000: uvm_test_top.env.agent.driver [DRV] Write Done: Addr=10000218 Data=ffc846ec Prot=xxx
# [DRAM WRITE] addr=1000021c data=69917ea2
# UVM_INFO C:/Documents/DoAnThietKeViMach/Project/SoC/VERIFICATION/Monitor/axi_monitor.sv(55) @ 6815000: uvm_test_top.env.agent.monitor [MON_WR] Detected WRITE : Addr=1000021c Data=69917ea2 Strb=1111 Prot=xxx BResp=00
# UVM_INFO C:/Documents/DoAnThietKeViMach/Project/SoC/VERIFICATION/Driver/axi_driver.sv(63) @ 6825000: uvm_test_top.env.agent.driver [DRV] Write Done: Addr=1000021c Data=69917ea2 Prot=xxx
# [DRAM WRITE] addr=10000220 data=382ac97e
# UVM_INFO C:/Documents/DoAnThietKeViMach/Project/SoC/VERIFICATION/Monitor/axi_monitor.sv(55) @ 6865000: uvm_test_top.env.agent.monitor [MON_WR] Detected WRITE : Addr=10000220 Data=382ac97e Strb=1111 Prot=xxx BResp=00
# UVM_INFO C:/Documents/DoAnThietKeViMach/Project/SoC/VERIFICATION/Driver/axi_driver.sv(63) @ 6875000: uvm_test_top.env.agent.driver [DRV] Write Done: Addr=10000220 Data=382ac97e Prot=xxx
# [DRAM WRITE] addr=10000224 data=34f59be7
# UVM_INFO C:/Documents/DoAnThietKeViMach/Project/SoC/VERIFICATION/Monitor/axi_monitor.sv(55) @ 6915000: uvm_test_top.env.agent.monitor [MON_WR] Detected WRITE : Addr=10000224 Data=34f59be7 Strb=1111 Prot=xxx BResp=00
# UVM_INFO C:/Documents/DoAnThietKeViMach/Project/SoC/VERIFICATION/Driver/axi_driver.sv(63) @ 6925000: uvm_test_top.env.agent.driver [DRV] Write Done: Addr=10000224 Data=34f59be7 Prot=xxx
# [DRAM WRITE] addr=10000228 data=649fbc7f
# UVM_INFO C:/Documents/DoAnThietKeViMach/Project/SoC/VERIFICATION/Monitor/axi_monitor.sv(55) @ 6965000: uvm_test_top.env.agent.monitor [MON_WR] Detected WRITE : Addr=10000228 Data=649fbc7f Strb=1111 Prot=xxx BResp=00
# UVM_INFO C:/Documents/DoAnThietKeViMach/Project/SoC/VERIFICATION/Driver/axi_driver.sv(63) @ 6975000: uvm_test_top.env.agent.driver [DRV] Write Done: Addr=10000228 Data=649fbc7f Prot=xxx
# [DRAM WRITE] addr=1000022c data=540269b6
# UVM_INFO C:/Documents/DoAnThietKeViMach/Project/SoC/VERIFICATION/Monitor/axi_monitor.sv(55) @ 7015000: uvm_test_top.env.agent.monitor [MON_WR] Detected WRITE : Addr=1000022c Data=540269b6 Strb=1111 Prot=xxx BResp=00
# UVM_INFO C:/Documents/DoAnThietKeViMach/Project/SoC/VERIFICATION/Driver/axi_driver.sv(63) @ 7025000: uvm_test_top.env.agent.driver [DRV] Write Done: Addr=1000022c Data=540269b6 Prot=xxx
# [DRAM WRITE] addr=10000230 data=1e4bb448
# UVM_INFO C:/Documents/DoAnThietKeViMach/Project/SoC/VERIFICATION/Monitor/axi_monitor.sv(55) @ 7065000: uvm_test_top.env.agent.monitor [MON_WR] Detected WRITE : Addr=10000230 Data=1e4bb448 Strb=1111 Prot=xxx BResp=00
# UVM_INFO C:/Documents/DoAnThietKeViMach/Project/SoC/VERIFICATION/Driver/axi_driver.sv(63) @ 7075000: uvm_test_top.env.agent.driver [DRV] Write Done: Addr=10000230 Data=1e4bb448 Prot=xxx
# [DRAM WRITE] addr=10000234 data=c4d55326
# UVM_INFO C:/Documents/DoAnThietKeViMach/Project/SoC/VERIFICATION/Monitor/axi_monitor.sv(55) @ 7115000: uvm_test_top.env.agent.monitor [MON_WR] Detected WRITE : Addr=10000234 Data=c4d55326 Strb=1111 Prot=xxx BResp=00
# UVM_INFO C:/Documents/DoAnThietKeViMach/Project/SoC/VERIFICATION/Driver/axi_driver.sv(63) @ 7125000: uvm_test_top.env.agent.driver [DRV] Write Done: Addr=10000234 Data=c4d55326 Prot=xxx
# [DRAM WRITE] addr=10000238 data=5ae84ec6
# UVM_INFO C:/Documents/DoAnThietKeViMach/Project/SoC/VERIFICATION/Monitor/axi_monitor.sv(55) @ 7165000: uvm_test_top.env.agent.monitor [MON_WR] Detected WRITE : Addr=10000238 Data=5ae84ec6 Strb=1111 Prot=xxx BResp=00
# UVM_INFO C:/Documents/DoAnThietKeViMach/Project/SoC/VERIFICATION/Driver/axi_driver.sv(63) @ 7175000: uvm_test_top.env.agent.driver [DRV] Write Done: Addr=10000238 Data=5ae84ec6 Prot=xxx
# [DRAM WRITE] addr=1000023c data=ae8b5304
# UVM_INFO C:/Documents/DoAnThietKeViMach/Project/SoC/VERIFICATION/Monitor/axi_monitor.sv(55) @ 7215000: uvm_test_top.env.agent.monitor [MON_WR] Detected WRITE : Addr=1000023c Data=ae8b5304 Strb=1111 Prot=xxx BResp=00
# UVM_INFO C:/Documents/DoAnThietKeViMach/Project/SoC/VERIFICATION/Driver/axi_driver.sv(63) @ 7225000: uvm_test_top.env.agent.driver [DRV] Write Done: Addr=1000023c Data=ae8b5304 Prot=xxx
# [DRAM WRITE] addr=10000240 data=6205c0e3
# UVM_INFO C:/Documents/DoAnThietKeViMach/Project/SoC/VERIFICATION/Monitor/axi_monitor.sv(55) @ 7265000: uvm_test_top.env.agent.monitor [MON_WR] Detected WRITE : Addr=10000240 Data=6205c0e3 Strb=1111 Prot=xxx BResp=00
# UVM_INFO C:/Documents/DoAnThietKeViMach/Project/SoC/VERIFICATION/Driver/axi_driver.sv(63) @ 7275000: uvm_test_top.env.agent.driver [DRV] Write Done: Addr=10000240 Data=6205c0e3 Prot=xxx
# [DRAM WRITE] addr=10000244 data=e3eab9c6
# UVM_INFO C:/Documents/DoAnThietKeViMach/Project/SoC/VERIFICATION/Monitor/axi_monitor.sv(55) @ 7315000: uvm_test_top.env.agent.monitor [MON_WR] Detected WRITE : Addr=10000244 Data=e3eab9c6 Strb=1111 Prot=xxx BResp=00
# UVM_INFO C:/Documents/DoAnThietKeViMach/Project/SoC/VERIFICATION/Driver/axi_driver.sv(63) @ 7325000: uvm_test_top.env.agent.driver [DRV] Write Done: Addr=10000244 Data=e3eab9c6 Prot=xxx
# [DRAM WRITE] addr=10000248 data=4eba6b51
# UVM_INFO C:/Documents/DoAnThietKeViMach/Project/SoC/VERIFICATION/Monitor/axi_monitor.sv(55) @ 7365000: uvm_test_top.env.agent.monitor [MON_WR] Detected WRITE : Addr=10000248 Data=4eba6b51 Strb=1111 Prot=xxx BResp=00
# UVM_INFO C:/Documents/DoAnThietKeViMach/Project/SoC/VERIFICATION/Driver/axi_driver.sv(63) @ 7375000: uvm_test_top.env.agent.driver [DRV] Write Done: Addr=10000248 Data=4eba6b51 Prot=xxx
# [DRAM WRITE] addr=1000024c data=d5d681f0
# UVM_INFO C:/Documents/DoAnThietKeViMach/Project/SoC/VERIFICATION/Monitor/axi_monitor.sv(55) @ 7415000: uvm_test_top.env.agent.monitor [MON_WR] Detected WRITE : Addr=1000024c Data=d5d681f0 Strb=1111 Prot=xxx BResp=00
# UVM_INFO C:/Documents/DoAnThietKeViMach/Project/SoC/VERIFICATION/Driver/axi_driver.sv(63) @ 7425000: uvm_test_top.env.agent.driver [DRV] Write Done: Addr=1000024c Data=d5d681f0 Prot=xxx
# [DRAM WRITE] addr=10000250 data=ece0ac9a
# UVM_INFO C:/Documents/DoAnThietKeViMach/Project/SoC/VERIFICATION/Monitor/axi_monitor.sv(55) @ 7465000: uvm_test_top.env.agent.monitor [MON_WR] Detected WRITE : Addr=10000250 Data=ece0ac9a Strb=1111 Prot=xxx BResp=00
# UVM_INFO C:/Documents/DoAnThietKeViMach/Project/SoC/VERIFICATION/Driver/axi_driver.sv(63) @ 7475000: uvm_test_top.env.agent.driver [DRV] Write Done: Addr=10000250 Data=ece0ac9a Prot=xxx
# [DRAM WRITE] addr=10000254 data=55c0c1b7
# UVM_INFO C:/Documents/DoAnThietKeViMach/Project/SoC/VERIFICATION/Monitor/axi_monitor.sv(55) @ 7515000: uvm_test_top.env.agent.monitor [MON_WR] Detected WRITE : Addr=10000254 Data=55c0c1b7 Strb=1111 Prot=xxx BResp=00
# UVM_INFO C:/Documents/DoAnThietKeViMach/Project/SoC/VERIFICATION/Driver/axi_driver.sv(63) @ 7525000: uvm_test_top.env.agent.driver [DRV] Write Done: Addr=10000254 Data=55c0c1b7 Prot=xxx
# [DRAM WRITE] addr=10000258 data=e905dd8c
# UVM_INFO C:/Documents/DoAnThietKeViMach/Project/SoC/VERIFICATION/Monitor/axi_monitor.sv(55) @ 7565000: uvm_test_top.env.agent.monitor [MON_WR] Detected WRITE : Addr=10000258 Data=e905dd8c Strb=1111 Prot=xxx BResp=00
# UVM_INFO C:/Documents/DoAnThietKeViMach/Project/SoC/VERIFICATION/Driver/axi_driver.sv(63) @ 7575000: uvm_test_top.env.agent.driver [DRV] Write Done: Addr=10000258 Data=e905dd8c Prot=xxx
# [DRAM WRITE] addr=1000025c data=d6b06225
# UVM_INFO C:/Documents/DoAnThietKeViMach/Project/SoC/VERIFICATION/Monitor/axi_monitor.sv(55) @ 7615000: uvm_test_top.env.agent.monitor [MON_WR] Detected WRITE : Addr=1000025c Data=d6b06225 Strb=1111 Prot=xxx BResp=00
# UVM_INFO C:/Documents/DoAnThietKeViMach/Project/SoC/VERIFICATION/Driver/axi_driver.sv(63) @ 7625000: uvm_test_top.env.agent.driver [DRV] Write Done: Addr=1000025c Data=d6b06225 Prot=xxx
# [DRAM WRITE] addr=10000260 data=df492429
# UVM_INFO C:/Documents/DoAnThietKeViMach/Project/SoC/VERIFICATION/Monitor/axi_monitor.sv(55) @ 7665000: uvm_test_top.env.agent.monitor [MON_WR] Detected WRITE : Addr=10000260 Data=df492429 Strb=1111 Prot=xxx BResp=00
# UVM_INFO C:/Documents/DoAnThietKeViMach/Project/SoC/VERIFICATION/Driver/axi_driver.sv(63) @ 7675000: uvm_test_top.env.agent.driver [DRV] Write Done: Addr=10000260 Data=df492429 Prot=xxx
# [DRAM WRITE] addr=10000264 data=83a056d7
# UVM_INFO C:/Documents/DoAnThietKeViMach/Project/SoC/VERIFICATION/Monitor/axi_monitor.sv(55) @ 7715000: uvm_test_top.env.agent.monitor [MON_WR] Detected WRITE : Addr=10000264 Data=83a056d7 Strb=1111 Prot=xxx BResp=00
# UVM_INFO C:/Documents/DoAnThietKeViMach/Project/SoC/VERIFICATION/Driver/axi_driver.sv(63) @ 7725000: uvm_test_top.env.agent.driver [DRV] Write Done: Addr=10000264 Data=83a056d7 Prot=xxx
# [DRAM WRITE] addr=10000268 data=cb4a23af
# UVM_INFO C:/Documents/DoAnThietKeViMach/Project/SoC/VERIFICATION/Monitor/axi_monitor.sv(55) @ 7765000: uvm_test_top.env.agent.monitor [MON_WR] Detected WRITE : Addr=10000268 Data=cb4a23af Strb=1111 Prot=xxx BResp=00
# UVM_INFO C:/Documents/DoAnThietKeViMach/Project/SoC/VERIFICATION/Driver/axi_driver.sv(63) @ 7775000: uvm_test_top.env.agent.driver [DRV] Write Done: Addr=10000268 Data=cb4a23af Prot=xxx
# [DRAM WRITE] addr=1000026c data=917c2002
# UVM_INFO C:/Documents/DoAnThietKeViMach/Project/SoC/VERIFICATION/Monitor/axi_monitor.sv(55) @ 7815000: uvm_test_top.env.agent.monitor [MON_WR] Detected WRITE : Addr=1000026c Data=917c2002 Strb=1111 Prot=xxx BResp=00
# UVM_INFO C:/Documents/DoAnThietKeViMach/Project/SoC/VERIFICATION/Driver/axi_driver.sv(63) @ 7825000: uvm_test_top.env.agent.driver [DRV] Write Done: Addr=1000026c Data=917c2002 Prot=xxx
# [DRAM WRITE] addr=10000270 data=49f8c0ba
# UVM_INFO C:/Documents/DoAnThietKeViMach/Project/SoC/VERIFICATION/Monitor/axi_monitor.sv(55) @ 7865000: uvm_test_top.env.agent.monitor [MON_WR] Detected WRITE : Addr=10000270 Data=49f8c0ba Strb=1111 Prot=xxx BResp=00
# UVM_INFO C:/Documents/DoAnThietKeViMach/Project/SoC/VERIFICATION/Driver/axi_driver.sv(63) @ 7875000: uvm_test_top.env.agent.driver [DRV] Write Done: Addr=10000270 Data=49f8c0ba Prot=xxx
# [DRAM WRITE] addr=10000274 data=6bf02b7a
# UVM_INFO C:/Documents/DoAnThietKeViMach/Project/SoC/VERIFICATION/Monitor/axi_monitor.sv(55) @ 7915000: uvm_test_top.env.agent.monitor [MON_WR] Detected WRITE : Addr=10000274 Data=6bf02b7a Strb=1111 Prot=xxx BResp=00
# UVM_INFO C:/Documents/DoAnThietKeViMach/Project/SoC/VERIFICATION/Driver/axi_driver.sv(63) @ 7925000: uvm_test_top.env.agent.driver [DRV] Write Done: Addr=10000274 Data=6bf02b7a Prot=xxx
# [DRAM WRITE] addr=10000278 data=a748959d
# UVM_INFO C:/Documents/DoAnThietKeViMach/Project/SoC/VERIFICATION/Monitor/axi_monitor.sv(55) @ 7965000: uvm_test_top.env.agent.monitor [MON_WR] Detected WRITE : Addr=10000278 Data=a748959d Strb=1111 Prot=xxx BResp=00
# UVM_INFO C:/Documents/DoAnThietKeViMach/Project/SoC/VERIFICATION/Driver/axi_driver.sv(63) @ 7975000: uvm_test_top.env.agent.driver [DRV] Write Done: Addr=10000278 Data=a748959d Prot=xxx
# [DRAM WRITE] addr=1000027c data=b86ad4f4
# UVM_INFO C:/Documents/DoAnThietKeViMach/Project/SoC/VERIFICATION/Monitor/axi_monitor.sv(55) @ 8015000: uvm_test_top.env.agent.monitor [MON_WR] Detected WRITE : Addr=1000027c Data=b86ad4f4 Strb=1111 Prot=xxx BResp=00
# UVM_INFO C:/Documents/DoAnThietKeViMach/Project/SoC/VERIFICATION/Driver/axi_driver.sv(63) @ 8025000: uvm_test_top.env.agent.driver [DRV] Write Done: Addr=1000027c Data=b86ad4f4 Prot=xxx
# [DRAM WRITE] addr=10000280 data=f09e5efd
# UVM_INFO C:/Documents/DoAnThietKeViMach/Project/SoC/VERIFICATION/Monitor/axi_monitor.sv(55) @ 8065000: uvm_test_top.env.agent.monitor [MON_WR] Detected WRITE : Addr=10000280 Data=f09e5efd Strb=1111 Prot=xxx BResp=00
# UVM_INFO C:/Documents/DoAnThietKeViMach/Project/SoC/VERIFICATION/Driver/axi_driver.sv(63) @ 8075000: uvm_test_top.env.agent.driver [DRV] Write Done: Addr=10000280 Data=f09e5efd Prot=xxx
# [DRAM WRITE] addr=10000284 data=4bdb8140
# UVM_INFO C:/Documents/DoAnThietKeViMach/Project/SoC/VERIFICATION/Monitor/axi_monitor.sv(55) @ 8115000: uvm_test_top.env.agent.monitor [MON_WR] Detected WRITE : Addr=10000284 Data=4bdb8140 Strb=1111 Prot=xxx BResp=00
# UVM_INFO C:/Documents/DoAnThietKeViMach/Project/SoC/VERIFICATION/Driver/axi_driver.sv(63) @ 8125000: uvm_test_top.env.agent.driver [DRV] Write Done: Addr=10000284 Data=4bdb8140 Prot=xxx
# [DRAM WRITE] addr=10000288 data=541aa3fe
# UVM_INFO C:/Documents/DoAnThietKeViMach/Project/SoC/VERIFICATION/Monitor/axi_monitor.sv(55) @ 8165000: uvm_test_top.env.agent.monitor [MON_WR] Detected WRITE : Addr=10000288 Data=541aa3fe Strb=1111 Prot=xxx BResp=00
# UVM_INFO C:/Documents/DoAnThietKeViMach/Project/SoC/VERIFICATION/Driver/axi_driver.sv(63) @ 8175000: uvm_test_top.env.agent.driver [DRV] Write Done: Addr=10000288 Data=541aa3fe Prot=xxx
# [DRAM WRITE] addr=1000028c data=3831c5ac
# UVM_INFO C:/Documents/DoAnThietKeViMach/Project/SoC/VERIFICATION/Monitor/axi_monitor.sv(55) @ 8215000: uvm_test_top.env.agent.monitor [MON_WR] Detected WRITE : Addr=1000028c Data=3831c5ac Strb=1111 Prot=xxx BResp=00
# UVM_INFO C:/Documents/DoAnThietKeViMach/Project/SoC/VERIFICATION/Driver/axi_driver.sv(63) @ 8225000: uvm_test_top.env.agent.driver [DRV] Write Done: Addr=1000028c Data=3831c5ac Prot=xxx
# [DRAM WRITE] addr=10000290 data=d74f15d1
# UVM_INFO C:/Documents/DoAnThietKeViMach/Project/SoC/VERIFICATION/Monitor/axi_monitor.sv(55) @ 8265000: uvm_test_top.env.agent.monitor [MON_WR] Detected WRITE : Addr=10000290 Data=d74f15d1 Strb=1111 Prot=xxx BResp=00
# UVM_INFO C:/Documents/DoAnThietKeViMach/Project/SoC/VERIFICATION/Driver/axi_driver.sv(63) @ 8275000: uvm_test_top.env.agent.driver [DRV] Write Done: Addr=10000290 Data=d74f15d1 Prot=xxx
# [DRAM WRITE] addr=10000294 data=ba244826
# UVM_INFO C:/Documents/DoAnThietKeViMach/Project/SoC/VERIFICATION/Monitor/axi_monitor.sv(55) @ 8315000: uvm_test_top.env.agent.monitor [MON_WR] Detected WRITE : Addr=10000294 Data=ba244826 Strb=1111 Prot=xxx BResp=00
# UVM_INFO C:/Documents/DoAnThietKeViMach/Project/SoC/VERIFICATION/Driver/axi_driver.sv(63) @ 8325000: uvm_test_top.env.agent.driver [DRV] Write Done: Addr=10000294 Data=ba244826 Prot=xxx
# [DRAM WRITE] addr=10000298 data=dac0009b
# UVM_INFO C:/Documents/DoAnThietKeViMach/Project/SoC/VERIFICATION/Monitor/axi_monitor.sv(55) @ 8365000: uvm_test_top.env.agent.monitor [MON_WR] Detected WRITE : Addr=10000298 Data=dac0009b Strb=1111 Prot=xxx BResp=00
# UVM_INFO C:/Documents/DoAnThietKeViMach/Project/SoC/VERIFICATION/Driver/axi_driver.sv(63) @ 8375000: uvm_test_top.env.agent.driver [DRV] Write Done: Addr=10000298 Data=dac0009b Prot=xxx
# [DRAM WRITE] addr=1000029c data=fa805a12
# UVM_INFO C:/Documents/DoAnThietKeViMach/Project/SoC/VERIFICATION/Monitor/axi_monitor.sv(55) @ 8415000: uvm_test_top.env.agent.monitor [MON_WR] Detected WRITE : Addr=1000029c Data=fa805a12 Strb=1111 Prot=xxx BResp=00
# UVM_INFO C:/Documents/DoAnThietKeViMach/Project/SoC/VERIFICATION/Driver/axi_driver.sv(63) @ 8425000: uvm_test_top.env.agent.driver [DRV] Write Done: Addr=1000029c Data=fa805a12 Prot=xxx
# [DRAM WRITE] addr=100002a0 data=bb11c5e6
# UVM_INFO C:/Documents/DoAnThietKeViMach/Project/SoC/VERIFICATION/Monitor/axi_monitor.sv(55) @ 8465000: uvm_test_top.env.agent.monitor [MON_WR] Detected WRITE : Addr=100002a0 Data=bb11c5e6 Strb=1111 Prot=xxx BResp=00
# UVM_INFO C:/Documents/DoAnThietKeViMach/Project/SoC/VERIFICATION/Driver/axi_driver.sv(63) @ 8475000: uvm_test_top.env.agent.driver [DRV] Write Done: Addr=100002a0 Data=bb11c5e6 Prot=xxx
# [DRAM WRITE] addr=100002a4 data=08723f1e
# UVM_INFO C:/Documents/DoAnThietKeViMach/Project/SoC/VERIFICATION/Monitor/axi_monitor.sv(55) @ 8515000: uvm_test_top.env.agent.monitor [MON_WR] Detected WRITE : Addr=100002a4 Data=08723f1e Strb=1111 Prot=xxx BResp=00
# UVM_INFO C:/Documents/DoAnThietKeViMach/Project/SoC/VERIFICATION/Driver/axi_driver.sv(63) @ 8525000: uvm_test_top.env.agent.driver [DRV] Write Done: Addr=100002a4 Data=08723f1e Prot=xxx
# [DRAM WRITE] addr=100002a8 data=2c1c9e08
# UVM_INFO C:/Documents/DoAnThietKeViMach/Project/SoC/VERIFICATION/Monitor/axi_monitor.sv(55) @ 8565000: uvm_test_top.env.agent.monitor [MON_WR] Detected WRITE : Addr=100002a8 Data=2c1c9e08 Strb=1111 Prot=xxx BResp=00
# UVM_INFO C:/Documents/DoAnThietKeViMach/Project/SoC/VERIFICATION/Driver/axi_driver.sv(63) @ 8575000: uvm_test_top.env.agent.driver [DRV] Write Done: Addr=100002a8 Data=2c1c9e08 Prot=xxx
# [DRAM WRITE] addr=100002ac data=ba9a8eb8
# UVM_INFO C:/Documents/DoAnThietKeViMach/Project/SoC/VERIFICATION/Monitor/axi_monitor.sv(55) @ 8615000: uvm_test_top.env.agent.monitor [MON_WR] Detected WRITE : Addr=100002ac Data=ba9a8eb8 Strb=1111 Prot=xxx BResp=00
# UVM_INFO C:/Documents/DoAnThietKeViMach/Project/SoC/VERIFICATION/Driver/axi_driver.sv(63) @ 8625000: uvm_test_top.env.agent.driver [DRV] Write Done: Addr=100002ac Data=ba9a8eb8 Prot=xxx
# [DRAM WRITE] addr=100002b0 data=321a6e1a
# UVM_INFO C:/Documents/DoAnThietKeViMach/Project/SoC/VERIFICATION/Monitor/axi_monitor.sv(55) @ 8665000: uvm_test_top.env.agent.monitor [MON_WR] Detected WRITE : Addr=100002b0 Data=321a6e1a Strb=1111 Prot=xxx BResp=00
# UVM_INFO C:/Documents/DoAnThietKeViMach/Project/SoC/VERIFICATION/Driver/axi_driver.sv(63) @ 8675000: uvm_test_top.env.agent.driver [DRV] Write Done: Addr=100002b0 Data=321a6e1a Prot=xxx
# [DRAM WRITE] addr=100002b4 data=2b0348f4
# UVM_INFO C:/Documents/DoAnThietKeViMach/Project/SoC/VERIFICATION/Monitor/axi_monitor.sv(55) @ 8715000: uvm_test_top.env.agent.monitor [MON_WR] Detected WRITE : Addr=100002b4 Data=2b0348f4 Strb=1111 Prot=xxx BResp=00
# UVM_INFO C:/Documents/DoAnThietKeViMach/Project/SoC/VERIFICATION/Driver/axi_driver.sv(63) @ 8725000: uvm_test_top.env.agent.driver [DRV] Write Done: Addr=100002b4 Data=2b0348f4 Prot=xxx
# [DRAM WRITE] addr=100002b8 data=6cd3e889
# UVM_INFO C:/Documents/DoAnThietKeViMach/Project/SoC/VERIFICATION/Monitor/axi_monitor.sv(55) @ 8765000: uvm_test_top.env.agent.monitor [MON_WR] Detected WRITE : Addr=100002b8 Data=6cd3e889 Strb=1111 Prot=xxx BResp=00
# UVM_INFO C:/Documents/DoAnThietKeViMach/Project/SoC/VERIFICATION/Driver/axi_driver.sv(63) @ 8775000: uvm_test_top.env.agent.driver [DRV] Write Done: Addr=100002b8 Data=6cd3e889 Prot=xxx
# [DRAM WRITE] addr=100002bc data=db2bb5b1
# UVM_INFO C:/Documents/DoAnThietKeViMach/Project/SoC/VERIFICATION/Monitor/axi_monitor.sv(55) @ 8815000: uvm_test_top.env.agent.monitor [MON_WR] Detected WRITE : Addr=100002bc Data=db2bb5b1 Strb=1111 Prot=xxx BResp=00
# UVM_INFO C:/Documents/DoAnThietKeViMach/Project/SoC/VERIFICATION/Driver/axi_driver.sv(63) @ 8825000: uvm_test_top.env.agent.driver [DRV] Write Done: Addr=100002bc Data=db2bb5b1 Prot=xxx
# [DRAM WRITE] addr=100002c0 data=5e78d410
# UVM_INFO C:/Documents/DoAnThietKeViMach/Project/SoC/VERIFICATION/Monitor/axi_monitor.sv(55) @ 8865000: uvm_test_top.env.agent.monitor [MON_WR] Detected WRITE : Addr=100002c0 Data=5e78d410 Strb=1111 Prot=xxx BResp=00
# UVM_INFO C:/Documents/DoAnThietKeViMach/Project/SoC/VERIFICATION/Driver/axi_driver.sv(63) @ 8875000: uvm_test_top.env.agent.driver [DRV] Write Done: Addr=100002c0 Data=5e78d410 Prot=xxx
# [DRAM WRITE] addr=100002c4 data=a2a8f799
# UVM_INFO C:/Documents/DoAnThietKeViMach/Project/SoC/VERIFICATION/Monitor/axi_monitor.sv(55) @ 8915000: uvm_test_top.env.agent.monitor [MON_WR] Detected WRITE : Addr=100002c4 Data=a2a8f799 Strb=1111 Prot=xxx BResp=00
# UVM_INFO C:/Documents/DoAnThietKeViMach/Project/SoC/VERIFICATION/Driver/axi_driver.sv(63) @ 8925000: uvm_test_top.env.agent.driver [DRV] Write Done: Addr=100002c4 Data=a2a8f799 Prot=xxx
# [DRAM WRITE] addr=100002c8 data=d096e175
# UVM_INFO C:/Documents/DoAnThietKeViMach/Project/SoC/VERIFICATION/Monitor/axi_monitor.sv(55) @ 8965000: uvm_test_top.env.agent.monitor [MON_WR] Detected WRITE : Addr=100002c8 Data=d096e175 Strb=1111 Prot=xxx BResp=00
# UVM_INFO C:/Documents/DoAnThietKeViMach/Project/SoC/VERIFICATION/Driver/axi_driver.sv(63) @ 8975000: uvm_test_top.env.agent.driver [DRV] Write Done: Addr=100002c8 Data=d096e175 Prot=xxx
# [DRAM WRITE] addr=100002cc data=dfeeb57f
# UVM_INFO C:/Documents/DoAnThietKeViMach/Project/SoC/VERIFICATION/Monitor/axi_monitor.sv(55) @ 9015000: uvm_test_top.env.agent.monitor [MON_WR] Detected WRITE : Addr=100002cc Data=dfeeb57f Strb=1111 Prot=xxx BResp=00
# UVM_INFO C:/Documents/DoAnThietKeViMach/Project/SoC/VERIFICATION/Driver/axi_driver.sv(63) @ 9025000: uvm_test_top.env.agent.driver [DRV] Write Done: Addr=100002cc Data=dfeeb57f Prot=xxx
# [DRAM WRITE] addr=100002d0 data=bb51f13d
# UVM_INFO C:/Documents/DoAnThietKeViMach/Project/SoC/VERIFICATION/Monitor/axi_monitor.sv(55) @ 9065000: uvm_test_top.env.agent.monitor [MON_WR] Detected WRITE : Addr=100002d0 Data=bb51f13d Strb=1111 Prot=xxx BResp=00
# UVM_INFO C:/Documents/DoAnThietKeViMach/Project/SoC/VERIFICATION/Driver/axi_driver.sv(63) @ 9075000: uvm_test_top.env.agent.driver [DRV] Write Done: Addr=100002d0 Data=bb51f13d Prot=xxx
# [DRAM WRITE] addr=100002d4 data=9beea450
# UVM_INFO C:/Documents/DoAnThietKeViMach/Project/SoC/VERIFICATION/Monitor/axi_monitor.sv(55) @ 9115000: uvm_test_top.env.agent.monitor [MON_WR] Detected WRITE : Addr=100002d4 Data=9beea450 Strb=1111 Prot=xxx BResp=00
# UVM_INFO C:/Documents/DoAnThietKeViMach/Project/SoC/VERIFICATION/Driver/axi_driver.sv(63) @ 9125000: uvm_test_top.env.agent.driver [DRV] Write Done: Addr=100002d4 Data=9beea450 Prot=xxx
# [DRAM WRITE] addr=100002d8 data=3267af90
# UVM_INFO C:/Documents/DoAnThietKeViMach/Project/SoC/VERIFICATION/Monitor/axi_monitor.sv(55) @ 9165000: uvm_test_top.env.agent.monitor [MON_WR] Detected WRITE : Addr=100002d8 Data=3267af90 Strb=1111 Prot=xxx BResp=00
# UVM_INFO C:/Documents/DoAnThietKeViMach/Project/SoC/VERIFICATION/Driver/axi_driver.sv(63) @ 9175000: uvm_test_top.env.agent.driver [DRV] Write Done: Addr=100002d8 Data=3267af90 Prot=xxx
# [DRAM WRITE] addr=100002dc data=1621d243
# UVM_INFO C:/Documents/DoAnThietKeViMach/Project/SoC/VERIFICATION/Monitor/axi_monitor.sv(55) @ 9215000: uvm_test_top.env.agent.monitor [MON_WR] Detected WRITE : Addr=100002dc Data=1621d243 Strb=1111 Prot=xxx BResp=00
# UVM_INFO C:/Documents/DoAnThietKeViMach/Project/SoC/VERIFICATION/Driver/axi_driver.sv(63) @ 9225000: uvm_test_top.env.agent.driver [DRV] Write Done: Addr=100002dc Data=1621d243 Prot=xxx
# [DRAM WRITE] addr=100002e0 data=8a623d79
# UVM_INFO C:/Documents/DoAnThietKeViMach/Project/SoC/VERIFICATION/Monitor/axi_monitor.sv(55) @ 9265000: uvm_test_top.env.agent.monitor [MON_WR] Detected WRITE : Addr=100002e0 Data=8a623d79 Strb=1111 Prot=xxx BResp=00
# UVM_INFO C:/Documents/DoAnThietKeViMach/Project/SoC/VERIFICATION/Driver/axi_driver.sv(63) @ 9275000: uvm_test_top.env.agent.driver [DRV] Write Done: Addr=100002e0 Data=8a623d79 Prot=xxx
# [DRAM WRITE] addr=100002e4 data=da40ea47
# UVM_INFO C:/Documents/DoAnThietKeViMach/Project/SoC/VERIFICATION/Monitor/axi_monitor.sv(55) @ 9315000: uvm_test_top.env.agent.monitor [MON_WR] Detected WRITE : Addr=100002e4 Data=da40ea47 Strb=1111 Prot=xxx BResp=00
# UVM_INFO C:/Documents/DoAnThietKeViMach/Project/SoC/VERIFICATION/Driver/axi_driver.sv(63) @ 9325000: uvm_test_top.env.agent.driver [DRV] Write Done: Addr=100002e4 Data=da40ea47 Prot=xxx
# [DRAM WRITE] addr=100002e8 data=71967a37
# UVM_INFO C:/Documents/DoAnThietKeViMach/Project/SoC/VERIFICATION/Monitor/axi_monitor.sv(55) @ 9365000: uvm_test_top.env.agent.monitor [MON_WR] Detected WRITE : Addr=100002e8 Data=71967a37 Strb=1111 Prot=xxx BResp=00
# UVM_INFO C:/Documents/DoAnThietKeViMach/Project/SoC/VERIFICATION/Driver/axi_driver.sv(63) @ 9375000: uvm_test_top.env.agent.driver [DRV] Write Done: Addr=100002e8 Data=71967a37 Prot=xxx
# [DRAM WRITE] addr=100002ec data=1e6154b4
# UVM_INFO C:/Documents/DoAnThietKeViMach/Project/SoC/VERIFICATION/Monitor/axi_monitor.sv(55) @ 9415000: uvm_test_top.env.agent.monitor [MON_WR] Detected WRITE : Addr=100002ec Data=1e6154b4 Strb=1111 Prot=xxx BResp=00
# UVM_INFO C:/Documents/DoAnThietKeViMach/Project/SoC/VERIFICATION/Driver/axi_driver.sv(63) @ 9425000: uvm_test_top.env.agent.driver [DRV] Write Done: Addr=100002ec Data=1e6154b4 Prot=xxx
# [DRAM WRITE] addr=100002f0 data=8b24a176
# UVM_INFO C:/Documents/DoAnThietKeViMach/Project/SoC/VERIFICATION/Monitor/axi_monitor.sv(55) @ 9465000: uvm_test_top.env.agent.monitor [MON_WR] Detected WRITE : Addr=100002f0 Data=8b24a176 Strb=1111 Prot=xxx BResp=00
# UVM_INFO C:/Documents/DoAnThietKeViMach/Project/SoC/VERIFICATION/Driver/axi_driver.sv(63) @ 9475000: uvm_test_top.env.agent.driver [DRV] Write Done: Addr=100002f0 Data=8b24a176 Prot=xxx
# [DRAM WRITE] addr=100002f4 data=39ed392b
# UVM_INFO C:/Documents/DoAnThietKeViMach/Project/SoC/VERIFICATION/Monitor/axi_monitor.sv(55) @ 9515000: uvm_test_top.env.agent.monitor [MON_WR] Detected WRITE : Addr=100002f4 Data=39ed392b Strb=1111 Prot=xxx BResp=00
# UVM_INFO C:/Documents/DoAnThietKeViMach/Project/SoC/VERIFICATION/Driver/axi_driver.sv(63) @ 9525000: uvm_test_top.env.agent.driver [DRV] Write Done: Addr=100002f4 Data=39ed392b Prot=xxx
# [DRAM WRITE] addr=100002f8 data=9436e7e8
# UVM_INFO C:/Documents/DoAnThietKeViMach/Project/SoC/VERIFICATION/Monitor/axi_monitor.sv(55) @ 9565000: uvm_test_top.env.agent.monitor [MON_WR] Detected WRITE : Addr=100002f8 Data=9436e7e8 Strb=1111 Prot=xxx BResp=00
# UVM_INFO C:/Documents/DoAnThietKeViMach/Project/SoC/VERIFICATION/Driver/axi_driver.sv(63) @ 9575000: uvm_test_top.env.agent.driver [DRV] Write Done: Addr=100002f8 Data=9436e7e8 Prot=xxx
# [DRAM WRITE] addr=100002fc data=1425bed3
# UVM_INFO C:/Documents/DoAnThietKeViMach/Project/SoC/VERIFICATION/Monitor/axi_monitor.sv(55) @ 9615000: uvm_test_top.env.agent.monitor [MON_WR] Detected WRITE : Addr=100002fc Data=1425bed3 Strb=1111 Prot=xxx BResp=00
# UVM_INFO C:/Documents/DoAnThietKeViMach/Project/SoC/VERIFICATION/Driver/axi_driver.sv(63) @ 9625000: uvm_test_top.env.agent.driver [DRV] Write Done: Addr=100002fc Data=1425bed3 Prot=xxx
# [DRAM WRITE] addr=10000300 data=24a17e52
# UVM_INFO C:/Documents/DoAnThietKeViMach/Project/SoC/VERIFICATION/Monitor/axi_monitor.sv(55) @ 9665000: uvm_test_top.env.agent.monitor [MON_WR] Detected WRITE : Addr=10000300 Data=24a17e52 Strb=1111 Prot=xxx BResp=00
# UVM_INFO C:/Documents/DoAnThietKeViMach/Project/SoC/VERIFICATION/Driver/axi_driver.sv(63) @ 9675000: uvm_test_top.env.agent.driver [DRV] Write Done: Addr=10000300 Data=24a17e52 Prot=xxx
# [DRAM WRITE] addr=10000304 data=c63415dd
# UVM_INFO C:/Documents/DoAnThietKeViMach/Project/SoC/VERIFICATION/Monitor/axi_monitor.sv(55) @ 9715000: uvm_test_top.env.agent.monitor [MON_WR] Detected WRITE : Addr=10000304 Data=c63415dd Strb=1111 Prot=xxx BResp=00
# UVM_INFO C:/Documents/DoAnThietKeViMach/Project/SoC/VERIFICATION/Driver/axi_driver.sv(63) @ 9725000: uvm_test_top.env.agent.driver [DRV] Write Done: Addr=10000304 Data=c63415dd Prot=xxx
# [DRAM WRITE] addr=10000308 data=128ec7d8
# UVM_INFO C:/Documents/DoAnThietKeViMach/Project/SoC/VERIFICATION/Monitor/axi_monitor.sv(55) @ 9765000: uvm_test_top.env.agent.monitor [MON_WR] Detected WRITE : Addr=10000308 Data=128ec7d8 Strb=1111 Prot=xxx BResp=00
# UVM_INFO C:/Documents/DoAnThietKeViMach/Project/SoC/VERIFICATION/Driver/axi_driver.sv(63) @ 9775000: uvm_test_top.env.agent.driver [DRV] Write Done: Addr=10000308 Data=128ec7d8 Prot=xxx
# [DRAM WRITE] addr=1000030c data=82b4d10b
# UVM_INFO C:/Documents/DoAnThietKeViMach/Project/SoC/VERIFICATION/Monitor/axi_monitor.sv(55) @ 9815000: uvm_test_top.env.agent.monitor [MON_WR] Detected WRITE : Addr=1000030c Data=82b4d10b Strb=1111 Prot=xxx BResp=00
# UVM_INFO C:/Documents/DoAnThietKeViMach/Project/SoC/VERIFICATION/Driver/axi_driver.sv(63) @ 9825000: uvm_test_top.env.agent.driver [DRV] Write Done: Addr=1000030c Data=82b4d10b Prot=xxx
# [DRAM WRITE] addr=10000310 data=67cb0c05
# UVM_INFO C:/Documents/DoAnThietKeViMach/Project/SoC/VERIFICATION/Monitor/axi_monitor.sv(55) @ 9865000: uvm_test_top.env.agent.monitor [MON_WR] Detected WRITE : Addr=10000310 Data=67cb0c05 Strb=1111 Prot=xxx BResp=00
# UVM_INFO C:/Documents/DoAnThietKeViMach/Project/SoC/VERIFICATION/Driver/axi_driver.sv(63) @ 9875000: uvm_test_top.env.agent.driver [DRV] Write Done: Addr=10000310 Data=67cb0c05 Prot=xxx
# [DRAM WRITE] addr=10000314 data=33c5edba
# UVM_INFO C:/Documents/DoAnThietKeViMach/Project/SoC/VERIFICATION/Monitor/axi_monitor.sv(55) @ 9915000: uvm_test_top.env.agent.monitor [MON_WR] Detected WRITE : Addr=10000314 Data=33c5edba Strb=1111 Prot=xxx BResp=00
# UVM_INFO C:/Documents/DoAnThietKeViMach/Project/SoC/VERIFICATION/Driver/axi_driver.sv(63) @ 9925000: uvm_test_top.env.agent.driver [DRV] Write Done: Addr=10000314 Data=33c5edba Prot=xxx
# [DRAM WRITE] addr=10000318 data=474a8071
# UVM_INFO C:/Documents/DoAnThietKeViMach/Project/SoC/VERIFICATION/Monitor/axi_monitor.sv(55) @ 9965000: uvm_test_top.env.agent.monitor [MON_WR] Detected WRITE : Addr=10000318 Data=474a8071 Strb=1111 Prot=xxx BResp=00
# UVM_INFO C:/Documents/DoAnThietKeViMach/Project/SoC/VERIFICATION/Driver/axi_driver.sv(63) @ 9975000: uvm_test_top.env.agent.driver [DRV] Write Done: Addr=10000318 Data=474a8071 Prot=xxx
# [DRAM WRITE] addr=1000031c data=bad6d189
# UVM_INFO C:/Documents/DoAnThietKeViMach/Project/SoC/VERIFICATION/Monitor/axi_monitor.sv(55) @ 10015000: uvm_test_top.env.agent.monitor [MON_WR] Detected WRITE : Addr=1000031c Data=bad6d189 Strb=1111 Prot=xxx BResp=00
# UVM_INFO C:/Documents/DoAnThietKeViMach/Project/SoC/VERIFICATION/Driver/axi_driver.sv(63) @ 10025000: uvm_test_top.env.agent.driver [DRV] Write Done: Addr=1000031c Data=bad6d189 Prot=xxx
# [DRAM WRITE] addr=10000320 data=cb6aba68
# UVM_INFO C:/Documents/DoAnThietKeViMach/Project/SoC/VERIFICATION/Monitor/axi_monitor.sv(55) @ 10065000: uvm_test_top.env.agent.monitor [MON_WR] Detected WRITE : Addr=10000320 Data=cb6aba68 Strb=1111 Prot=xxx BResp=00
# UVM_INFO C:/Documents/DoAnThietKeViMach/Project/SoC/VERIFICATION/Driver/axi_driver.sv(63) @ 10075000: uvm_test_top.env.agent.driver [DRV] Write Done: Addr=10000320 Data=cb6aba68 Prot=xxx
# [DRAM WRITE] addr=10000324 data=323f8064
# UVM_INFO C:/Documents/DoAnThietKeViMach/Project/SoC/VERIFICATION/Monitor/axi_monitor.sv(55) @ 10115000: uvm_test_top.env.agent.monitor [MON_WR] Detected WRITE : Addr=10000324 Data=323f8064 Strb=1111 Prot=xxx BResp=00
# UVM_INFO C:/Documents/DoAnThietKeViMach/Project/SoC/VERIFICATION/Driver/axi_driver.sv(63) @ 10125000: uvm_test_top.env.agent.driver [DRV] Write Done: Addr=10000324 Data=323f8064 Prot=xxx
# [DRAM WRITE] addr=10000328 data=4c387070
# UVM_INFO C:/Documents/DoAnThietKeViMach/Project/SoC/VERIFICATION/Monitor/axi_monitor.sv(55) @ 10165000: uvm_test_top.env.agent.monitor [MON_WR] Detected WRITE : Addr=10000328 Data=4c387070 Strb=1111 Prot=xxx BResp=00
# UVM_INFO C:/Documents/DoAnThietKeViMach/Project/SoC/VERIFICATION/Driver/axi_driver.sv(63) @ 10175000: uvm_test_top.env.agent.driver [DRV] Write Done: Addr=10000328 Data=4c387070 Prot=xxx
# [DRAM WRITE] addr=1000032c data=4edc8bc5
# UVM_INFO C:/Documents/DoAnThietKeViMach/Project/SoC/VERIFICATION/Monitor/axi_monitor.sv(55) @ 10215000: uvm_test_top.env.agent.monitor [MON_WR] Detected WRITE : Addr=1000032c Data=4edc8bc5 Strb=1111 Prot=xxx BResp=00
# UVM_INFO C:/Documents/DoAnThietKeViMach/Project/SoC/VERIFICATION/Driver/axi_driver.sv(63) @ 10225000: uvm_test_top.env.agent.driver [DRV] Write Done: Addr=1000032c Data=4edc8bc5 Prot=xxx
# [DRAM WRITE] addr=10000330 data=eed13cf8
# UVM_INFO C:/Documents/DoAnThietKeViMach/Project/SoC/VERIFICATION/Monitor/axi_monitor.sv(55) @ 10265000: uvm_test_top.env.agent.monitor [MON_WR] Detected WRITE : Addr=10000330 Data=eed13cf8 Strb=1111 Prot=xxx BResp=00
# UVM_INFO C:/Documents/DoAnThietKeViMach/Project/SoC/VERIFICATION/Driver/axi_driver.sv(63) @ 10275000: uvm_test_top.env.agent.driver [DRV] Write Done: Addr=10000330 Data=eed13cf8 Prot=xxx
# [DRAM WRITE] addr=10000334 data=1a95f138
# UVM_INFO C:/Documents/DoAnThietKeViMach/Project/SoC/VERIFICATION/Monitor/axi_monitor.sv(55) @ 10315000: uvm_test_top.env.agent.monitor [MON_WR] Detected WRITE : Addr=10000334 Data=1a95f138 Strb=1111 Prot=xxx BResp=00
# UVM_INFO C:/Documents/DoAnThietKeViMach/Project/SoC/VERIFICATION/Driver/axi_driver.sv(63) @ 10325000: uvm_test_top.env.agent.driver [DRV] Write Done: Addr=10000334 Data=1a95f138 Prot=xxx
# [DRAM WRITE] addr=10000338 data=c845dd9d
