--- [SIM ONLY] cpu_test ---
MODE = CPU_MASTER
Reading C:/app/QuestaSim/tcl/vsim/pref.tcl 

# 10.2c

# vsim +UVM_TESTNAME=cpu_test +CPU_MASTER +MEM_SEED=2392557502 -coverage -do {run -all; quit} -c -sv_seed 2392557502 vopt_top 
# //  Questa Sim-64
# //  Version 10.2c Unknown Platform Jul 19 2013
# //
# //  Copyright 1991-2013 Mentor Graphics Corporation
# //  All Rights Reserved.
# //
# //  THIS WORK CONTAINS TRADE SECRET AND PROPRIETARY INFORMATION
# //  WHICH IS THE PROPERTY OF MENTOR GRAPHICS CORPORATION OR ITS
# //  LICENSORS AND IS SUBJECT TO LICENSE TERMS.
# //
# Loading sv_std.std
# Loading mtiUvm.uvm_pkg
# Loading work.soc_pkg(fast)
# Loading work.top_tb(fast)
# Loading work.clk_rst_inf(fast)
# Loading work.soc_inf(fast)
# Loading work.cpu_monitor_inf(fast)
# Loading work.TOP(fast)
# Loading work.AXI_Master(fast)
# Loading work.CPU(fast)
# Loading work.pc_reg(fast)
# Loading work.IF_ID(fast)
# Loading work.ControlUnit(fast)
# Loading work.MainDecoder(fast)
# Loading work.ALUControl(fast)
# Loading work.RegFile(fast)
# Loading work.signExtend(fast)
# Loading work.ID_EX(fast)
# Loading work.ALU(fast)
# Loading work.EX_MEM(fast)
# Loading work.MEM_WB(fast)
# Loading work.HazardUnit(fast)
# Loading work.LSU(fast)
# Loading work.AXI4_Lite_Interconnect(fast)
# Loading work.IRAM(fast)
# Loading work.DRAM(fast)
# Loading work.Timer(fast)
# Loading work.UART(fast)
# Loading work.SPI(fast)
# Loading mtiUvm.questa_uvm_pkg(fast)
# Loading C:/app/QuestaSim/uvm-1.1d\win64\uvm_dpi.dll
# run -all 
# ----------------------------------------------------------------
# UVM-1.1d
# (C) 2007-2013 Mentor Graphics Corporation
# (C) 2007-2013 Cadence Design Systems, Inc.
# (C) 2006-2013 Synopsys, Inc.
# (C) 2011-2013 Cypress Semiconductor Corp.
# ----------------------------------------------------------------
# 
#   ***********       IMPORTANT RELEASE NOTES         ************
# 
#   You are using a version of the UVM library that has been compiled
#   with `UVM_NO_DEPRECATED undefined.
#   See http://www.eda.org/svdb/view.php?id=3313 for more details.
# 
#   You are using a version of the UVM library that has been compiled
#   with `UVM_OBJECT_MUST_HAVE_CONSTRUCTOR undefined.
#   See http://www.eda.org/svdb/view.php?id=3770 for more details.
# 
#       (Specify +UVM_NO_RELNOTES to turn off this notice)
# 
# UVM_INFO verilog_src/questa_uvm_pkg-1.2/src/questa_uvm_pkg.sv(215) @ 0: reporter [Questa UVM] QUESTA_UVM-1.2.2
# UVM_INFO verilog_src/questa_uvm_pkg-1.2/src/questa_uvm_pkg.sv(217) @ 0: reporter [Questa UVM]  questa_uvm::init(+struct)
# [IRAM] Loading file: instr.mem
# [IRAM] mem[0] = 100000b7
# [IRAM] mem[1] = 20000137
# [IRAM] mem[2] = 300001b7
# [IRAM] mem[3] = 40000237
# [IRAM] mem[4] = 01c1a623
# [IRAM] mem[5] = 00400f6f
# [IRAM] mem[6] = 00012f83
# [IRAM] mem[7] = 0071a023
# [IRAM] mem[8] = 00c1ac83
# [IRAM] mem[9] = 7bc0a583
# [IRAM] mem[10] = 00c06263
# [IRAM] mem[11] = 00c1a503
# [IRAM] mem[12] = 1480a703
# [IRAM] mem[13] = 00c34733
# [IRAM] mem[14] = 00012b03
# [IRAM] mem[15] = 00812003
# [IRAM] mem[16] = fedf4e13
# [IRAM] mem[17] = 00005263
# [IRAM] mem[18] = 13f5e713
# [IRAM] mem[19] = 00812003
# [IRAM] mem[20] = 0081a003
# [IRAM] mem[21] = 00d1a023
# [IRAM] mem[22] = 00400e6f
# [IRAM] mem[23] = 004003ef
# [IRAM] mem[24] = 00000263
# [IRAM] mem[25] = 415f0d33
# [IRAM] mem[26] = 00a06263
# [IRAM] mem[27] = 2ec0a803
# [IRAM] mem[28] = 01c01263
# [IRAM] mem[29] = 00000263
# [IRAM] mem[30] = 40788933
# [IRAM] mem[31] = 00007263
# [IRAM] mem[32] = 0136db33
# [IRAM] mem[33] = 01122223
# [IRAM] mem[34] = 00c22803
# [IRAM] mem[35] = 00965ab3
# [IRAM] mem[36] = 00822003
# [IRAM] mem[37] = 01606263
# [IRAM] mem[38] = 00c22b83
# [IRAM] mem[39] = 00822003
# [IRAM] mem[40] = 32746f93
# [IRAM] mem[41] = 01301263
# [IRAM] mem[42] = 413b8f33
# [IRAM] mem[43] = 014a7cb3
# [IRAM] mem[44] = 00007263
# [IRAM] mem[45] = 00712223
# [IRAM] mem[46] = 00000263
# [IRAM] mem[47] = 01c12023
# [IRAM] mem[48] = 0040046f
# [IRAM] mem[49] = 00722023
# [IRAM] mem[50] = 41598fb3
# [IRAM] mem[51] = 0141a023
# [IRAM] mem[52] = 0041a003
# [IRAM] mem[53] = 00412f03
# [IRAM] mem[54] = 00822003
# [IRAM] mem[55] = 0040076f
# [IRAM] mem[56] = 40cad5b3
# [IRAM] mem[57] = 8c2cc793
# [IRAM] mem[58] = 01312023
# [IRAM] mem[59] = 01b68a33
# [IRAM] mem[60] = 00000263
# [IRAM] mem[61] = 01e04263
# [IRAM] mem[62] = 1200af83
# [IRAM] mem[63] = 01622223
# [IRAM] mem[64] = 00422383
# [IRAM] mem[65] = 0071a623
# [IRAM] mem[66] = 00005263
# [IRAM] mem[67] = 00a1a023
# [IRAM] mem[68] = 00c1ab03
# [IRAM] mem[69] = ebcc7d13
# [IRAM] mem[70] = 01301263
# [IRAM] mem[71] = 01522623
# [IRAM] mem[72] = 0061a623
# [IRAM] mem[73] = 18c0a283
# [IRAM] mem[74] = 1c2baa93
# [IRAM] mem[75] = 0670aa23
# [IRAM] mem[76] = 00c12223
# [IRAM] mem[77] = 0041a003
# [IRAM] mem[78] = 0137ff33
# [IRAM] mem[79] = 00412383
# [IRAM] mem[80] = 7fc0a903
# [IRAM] mem[81] = f1370f93
# [IRAM] mem[82] = 21392693
# [IRAM] mem[83] = 01e04263
# [IRAM] mem[84] = 00412503
# [IRAM] mem[85] = 0081a003
# [IRAM] mem[86] = 01d12223
# [IRAM] mem[87] = 41255633
# [IRAM] mem[88] = 979d6293
# [IRAM] mem[89] = 00a6c433
# [IRAM] mem[90] = 00000263
# [IRAM] mem[91] = 00022003
# [IRAM] mem[92] = 0141a023
# [IRAM] mem[93] = 008cf633
# [IRAM] mem[94] = 24830613
# [IRAM] mem[95] = 004006ef
# [IRAM] mem[96] = 01122223
# [IRAM] mem[97] = 00412e03
# [IRAM] mem[98] = 00005263
# [IRAM] mem[99] = 2780aa23
# [IRAM] mem[100] = 0040086f
# [IRAM] mem[101] = 00012283
# [IRAM] mem[102] = 01822023
# [IRAM] mem[103] = 00cda733
# [IRAM] mem[104] = 00007263
# [IRAM] mem[105] = 30f60293
# [IRAM] mem[106] = 5c50a623
# [IRAM] mem[107] = 00812003
# [IRAM] mem[108] = 00afd933
# [IRAM] mem[109] = 15f0ac23
# [IRAM] mem[110] = 7140aa03
# [IRAM] mem[111] = 013da533
# [IRAM] mem[112] = 16d0a423
# [IRAM] mem[113] = 01c1a623
# [IRAM] mem[114] = 00012f83
# [IRAM] mem[115] = 00000263
# [IRAM] mem[116] = 5cc0a503
# [IRAM] mem[117] = 01a01263
# [IRAM] mem[118] = 0071a623
# [IRAM] mem[119] = 01404263
# [IRAM] mem[120] = 00b01263
# [IRAM] mem[121] = 01999cb3
# [IRAM] mem[122] = 00007263
# [IRAM] mem[123] = 00005263
# [IRAM] mem[124] = 00412503
# [IRAM] mem[125] = 00005263
# [IRAM] mem[126] = 0131a623
# [IRAM] mem[127] = 415b8f33
# [IRAM] mem[128] = 00412783
# [IRAM] mem[129] = 00c1a403
# [IRAM] mem[130] = 5180ae23
# [IRAM] mem[131] = 01c22623
# [IRAM] mem[132] = 00c1a903
# [IRAM] mem[133] = 405889b3
# [IRAM] mem[134] = 01c78b33
# [IRAM] mem[135] = 00801263
# [IRAM] mem[136] = 00c22683
# [IRAM] mem[137] = 00400b6f
# [IRAM] mem[138] = 00422e83
# [IRAM] mem[139] = 00d12223
# [IRAM] mem[140] = 0081a003
# [IRAM] mem[141] = 3b20ac23
# [IRAM] mem[142] = 01f22023
# [IRAM] mem[143] = 01612023
# [IRAM] mem[144] = 41c5dfb3
# [IRAM] mem[145] = 00812023
# [IRAM] mem[146] = 01106263
# [IRAM] mem[147] = 01401263
# [IRAM] mem[148] = 2ec0a703
# [IRAM] mem[149] = 41150eb3
# [IRAM] mem[150] = 00812003
# [IRAM] mem[151] = 0041a003
# [IRAM] mem[152] = 85af6293
# [IRAM] mem[153] = 00a04263
# [IRAM] mem[154] = 2086aa13
# [IRAM] mem[155] = 3a60aa23
# [IRAM] mem[156] = 01604263
# [IRAM] mem[157] = 0081a003
# [IRAM] mem[158] = 018ad2b3
# [IRAM] mem[159] = 5c40aa03
# [IRAM] mem[160] = 00007263
# [IRAM] mem[161] = 23274d13
# [IRAM] mem[162] = 0041a003
# [IRAM] mem[163] = 00a04263
# [IRAM] mem[164] = 01412223
# [IRAM] mem[165] = 01f12023
# [IRAM] mem[166] = 00af47b3
# [IRAM] mem[167] = 00e06263
# [IRAM] mem[168] = 00aa0d33
# [IRAM] mem[169] = 0111a023
# [IRAM] mem[170] = 00007263
# [IRAM] mem[171] = 00007263
# [IRAM] mem[172] = 00422883
# [IRAM] mem[173] = 00000263
# [IRAM] mem[174] = 2dc0ae03
# [IRAM] mem[175] = 0081a003
# [IRAM] mem[176] = 0041a003
# [IRAM] mem[177] = 00c1ae03
# [IRAM] mem[178] = 4e80a883
# [IRAM] mem[179] = 00012283
# [IRAM] mem[180] = 00012603
# [IRAM] mem[181] = 017cd7b3
# [IRAM] mem[182] = 00005263
# [IRAM] mem[183] = 41ffde33
# [IRAM] mem[184] = 01536833
# [IRAM] mem[185] = 00a22623
# [IRAM] mem[186] = 00812003
# [IRAM] mem[187] = 0081a003
# [IRAM] mem[188] = 00812003
# [IRAM] mem[189] = 01604263
# [IRAM] mem[190] = 01f994b3
# [IRAM] mem[191] = 689d8a93
# [IRAM] mem[192] = 01d06263
# [IRAM] mem[193] = 00022003
# [IRAM] mem[194] = 00a31e33
# [IRAM] mem[195] = 08e0a223
# [IRAM] mem[196] = 0041a003
# [IRAM] mem[197] = 01e12023
# [IRAM] mem[198] = 01264733
# [IRAM] mem[199] = 01f12223
# [IRAM] Loaded 200 instruction words
# [TB] Mode: CPU MASTER â?? CPU drives AXI, UVM observes
# UVM_INFO @ 0: reporter [RNTST] Running test cpu_test...
# UVM_INFO C:/Documents/DoAnThietKeViMach/Project/SoC/VERIFICATION/Scoreboard/cpu_scoreboard.sv(175) @ 0: uvm_test_top.env.scoreboard [SCB] Loaded expected registers from: expected.mem
# UVM_INFO C:/Documents/DoAnThietKeViMach/Project/SoC/VERIFICATION/Test/cpu_test.sv(55) @ 0: uvm_test_top [TEST] Program has 200 instructions, end PC = 00000320
# UVM_INFO C:/Documents/DoAnThietKeViMach/Project/SoC/VERIFICATION/Monitor/cpu_monitor.sv(200) @ 35000: uvm_test_top.env.agent.monitor [CPU_MON] === CPU Monitor started == watching pipeline ===
# UVM_INFO C:/Documents/DoAnThietKeViMach/Project/SoC/VERIFICATION/Monitor/cpu_monitor.sv(202) @ 35000: uvm_test_top.env.agent.monitor [CPU_MON] ============================================================
# UVM_INFO C:/Documents/DoAnThietKeViMach/Project/SoC/VERIFICATION/Test/cpu_test.sv(62) @ 55000: uvm_test_top [TEST] Reset released â?? CPU executing from IRAM
# UVM_INFO C:/Documents/DoAnThietKeViMach/Project/SoC/VERIFICATION/Monitor/cpu_monitor.sv(364) @ 55000: uvm_test_top.env.agent.monitor [AXI_RD] CPU <- IRAM  Addr=00000000 Data=100000b7 RRESP=00
# UVM_INFO C:/Documents/DoAnThietKeViMach/Project/SoC/VERIFICATION/Monitor/cpu_monitor.sv(364) @ 95000: uvm_test_top.env.agent.monitor [AXI_RD] CPU <- IRAM  Addr=00000004 Data=20000137 RRESP=00
# UVM_INFO C:/Documents/DoAnThietKeViMach/Project/SoC/VERIFICATION/Monitor/cpu_monitor.sv(234) @ 95000: uvm_test_top.env.agent.monitor [IF] PC=00000004  INSTR=20000137  [LUI  x2, 0x20000]            
# UVM_INFO C:/Documents/DoAnThietKeViMach/Project/SoC/VERIFICATION/Monitor/cpu_monitor.sv(364) @ 135000: uvm_test_top.env.agent.monitor [AXI_RD] CPU <- IRAM  Addr=00000008 Data=300001b7 RRESP=00
# UVM_INFO C:/Documents/DoAnThietKeViMach/Project/SoC/VERIFICATION/Monitor/cpu_monitor.sv(234) @ 135000: uvm_test_top.env.agent.monitor [IF] PC=00000008  INSTR=300001b7  [LUI  x3, 0x30000]            
# UVM_INFO C:/Documents/DoAnThietKeViMach/Project/SoC/VERIFICATION/Monitor/cpu_monitor.sv(364) @ 175000: uvm_test_top.env.agent.monitor [AXI_RD] CPU <- IRAM  Addr=0000000c Data=40000237 RRESP=00
# UVM_INFO C:/Documents/DoAnThietKeViMach/Project/SoC/VERIFICATION/Monitor/cpu_monitor.sv(234) @ 175000: uvm_test_top.env.agent.monitor [IF] PC=0000000c  INSTR=40000237  [LUI  x4, 0x40000]            
# UVM_INFO C:/Documents/DoAnThietKeViMach/Project/SoC/VERIFICATION/Monitor/cpu_monitor.sv(296) @ 185000: uvm_test_top.env.agent.monitor [WB] x01 <= 10000000  (PC~0000000c)
# UVM_INFO C:/Documents/DoAnThietKeViMach/Project/SoC/VERIFICATION/Monitor/cpu_monitor.sv(296) @ 195000: uvm_test_top.env.agent.monitor [WB] x01 <= 10000000  (PC~0000000c)
# UVM_INFO C:/Documents/DoAnThietKeViMach/Project/SoC/VERIFICATION/Monitor/cpu_monitor.sv(296) @ 205000: uvm_test_top.env.agent.monitor [WB] x01 <= 10000000  (PC~0000000c)
# UVM_INFO C:/Documents/DoAnThietKeViMach/Project/SoC/VERIFICATION/Monitor/cpu_monitor.sv(364) @ 215000: uvm_test_top.env.agent.monitor [AXI_RD] CPU <- IRAM  Addr=00000010 Data=01c1a623 RRESP=00
# UVM_INFO C:/Documents/DoAnThietKeViMach/Project/SoC/VERIFICATION/Monitor/cpu_monitor.sv(234) @ 215000: uvm_test_top.env.agent.monitor [IF] PC=00000010  INSTR=01c1a623  [SW   x28, 28(x3)]            
# UVM_INFO C:/Documents/DoAnThietKeViMach/Project/SoC/VERIFICATION/Monitor/cpu_monitor.sv(296) @ 215000: uvm_test_top.env.agent.monitor [WB] x01 <= 10000000  (PC~00000010)
# UVM_INFO C:/Documents/DoAnThietKeViMach/Project/SoC/VERIFICATION/Monitor/cpu_monitor.sv(296) @ 225000: uvm_test_top.env.agent.monitor [WB] x02 <= 20000000  (PC~00000010)
# UVM_INFO C:/Documents/DoAnThietKeViMach/Project/SoC/VERIFICATION/Monitor/cpu_monitor.sv(296) @ 235000: uvm_test_top.env.agent.monitor [WB] x02 <= 20000000  (PC~00000010)
# UVM_INFO C:/Documents/DoAnThietKeViMach/Project/SoC/VERIFICATION/Monitor/cpu_monitor.sv(296) @ 245000: uvm_test_top.env.agent.monitor [WB] x02 <= 20000000  (PC~00000010)
# UVM_INFO C:/Documents/DoAnThietKeViMach/Project/SoC/VERIFICATION/Monitor/cpu_monitor.sv(364) @ 255000: uvm_test_top.env.agent.monitor [AXI_RD] CPU <- IRAM  Addr=00000014 Data=00400f6f RRESP=00
# UVM_INFO C:/Documents/DoAnThietKeViMach/Project/SoC/VERIFICATION/Monitor/cpu_monitor.sv(234) @ 255000: uvm_test_top.env.agent.monitor [IF] PC=00000014  INSTR=00400f6f  [JAL  x30, ...]            
# UVM_INFO C:/Documents/DoAnThietKeViMach/Project/SoC/VERIFICATION/Monitor/cpu_monitor.sv(296) @ 255000: uvm_test_top.env.agent.monitor [WB] x02 <= 20000000  (PC~00000014)
# UVM_INFO C:/Documents/DoAnThietKeViMach/Project/SoC/VERIFICATION/Monitor/cpu_monitor.sv(296) @ 265000: uvm_test_top.env.agent.monitor [WB] x03 <= 30000000  (PC~00000014)
# UVM_INFO C:/Documents/DoAnThietKeViMach/Project/SoC/VERIFICATION/Monitor/cpu_monitor.sv(296) @ 275000: uvm_test_top.env.agent.monitor [WB] x03 <= 30000000  (PC~00000014)
# UVM_INFO C:/Documents/DoAnThietKeViMach/Project/SoC/VERIFICATION/Monitor/cpu_monitor.sv(296) @ 285000: uvm_test_top.env.agent.monitor [WB] x03 <= 30000000  (PC~00000014)
# UVM_INFO C:/Documents/DoAnThietKeViMach/Project/SoC/VERIFICATION/Monitor/cpu_monitor.sv(364) @ 295000: uvm_test_top.env.agent.monitor [AXI_RD] CPU <- IRAM  Addr=00000018 Data=00012f83 RRESP=00
# UVM_INFO C:/Documents/DoAnThietKeViMach/Project/SoC/VERIFICATION/Monitor/cpu_monitor.sv(234) @ 295000: uvm_test_top.env.agent.monitor [IF] PC=00000018  INSTR=00012f83  [LW   x31, 0(x2)]            
# UVM_INFO C:/Documents/DoAnThietKeViMach/Project/SoC/VERIFICATION/Monitor/cpu_monitor.sv(296) @ 295000: uvm_test_top.env.agent.monitor [WB] x03 <= 30000000  (PC~00000018)
# UVM_INFO C:/Documents/DoAnThietKeViMach/Project/SoC/VERIFICATION/Monitor/cpu_monitor.sv(268) @ 305000: uvm_test_top.env.agent.monitor [MEM] STORE Addr=3000000c Data=00000000
# UVM_INFO C:/Documents/DoAnThietKeViMach/Project/SoC/VERIFICATION/Monitor/cpu_monitor.sv(268) @ 315000: uvm_test_top.env.agent.monitor [MEM] STORE Addr=3000000c Data=00000000
# UVM_INFO C:/Documents/DoAnThietKeViMach/Project/SoC/VERIFICATION/Monitor/cpu_monitor.sv(268) @ 325000: uvm_test_top.env.agent.monitor [MEM] STORE Addr=3000000c Data=00000000
# UVM_INFO C:/Documents/DoAnThietKeViMach/Project/SoC/VERIFICATION/Monitor/cpu_monitor.sv(335) @ 335000: uvm_test_top.env.agent.monitor [AXI_WR] CPU -> UART  Addr=3000000c Data=00000000 Strb=1111 BRESP=00
# UVM_INFO C:/Documents/DoAnThietKeViMach/Project/SoC/VERIFICATION/Scoreboard/cpu_scoreboard.sv(246) @ 335000: uvm_test_top.env.scoreboard [SCB_PERIPH] [UART] WRITE Addr=3000000c Data=00000000
# UVM_INFO C:/Documents/DoAnThietKeViMach/Project/SoC/VERIFICATION/Monitor/cpu_monitor.sv(268) @ 335000: uvm_test_top.env.agent.monitor [MEM] STORE Addr=3000000c Data=00000000
# UVM_INFO C:/Documents/DoAnThietKeViMach/Project/SoC/VERIFICATION/Monitor/cpu_monitor.sv(296) @ 335000: uvm_test_top.env.agent.monitor [WB] x04 <= 40000000  (PC~00000018)
# UVM_INFO C:/Documents/DoAnThietKeViMach/Project/SoC/VERIFICATION/Monitor/cpu_monitor.sv(268) @ 345000: uvm_test_top.env.agent.monitor [MEM] STORE Addr=3000000c Data=00000000
# UVM_INFO C:/Documents/DoAnThietKeViMach/Project/SoC/VERIFICATION/Monitor/cpu_monitor.sv(296) @ 345000: uvm_test_top.env.agent.monitor [WB] x04 <= 40000000  (PC~00000018)
# UVM_INFO C:/Documents/DoAnThietKeViMach/Project/SoC/VERIFICATION/Monitor/cpu_monitor.sv(268) @ 355000: uvm_test_top.env.agent.monitor [MEM] STORE Addr=3000000c Data=00000000
# UVM_INFO C:/Documents/DoAnThietKeViMach/Project/SoC/VERIFICATION/Monitor/cpu_monitor.sv(296) @ 355000: uvm_test_top.env.agent.monitor [WB] x04 <= 40000000  (PC~00000018)
# UVM_INFO C:/Documents/DoAnThietKeViMach/Project/SoC/VERIFICATION/Monitor/cpu_monitor.sv(268) @ 365000: uvm_test_top.env.agent.monitor [MEM] STORE Addr=3000000c Data=00000000
# UVM_INFO C:/Documents/DoAnThietKeViMach/Project/SoC/VERIFICATION/Monitor/cpu_monitor.sv(296) @ 365000: uvm_test_top.env.agent.monitor [WB] x04 <= 40000000  (PC~00000018)
# UVM_INFO C:/Documents/DoAnThietKeViMach/Project/SoC/VERIFICATION/Monitor/cpu_monitor.sv(364) @ 375000: uvm_test_top.env.agent.monitor [AXI_RD] CPU <- IRAM  Addr=0000001c Data=0071a023 RRESP=00
# UVM_INFO C:/Documents/DoAnThietKeViMach/Project/SoC/VERIFICATION/Monitor/cpu_monitor.sv(234) @ 375000: uvm_test_top.env.agent.monitor [IF] PC=0000001c  INSTR=0071a023  [SW   x7, 7(x3)]            
# UVM_INFO C:/Documents/DoAnThietKeViMach/Project/SoC/VERIFICATION/Monitor/cpu_monitor.sv(268) @ 375000: uvm_test_top.env.agent.monitor [MEM] STORE Addr=3000000c Data=00000000
# UVM_INFO C:/Documents/DoAnThietKeViMach/Project/SoC/VERIFICATION/Monitor/cpu_monitor.sv(296) @ 375000: uvm_test_top.env.agent.monitor [WB] x04 <= 40000000  (PC~0000001c)
# UVM_INFO C:/Documents/DoAnThietKeViMach/Project/SoC/VERIFICATION/Monitor/cpu_monitor.sv(364) @ 415000: uvm_test_top.env.agent.monitor [AXI_RD] CPU <- IRAM  Addr=00000018 Data=00012f83 RRESP=00
# UVM_INFO C:/Documents/DoAnThietKeViMach/Project/SoC/VERIFICATION/Monitor/cpu_monitor.sv(234) @ 415000: uvm_test_top.env.agent.monitor [IF] PC=00000018  INSTR=00012f83  [LW   x31, 0(x2)]            
# UVM_INFO C:/Documents/DoAnThietKeViMach/Project/SoC/VERIFICATION/Monitor/cpu_monitor.sv(296) @ 425000: uvm_test_top.env.agent.monitor [WB] x30 <= 00000018  (PC~00000018)
# UVM_INFO C:/Documents/DoAnThietKeViMach/Project/SoC/VERIFICATION/Monitor/cpu_monitor.sv(296) @ 435000: uvm_test_top.env.agent.monitor [WB] x30 <= 00000018  (PC~00000018)
# UVM_INFO C:/Documents/DoAnThietKeViMach/Project/SoC/VERIFICATION/Monitor/cpu_monitor.sv(296) @ 445000: uvm_test_top.env.agent.monitor [WB] x30 <= 00000018  (PC~00000018)
# UVM_INFO C:/Documents/DoAnThietKeViMach/Project/SoC/VERIFICATION/Monitor/cpu_monitor.sv(364) @ 455000: uvm_test_top.env.agent.monitor [AXI_RD] CPU <- IRAM  Addr=0000001c Data=0071a023 RRESP=00
# UVM_INFO C:/Documents/DoAnThietKeViMach/Project/SoC/VERIFICATION/Monitor/cpu_monitor.sv(234) @ 455000: uvm_test_top.env.agent.monitor [IF] PC=0000001c  INSTR=0071a023  [SW   x7, 7(x3)]            
# UVM_INFO C:/Documents/DoAnThietKeViMach/Project/SoC/VERIFICATION/Monitor/cpu_monitor.sv(296) @ 455000: uvm_test_top.env.agent.monitor [WB] x30 <= 00000018  (PC~0000001c)
# UVM_INFO C:/Documents/DoAnThietKeViMach/Project/SoC/VERIFICATION/Monitor/cpu_monitor.sv(364) @ 495000: uvm_test_top.env.agent.monitor [AXI_RD] CPU <- IRAM  Addr=00000020 Data=00c1ac83 RRESP=00
# UVM_INFO C:/Documents/DoAnThietKeViMach/Project/SoC/VERIFICATION/Monitor/cpu_monitor.sv(234) @ 495000: uvm_test_top.env.agent.monitor [IF] PC=00000020  INSTR=00c1ac83  [LW   x25, 12(x3)]            
# UVM_INFO C:/Documents/DoAnThietKeViMach/Project/SoC/VERIFICATION/Monitor/cpu_monitor.sv(364) @ 535000: uvm_test_top.env.agent.monitor [AXI_RD] CPU <- TIMER  Addr=20000000 Data=00000000 RRESP=00
# UVM_INFO C:/Documents/DoAnThietKeViMach/Project/SoC/VERIFICATION/Scoreboard/cpu_scoreboard.sv(126) @ 535000: uvm_test_top.env.scoreboard [SCB_PASS] [TIMER] READ PASS Addr=20000000 Expected=00000000 Got=00000000
# UVM_INFO C:/Documents/DoAnThietKeViMach/Project/SoC/VERIFICATION/Monitor/cpu_monitor.sv(364) @ 575000: uvm_test_top.env.agent.monitor [AXI_RD] CPU <- IRAM  Addr=00000024 Data=7bc0a583 RRESP=00
# UVM_INFO C:/Documents/DoAnThietKeViMach/Project/SoC/VERIFICATION/Monitor/cpu_monitor.sv(234) @ 575000: uvm_test_top.env.agent.monitor [IF] PC=00000024  INSTR=7bc0a583  [LW   x11, 1980(x1)]            
# UVM_INFO C:/Documents/DoAnThietKeViMach/Project/SoC/VERIFICATION/Monitor/cpu_monitor.sv(268) @ 585000: uvm_test_top.env.agent.monitor [MEM] STORE Addr=30000000 Data=00000000
# UVM_INFO C:/Documents/DoAnThietKeViMach/Project/SoC/VERIFICATION/Monitor/cpu_monitor.sv(268) @ 595000: uvm_test_top.env.agent.monitor [MEM] STORE Addr=30000000 Data=00000000
# UVM_INFO C:/Documents/DoAnThietKeViMach/Project/SoC/VERIFICATION/Monitor/cpu_monitor.sv(268) @ 605000: uvm_test_top.env.agent.monitor [MEM] STORE Addr=30000000 Data=00000000
# UVM_INFO C:/Documents/DoAnThietKeViMach/Project/SoC/VERIFICATION/Monitor/cpu_monitor.sv(335) @ 615000: uvm_test_top.env.agent.monitor [AXI_WR] CPU -> UART  Addr=30000000 Data=00000000 Strb=1111 BRESP=00
# UVM_INFO C:/Documents/DoAnThietKeViMach/Project/SoC/VERIFICATION/Scoreboard/cpu_scoreboard.sv(246) @ 615000: uvm_test_top.env.scoreboard [SCB_PERIPH] [UART] WRITE Addr=30000000 Data=00000000
# UVM_INFO C:/Documents/DoAnThietKeViMach/Project/SoC/VERIFICATION/Monitor/cpu_monitor.sv(268) @ 615000: uvm_test_top.env.agent.monitor [MEM] STORE Addr=30000000 Data=00000000
# UVM_INFO C:/Documents/DoAnThietKeViMach/Project/SoC/VERIFICATION/Monitor/cpu_monitor.sv(296) @ 615000: uvm_test_top.env.agent.monitor [WB] x31 <= 00000000  (PC~00000024)
# UVM_INFO C:/Documents/DoAnThietKeViMach/Project/SoC/VERIFICATION/Monitor/cpu_monitor.sv(268) @ 625000: uvm_test_top.env.agent.monitor [MEM] STORE Addr=30000000 Data=00000000
# UVM_INFO C:/Documents/DoAnThietKeViMach/Project/SoC/VERIFICATION/Monitor/cpu_monitor.sv(296) @ 625000: uvm_test_top.env.agent.monitor [WB] x31 <= 00000000  (PC~00000024)
# UVM_INFO C:/Documents/DoAnThietKeViMach/Project/SoC/VERIFICATION/Monitor/cpu_monitor.sv(268) @ 635000: uvm_test_top.env.agent.monitor [MEM] STORE Addr=30000000 Data=00000000
# UVM_INFO C:/Documents/DoAnThietKeViMach/Project/SoC/VERIFICATION/Monitor/cpu_monitor.sv(296) @ 635000: uvm_test_top.env.agent.monitor [WB] x31 <= 00000000  (PC~00000024)
# UVM_INFO C:/Documents/DoAnThietKeViMach/Project/SoC/VERIFICATION/Monitor/cpu_monitor.sv(268) @ 645000: uvm_test_top.env.agent.monitor [MEM] STORE Addr=30000000 Data=00000000
# UVM_INFO C:/Documents/DoAnThietKeViMach/Project/SoC/VERIFICATION/Monitor/cpu_monitor.sv(296) @ 645000: uvm_test_top.env.agent.monitor [WB] x31 <= 00000000  (PC~00000024)
# UVM_INFO C:/Documents/DoAnThietKeViMach/Project/SoC/VERIFICATION/Monitor/cpu_monitor.sv(364) @ 655000: uvm_test_top.env.agent.monitor [AXI_RD] CPU <- IRAM  Addr=00000028 Data=00c06263 RRESP=00
# UVM_INFO C:/Documents/DoAnThietKeViMach/Project/SoC/VERIFICATION/Monitor/cpu_monitor.sv(234) @ 655000: uvm_test_top.env.agent.monitor [IF] PC=00000028  INSTR=00c06263  [BR?? x0, x12, ...]            
# UVM_INFO C:/Documents/DoAnThietKeViMach/Project/SoC/VERIFICATION/Monitor/cpu_monitor.sv(268) @ 655000: uvm_test_top.env.agent.monitor [MEM] STORE Addr=30000000 Data=00000000
# UVM_INFO C:/Documents/DoAnThietKeViMach/Project/SoC/VERIFICATION/Monitor/cpu_monitor.sv(296) @ 655000: uvm_test_top.env.agent.monitor [WB] x31 <= 00000000  (PC~00000028)
# UVM_INFO C:/Documents/DoAnThietKeViMach/Project/SoC/VERIFICATION/Monitor/cpu_monitor.sv(364) @ 695000: uvm_test_top.env.agent.monitor [AXI_RD] CPU <- UART  Addr=3000000c Data=00000000 RRESP=00
# UVM_INFO C:/Documents/DoAnThietKeViMach/Project/SoC/VERIFICATION/Scoreboard/cpu_scoreboard.sv(126) @ 695000: uvm_test_top.env.scoreboard [SCB_PASS] [UART] READ PASS Addr=3000000c Expected=00000000 Got=00000000
# UVM_INFO C:/Documents/DoAnThietKeViMach/Project/SoC/VERIFICATION/Monitor/cpu_monitor.sv(364) @ 735000: uvm_test_top.env.agent.monitor [AXI_RD] CPU <- IRAM  Addr=0000002c Data=00c1a503 RRESP=00
# UVM_INFO C:/Documents/DoAnThietKeViMach/Project/SoC/VERIFICATION/Monitor/cpu_monitor.sv(234) @ 735000: uvm_test_top.env.agent.monitor [IF] PC=0000002c  INSTR=00c1a503  [LW   x10, 12(x3)]            
# [DRAM READ] addr=100007bc data=00000000
# UVM_INFO C:/Documents/DoAnThietKeViMach/Project/SoC/VERIFICATION/Monitor/cpu_monitor.sv(364) @ 775000: uvm_test_top.env.agent.monitor [AXI_RD] CPU <- DRAM  Addr=100007bc Data=00000000 RRESP=00
# UVM_INFO C:/Documents/DoAnThietKeViMach/Project/SoC/VERIFICATION/Scoreboard/cpu_scoreboard.sv(126) @ 775000: uvm_test_top.env.scoreboard [SCB_PASS] [DRAM] READ PASS Addr=100007bc Expected=00000000 Got=00000000
# UVM_INFO C:/Documents/DoAnThietKeViMach/Project/SoC/VERIFICATION/Monitor/cpu_monitor.sv(296) @ 775000: uvm_test_top.env.agent.monitor [WB] x25 <= 00000000  (PC~0000002c)
# UVM_INFO C:/Documents/DoAnThietKeViMach/Project/SoC/VERIFICATION/Monitor/cpu_monitor.sv(296) @ 785000: uvm_test_top.env.agent.monitor [WB] x25 <= 00000000  (PC~0000002c)
# UVM_INFO C:/Documents/DoAnThietKeViMach/Project/SoC/VERIFICATION/Monitor/cpu_monitor.sv(296) @ 795000: uvm_test_top.env.agent.monitor [WB] x25 <= 00000000  (PC~0000002c)
# UVM_INFO C:/Documents/DoAnThietKeViMach/Project/SoC/VERIFICATION/Monitor/cpu_monitor.sv(296) @ 805000: uvm_test_top.env.agent.monitor [WB] x25 <= 00000000  (PC~0000002c)
# UVM_INFO C:/Documents/DoAnThietKeViMach/Project/SoC/VERIFICATION/Monitor/cpu_monitor.sv(364) @ 815000: uvm_test_top.env.agent.monitor [AXI_RD] CPU <- IRAM  Addr=00000030 Data=1480a703 RRESP=00
# UVM_INFO C:/Documents/DoAnThietKeViMach/Project/SoC/VERIFICATION/Monitor/cpu_monitor.sv(234) @ 815000: uvm_test_top.env.agent.monitor [IF] PC=00000030  INSTR=1480a703  [LW   x14, 328(x1)]            
# UVM_INFO C:/Documents/DoAnThietKeViMach/Project/SoC/VERIFICATION/Monitor/cpu_monitor.sv(296) @ 815000: uvm_test_top.env.agent.monitor [WB] x25 <= 00000000  (PC~00000030)
# UVM_INFO C:/Documents/DoAnThietKeViMach/Project/SoC/VERIFICATION/Monitor/cpu_monitor.sv(296) @ 825000: uvm_test_top.env.agent.monitor [WB] x11 <= 00000000  (PC~00000030)
# UVM_INFO C:/Documents/DoAnThietKeViMach/Project/SoC/VERIFICATION/Monitor/cpu_monitor.sv(296) @ 835000: uvm_test_top.env.agent.monitor [WB] x11 <= 00000000  (PC~00000030)
# UVM_INFO C:/Documents/DoAnThietKeViMach/Project/SoC/VERIFICATION/Monitor/cpu_monitor.sv(296) @ 845000: uvm_test_top.env.agent.monitor [WB] x11 <= 00000000  (PC~00000030)
# UVM_INFO C:/Documents/DoAnThietKeViMach/Project/SoC/VERIFICATION/Monitor/cpu_monitor.sv(364) @ 855000: uvm_test_top.env.agent.monitor [AXI_RD] CPU <- IRAM  Addr=00000034 Data=00c34733 RRESP=00
# UVM_INFO C:/Documents/DoAnThietKeViMach/Project/SoC/VERIFICATION/Monitor/cpu_monitor.sv(234) @ 855000: uvm_test_top.env.agent.monitor [IF] PC=00000034  INSTR=00c34733  [XOR  x14, x6, x12]            
# UVM_INFO C:/Documents/DoAnThietKeViMach/Project/SoC/VERIFICATION/Monitor/cpu_monitor.sv(296) @ 855000: uvm_test_top.env.agent.monitor [WB] x11 <= 00000000  (PC~00000034)
# UVM_INFO C:/Documents/DoAnThietKeViMach/Project/SoC/VERIFICATION/Monitor/cpu_monitor.sv(364) @ 895000: uvm_test_top.env.agent.monitor [AXI_RD] CPU <- UART  Addr=3000000c Data=00000000 RRESP=00
# UVM_INFO C:/Documents/DoAnThietKeViMach/Project/SoC/VERIFICATION/Scoreboard/cpu_scoreboard.sv(126) @ 895000: uvm_test_top.env.scoreboard [SCB_PASS] [UART] READ PASS Addr=3000000c Expected=00000000 Got=00000000
# UVM_INFO C:/Documents/DoAnThietKeViMach/Project/SoC/VERIFICATION/Monitor/cpu_monitor.sv(364) @ 935000: uvm_test_top.env.agent.monitor [AXI_RD] CPU <- IRAM  Addr=00000038 Data=00012b03 RRESP=00
# UVM_INFO C:/Documents/DoAnThietKeViMach/Project/SoC/VERIFICATION/Monitor/cpu_monitor.sv(234) @ 935000: uvm_test_top.env.agent.monitor [IF] PC=00000038  INSTR=00012b03  [LW   x22, 0(x2)]            
# [DRAM READ] addr=10000148 data=00000000
# UVM_INFO C:/Documents/DoAnThietKeViMach/Project/SoC/VERIFICATION/Monitor/cpu_monitor.sv(364) @ 975000: uvm_test_top.env.agent.monitor [AXI_RD] CPU <- DRAM  Addr=10000148 Data=00000000 RRESP=00
# UVM_INFO C:/Documents/DoAnThietKeViMach/Project/SoC/VERIFICATION/Scoreboard/cpu_scoreboard.sv(126) @ 975000: uvm_test_top.env.scoreboard [SCB_PASS] [DRAM] READ PASS Addr=10000148 Expected=00000000 Got=00000000
# UVM_INFO C:/Documents/DoAnThietKeViMach/Project/SoC/VERIFICATION/Monitor/cpu_monitor.sv(296) @ 975000: uvm_test_top.env.agent.monitor [WB] x10 <= 00000000  (PC~00000038)
# UVM_INFO C:/Documents/DoAnThietKeViMach/Project/SoC/VERIFICATION/Monitor/cpu_monitor.sv(296) @ 985000: uvm_test_top.env.agent.monitor [WB] x10 <= 00000000  (PC~00000038)
# UVM_INFO C:/Documents/DoAnThietKeViMach/Project/SoC/VERIFICATION/Monitor/cpu_monitor.sv(296) @ 995000: uvm_test_top.env.agent.monitor [WB] x10 <= 00000000  (PC~00000038)
# UVM_INFO C:/Documents/DoAnThietKeViMach/Project/SoC/VERIFICATION/Monitor/cpu_monitor.sv(296) @ 1005000: uvm_test_top.env.agent.monitor [WB] x10 <= 00000000  (PC~00000038)
# UVM_INFO C:/Documents/DoAnThietKeViMach/Project/SoC/VERIFICATION/Monitor/cpu_monitor.sv(364) @ 1015000: uvm_test_top.env.agent.monitor [AXI_RD] CPU <- IRAM  Addr=0000003c Data=00812003 RRESP=00
# UVM_INFO C:/Documents/DoAnThietKeViMach/Project/SoC/VERIFICATION/Monitor/cpu_monitor.sv(234) @ 1015000: uvm_test_top.env.agent.monitor [IF] PC=0000003c  INSTR=00812003  [LW   x0, 8(x2)]            
# UVM_INFO C:/Documents/DoAnThietKeViMach/Project/SoC/VERIFICATION/Monitor/cpu_monitor.sv(296) @ 1015000: uvm_test_top.env.agent.monitor [WB] x10 <= 00000000  (PC~0000003c)
# UVM_INFO C:/Documents/DoAnThietKeViMach/Project/SoC/VERIFICATION/Monitor/cpu_monitor.sv(296) @ 1025000: uvm_test_top.env.agent.monitor [WB] x14 <= 00000000  (PC~0000003c)
# UVM_INFO C:/Documents/DoAnThietKeViMach/Project/SoC/VERIFICATION/Monitor/cpu_monitor.sv(296) @ 1035000: uvm_test_top.env.agent.monitor [WB] x14 <= 00000000  (PC~0000003c)
# UVM_INFO C:/Documents/DoAnThietKeViMach/Project/SoC/VERIFICATION/Monitor/cpu_monitor.sv(296) @ 1045000: uvm_test_top.env.agent.monitor [WB] x14 <= 00000000  (PC~0000003c)
# UVM_INFO C:/Documents/DoAnThietKeViMach/Project/SoC/VERIFICATION/Monitor/cpu_monitor.sv(364) @ 1055000: uvm_test_top.env.agent.monitor [AXI_RD] CPU <- IRAM  Addr=00000040 Data=fedf4e13 RRESP=00
# UVM_INFO C:/Documents/DoAnThietKeViMach/Project/SoC/VERIFICATION/Monitor/cpu_monitor.sv(234) @ 1055000: uvm_test_top.env.agent.monitor [IF] PC=00000040  INSTR=fedf4e13  [XORI x28, x30, -19]            
# UVM_INFO C:/Documents/DoAnThietKeViMach/Project/SoC/VERIFICATION/Monitor/cpu_monitor.sv(296) @ 1055000: uvm_test_top.env.agent.monitor [WB] x14 <= 00000000  (PC~00000040)
# UVM_INFO C:/Documents/DoAnThietKeViMach/Project/SoC/VERIFICATION/Monitor/cpu_monitor.sv(364) @ 1095000: uvm_test_top.env.agent.monitor [AXI_RD] CPU <- TIMER  Addr=20000000 Data=00000000 RRESP=00
# UVM_INFO C:/Documents/DoAnThietKeViMach/Project/SoC/VERIFICATION/Scoreboard/cpu_scoreboard.sv(126) @ 1095000: uvm_test_top.env.scoreboard [SCB_PASS] [TIMER] READ PASS Addr=20000000 Expected=00000000 Got=00000000
# UVM_INFO C:/Documents/DoAnThietKeViMach/Project/SoC/VERIFICATION/Monitor/cpu_monitor.sv(296) @ 1095000: uvm_test_top.env.agent.monitor [WB] x14 <= 00000000  (PC~00000040)
# UVM_INFO C:/Documents/DoAnThietKeViMach/Project/SoC/VERIFICATION/Monitor/cpu_monitor.sv(296) @ 1105000: uvm_test_top.env.agent.monitor [WB] x14 <= 00000000  (PC~00000040)
# UVM_INFO C:/Documents/DoAnThietKeViMach/Project/SoC/VERIFICATION/Monitor/cpu_monitor.sv(296) @ 1115000: uvm_test_top.env.agent.monitor [WB] x14 <= 00000000  (PC~00000040)
# UVM_INFO C:/Documents/DoAnThietKeViMach/Project/SoC/VERIFICATION/Monitor/cpu_monitor.sv(296) @ 1125000: uvm_test_top.env.agent.monitor [WB] x14 <= 00000000  (PC~00000040)
# UVM_INFO C:/Documents/DoAnThietKeViMach/Project/SoC/VERIFICATION/Monitor/cpu_monitor.sv(364) @ 1135000: uvm_test_top.env.agent.monitor [AXI_RD] CPU <- IRAM  Addr=00000044 Data=00005263 RRESP=00
# UVM_INFO C:/Documents/DoAnThietKeViMach/Project/SoC/VERIFICATION/Monitor/cpu_monitor.sv(234) @ 1135000: uvm_test_top.env.agent.monitor [IF] PC=00000044  INSTR=00005263  [BGE  x0, x0, ...]            
# UVM_INFO C:/Documents/DoAnThietKeViMach/Project/SoC/VERIFICATION/Monitor/cpu_monitor.sv(296) @ 1135000: uvm_test_top.env.agent.monitor [WB] x14 <= 00000000  (PC~00000044)
# UVM_INFO C:/Documents/DoAnThietKeViMach/Project/SoC/VERIFICATION/Monitor/cpu_monitor.sv(364) @ 1175000: uvm_test_top.env.agent.monitor [AXI_RD] CPU <- TIMER  Addr=20000008 Data=00000000 RRESP=00
# UVM_INFO C:/Documents/DoAnThietKeViMach/Project/SoC/VERIFICATION/Scoreboard/cpu_scoreboard.sv(252) @ 1175000: uvm_test_top.env.scoreboard [SCB_PERIPH] [TIMER] READ Addr=20000008 Data=00000000 (volatile, compare skipped)
# UVM_INFO C:/Documents/DoAnThietKeViMach/Project/SoC/VERIFICATION/Monitor/cpu_monitor.sv(296) @ 1175000: uvm_test_top.env.agent.monitor [WB] x22 <= 00000000  (PC~00000044)
# UVM_INFO C:/Documents/DoAnThietKeViMach/Project/SoC/VERIFICATION/Monitor/cpu_monitor.sv(296) @ 1185000: uvm_test_top.env.agent.monitor [WB] x22 <= 00000000  (PC~00000044)
# UVM_INFO C:/Documents/DoAnThietKeViMach/Project/SoC/VERIFICATION/Monitor/cpu_monitor.sv(296) @ 1195000: uvm_test_top.env.agent.monitor [WB] x22 <= 00000000  (PC~00000044)
# UVM_INFO C:/Documents/DoAnThietKeViMach/Project/SoC/VERIFICATION/Monitor/cpu_monitor.sv(296) @ 1205000: uvm_test_top.env.agent.monitor [WB] x22 <= 00000000  (PC~00000044)
# UVM_INFO C:/Documents/DoAnThietKeViMach/Project/SoC/VERIFICATION/Monitor/cpu_monitor.sv(364) @ 1215000: uvm_test_top.env.agent.monitor [AXI_RD] CPU <- IRAM  Addr=00000048 Data=13f5e713 RRESP=00
# UVM_INFO C:/Documents/DoAnThietKeViMach/Project/SoC/VERIFICATION/Monitor/cpu_monitor.sv(234) @ 1215000: uvm_test_top.env.agent.monitor [IF] PC=00000048  INSTR=13f5e713  [ORI  x14, x11, 319]            
# UVM_INFO C:/Documents/DoAnThietKeViMach/Project/SoC/VERIFICATION/Monitor/cpu_monitor.sv(296) @ 1215000: uvm_test_top.env.agent.monitor [WB] x22 <= 00000000  (PC~00000048)
# UVM_INFO C:/Documents/DoAnThietKeViMach/Project/SoC/VERIFICATION/Monitor/cpu_monitor.sv(364) @ 1255000: uvm_test_top.env.agent.monitor [AXI_RD] CPU <- IRAM  Addr=0000004c Data=00812003 RRESP=00
# UVM_INFO C:/Documents/DoAnThietKeViMach/Project/SoC/VERIFICATION/Monitor/cpu_monitor.sv(234) @ 1255000: uvm_test_top.env.agent.monitor [IF] PC=0000004c  INSTR=00812003  [LW   x0, 8(x2)]            
# UVM_INFO C:/Documents/DoAnThietKeViMach/Project/SoC/VERIFICATION/Monitor/cpu_monitor.sv(296) @ 1265000: uvm_test_top.env.agent.monitor [WB] x28 <= fffffff5  (PC~0000004c)
# UVM_INFO C:/Documents/DoAnThietKeViMach/Project/SoC/VERIFICATION/Monitor/cpu_monitor.sv(296) @ 1275000: uvm_test_top.env.agent.monitor [WB] x28 <= fffffff5  (PC~0000004c)
# UVM_INFO C:/Documents/DoAnThietKeViMach/Project/SoC/VERIFICATION/Monitor/cpu_monitor.sv(296) @ 1285000: uvm_test_top.env.agent.monitor [WB] x28 <= fffffff5  (PC~0000004c)
# UVM_INFO C:/Documents/DoAnThietKeViMach/Project/SoC/VERIFICATION/Monitor/cpu_monitor.sv(364) @ 1295000: uvm_test_top.env.agent.monitor [AXI_RD] CPU <- IRAM  Addr=00000048 Data=13f5e713 RRESP=00
# UVM_INFO C:/Documents/DoAnThietKeViMach/Project/SoC/VERIFICATION/Monitor/cpu_monitor.sv(234) @ 1295000: uvm_test_top.env.agent.monitor [IF] PC=00000048  INSTR=13f5e713  [ORI  x14, x11, 319]            
# UVM_INFO C:/Documents/DoAnThietKeViMach/Project/SoC/VERIFICATION/Monitor/cpu_monitor.sv(296) @ 1295000: uvm_test_top.env.agent.monitor [WB] x28 <= fffffff5  (PC~00000048)
# UVM_INFO C:/Documents/DoAnThietKeViMach/Project/SoC/VERIFICATION/Monitor/cpu_monitor.sv(364) @ 1335000: uvm_test_top.env.agent.monitor [AXI_RD] CPU <- IRAM  Addr=0000004c Data=00812003 RRESP=00
# UVM_INFO C:/Documents/DoAnThietKeViMach/Project/SoC/VERIFICATION/Monitor/cpu_monitor.sv(234) @ 1335000: uvm_test_top.env.agent.monitor [IF] PC=0000004c  INSTR=00812003  [LW   x0, 8(x2)]            
# UVM_INFO C:/Documents/DoAnThietKeViMach/Project/SoC/VERIFICATION/Monitor/cpu_monitor.sv(364) @ 1375000: uvm_test_top.env.agent.monitor [AXI_RD] CPU <- IRAM  Addr=00000050 Data=0081a003 RRESP=00
# UVM_INFO C:/Documents/DoAnThietKeViMach/Project/SoC/VERIFICATION/Monitor/cpu_monitor.sv(234) @ 1375000: uvm_test_top.env.agent.monitor [IF] PC=00000050  INSTR=0081a003  [LW   x0, 8(x3)]            
# UVM_INFO C:/Documents/DoAnThietKeViMach/Project/SoC/VERIFICATION/Monitor/cpu_monitor.sv(364) @ 1415000: uvm_test_top.env.agent.monitor [AXI_RD] CPU <- IRAM  Addr=00000054 Data=00d1a023 RRESP=00
# UVM_INFO C:/Documents/DoAnThietKeViMach/Project/SoC/VERIFICATION/Monitor/cpu_monitor.sv(234) @ 1415000: uvm_test_top.env.agent.monitor [IF] PC=00000054  INSTR=00d1a023  [SW   x13, 13(x3)]            
# UVM_INFO C:/Documents/DoAnThietKeViMach/Project/SoC/VERIFICATION/Monitor/cpu_monitor.sv(364) @ 1455000: uvm_test_top.env.agent.monitor [AXI_RD] CPU <- TIMER  Addr=20000008 Data=00000000 RRESP=00
# UVM_INFO C:/Documents/DoAnThietKeViMach/Project/SoC/VERIFICATION/Scoreboard/cpu_scoreboard.sv(252) @ 1455000: uvm_test_top.env.scoreboard [SCB_PERIPH] [TIMER] READ Addr=20000008 Data=00000000 (volatile, compare skipped)
# UVM_INFO C:/Documents/DoAnThietKeViMach/Project/SoC/VERIFICATION/Monitor/cpu_monitor.sv(296) @ 1455000: uvm_test_top.env.agent.monitor [WB] x14 <= 0000013f  (PC~00000054)
# UVM_INFO C:/Documents/DoAnThietKeViMach/Project/SoC/VERIFICATION/Monitor/cpu_monitor.sv(296) @ 1465000: uvm_test_top.env.agent.monitor [WB] x14 <= 0000013f  (PC~00000054)
# UVM_INFO C:/Documents/DoAnThietKeViMach/Project/SoC/VERIFICATION/Monitor/cpu_monitor.sv(296) @ 1475000: uvm_test_top.env.agent.monitor [WB] x14 <= 0000013f  (PC~00000054)
# UVM_INFO C:/Documents/DoAnThietKeViMach/Project/SoC/VERIFICATION/Monitor/cpu_monitor.sv(296) @ 1485000: uvm_test_top.env.agent.monitor [WB] x14 <= 0000013f  (PC~00000054)
# UVM_INFO C:/Documents/DoAnThietKeViMach/Project/SoC/VERIFICATION/Monitor/cpu_monitor.sv(364) @ 1495000: uvm_test_top.env.agent.monitor [AXI_RD] CPU <- IRAM  Addr=00000058 Data=00400e6f RRESP=00
# UVM_INFO C:/Documents/DoAnThietKeViMach/Project/SoC/VERIFICATION/Monitor/cpu_monitor.sv(234) @ 1495000: uvm_test_top.env.agent.monitor [IF] PC=00000058  INSTR=00400e6f  [JAL  x28, ...]            
# UVM_INFO C:/Documents/DoAnThietKeViMach/Project/SoC/VERIFICATION/Monitor/cpu_monitor.sv(296) @ 1495000: uvm_test_top.env.agent.monitor [WB] x14 <= 0000013f  (PC~00000058)
# UVM_INFO C:/Documents/DoAnThietKeViMach/Project/SoC/VERIFICATION/Monitor/cpu_monitor.sv(364) @ 1535000: uvm_test_top.env.agent.monitor [AXI_RD] CPU <- UART  Addr=30000008 Data=00000000 RRESP=00
# UVM_INFO C:/Documents/DoAnThietKeViMach/Project/SoC/VERIFICATION/Scoreboard/cpu_scoreboard.sv(252) @ 1535000: uvm_test_top.env.scoreboard [SCB_PERIPH] [UART] READ Addr=30000008 Data=00000000 (volatile, compare skipped)
# UVM_INFO C:/Documents/DoAnThietKeViMach/Project/SoC/VERIFICATION/Monitor/cpu_monitor.sv(364) @ 1575000: uvm_test_top.env.agent.monitor [AXI_RD] CPU <- IRAM  Addr=0000005c Data=004003ef RRESP=00
# UVM_INFO C:/Documents/DoAnThietKeViMach/Project/SoC/VERIFICATION/Monitor/cpu_monitor.sv(234) @ 1575000: uvm_test_top.env.agent.monitor [IF] PC=0000005c  INSTR=004003ef  [JAL  x7, ...]            
# UVM_INFO C:/Documents/DoAnThietKeViMach/Project/SoC/VERIFICATION/Monitor/cpu_monitor.sv(268) @ 1585000: uvm_test_top.env.agent.monitor [MEM] STORE Addr=30000000 Data=00000000
# UVM_INFO C:/Documents/DoAnThietKeViMach/Project/SoC/VERIFICATION/Monitor/cpu_monitor.sv(268) @ 1595000: uvm_test_top.env.agent.monitor [MEM] STORE Addr=30000000 Data=00000000
# UVM_INFO C:/Documents/DoAnThietKeViMach/Project/SoC/VERIFICATION/Monitor/cpu_monitor.sv(268) @ 1605000: uvm_test_top.env.agent.monitor [MEM] STORE Addr=30000000 Data=00000000
# UVM_INFO C:/Documents/DoAnThietKeViMach/Project/SoC/VERIFICATION/Monitor/cpu_monitor.sv(335) @ 1615000: uvm_test_top.env.agent.monitor [AXI_WR] CPU -> UART  Addr=30000000 Data=00000000 Strb=1111 BRESP=00
# UVM_INFO C:/Documents/DoAnThietKeViMach/Project/SoC/VERIFICATION/Scoreboard/cpu_scoreboard.sv(246) @ 1615000: uvm_test_top.env.scoreboard [SCB_PERIPH] [UART] WRITE Addr=30000000 Data=00000000
# UVM_INFO C:/Documents/DoAnThietKeViMach/Project/SoC/VERIFICATION/Monitor/cpu_monitor.sv(268) @ 1615000: uvm_test_top.env.agent.monitor [MEM] STORE Addr=30000000 Data=00000000
# UVM_INFO C:/Documents/DoAnThietKeViMach/Project/SoC/VERIFICATION/Monitor/cpu_monitor.sv(268) @ 1625000: uvm_test_top.env.agent.monitor [MEM] STORE Addr=30000000 Data=00000000
# UVM_INFO C:/Documents/DoAnThietKeViMach/Project/SoC/VERIFICATION/Monitor/cpu_monitor.sv(268) @ 1635000: uvm_test_top.env.agent.monitor [MEM] STORE Addr=30000000 Data=00000000
# UVM_INFO C:/Documents/DoAnThietKeViMach/Project/SoC/VERIFICATION/Monitor/cpu_monitor.sv(268) @ 1645000: uvm_test_top.env.agent.monitor [MEM] STORE Addr=30000000 Data=00000000
# UVM_INFO C:/Documents/DoAnThietKeViMach/Project/SoC/VERIFICATION/Monitor/cpu_monitor.sv(364) @ 1655000: uvm_test_top.env.agent.monitor [AXI_RD] CPU <- IRAM  Addr=00000060 Data=00000263 RRESP=00
# UVM_INFO C:/Documents/DoAnThietKeViMach/Project/SoC/VERIFICATION/Monitor/cpu_monitor.sv(234) @ 1655000: uvm_test_top.env.agent.monitor [IF] PC=00000060  INSTR=00000263  [BEQ  x0, x0, ...]            
# UVM_INFO C:/Documents/DoAnThietKeViMach/Project/SoC/VERIFICATION/Monitor/cpu_monitor.sv(268) @ 1655000: uvm_test_top.env.agent.monitor [MEM] STORE Addr=30000000 Data=00000000
# UVM_INFO C:/Documents/DoAnThietKeViMach/Project/SoC/VERIFICATION/Monitor/cpu_monitor.sv(364) @ 1695000: uvm_test_top.env.agent.monitor [AXI_RD] CPU <- IRAM  Addr=0000005c Data=004003ef RRESP=00
# UVM_INFO C:/Documents/DoAnThietKeViMach/Project/SoC/VERIFICATION/Monitor/cpu_monitor.sv(234) @ 1695000: uvm_test_top.env.agent.monitor [IF] PC=0000005c  INSTR=004003ef  [JAL  x7, ...]            
# UVM_INFO C:/Documents/DoAnThietKeViMach/Project/SoC/VERIFICATION/Monitor/cpu_monitor.sv(296) @ 1705000: uvm_test_top.env.agent.monitor [WB] x28 <= 0000005c  (PC~0000005c)
# UVM_INFO C:/Documents/DoAnThietKeViMach/Project/SoC/VERIFICATION/Monitor/cpu_monitor.sv(296) @ 1715000: uvm_test_top.env.agent.monitor [WB] x28 <= 0000005c  (PC~0000005c)
# UVM_INFO C:/Documents/DoAnThietKeViMach/Project/SoC/VERIFICATION/Monitor/cpu_monitor.sv(296) @ 1725000: uvm_test_top.env.agent.monitor [WB] x28 <= 0000005c  (PC~0000005c)
# UVM_INFO C:/Documents/DoAnThietKeViMach/Project/SoC/VERIFICATION/Monitor/cpu_monitor.sv(364) @ 1735000: uvm_test_top.env.agent.monitor [AXI_RD] CPU <- IRAM  Addr=00000060 Data=00000263 RRESP=00
# UVM_INFO C:/Documents/DoAnThietKeViMach/Project/SoC/VERIFICATION/Monitor/cpu_monitor.sv(234) @ 1735000: uvm_test_top.env.agent.monitor [IF] PC=00000060  INSTR=00000263  [BEQ  x0, x0, ...]            
# UVM_INFO C:/Documents/DoAnThietKeViMach/Project/SoC/VERIFICATION/Monitor/cpu_monitor.sv(296) @ 1735000: uvm_test_top.env.agent.monitor [WB] x28 <= 0000005c  (PC~00000060)
# UVM_INFO C:/Documents/DoAnThietKeViMach/Project/SoC/VERIFICATION/Monitor/cpu_monitor.sv(364) @ 1775000: uvm_test_top.env.agent.monitor [AXI_RD] CPU <- IRAM  Addr=00000064 Data=415f0d33 RRESP=00
# UVM_INFO C:/Documents/DoAnThietKeViMach/Project/SoC/VERIFICATION/Monitor/cpu_monitor.sv(234) @ 1775000: uvm_test_top.env.agent.monitor [IF] PC=00000064  INSTR=415f0d33  [SUB  x26, x30, x21]            
# UVM_INFO C:/Documents/DoAnThietKeViMach/Project/SoC/VERIFICATION/Monitor/cpu_monitor.sv(364) @ 1815000: uvm_test_top.env.agent.monitor [AXI_RD] CPU <- IRAM  Addr=00000060 Data=00000263 RRESP=00
# UVM_INFO C:/Documents/DoAnThietKeViMach/Project/SoC/VERIFICATION/Monitor/cpu_monitor.sv(234) @ 1815000: uvm_test_top.env.agent.monitor [IF] PC=00000060  INSTR=00000263  [BEQ  x0, x0, ...]            
# UVM_INFO C:/Documents/DoAnThietKeViMach/Project/SoC/VERIFICATION/Monitor/cpu_monitor.sv(296) @ 1825000: uvm_test_top.env.agent.monitor [WB] x07 <= 00000060  (PC~00000060)
# UVM_INFO C:/Documents/DoAnThietKeViMach/Project/SoC/VERIFICATION/Monitor/cpu_monitor.sv(296) @ 1835000: uvm_test_top.env.agent.monitor [WB] x07 <= 00000060  (PC~00000060)
# UVM_INFO C:/Documents/DoAnThietKeViMach/Project/SoC/VERIFICATION/Monitor/cpu_monitor.sv(296) @ 1845000: uvm_test_top.env.agent.monitor [WB] x07 <= 00000060  (PC~00000060)
# UVM_INFO C:/Documents/DoAnThietKeViMach/Project/SoC/VERIFICATION/Monitor/cpu_monitor.sv(364) @ 1855000: uvm_test_top.env.agent.monitor [AXI_RD] CPU <- IRAM  Addr=00000064 Data=415f0d33 RRESP=00
# UVM_INFO C:/Documents/DoAnThietKeViMach/Project/SoC/VERIFICATION/Monitor/cpu_monitor.sv(234) @ 1855000: uvm_test_top.env.agent.monitor [IF] PC=00000064  INSTR=415f0d33  [SUB  x26, x30, x21]            
# UVM_INFO C:/Documents/DoAnThietKeViMach/Project/SoC/VERIFICATION/Monitor/cpu_monitor.sv(296) @ 1855000: uvm_test_top.env.agent.monitor [WB] x07 <= 00000060  (PC~00000064)
# UVM_INFO C:/Documents/DoAnThietKeViMach/Project/SoC/VERIFICATION/Monitor/cpu_monitor.sv(364) @ 1895000: uvm_test_top.env.agent.monitor [AXI_RD] CPU <- IRAM  Addr=00000068 Data=00a06263 RRESP=00
# UVM_INFO C:/Documents/DoAnThietKeViMach/Project/SoC/VERIFICATION/Monitor/cpu_monitor.sv(234) @ 1895000: uvm_test_top.env.agent.monitor [IF] PC=00000068  INSTR=00a06263  [BR?? x0, x10, ...]            
# UVM_INFO C:/Documents/DoAnThietKeViMach/Project/SoC/VERIFICATION/Monitor/cpu_monitor.sv(364) @ 1935000: uvm_test_top.env.agent.monitor [AXI_RD] CPU <- IRAM  Addr=00000064 Data=415f0d33 RRESP=00
# UVM_INFO C:/Documents/DoAnThietKeViMach/Project/SoC/VERIFICATION/Monitor/cpu_monitor.sv(234) @ 1935000: uvm_test_top.env.agent.monitor [IF] PC=00000064  INSTR=415f0d33  [SUB  x26, x30, x21]            
# UVM_INFO C:/Documents/DoAnThietKeViMach/Project/SoC/VERIFICATION/Monitor/cpu_monitor.sv(364) @ 1975000: uvm_test_top.env.agent.monitor [AXI_RD] CPU <- IRAM  Addr=00000068 Data=00a06263 RRESP=00
# UVM_INFO C:/Documents/DoAnThietKeViMach/Project/SoC/VERIFICATION/Monitor/cpu_monitor.sv(234) @ 1975000: uvm_test_top.env.agent.monitor [IF] PC=00000068  INSTR=00a06263  [BR?? x0, x10, ...]            
# UVM_INFO C:/Documents/DoAnThietKeViMach/Project/SoC/VERIFICATION/Monitor/cpu_monitor.sv(364) @ 2015000: uvm_test_top.env.agent.monitor [AXI_RD] CPU <- IRAM  Addr=0000006c Data=2ec0a803 RRESP=00
# UVM_INFO C:/Documents/DoAnThietKeViMach/Project/SoC/VERIFICATION/Monitor/cpu_monitor.sv(234) @ 2015000: uvm_test_top.env.agent.monitor [IF] PC=0000006c  INSTR=2ec0a803  [LW   x16, 748(x1)]            
# UVM_INFO C:/Documents/DoAnThietKeViMach/Project/SoC/VERIFICATION/Monitor/cpu_monitor.sv(364) @ 2055000: uvm_test_top.env.agent.monitor [AXI_RD] CPU <- IRAM  Addr=00000070 Data=01c01263 RRESP=00
# UVM_INFO C:/Documents/DoAnThietKeViMach/Project/SoC/VERIFICATION/Monitor/cpu_monitor.sv(234) @ 2055000: uvm_test_top.env.agent.monitor [IF] PC=00000070  INSTR=01c01263  [BNE  x0, x28, ...]            
# UVM_INFO C:/Documents/DoAnThietKeViMach/Project/SoC/VERIFICATION/Monitor/cpu_monitor.sv(296) @ 2065000: uvm_test_top.env.agent.monitor [WB] x26 <= 00000018  (PC~00000070)
# UVM_INFO C:/Documents/DoAnThietKeViMach/Project/SoC/VERIFICATION/Monitor/cpu_monitor.sv(296) @ 2075000: uvm_test_top.env.agent.monitor [WB] x26 <= 00000018  (PC~00000070)
# UVM_INFO C:/Documents/DoAnThietKeViMach/Project/SoC/VERIFICATION/Monitor/cpu_monitor.sv(296) @ 2085000: uvm_test_top.env.agent.monitor [WB] x26 <= 00000018  (PC~00000070)
# UVM_INFO C:/Documents/DoAnThietKeViMach/Project/SoC/VERIFICATION/Monitor/cpu_monitor.sv(364) @ 2095000: uvm_test_top.env.agent.monitor [AXI_RD] CPU <- IRAM  Addr=00000074 Data=00000263 RRESP=00
# UVM_INFO C:/Documents/DoAnThietKeViMach/Project/SoC/VERIFICATION/Monitor/cpu_monitor.sv(234) @ 2095000: uvm_test_top.env.agent.monitor [IF] PC=00000074  INSTR=00000263  [BEQ  x0, x0, ...]            
# UVM_INFO C:/Documents/DoAnThietKeViMach/Project/SoC/VERIFICATION/Monitor/cpu_monitor.sv(296) @ 2095000: uvm_test_top.env.agent.monitor [WB] x26 <= 00000018  (PC~00000074)
# [DRAM READ] addr=100002ec data=00000000
# UVM_INFO C:/Documents/DoAnThietKeViMach/Project/SoC/VERIFICATION/Monitor/cpu_monitor.sv(364) @ 2135000: uvm_test_top.env.agent.monitor [AXI_RD] CPU <- DRAM  Addr=100002ec Data=00000000 RRESP=00
# UVM_INFO C:/Documents/DoAnThietKeViMach/Project/SoC/VERIFICATION/Scoreboard/cpu_scoreboard.sv(126) @ 2135000: uvm_test_top.env.scoreboard [SCB_PASS] [DRAM] READ PASS Addr=100002ec Expected=00000000 Got=00000000
# UVM_INFO C:/Documents/DoAnThietKeViMach/Project/SoC/VERIFICATION/Monitor/cpu_monitor.sv(364) @ 2175000: uvm_test_top.env.agent.monitor [AXI_RD] CPU <- IRAM  Addr=00000078 Data=40788933 RRESP=00
# UVM_INFO C:/Documents/DoAnThietKeViMach/Project/SoC/VERIFICATION/Monitor/cpu_monitor.sv(234) @ 2175000: uvm_test_top.env.agent.monitor [IF] PC=00000078  INSTR=40788933  [SUB  x18, x17, x7]            
# UVM_INFO C:/Documents/DoAnThietKeViMach/Project/SoC/VERIFICATION/Monitor/cpu_monitor.sv(296) @ 2185000: uvm_test_top.env.agent.monitor [WB] x16 <= 00000000  (PC~00000078)
# UVM_INFO C:/Documents/DoAnThietKeViMach/Project/SoC/VERIFICATION/Monitor/cpu_monitor.sv(296) @ 2195000: uvm_test_top.env.agent.monitor [WB] x16 <= 00000000  (PC~00000078)
# UVM_INFO C:/Documents/DoAnThietKeViMach/Project/SoC/VERIFICATION/Monitor/cpu_monitor.sv(296) @ 2205000: uvm_test_top.env.agent.monitor [WB] x16 <= 00000000  (PC~00000078)
# UVM_INFO C:/Documents/DoAnThietKeViMach/Project/SoC/VERIFICATION/Monitor/cpu_monitor.sv(364) @ 2215000: uvm_test_top.env.agent.monitor [AXI_RD] CPU <- IRAM  Addr=00000074 Data=00000263 RRESP=00
# UVM_INFO C:/Documents/DoAnThietKeViMach/Project/SoC/VERIFICATION/Monitor/cpu_monitor.sv(234) @ 2215000: uvm_test_top.env.agent.monitor [IF] PC=00000074  INSTR=00000263  [BEQ  x0, x0, ...]            
# UVM_INFO C:/Documents/DoAnThietKeViMach/Project/SoC/VERIFICATION/Monitor/cpu_monitor.sv(296) @ 2215000: uvm_test_top.env.agent.monitor [WB] x16 <= 00000000  (PC~00000074)
# UVM_INFO C:/Documents/DoAnThietKeViMach/Project/SoC/VERIFICATION/Monitor/cpu_monitor.sv(364) @ 2255000: uvm_test_top.env.agent.monitor [AXI_RD] CPU <- IRAM  Addr=00000078 Data=40788933 RRESP=00
# UVM_INFO C:/Documents/DoAnThietKeViMach/Project/SoC/VERIFICATION/Monitor/cpu_monitor.sv(234) @ 2255000: uvm_test_top.env.agent.monitor [IF] PC=00000078  INSTR=40788933  [SUB  x18, x17, x7]            
# UVM_INFO C:/Documents/DoAnThietKeViMach/Project/SoC/VERIFICATION/Monitor/cpu_monitor.sv(364) @ 2295000: uvm_test_top.env.agent.monitor [AXI_RD] CPU <- IRAM  Addr=0000007c Data=00007263 RRESP=00
# UVM_INFO C:/Documents/DoAnThietKeViMach/Project/SoC/VERIFICATION/Monitor/cpu_monitor.sv(234) @ 2295000: uvm_test_top.env.agent.monitor [IF] PC=0000007c  INSTR=00007263  [BR?? x0, x0, ...]            
# UVM_INFO C:/Documents/DoAnThietKeViMach/Project/SoC/VERIFICATION/Monitor/cpu_monitor.sv(364) @ 2335000: uvm_test_top.env.agent.monitor [AXI_RD] CPU <- IRAM  Addr=00000078 Data=40788933 RRESP=00
# UVM_INFO C:/Documents/DoAnThietKeViMach/Project/SoC/VERIFICATION/Monitor/cpu_monitor.sv(234) @ 2335000: uvm_test_top.env.agent.monitor [IF] PC=00000078  INSTR=40788933  [SUB  x18, x17, x7]            
# UVM_INFO C:/Documents/DoAnThietKeViMach/Project/SoC/VERIFICATION/Monitor/cpu_monitor.sv(364) @ 2375000: uvm_test_top.env.agent.monitor [AXI_RD] CPU <- IRAM  Addr=0000007c Data=00007263 RRESP=00
# UVM_INFO C:/Documents/DoAnThietKeViMach/Project/SoC/VERIFICATION/Monitor/cpu_monitor.sv(234) @ 2375000: uvm_test_top.env.agent.monitor [IF] PC=0000007c  INSTR=00007263  [BR?? x0, x0, ...]            
# UVM_INFO C:/Documents/DoAnThietKeViMach/Project/SoC/VERIFICATION/Monitor/cpu_monitor.sv(364) @ 2415000: uvm_test_top.env.agent.monitor [AXI_RD] CPU <- IRAM  Addr=00000080 Data=0136db33 RRESP=00
# UVM_INFO C:/Documents/DoAnThietKeViMach/Project/SoC/VERIFICATION/Monitor/cpu_monitor.sv(234) @ 2415000: uvm_test_top.env.agent.monitor [IF] PC=00000080  INSTR=0136db33  [SRL  x22, x13, x19]            
# UVM_INFO C:/Documents/DoAnThietKeViMach/Project/SoC/VERIFICATION/Monitor/cpu_monitor.sv(364) @ 2455000: uvm_test_top.env.agent.monitor [AXI_RD] CPU <- IRAM  Addr=00000084 Data=01122223 RRESP=00
# UVM_INFO C:/Documents/DoAnThietKeViMach/Project/SoC/VERIFICATION/Monitor/cpu_monitor.sv(234) @ 2455000: uvm_test_top.env.agent.monitor [IF] PC=00000084  INSTR=01122223  [SW   x17, 17(x4)]            
# UVM_INFO C:/Documents/DoAnThietKeViMach/Project/SoC/VERIFICATION/Monitor/cpu_monitor.sv(296) @ 2465000: uvm_test_top.env.agent.monitor [WB] x18 <= ffffffa0  (PC~00000084)
# UVM_INFO C:/Documents/DoAnThietKeViMach/Project/SoC/VERIFICATION/Monitor/cpu_monitor.sv(296) @ 2475000: uvm_test_top.env.agent.monitor [WB] x18 <= ffffffa0  (PC~00000084)
# UVM_INFO C:/Documents/DoAnThietKeViMach/Project/SoC/VERIFICATION/Monitor/cpu_monitor.sv(296) @ 2485000: uvm_test_top.env.agent.monitor [WB] x18 <= ffffffa0  (PC~00000084)
# UVM_INFO C:/Documents/DoAnThietKeViMach/Project/SoC/VERIFICATION/Monitor/cpu_monitor.sv(364) @ 2495000: uvm_test_top.env.agent.monitor [AXI_RD] CPU <- IRAM  Addr=00000080 Data=0136db33 RRESP=00
# UVM_INFO C:/Documents/DoAnThietKeViMach/Project/SoC/VERIFICATION/Monitor/cpu_monitor.sv(234) @ 2495000: uvm_test_top.env.agent.monitor [IF] PC=00000080  INSTR=0136db33  [SRL  x22, x13, x19]            
# UVM_INFO C:/Documents/DoAnThietKeViMach/Project/SoC/VERIFICATION/Monitor/cpu_monitor.sv(296) @ 2495000: uvm_test_top.env.agent.monitor [WB] x18 <= ffffffa0  (PC~00000080)
# UVM_INFO C:/Documents/DoAnThietKeViMach/Project/SoC/VERIFICATION/Monitor/cpu_monitor.sv(364) @ 2535000: uvm_test_top.env.agent.monitor [AXI_RD] CPU <- IRAM  Addr=00000084 Data=01122223 RRESP=00
# UVM_INFO C:/Documents/DoAnThietKeViMach/Project/SoC/VERIFICATION/Monitor/cpu_monitor.sv(234) @ 2535000: uvm_test_top.env.agent.monitor [IF] PC=00000084  INSTR=01122223  [SW   x17, 17(x4)]            
# UVM_INFO C:/Documents/DoAnThietKeViMach/Project/SoC/VERIFICATION/Monitor/cpu_monitor.sv(364) @ 2575000: uvm_test_top.env.agent.monitor [AXI_RD] CPU <- IRAM  Addr=00000088 Data=00c22803 RRESP=00
# UVM_INFO C:/Documents/DoAnThietKeViMach/Project/SoC/VERIFICATION/Monitor/cpu_monitor.sv(234) @ 2575000: uvm_test_top.env.agent.monitor [IF] PC=00000088  INSTR=00c22803  [LW   x16, 12(x4)]            
# UVM_INFO C:/Documents/DoAnThietKeViMach/Project/SoC/VERIFICATION/Monitor/cpu_monitor.sv(364) @ 2615000: uvm_test_top.env.agent.monitor [AXI_RD] CPU <- IRAM  Addr=0000008c Data=00965ab3 RRESP=00
# UVM_INFO C:/Documents/DoAnThietKeViMach/Project/SoC/VERIFICATION/Monitor/cpu_monitor.sv(234) @ 2615000: uvm_test_top.env.agent.monitor [IF] PC=0000008c  INSTR=00965ab3  [SRL  x21, x12, x9]            
# UVM_INFO C:/Documents/DoAnThietKeViMach/Project/SoC/VERIFICATION/Monitor/cpu_monitor.sv(268) @ 2625000: uvm_test_top.env.agent.monitor [MEM] STORE Addr=40000004 Data=00000000
# UVM_INFO C:/Documents/DoAnThietKeViMach/Project/SoC/VERIFICATION/Monitor/cpu_monitor.sv(268) @ 2635000: uvm_test_top.env.agent.monitor [MEM] STORE Addr=40000004 Data=00000000
# UVM_INFO C:/Documents/DoAnThietKeViMach/Project/SoC/VERIFICATION/Monitor/cpu_monitor.sv(268) @ 2645000: uvm_test_top.env.agent.monitor [MEM] STORE Addr=40000004 Data=00000000
# UVM_INFO C:/Documents/DoAnThietKeViMach/Project/SoC/VERIFICATION/Monitor/cpu_monitor.sv(335) @ 2655000: uvm_test_top.env.agent.monitor [AXI_WR] CPU -> SPI  Addr=40000004 Data=00000000 Strb=1111 BRESP=00
# UVM_INFO C:/Documents/DoAnThietKeViMach/Project/SoC/VERIFICATION/Scoreboard/cpu_scoreboard.sv(246) @ 2655000: uvm_test_top.env.scoreboard [SCB_PERIPH] [SPI] WRITE Addr=40000004 Data=00000000
# UVM_INFO C:/Documents/DoAnThietKeViMach/Project/SoC/VERIFICATION/Monitor/cpu_monitor.sv(268) @ 2655000: uvm_test_top.env.agent.monitor [MEM] STORE Addr=40000004 Data=00000000
# UVM_INFO C:/Documents/DoAnThietKeViMach/Project/SoC/VERIFICATION/Monitor/cpu_monitor.sv(296) @ 2655000: uvm_test_top.env.agent.monitor [WB] x22 <= 00000000  (PC~0000008c)
# UVM_INFO C:/Documents/DoAnThietKeViMach/Project/SoC/VERIFICATION/Monitor/cpu_monitor.sv(268) @ 2665000: uvm_test_top.env.agent.monitor [MEM] STORE Addr=40000004 Data=00000000
# UVM_INFO C:/Documents/DoAnThietKeViMach/Project/SoC/VERIFICATION/Monitor/cpu_monitor.sv(296) @ 2665000: uvm_test_top.env.agent.monitor [WB] x22 <= 00000000  (PC~0000008c)
# UVM_INFO C:/Documents/DoAnThietKeViMach/Project/SoC/VERIFICATION/Monitor/cpu_monitor.sv(268) @ 2675000: uvm_test_top.env.agent.monitor [MEM] STORE Addr=40000004 Data=00000000
# UVM_INFO C:/Documents/DoAnThietKeViMach/Project/SoC/VERIFICATION/Monitor/cpu_monitor.sv(296) @ 2675000: uvm_test_top.env.agent.monitor [WB] x22 <= 00000000  (PC~0000008c)
# UVM_INFO C:/Documents/DoAnThietKeViMach/Project/SoC/VERIFICATION/Monitor/cpu_monitor.sv(268) @ 2685000: uvm_test_top.env.agent.monitor [MEM] STORE Addr=40000004 Data=00000000
# UVM_INFO C:/Documents/DoAnThietKeViMach/Project/SoC/VERIFICATION/Monitor/cpu_monitor.sv(296) @ 2685000: uvm_test_top.env.agent.monitor [WB] x22 <= 00000000  (PC~0000008c)
# UVM_INFO C:/Documents/DoAnThietKeViMach/Project/SoC/VERIFICATION/Monitor/cpu_monitor.sv(364) @ 2695000: uvm_test_top.env.agent.monitor [AXI_RD] CPU <- IRAM  Addr=00000090 Data=00822003 RRESP=00
# UVM_INFO C:/Documents/DoAnThietKeViMach/Project/SoC/VERIFICATION/Monitor/cpu_monitor.sv(234) @ 2695000: uvm_test_top.env.agent.monitor [IF] PC=00000090  INSTR=00822003  [LW   x0, 8(x4)]            
# UVM_INFO C:/Documents/DoAnThietKeViMach/Project/SoC/VERIFICATION/Monitor/cpu_monitor.sv(268) @ 2695000: uvm_test_top.env.agent.monitor [MEM] STORE Addr=40000004 Data=00000000
# UVM_INFO C:/Documents/DoAnThietKeViMach/Project/SoC/VERIFICATION/Monitor/cpu_monitor.sv(296) @ 2695000: uvm_test_top.env.agent.monitor [WB] x22 <= 00000000  (PC~00000090)
# UVM_INFO C:/Documents/DoAnThietKeViMach/Project/SoC/VERIFICATION/Monitor/cpu_monitor.sv(364) @ 2735000: uvm_test_top.env.agent.monitor [AXI_RD] CPU <- SPI  Addr=4000000c Data=0000000a RRESP=00
# UVM_INFO C:/Documents/DoAnThietKeViMach/Project/SoC/VERIFICATION/Scoreboard/cpu_scoreboard.sv(126) @ 2735000: uvm_test_top.env.scoreboard [SCB_PASS] [SPI] READ PASS Addr=4000000c Expected=0000000a Got=0000000a
# UVM_INFO C:/Documents/DoAnThietKeViMach/Project/SoC/VERIFICATION/Monitor/cpu_monitor.sv(364) @ 2775000: uvm_test_top.env.agent.monitor [AXI_RD] CPU <- IRAM  Addr=00000094 Data=01606263 RRESP=00
# UVM_INFO C:/Documents/DoAnThietKeViMach/Project/SoC/VERIFICATION/Monitor/cpu_monitor.sv(234) @ 2775000: uvm_test_top.env.agent.monitor [IF] PC=00000094  INSTR=01606263  [BR?? x0, x22, ...]            
# UVM_INFO C:/Documents/DoAnThietKeViMach/Project/SoC/VERIFICATION/Monitor/cpu_monitor.sv(296) @ 2785000: uvm_test_top.env.agent.monitor [WB] x16 <= 0000000a  (PC~00000094)
# UVM_INFO C:/Documents/DoAnThietKeViMach/Project/SoC/VERIFICATION/Monitor/cpu_monitor.sv(296) @ 2795000: uvm_test_top.env.agent.monitor [WB] x16 <= 0000000a  (PC~00000094)
# UVM_INFO C:/Documents/DoAnThietKeViMach/Project/SoC/VERIFICATION/Monitor/cpu_monitor.sv(296) @ 2805000: uvm_test_top.env.agent.monitor [WB] x16 <= 0000000a  (PC~00000094)
# UVM_INFO C:/Documents/DoAnThietKeViMach/Project/SoC/VERIFICATION/Monitor/cpu_monitor.sv(364) @ 2815000: uvm_test_top.env.agent.monitor [AXI_RD] CPU <- IRAM  Addr=00000098 Data=00c22b83 RRESP=00
# UVM_INFO C:/Documents/DoAnThietKeViMach/Project/SoC/VERIFICATION/Monitor/cpu_monitor.sv(296) @ 2815000: uvm_test_top.env.agent.monitor [WB] x16 <= 0000000a  (PC~00000094)
# UVM_INFO C:/Documents/DoAnThietKeViMach/Project/SoC/VERIFICATION/Monitor/cpu_monitor.sv(364) @ 2855000: uvm_test_top.env.agent.monitor [AXI_RD] CPU <- SPI  Addr=40000008 Data=00000000 RRESP=00
# UVM_INFO C:/Documents/DoAnThietKeViMach/Project/SoC/VERIFICATION/Scoreboard/cpu_scoreboard.sv(252) @ 2855000: uvm_test_top.env.scoreboard [SCB_PERIPH] [SPI] READ Addr=40000008 Data=00000000 (volatile, compare skipped)
# UVM_INFO C:/Documents/DoAnThietKeViMach/Project/SoC/VERIFICATION/Monitor/cpu_monitor.sv(296) @ 2855000: uvm_test_top.env.agent.monitor [WB] x21 <= 00000000  (PC~00000094)
# UVM_INFO C:/Documents/DoAnThietKeViMach/Project/SoC/VERIFICATION/Monitor/cpu_monitor.sv(296) @ 2865000: uvm_test_top.env.agent.monitor [WB] x21 <= 00000000  (PC~00000094)
# UVM_INFO C:/Documents/DoAnThietKeViMach/Project/SoC/VERIFICATION/Monitor/cpu_monitor.sv(296) @ 2875000: uvm_test_top.env.agent.monitor [WB] x21 <= 00000000  (PC~00000094)
# UVM_INFO C:/Documents/DoAnThietKeViMach/Project/SoC/VERIFICATION/Monitor/cpu_monitor.sv(296) @ 2885000: uvm_test_top.env.agent.monitor [WB] x21 <= 00000000  (PC~00000094)
# UVM_INFO C:/Documents/DoAnThietKeViMach/Project/SoC/VERIFICATION/Monitor/cpu_monitor.sv(364) @ 2895000: uvm_test_top.env.agent.monitor [AXI_RD] CPU <- IRAM  Addr=00000098 Data=00c22b83 RRESP=00
# UVM_INFO C:/Documents/DoAnThietKeViMach/Project/SoC/VERIFICATION/Monitor/cpu_monitor.sv(234) @ 2895000: uvm_test_top.env.agent.monitor [IF] PC=00000098  INSTR=00c22b83  [LW   x23, 12(x4)]            
# UVM_INFO C:/Documents/DoAnThietKeViMach/Project/SoC/VERIFICATION/Monitor/cpu_monitor.sv(296) @ 2895000: uvm_test_top.env.agent.monitor [WB] x21 <= 00000000  (PC~00000098)
# UVM_INFO C:/Documents/DoAnThietKeViMach/Project/SoC/VERIFICATION/Monitor/cpu_monitor.sv(364) @ 2935000: uvm_test_top.env.agent.monitor [AXI_RD] CPU <- IRAM  Addr=0000009c Data=00822003 RRESP=00
# UVM_INFO C:/Documents/DoAnThietKeViMach/Project/SoC/VERIFICATION/Monitor/cpu_monitor.sv(234) @ 2935000: uvm_test_top.env.agent.monitor [IF] PC=0000009c  INSTR=00822003  [LW   x0, 8(x4)]            
# UVM_INFO C:/Documents/DoAnThietKeViMach/Project/SoC/VERIFICATION/Monitor/cpu_monitor.sv(364) @ 2975000: uvm_test_top.env.agent.monitor [AXI_RD] CPU <- IRAM  Addr=000000a0 Data=32746f93 RRESP=00
# UVM_INFO C:/Documents/DoAnThietKeViMach/Project/SoC/VERIFICATION/Monitor/cpu_monitor.sv(234) @ 2975000: uvm_test_top.env.agent.monitor [IF] PC=000000a0  INSTR=32746f93  [ORI  x31, x8, 807]            
# UVM_INFO C:/Documents/DoAnThietKeViMach/Project/SoC/VERIFICATION/Monitor/cpu_monitor.sv(364) @ 3015000: uvm_test_top.env.agent.monitor [AXI_RD] CPU <- SPI  Addr=4000000c Data=0000000a RRESP=00
# UVM_INFO C:/Documents/DoAnThietKeViMach/Project/SoC/VERIFICATION/Scoreboard/cpu_scoreboard.sv(126) @ 3015000: uvm_test_top.env.scoreboard [SCB_PASS] [SPI] READ PASS Addr=4000000c Expected=0000000a Got=0000000a
# UVM_INFO C:/Documents/DoAnThietKeViMach/Project/SoC/VERIFICATION/Monitor/cpu_monitor.sv(364) @ 3055000: uvm_test_top.env.agent.monitor [AXI_RD] CPU <- IRAM  Addr=000000a4 Data=01301263 RRESP=00
# UVM_INFO C:/Documents/DoAnThietKeViMach/Project/SoC/VERIFICATION/Monitor/cpu_monitor.sv(234) @ 3055000: uvm_test_top.env.agent.monitor [IF] PC=000000a4  INSTR=01301263  [BNE  x0, x19, ...]            
# UVM_INFO C:/Documents/DoAnThietKeViMach/Project/SoC/VERIFICATION/Monitor/cpu_monitor.sv(364) @ 3095000: uvm_test_top.env.agent.monitor [AXI_RD] CPU <- SPI  Addr=40000008 Data=00000000 RRESP=00
# UVM_INFO C:/Documents/DoAnThietKeViMach/Project/SoC/VERIFICATION/Scoreboard/cpu_scoreboard.sv(252) @ 3095000: uvm_test_top.env.scoreboard [SCB_PERIPH] [SPI] READ Addr=40000008 Data=00000000 (volatile, compare skipped)
# UVM_INFO C:/Documents/DoAnThietKeViMach/Project/SoC/VERIFICATION/Monitor/cpu_monitor.sv(296) @ 3095000: uvm_test_top.env.agent.monitor [WB] x23 <= 0000000a  (PC~000000a4)
# UVM_INFO C:/Documents/DoAnThietKeViMach/Project/SoC/VERIFICATION/Monitor/cpu_monitor.sv(296) @ 3105000: uvm_test_top.env.agent.monitor [WB] x23 <= 0000000a  (PC~000000a4)
# UVM_INFO C:/Documents/DoAnThietKeViMach/Project/SoC/VERIFICATION/Monitor/cpu_monitor.sv(296) @ 3115000: uvm_test_top.env.agent.monitor [WB] x23 <= 0000000a  (PC~000000a4)
# UVM_INFO C:/Documents/DoAnThietKeViMach/Project/SoC/VERIFICATION/Monitor/cpu_monitor.sv(296) @ 3125000: uvm_test_top.env.agent.monitor [WB] x23 <= 0000000a  (PC~000000a4)
# UVM_INFO C:/Documents/DoAnThietKeViMach/Project/SoC/VERIFICATION/Monitor/cpu_monitor.sv(364) @ 3135000: uvm_test_top.env.agent.monitor [AXI_RD] CPU <- IRAM  Addr=000000a8 Data=413b8f33 RRESP=00
# UVM_INFO C:/Documents/DoAnThietKeViMach/Project/SoC/VERIFICATION/Monitor/cpu_monitor.sv(234) @ 3135000: uvm_test_top.env.agent.monitor [IF] PC=000000a8  INSTR=413b8f33  [SUB  x30, x23, x19]            
# UVM_INFO C:/Documents/DoAnThietKeViMach/Project/SoC/VERIFICATION/Monitor/cpu_monitor.sv(296) @ 3135000: uvm_test_top.env.agent.monitor [WB] x23 <= 0000000a  (PC~000000a8)
# UVM_INFO C:/Documents/DoAnThietKeViMach/Project/SoC/VERIFICATION/Monitor/cpu_monitor.sv(364) @ 3175000: uvm_test_top.env.agent.monitor [AXI_RD] CPU <- IRAM  Addr=000000ac Data=014a7cb3 RRESP=00
# UVM_INFO C:/Documents/DoAnThietKeViMach/Project/SoC/VERIFICATION/Monitor/cpu_monitor.sv(234) @ 3175000: uvm_test_top.env.agent.monitor [IF] PC=000000ac  INSTR=014a7cb3  [AND  x25, x20, x20]            
# UVM_INFO C:/Documents/DoAnThietKeViMach/Project/SoC/VERIFICATION/Monitor/cpu_monitor.sv(296) @ 3185000: uvm_test_top.env.agent.monitor [WB] x31 <= 00000327  (PC~000000ac)
# UVM_INFO C:/Documents/DoAnThietKeViMach/Project/SoC/VERIFICATION/Monitor/cpu_monitor.sv(296) @ 3195000: uvm_test_top.env.agent.monitor [WB] x31 <= 00000327  (PC~000000ac)
# UVM_INFO C:/Documents/DoAnThietKeViMach/Project/SoC/VERIFICATION/Monitor/cpu_monitor.sv(296) @ 3205000: uvm_test_top.env.agent.monitor [WB] x31 <= 00000327  (PC~000000ac)
# UVM_INFO C:/Documents/DoAnThietKeViMach/Project/SoC/VERIFICATION/Monitor/cpu_monitor.sv(364) @ 3215000: uvm_test_top.env.agent.monitor [AXI_RD] CPU <- IRAM  Addr=000000b0 Data=00007263 RRESP=00
# UVM_INFO C:/Documents/DoAnThietKeViMach/Project/SoC/VERIFICATION/Monitor/cpu_monitor.sv(234) @ 3215000: uvm_test_top.env.agent.monitor [IF] PC=000000b0  INSTR=00007263  [BR?? x0, x0, ...]            
# UVM_INFO C:/Documents/DoAnThietKeViMach/Project/SoC/VERIFICATION/Monitor/cpu_monitor.sv(296) @ 3215000: uvm_test_top.env.agent.monitor [WB] x31 <= 00000327  (PC~000000b0)
# UVM_INFO C:/Documents/DoAnThietKeViMach/Project/SoC/VERIFICATION/Monitor/cpu_monitor.sv(364) @ 3255000: uvm_test_top.env.agent.monitor [AXI_RD] CPU <- IRAM  Addr=000000b4 Data=00712223 RRESP=00
# UVM_INFO C:/Documents/DoAnThietKeViMach/Project/SoC/VERIFICATION/Monitor/cpu_monitor.sv(234) @ 3255000: uvm_test_top.env.agent.monitor [IF] PC=000000b4  INSTR=00712223  [SW   x7, 7(x2)]            
# UVM_INFO C:/Documents/DoAnThietKeViMach/Project/SoC/VERIFICATION/Monitor/cpu_monitor.sv(296) @ 3265000: uvm_test_top.env.agent.monitor [WB] x30 <= 0000000a  (PC~000000b4)
# UVM_INFO C:/Documents/DoAnThietKeViMach/Project/SoC/VERIFICATION/Monitor/cpu_monitor.sv(296) @ 3275000: uvm_test_top.env.agent.monitor [WB] x30 <= 0000000a  (PC~000000b4)
# UVM_INFO C:/Documents/DoAnThietKeViMach/Project/SoC/VERIFICATION/Monitor/cpu_monitor.sv(296) @ 3285000: uvm_test_top.env.agent.monitor [WB] x30 <= 0000000a  (PC~000000b4)
# UVM_INFO C:/Documents/DoAnThietKeViMach/Project/SoC/VERIFICATION/Monitor/cpu_monitor.sv(364) @ 3295000: uvm_test_top.env.agent.monitor [AXI_RD] CPU <- IRAM  Addr=000000b8 Data=00000263 RRESP=00
# UVM_INFO C:/Documents/DoAnThietKeViMach/Project/SoC/VERIFICATION/Monitor/cpu_monitor.sv(234) @ 3295000: uvm_test_top.env.agent.monitor [IF] PC=000000b8  INSTR=00000263  [BEQ  x0, x0, ...]            
# UVM_INFO C:/Documents/DoAnThietKeViMach/Project/SoC/VERIFICATION/Monitor/cpu_monitor.sv(296) @ 3295000: uvm_test_top.env.agent.monitor [WB] x30 <= 0000000a  (PC~000000b8)
# UVM_INFO C:/Documents/DoAnThietKeViMach/Project/SoC/VERIFICATION/Monitor/cpu_monitor.sv(296) @ 3305000: uvm_test_top.env.agent.monitor [WB] x25 <= 00000000  (PC~000000b8)
# UVM_INFO C:/Documents/DoAnThietKeViMach/Project/SoC/VERIFICATION/Monitor/cpu_monitor.sv(296) @ 3315000: uvm_test_top.env.agent.monitor [WB] x25 <= 00000000  (PC~000000b8)
# UVM_INFO C:/Documents/DoAnThietKeViMach/Project/SoC/VERIFICATION/Monitor/cpu_monitor.sv(296) @ 3325000: uvm_test_top.env.agent.monitor [WB] x25 <= 00000000  (PC~000000b8)
# UVM_INFO C:/Documents/DoAnThietKeViMach/Project/SoC/VERIFICATION/Monitor/cpu_monitor.sv(364) @ 3335000: uvm_test_top.env.agent.monitor [AXI_RD] CPU <- IRAM  Addr=000000b4 Data=00712223 RRESP=00
# UVM_INFO C:/Documents/DoAnThietKeViMach/Project/SoC/VERIFICATION/Monitor/cpu_monitor.sv(234) @ 3335000: uvm_test_top.env.agent.monitor [IF] PC=000000b4  INSTR=00712223  [SW   x7, 7(x2)]            
# UVM_INFO C:/Documents/DoAnThietKeViMach/Project/SoC/VERIFICATION/Monitor/cpu_monitor.sv(296) @ 3335000: uvm_test_top.env.agent.monitor [WB] x25 <= 00000000  (PC~000000b4)
# UVM_INFO C:/Documents/DoAnThietKeViMach/Project/SoC/VERIFICATION/Monitor/cpu_monitor.sv(364) @ 3375000: uvm_test_top.env.agent.monitor [AXI_RD] CPU <- IRAM  Addr=000000b8 Data=00000263 RRESP=00
# UVM_INFO C:/Documents/DoAnThietKeViMach/Project/SoC/VERIFICATION/Monitor/cpu_monitor.sv(234) @ 3375000: uvm_test_top.env.agent.monitor [IF] PC=000000b8  INSTR=00000263  [BEQ  x0, x0, ...]            
# UVM_INFO C:/Documents/DoAnThietKeViMach/Project/SoC/VERIFICATION/Monitor/cpu_monitor.sv(364) @ 3415000: uvm_test_top.env.agent.monitor [AXI_RD] CPU <- IRAM  Addr=000000bc Data=01c12023 RRESP=00
# UVM_INFO C:/Documents/DoAnThietKeViMach/Project/SoC/VERIFICATION/Monitor/cpu_monitor.sv(234) @ 3415000: uvm_test_top.env.agent.monitor [IF] PC=000000bc  INSTR=01c12023  [SW   x28, 28(x2)]            
# UVM_INFO C:/Documents/DoAnThietKeViMach/Project/SoC/VERIFICATION/Monitor/cpu_monitor.sv(268) @ 3425000: uvm_test_top.env.agent.monitor [MEM] STORE Addr=20000004 Data=00000060
# UVM_INFO C:/Documents/DoAnThietKeViMach/Project/SoC/VERIFICATION/Monitor/cpu_monitor.sv(268) @ 3435000: uvm_test_top.env.agent.monitor [MEM] STORE Addr=20000004 Data=00000060
# UVM_INFO C:/Documents/DoAnThietKeViMach/Project/SoC/VERIFICATION/Monitor/cpu_monitor.sv(268) @ 3445000: uvm_test_top.env.agent.monitor [MEM] STORE Addr=20000004 Data=00000060
# UVM_INFO C:/Documents/DoAnThietKeViMach/Project/SoC/VERIFICATION/Monitor/cpu_monitor.sv(268) @ 3455000: uvm_test_top.env.agent.monitor [MEM] STORE Addr=20000004 Data=00000060
# UVM_INFO C:/Documents/DoAnThietKeViMach/Project/SoC/VERIFICATION/Monitor/cpu_monitor.sv(335) @ 3465000: uvm_test_top.env.agent.monitor [AXI_WR] CPU -> TIMER  Addr=20000004 Data=00000060 Strb=1111 BRESP=00
# UVM_INFO C:/Documents/DoAnThietKeViMach/Project/SoC/VERIFICATION/Scoreboard/cpu_scoreboard.sv(246) @ 3465000: uvm_test_top.env.scoreboard [SCB_PERIPH] [TIMER] WRITE Addr=20000004 Data=00000060
# UVM_INFO C:/Documents/DoAnThietKeViMach/Project/SoC/VERIFICATION/Monitor/cpu_monitor.sv(268) @ 3465000: uvm_test_top.env.agent.monitor [MEM] STORE Addr=20000004 Data=00000060
# UVM_INFO C:/Documents/DoAnThietKeViMach/Project/SoC/VERIFICATION/Monitor/cpu_monitor.sv(268) @ 3475000: uvm_test_top.env.agent.monitor [MEM] STORE Addr=20000004 Data=00000060
# UVM_INFO C:/Documents/DoAnThietKeViMach/Project/SoC/VERIFICATION/Monitor/cpu_monitor.sv(268) @ 3485000: uvm_test_top.env.agent.monitor [MEM] STORE Addr=20000004 Data=00000060
# UVM_INFO C:/Documents/DoAnThietKeViMach/Project/SoC/VERIFICATION/Monitor/cpu_monitor.sv(268) @ 3495000: uvm_test_top.env.agent.monitor [MEM] STORE Addr=20000004 Data=00000060
# UVM_INFO C:/Documents/DoAnThietKeViMach/Project/SoC/VERIFICATION/Monitor/cpu_monitor.sv(364) @ 3505000: uvm_test_top.env.agent.monitor [AXI_RD] CPU <- IRAM  Addr=000000c0 Data=0040046f RRESP=00
# UVM_INFO C:/Documents/DoAnThietKeViMach/Project/SoC/VERIFICATION/Monitor/cpu_monitor.sv(234) @ 3505000: uvm_test_top.env.agent.monitor [IF] PC=000000c0  INSTR=0040046f  [JAL  x8, ...]            
# UVM_INFO C:/Documents/DoAnThietKeViMach/Project/SoC/VERIFICATION/Monitor/cpu_monitor.sv(268) @ 3505000: uvm_test_top.env.agent.monitor [MEM] STORE Addr=20000004 Data=00000060
# UVM_INFO C:/Documents/DoAnThietKeViMach/Project/SoC/VERIFICATION/Monitor/cpu_monitor.sv(364) @ 3545000: uvm_test_top.env.agent.monitor [AXI_RD] CPU <- IRAM  Addr=000000bc Data=01c12023 RRESP=00
# UVM_INFO C:/Documents/DoAnThietKeViMach/Project/SoC/VERIFICATION/Monitor/cpu_monitor.sv(234) @ 3545000: uvm_test_top.env.agent.monitor [IF] PC=000000bc  INSTR=01c12023  [SW   x28, 28(x2)]            
# UVM_INFO C:/Documents/DoAnThietKeViMach/Project/SoC/VERIFICATION/Monitor/cpu_monitor.sv(364) @ 3585000: uvm_test_top.env.agent.monitor [AXI_RD] CPU <- IRAM  Addr=000000c0 Data=0040046f RRESP=00
# UVM_INFO C:/Documents/DoAnThietKeViMach/Project/SoC/VERIFICATION/Monitor/cpu_monitor.sv(234) @ 3585000: uvm_test_top.env.agent.monitor [IF] PC=000000c0  INSTR=0040046f  [JAL  x8, ...]            
# UVM_INFO C:/Documents/DoAnThietKeViMach/Project/SoC/VERIFICATION/Monitor/cpu_monitor.sv(364) @ 3625000: uvm_test_top.env.agent.monitor [AXI_RD] CPU <- IRAM  Addr=000000c4 Data=00722023 RRESP=00
# UVM_INFO C:/Documents/DoAnThietKeViMach/Project/SoC/VERIFICATION/Monitor/cpu_monitor.sv(234) @ 3625000: uvm_test_top.env.agent.monitor [IF] PC=000000c4  INSTR=00722023  [SW   x7, 7(x4)]            
# UVM_INFO C:/Documents/DoAnThietKeViMach/Project/SoC/VERIFICATION/Monitor/cpu_monitor.sv(268) @ 3635000: uvm_test_top.env.agent.monitor [MEM] STORE Addr=20000000 Data=0000005c
# UVM_INFO C:/Documents/DoAnThietKeViMach/Project/SoC/VERIFICATION/Monitor/cpu_monitor.sv(268) @ 3645000: uvm_test_top.env.agent.monitor [MEM] STORE Addr=20000000 Data=0000005c
# UVM_INFO C:/Documents/DoAnThietKeViMach/Project/SoC/VERIFICATION/Monitor/cpu_monitor.sv(268) @ 3655000: uvm_test_top.env.agent.monitor [MEM] STORE Addr=20000000 Data=0000005c
# UVM_INFO C:/Documents/DoAnThietKeViMach/Project/SoC/VERIFICATION/Monitor/cpu_monitor.sv(268) @ 3665000: uvm_test_top.env.agent.monitor [MEM] STORE Addr=20000000 Data=0000005c
# UVM_INFO C:/Documents/DoAnThietKeViMach/Project/SoC/VERIFICATION/Monitor/cpu_monitor.sv(335) @ 3675000: uvm_test_top.env.agent.monitor [AXI_WR] CPU -> TIMER  Addr=20000000 Data=0000005c Strb=1111 BRESP=00
# UVM_INFO C:/Documents/DoAnThietKeViMach/Project/SoC/VERIFICATION/Scoreboard/cpu_scoreboard.sv(246) @ 3675000: uvm_test_top.env.scoreboard [SCB_PERIPH] [TIMER] WRITE Addr=20000000 Data=0000005c
# UVM_INFO C:/Documents/DoAnThietKeViMach/Project/SoC/VERIFICATION/Monitor/cpu_monitor.sv(268) @ 3675000: uvm_test_top.env.agent.monitor [MEM] STORE Addr=20000000 Data=0000005c
# UVM_INFO C:/Documents/DoAnThietKeViMach/Project/SoC/VERIFICATION/Monitor/cpu_monitor.sv(268) @ 3685000: uvm_test_top.env.agent.monitor [MEM] STORE Addr=20000000 Data=0000005c
# UVM_INFO C:/Documents/DoAnThietKeViMach/Project/SoC/VERIFICATION/Monitor/cpu_monitor.sv(268) @ 3695000: uvm_test_top.env.agent.monitor [MEM] STORE Addr=20000000 Data=0000005c
# UVM_INFO C:/Documents/DoAnThietKeViMach/Project/SoC/VERIFICATION/Monitor/cpu_monitor.sv(268) @ 3705000: uvm_test_top.env.agent.monitor [MEM] STORE Addr=20000000 Data=0000005c
# UVM_INFO C:/Documents/DoAnThietKeViMach/Project/SoC/VERIFICATION/Monitor/cpu_monitor.sv(364) @ 3715000: uvm_test_top.env.agent.monitor [AXI_RD] CPU <- IRAM  Addr=000000c8 Data=41598fb3 RRESP=00
# UVM_INFO C:/Documents/DoAnThietKeViMach/Project/SoC/VERIFICATION/Monitor/cpu_monitor.sv(234) @ 3715000: uvm_test_top.env.agent.monitor [IF] PC=000000c8  INSTR=41598fb3  [SUB  x31, x19, x21]            
# UVM_INFO C:/Documents/DoAnThietKeViMach/Project/SoC/VERIFICATION/Monitor/cpu_monitor.sv(268) @ 3715000: uvm_test_top.env.agent.monitor [MEM] STORE Addr=20000000 Data=0000005c
# UVM_INFO C:/Documents/DoAnThietKeViMach/Project/SoC/VERIFICATION/Monitor/cpu_monitor.sv(364) @ 3755000: uvm_test_top.env.agent.monitor [AXI_RD] CPU <- IRAM  Addr=000000c4 Data=00722023 RRESP=00
# UVM_INFO C:/Documents/DoAnThietKeViMach/Project/SoC/VERIFICATION/Monitor/cpu_monitor.sv(234) @ 3755000: uvm_test_top.env.agent.monitor [IF] PC=000000c4  INSTR=00722023  [SW   x7, 7(x4)]            
# UVM_INFO C:/Documents/DoAnThietKeViMach/Project/SoC/VERIFICATION/Monitor/cpu_monitor.sv(296) @ 3765000: uvm_test_top.env.agent.monitor [WB] x08 <= 000000c4  (PC~000000c4)
# UVM_INFO C:/Documents/DoAnThietKeViMach/Project/SoC/VERIFICATION/Monitor/cpu_monitor.sv(296) @ 3775000: uvm_test_top.env.agent.monitor [WB] x08 <= 000000c4  (PC~000000c4)
# UVM_INFO C:/Documents/DoAnThietKeViMach/Project/SoC/VERIFICATION/Monitor/cpu_monitor.sv(296) @ 3785000: uvm_test_top.env.agent.monitor [WB] x08 <= 000000c4  (PC~000000c4)
# UVM_INFO C:/Documents/DoAnThietKeViMach/Project/SoC/VERIFICATION/Monitor/cpu_monitor.sv(364) @ 3795000: uvm_test_top.env.agent.monitor [AXI_RD] CPU <- IRAM  Addr=000000c8 Data=41598fb3 RRESP=00
# UVM_INFO C:/Documents/DoAnThietKeViMach/Project/SoC/VERIFICATION/Monitor/cpu_monitor.sv(234) @ 3795000: uvm_test_top.env.agent.monitor [IF] PC=000000c8  INSTR=41598fb3  [SUB  x31, x19, x21]            
# UVM_INFO C:/Documents/DoAnThietKeViMach/Project/SoC/VERIFICATION/Monitor/cpu_monitor.sv(296) @ 3795000: uvm_test_top.env.agent.monitor [WB] x08 <= 000000c4  (PC~000000c8)
# UVM_INFO C:/Documents/DoAnThietKeViMach/Project/SoC/VERIFICATION/Monitor/cpu_monitor.sv(364) @ 3835000: uvm_test_top.env.agent.monitor [AXI_RD] CPU <- IRAM  Addr=000000cc Data=0141a023 RRESP=00
# UVM_INFO C:/Documents/DoAnThietKeViMach/Project/SoC/VERIFICATION/Monitor/cpu_monitor.sv(234) @ 3835000: uvm_test_top.env.agent.monitor [IF] PC=000000cc  INSTR=0141a023  [SW   x20, 20(x3)]            
# UVM_INFO C:/Documents/DoAnThietKeViMach/Project/SoC/VERIFICATION/Monitor/cpu_monitor.sv(268) @ 3845000: uvm_test_top.env.agent.monitor [MEM] STORE Addr=40000000 Data=00000060
# UVM_INFO C:/Documents/DoAnThietKeViMach/Project/SoC/VERIFICATION/Monitor/cpu_monitor.sv(268) @ 3855000: uvm_test_top.env.agent.monitor [MEM] STORE Addr=40000000 Data=00000060
# UVM_INFO C:/Documents/DoAnThietKeViMach/Project/SoC/VERIFICATION/Monitor/cpu_monitor.sv(268) @ 3865000: uvm_test_top.env.agent.monitor [MEM] STORE Addr=40000000 Data=00000060
# UVM_INFO C:/Documents/DoAnThietKeViMach/Project/SoC/VERIFICATION/Monitor/cpu_monitor.sv(335) @ 3875000: uvm_test_top.env.agent.monitor [AXI_WR] CPU -> SPI  Addr=40000000 Data=00000060 Strb=1111 BRESP=00
# UVM_INFO C:/Documents/DoAnThietKeViMach/Project/SoC/VERIFICATION/Scoreboard/cpu_scoreboard.sv(246) @ 3875000: uvm_test_top.env.scoreboard [SCB_PERIPH] [SPI] WRITE Addr=40000000 Data=00000060
# UVM_INFO C:/Documents/DoAnThietKeViMach/Project/SoC/VERIFICATION/Monitor/cpu_monitor.sv(268) @ 3875000: uvm_test_top.env.agent.monitor [MEM] STORE Addr=40000000 Data=00000060
# UVM_INFO C:/Documents/DoAnThietKeViMach/Project/SoC/VERIFICATION/Monitor/cpu_monitor.sv(268) @ 3885000: uvm_test_top.env.agent.monitor [MEM] STORE Addr=40000000 Data=00000060
# UVM_INFO C:/Documents/DoAnThietKeViMach/Project/SoC/VERIFICATION/Monitor/cpu_monitor.sv(268) @ 3895000: uvm_test_top.env.agent.monitor [MEM] STORE Addr=40000000 Data=00000060
# UVM_INFO C:/Documents/DoAnThietKeViMach/Project/SoC/VERIFICATION/Monitor/cpu_monitor.sv(268) @ 3905000: uvm_test_top.env.agent.monitor [MEM] STORE Addr=40000000 Data=00000060
# UVM_INFO C:/Documents/DoAnThietKeViMach/Project/SoC/VERIFICATION/Monitor/cpu_monitor.sv(364) @ 3915000: uvm_test_top.env.agent.monitor [AXI_RD] CPU <- IRAM  Addr=000000d0 Data=0041a003 RRESP=00
# UVM_INFO C:/Documents/DoAnThietKeViMach/Project/SoC/VERIFICATION/Monitor/cpu_monitor.sv(234) @ 3915000: uvm_test_top.env.agent.monitor [IF] PC=000000d0  INSTR=0041a003  [LW   x0, 4(x3)]            
# UVM_INFO C:/Documents/DoAnThietKeViMach/Project/SoC/VERIFICATION/Monitor/cpu_monitor.sv(268) @ 3915000: uvm_test_top.env.agent.monitor [MEM] STORE Addr=40000000 Data=00000060
# UVM_INFO C:/Documents/DoAnThietKeViMach/Project/SoC/VERIFICATION/Monitor/cpu_monitor.sv(364) @ 3955000: uvm_test_top.env.agent.monitor [AXI_RD] CPU <- IRAM  Addr=000000d4 Data=00412f03 RRESP=00
# UVM_INFO C:/Documents/DoAnThietKeViMach/Project/SoC/VERIFICATION/Monitor/cpu_monitor.sv(234) @ 3955000: uvm_test_top.env.agent.monitor [IF] PC=000000d4  INSTR=00412f03  [LW   x30, 4(x2)]            
# UVM_INFO C:/Documents/DoAnThietKeViMach/Project/SoC/VERIFICATION/Monitor/cpu_monitor.sv(268) @ 3965000: uvm_test_top.env.agent.monitor [MEM] STORE Addr=30000000 Data=00000000
# UVM_INFO C:/Documents/DoAnThietKeViMach/Project/SoC/VERIFICATION/Monitor/cpu_monitor.sv(268) @ 3975000: uvm_test_top.env.agent.monitor [MEM] STORE Addr=30000000 Data=00000000
# UVM_INFO C:/Documents/DoAnThietKeViMach/Project/SoC/VERIFICATION/Monitor/cpu_monitor.sv(268) @ 3985000: uvm_test_top.env.agent.monitor [MEM] STORE Addr=30000000 Data=00000000
# UVM_INFO C:/Documents/DoAnThietKeViMach/Project/SoC/VERIFICATION/Monitor/cpu_monitor.sv(335) @ 3995000: uvm_test_top.env.agent.monitor [AXI_WR] CPU -> UART  Addr=30000000 Data=00000000 Strb=1111 BRESP=00
# UVM_INFO C:/Documents/DoAnThietKeViMach/Project/SoC/VERIFICATION/Scoreboard/cpu_scoreboard.sv(246) @ 3995000: uvm_test_top.env.scoreboard [SCB_PERIPH] [UART] WRITE Addr=30000000 Data=00000000
# UVM_INFO C:/Documents/DoAnThietKeViMach/Project/SoC/VERIFICATION/Monitor/cpu_monitor.sv(268) @ 3995000: uvm_test_top.env.agent.monitor [MEM] STORE Addr=30000000 Data=00000000
# UVM_INFO C:/Documents/DoAnThietKeViMach/Project/SoC/VERIFICATION/Monitor/cpu_monitor.sv(296) @ 3995000: uvm_test_top.env.agent.monitor [WB] x31 <= 00000000  (PC~000000d4)
# UVM_INFO C:/Documents/DoAnThietKeViMach/Project/SoC/VERIFICATION/Monitor/cpu_monitor.sv(268) @ 4005000: uvm_test_top.env.agent.monitor [MEM] STORE Addr=30000000 Data=00000000
# UVM_INFO C:/Documents/DoAnThietKeViMach/Project/SoC/VERIFICATION/Monitor/cpu_monitor.sv(296) @ 4005000: uvm_test_top.env.agent.monitor [WB] x31 <= 00000000  (PC~000000d4)
# UVM_INFO C:/Documents/DoAnThietKeViMach/Project/SoC/VERIFICATION/Monitor/cpu_monitor.sv(268) @ 4015000: uvm_test_top.env.agent.monitor [MEM] STORE Addr=30000000 Data=00000000
# UVM_INFO C:/Documents/DoAnThietKeViMach/Project/SoC/VERIFICATION/Monitor/cpu_monitor.sv(296) @ 4015000: uvm_test_top.env.agent.monitor [WB] x31 <= 00000000  (PC~000000d4)
# UVM_INFO C:/Documents/DoAnThietKeViMach/Project/SoC/VERIFICATION/Monitor/cpu_monitor.sv(268) @ 4025000: uvm_test_top.env.agent.monitor [MEM] STORE Addr=30000000 Data=00000000
# UVM_INFO C:/Documents/DoAnThietKeViMach/Project/SoC/VERIFICATION/Monitor/cpu_monitor.sv(296) @ 4025000: uvm_test_top.env.agent.monitor [WB] x31 <= 00000000  (PC~000000d4)
# UVM_INFO C:/Documents/DoAnThietKeViMach/Project/SoC/VERIFICATION/Monitor/cpu_monitor.sv(364) @ 4035000: uvm_test_top.env.agent.monitor [AXI_RD] CPU <- IRAM  Addr=000000d8 Data=00822003 RRESP=00
# UVM_INFO C:/Documents/DoAnThietKeViMach/Project/SoC/VERIFICATION/Monitor/cpu_monitor.sv(234) @ 4035000: uvm_test_top.env.agent.monitor [IF] PC=000000d8  INSTR=00822003  [LW   x0, 8(x4)]            
# UVM_INFO C:/Documents/DoAnThietKeViMach/Project/SoC/VERIFICATION/Monitor/cpu_monitor.sv(268) @ 4035000: uvm_test_top.env.agent.monitor [MEM] STORE Addr=30000000 Data=00000000
# UVM_INFO C:/Documents/DoAnThietKeViMach/Project/SoC/VERIFICATION/Monitor/cpu_monitor.sv(296) @ 4035000: uvm_test_top.env.agent.monitor [WB] x31 <= 00000000  (PC~000000d8)
# UVM_INFO C:/Documents/DoAnThietKeViMach/Project/SoC/VERIFICATION/Monitor/cpu_monitor.sv(364) @ 4075000: uvm_test_top.env.agent.monitor [AXI_RD] CPU <- UART  Addr=30000004 Data=000000xx RRESP=00
# UVM_INFO C:/Documents/DoAnThietKeViMach/Project/SoC/VERIFICATION/Scoreboard/cpu_scoreboard.sv(252) @ 4075000: uvm_test_top.env.scoreboard [SCB_PERIPH] [UART] READ Addr=30000004 Data=00000000 (volatile, compare skipped)
# UVM_INFO C:/Documents/DoAnThietKeViMach/Project/SoC/VERIFICATION/Monitor/cpu_monitor.sv(364) @ 4115000: uvm_test_top.env.agent.monitor [AXI_RD] CPU <- IRAM  Addr=000000dc Data=0040076f RRESP=00
# UVM_INFO C:/Documents/DoAnThietKeViMach/Project/SoC/VERIFICATION/Monitor/cpu_monitor.sv(234) @ 4115000: uvm_test_top.env.agent.monitor [IF] PC=000000dc  INSTR=0040076f  [JAL  x14, ...]            
# UVM_INFO C:/Documents/DoAnThietKeViMach/Project/SoC/VERIFICATION/Monitor/cpu_monitor.sv(364) @ 4155000: uvm_test_top.env.agent.monitor [AXI_RD] CPU <- TIMER  Addr=20000004 Data=00000060 RRESP=00
# UVM_INFO C:/Documents/DoAnThietKeViMach/Project/SoC/VERIFICATION/Scoreboard/cpu_scoreboard.sv(126) @ 4155000: uvm_test_top.env.scoreboard [SCB_PASS] [TIMER] READ PASS Addr=20000004 Expected=00000060 Got=00000060
# UVM_INFO C:/Documents/DoAnThietKeViMach/Project/SoC/VERIFICATION/Monitor/cpu_monitor.sv(364) @ 4195000: uvm_test_top.env.agent.monitor [AXI_RD] CPU <- IRAM  Addr=000000e0 Data=40cad5b3 RRESP=00
# UVM_INFO C:/Documents/DoAnThietKeViMach/Project/SoC/VERIFICATION/Monitor/cpu_monitor.sv(364) @ 4235000: uvm_test_top.env.agent.monitor [AXI_RD] CPU <- SPI  Addr=40000008 Data=00000000 RRESP=00
# UVM_INFO C:/Documents/DoAnThietKeViMach/Project/SoC/VERIFICATION/Scoreboard/cpu_scoreboard.sv(252) @ 4235000: uvm_test_top.env.scoreboard [SCB_PERIPH] [SPI] READ Addr=40000008 Data=00000000 (volatile, compare skipped)
# UVM_INFO C:/Documents/DoAnThietKeViMach/Project/SoC/VERIFICATION/Monitor/cpu_monitor.sv(296) @ 4235000: uvm_test_top.env.agent.monitor [WB] x30 <= 00000060  (PC~000000dc)
# UVM_INFO C:/Documents/DoAnThietKeViMach/Project/SoC/VERIFICATION/Monitor/cpu_monitor.sv(296) @ 4245000: uvm_test_top.env.agent.monitor [WB] x30 <= 00000060  (PC~000000dc)
# UVM_INFO C:/Documents/DoAnThietKeViMach/Project/SoC/VERIFICATION/Monitor/cpu_monitor.sv(296) @ 4255000: uvm_test_top.env.agent.monitor [WB] x30 <= 00000060  (PC~000000dc)
# UVM_INFO C:/Documents/DoAnThietKeViMach/Project/SoC/VERIFICATION/Monitor/cpu_monitor.sv(296) @ 4265000: uvm_test_top.env.agent.monitor [WB] x30 <= 00000060  (PC~000000dc)
# UVM_INFO C:/Documents/DoAnThietKeViMach/Project/SoC/VERIFICATION/Monitor/cpu_monitor.sv(364) @ 4275000: uvm_test_top.env.agent.monitor [AXI_RD] CPU <- IRAM  Addr=000000e0 Data=40cad5b3 RRESP=00
# UVM_INFO C:/Documents/DoAnThietKeViMach/Project/SoC/VERIFICATION/Monitor/cpu_monitor.sv(234) @ 4275000: uvm_test_top.env.agent.monitor [IF] PC=000000e0  INSTR=40cad5b3  [SRA  x11, x21, x12]            
# UVM_INFO C:/Documents/DoAnThietKeViMach/Project/SoC/VERIFICATION/Monitor/cpu_monitor.sv(296) @ 4275000: uvm_test_top.env.agent.monitor [WB] x30 <= 00000060  (PC~000000e0)
# UVM_INFO C:/Documents/DoAnThietKeViMach/Project/SoC/VERIFICATION/Monitor/cpu_monitor.sv(364) @ 4315000: uvm_test_top.env.agent.monitor [AXI_RD] CPU <- IRAM  Addr=000000e4 Data=8c2cc793 RRESP=00
# UVM_INFO C:/Documents/DoAnThietKeViMach/Project/SoC/VERIFICATION/Monitor/cpu_monitor.sv(234) @ 4315000: uvm_test_top.env.agent.monitor [IF] PC=000000e4  INSTR=8c2cc793  [XORI x15, x25, -1854]            
# UVM_INFO C:/Documents/DoAnThietKeViMach/Project/SoC/VERIFICATION/Monitor/cpu_monitor.sv(364) @ 4355000: uvm_test_top.env.agent.monitor [AXI_RD] CPU <- IRAM  Addr=000000e0 Data=40cad5b3 RRESP=00
# UVM_INFO C:/Documents/DoAnThietKeViMach/Project/SoC/VERIFICATION/Monitor/cpu_monitor.sv(234) @ 4355000: uvm_test_top.env.agent.monitor [IF] PC=000000e0  INSTR=40cad5b3  [SRA  x11, x21, x12]            
# UVM_INFO C:/Documents/DoAnThietKeViMach/Project/SoC/VERIFICATION/Monitor/cpu_monitor.sv(296) @ 4365000: uvm_test_top.env.agent.monitor [WB] x14 <= 000000e0  (PC~000000e0)
# UVM_INFO C:/Documents/DoAnThietKeViMach/Project/SoC/VERIFICATION/Monitor/cpu_monitor.sv(296) @ 4375000: uvm_test_top.env.agent.monitor [WB] x14 <= 000000e0  (PC~000000e0)
# UVM_INFO C:/Documents/DoAnThietKeViMach/Project/SoC/VERIFICATION/Monitor/cpu_monitor.sv(296) @ 4385000: uvm_test_top.env.agent.monitor [WB] x14 <= 000000e0  (PC~000000e0)
# UVM_INFO C:/Documents/DoAnThietKeViMach/Project/SoC/VERIFICATION/Monitor/cpu_monitor.sv(364) @ 4395000: uvm_test_top.env.agent.monitor [AXI_RD] CPU <- IRAM  Addr=000000e4 Data=8c2cc793 RRESP=00
# UVM_INFO C:/Documents/DoAnThietKeViMach/Project/SoC/VERIFICATION/Monitor/cpu_monitor.sv(234) @ 4395000: uvm_test_top.env.agent.monitor [IF] PC=000000e4  INSTR=8c2cc793  [XORI x15, x25, -1854]            
# UVM_INFO C:/Documents/DoAnThietKeViMach/Project/SoC/VERIFICATION/Monitor/cpu_monitor.sv(296) @ 4395000: uvm_test_top.env.agent.monitor [WB] x14 <= 000000e0  (PC~000000e4)
# UVM_INFO C:/Documents/DoAnThietKeViMach/Project/SoC/VERIFICATION/Monitor/cpu_monitor.sv(364) @ 4435000: uvm_test_top.env.agent.monitor [AXI_RD] CPU <- IRAM  Addr=000000e8 Data=01312023 RRESP=00
# UVM_INFO C:/Documents/DoAnThietKeViMach/Project/SoC/VERIFICATION/Monitor/cpu_monitor.sv(234) @ 4435000: uvm_test_top.env.agent.monitor [IF] PC=000000e8  INSTR=01312023  [SW   x19, 19(x2)]            
# UVM_INFO C:/Documents/DoAnThietKeViMach/Project/SoC/VERIFICATION/Monitor/cpu_monitor.sv(364) @ 4475000: uvm_test_top.env.agent.monitor [AXI_RD] CPU <- IRAM  Addr=000000ec Data=01b68a33 RRESP=00
# UVM_INFO C:/Documents/DoAnThietKeViMach/Project/SoC/VERIFICATION/Monitor/cpu_monitor.sv(234) @ 4475000: uvm_test_top.env.agent.monitor [IF] PC=000000ec  INSTR=01b68a33  [ADD  x20, x13, x27]            
# UVM_INFO C:/Documents/DoAnThietKeViMach/Project/SoC/VERIFICATION/Monitor/cpu_monitor.sv(296) @ 4485000: uvm_test_top.env.agent.monitor [WB] x11 <= 00000000  (PC~000000ec)
# UVM_INFO C:/Documents/DoAnThietKeViMach/Project/SoC/VERIFICATION/Monitor/cpu_monitor.sv(296) @ 4495000: uvm_test_top.env.agent.monitor [WB] x11 <= 00000000  (PC~000000ec)
# UVM_INFO C:/Documents/DoAnThietKeViMach/Project/SoC/VERIFICATION/Monitor/cpu_monitor.sv(296) @ 4505000: uvm_test_top.env.agent.monitor [WB] x11 <= 00000000  (PC~000000ec)
# UVM_INFO C:/Documents/DoAnThietKeViMach/Project/SoC/VERIFICATION/Monitor/cpu_monitor.sv(364) @ 4515000: uvm_test_top.env.agent.monitor [AXI_RD] CPU <- IRAM  Addr=000000f0 Data=00000263 RRESP=00
# UVM_INFO C:/Documents/DoAnThietKeViMach/Project/SoC/VERIFICATION/Monitor/cpu_monitor.sv(234) @ 4515000: uvm_test_top.env.agent.monitor [IF] PC=000000f0  INSTR=00000263  [BEQ  x0, x0, ...]            
# UVM_INFO C:/Documents/DoAnThietKeViMach/Project/SoC/VERIFICATION/Monitor/cpu_monitor.sv(296) @ 4515000: uvm_test_top.env.agent.monitor [WB] x11 <= 00000000  (PC~000000f0)
# UVM_INFO C:/Documents/DoAnThietKeViMach/Project/SoC/VERIFICATION/Monitor/cpu_monitor.sv(268) @ 4525000: uvm_test_top.env.agent.monitor [MEM] STORE Addr=20000000 Data=00000000
# UVM_INFO C:/Documents/DoAnThietKeViMach/Project/SoC/VERIFICATION/Monitor/cpu_monitor.sv(268) @ 4535000: uvm_test_top.env.agent.monitor [MEM] STORE Addr=20000000 Data=00000000
# UVM_INFO C:/Documents/DoAnThietKeViMach/Project/SoC/VERIFICATION/Monitor/cpu_monitor.sv(268) @ 4545000: uvm_test_top.env.agent.monitor [MEM] STORE Addr=20000000 Data=00000000
# UVM_INFO C:/Documents/DoAnThietKeViMach/Project/SoC/VERIFICATION/Monitor/cpu_monitor.sv(268) @ 4555000: uvm_test_top.env.agent.monitor [MEM] STORE Addr=20000000 Data=00000000
# UVM_INFO C:/Documents/DoAnThietKeViMach/Project/SoC/VERIFICATION/Monitor/cpu_monitor.sv(335) @ 4565000: uvm_test_top.env.agent.monitor [AXI_WR] CPU -> TIMER  Addr=20000000 Data=00000000 Strb=1111 BRESP=00
# UVM_INFO C:/Documents/DoAnThietKeViMach/Project/SoC/VERIFICATION/Scoreboard/cpu_scoreboard.sv(246) @ 4565000: uvm_test_top.env.scoreboard [SCB_PERIPH] [TIMER] WRITE Addr=20000000 Data=00000000
# UVM_INFO C:/Documents/DoAnThietKeViMach/Project/SoC/VERIFICATION/Monitor/cpu_monitor.sv(268) @ 4565000: uvm_test_top.env.agent.monitor [MEM] STORE Addr=20000000 Data=00000000
# UVM_INFO C:/Documents/DoAnThietKeViMach/Project/SoC/VERIFICATION/Monitor/cpu_monitor.sv(296) @ 4565000: uvm_test_top.env.agent.monitor [WB] x15 <= fffff8c2  (PC~000000f0)
# UVM_INFO C:/Documents/DoAnThietKeViMach/Project/SoC/VERIFICATION/Monitor/cpu_monitor.sv(268) @ 4575000: uvm_test_top.env.agent.monitor [MEM] STORE Addr=20000000 Data=00000000
# UVM_INFO C:/Documents/DoAnThietKeViMach/Project/SoC/VERIFICATION/Monitor/cpu_monitor.sv(296) @ 4575000: uvm_test_top.env.agent.monitor [WB] x15 <= fffff8c2  (PC~000000f0)
# UVM_INFO C:/Documents/DoAnThietKeViMach/Project/SoC/VERIFICATION/Monitor/cpu_monitor.sv(268) @ 4585000: uvm_test_top.env.agent.monitor [MEM] STORE Addr=20000000 Data=00000000
# UVM_INFO C:/Documents/DoAnThietKeViMach/Project/SoC/VERIFICATION/Monitor/cpu_monitor.sv(296) @ 4585000: uvm_test_top.env.agent.monitor [WB] x15 <= fffff8c2  (PC~000000f0)
# UVM_INFO C:/Documents/DoAnThietKeViMach/Project/SoC/VERIFICATION/Monitor/cpu_monitor.sv(268) @ 4595000: uvm_test_top.env.agent.monitor [MEM] STORE Addr=20000000 Data=00000000
# UVM_INFO C:/Documents/DoAnThietKeViMach/Project/SoC/VERIFICATION/Monitor/cpu_monitor.sv(296) @ 4595000: uvm_test_top.env.agent.monitor [WB] x15 <= fffff8c2  (PC~000000f0)
# UVM_INFO C:/Documents/DoAnThietKeViMach/Project/SoC/VERIFICATION/Monitor/cpu_monitor.sv(364) @ 4605000: uvm_test_top.env.agent.monitor [AXI_RD] CPU <- IRAM  Addr=000000f4 Data=01e04263 RRESP=00
# UVM_INFO C:/Documents/DoAnThietKeViMach/Project/SoC/VERIFICATION/Monitor/cpu_monitor.sv(234) @ 4605000: uvm_test_top.env.agent.monitor [IF] PC=000000f4  INSTR=01e04263  [BLT  x0, x30, ...]            
# UVM_INFO C:/Documents/DoAnThietKeViMach/Project/SoC/VERIFICATION/Monitor/cpu_monitor.sv(268) @ 4605000: uvm_test_top.env.agent.monitor [MEM] STORE Addr=20000000 Data=00000000
# UVM_INFO C:/Documents/DoAnThietKeViMach/Project/SoC/VERIFICATION/Monitor/cpu_monitor.sv(296) @ 4605000: uvm_test_top.env.agent.monitor [WB] x15 <= fffff8c2  (PC~000000f4)
# UVM_INFO C:/Documents/DoAnThietKeViMach/Project/SoC/VERIFICATION/Monitor/cpu_monitor.sv(364) @ 4645000: uvm_test_top.env.agent.monitor [AXI_RD] CPU <- IRAM  Addr=000000f8 Data=1200af83 RRESP=00
# UVM_INFO C:/Documents/DoAnThietKeViMach/Project/SoC/VERIFICATION/Monitor/cpu_monitor.sv(234) @ 4645000: uvm_test_top.env.agent.monitor [IF] PC=000000f8  INSTR=1200af83  [LW   x31, 288(x1)]            
# UVM_INFO C:/Documents/DoAnThietKeViMach/Project/SoC/VERIFICATION/Monitor/cpu_monitor.sv(296) @ 4655000: uvm_test_top.env.agent.monitor [WB] x20 <= 00000000  (PC~000000f8)
# UVM_INFO C:/Documents/DoAnThietKeViMach/Project/SoC/VERIFICATION/Monitor/cpu_monitor.sv(296) @ 4665000: uvm_test_top.env.agent.monitor [WB] x20 <= 00000000  (PC~000000f8)
# UVM_INFO C:/Documents/DoAnThietKeViMach/Project/SoC/VERIFICATION/Monitor/cpu_monitor.sv(296) @ 4675000: uvm_test_top.env.agent.monitor [WB] x20 <= 00000000  (PC~000000f8)
# UVM_INFO C:/Documents/DoAnThietKeViMach/Project/SoC/VERIFICATION/Monitor/cpu_monitor.sv(364) @ 4685000: uvm_test_top.env.agent.monitor [AXI_RD] CPU <- IRAM  Addr=000000f4 Data=01e04263 RRESP=00
# UVM_INFO C:/Documents/DoAnThietKeViMach/Project/SoC/VERIFICATION/Monitor/cpu_monitor.sv(234) @ 4685000: uvm_test_top.env.agent.monitor [IF] PC=000000f4  INSTR=01e04263  [BLT  x0, x30, ...]            
# UVM_INFO C:/Documents/DoAnThietKeViMach/Project/SoC/VERIFICATION/Monitor/cpu_monitor.sv(296) @ 4685000: uvm_test_top.env.agent.monitor [WB] x20 <= 00000000  (PC~000000f4)
# UVM_INFO C:/Documents/DoAnThietKeViMach/Project/SoC/VERIFICATION/Monitor/cpu_monitor.sv(364) @ 4725000: uvm_test_top.env.agent.monitor [AXI_RD] CPU <- IRAM  Addr=000000f8 Data=1200af83 RRESP=00
# UVM_INFO C:/Documents/DoAnThietKeViMach/Project/SoC/VERIFICATION/Monitor/cpu_monitor.sv(234) @ 4725000: uvm_test_top.env.agent.monitor [IF] PC=000000f8  INSTR=1200af83  [LW   x31, 288(x1)]            
# UVM_INFO C:/Documents/DoAnThietKeViMach/Project/SoC/VERIFICATION/Monitor/cpu_monitor.sv(364) @ 4765000: uvm_test_top.env.agent.monitor [AXI_RD] CPU <- IRAM  Addr=000000fc Data=01622223 RRESP=00
# UVM_INFO C:/Documents/DoAnThietKeViMach/Project/SoC/VERIFICATION/Monitor/cpu_monitor.sv(234) @ 4765000: uvm_test_top.env.agent.monitor [IF] PC=000000fc  INSTR=01622223  [SW   x22, 22(x4)]            
# UVM_INFO C:/Documents/DoAnThietKeViMach/Project/SoC/VERIFICATION/Monitor/cpu_monitor.sv(364) @ 4805000: uvm_test_top.env.agent.monitor [AXI_RD] CPU <- IRAM  Addr=000000f8 Data=1200af83 RRESP=00
# UVM_INFO C:/Documents/DoAnThietKeViMach/Project/SoC/VERIFICATION/Monitor/cpu_monitor.sv(234) @ 4805000: uvm_test_top.env.agent.monitor [IF] PC=000000f8  INSTR=1200af83  [LW   x31, 288(x1)]            
# UVM_INFO C:/Documents/DoAnThietKeViMach/Project/SoC/VERIFICATION/Monitor/cpu_monitor.sv(364) @ 4845000: uvm_test_top.env.agent.monitor [AXI_RD] CPU <- IRAM  Addr=000000fc Data=01622223 RRESP=00
# UVM_INFO C:/Documents/DoAnThietKeViMach/Project/SoC/VERIFICATION/Monitor/cpu_monitor.sv(234) @ 4845000: uvm_test_top.env.agent.monitor [IF] PC=000000fc  INSTR=01622223  [SW   x22, 22(x4)]            
# UVM_INFO C:/Documents/DoAnThietKeViMach/Project/SoC/VERIFICATION/Monitor/cpu_monitor.sv(364) @ 4885000: uvm_test_top.env.agent.monitor [AXI_RD] CPU <- IRAM  Addr=00000100 Data=00422383 RRESP=00
# UVM_INFO C:/Documents/DoAnThietKeViMach/Project/SoC/VERIFICATION/Monitor/cpu_monitor.sv(234) @ 4885000: uvm_test_top.env.agent.monitor [IF] PC=00000100  INSTR=00422383  [LW   x7, 4(x4)]            
# [DRAM READ] addr=10000120 data=00000000
# UVM_INFO C:/Documents/DoAnThietKeViMach/Project/SoC/VERIFICATION/Monitor/cpu_monitor.sv(364) @ 4925000: uvm_test_top.env.agent.monitor [AXI_RD] CPU <- DRAM  Addr=10000120 Data=00000000 RRESP=00
# UVM_INFO C:/Documents/DoAnThietKeViMach/Project/SoC/VERIFICATION/Scoreboard/cpu_scoreboard.sv(126) @ 4925000: uvm_test_top.env.scoreboard [SCB_PASS] [DRAM] READ PASS Addr=10000120 Expected=00000000 Got=00000000
# UVM_INFO C:/Documents/DoAnThietKeViMach/Project/SoC/VERIFICATION/Monitor/cpu_monitor.sv(364) @ 4965000: uvm_test_top.env.agent.monitor [AXI_RD] CPU <- IRAM  Addr=00000104 Data=0071a623 RRESP=00
# UVM_INFO C:/Documents/DoAnThietKeViMach/Project/SoC/VERIFICATION/Monitor/cpu_monitor.sv(234) @ 4965000: uvm_test_top.env.agent.monitor [IF] PC=00000104  INSTR=0071a623  [SW   x7, 7(x3)]            
# UVM_INFO C:/Documents/DoAnThietKeViMach/Project/SoC/VERIFICATION/Monitor/cpu_monitor.sv(268) @ 4975000: uvm_test_top.env.agent.monitor [MEM] STORE Addr=40000004 Data=00000000
# UVM_INFO C:/Documents/DoAnThietKeViMach/Project/SoC/VERIFICATION/Monitor/cpu_monitor.sv(268) @ 4985000: uvm_test_top.env.agent.monitor [MEM] STORE Addr=40000004 Data=00000000
# UVM_INFO C:/Documents/DoAnThietKeViMach/Project/SoC/VERIFICATION/Monitor/cpu_monitor.sv(268) @ 4995000: uvm_test_top.env.agent.monitor [MEM] STORE Addr=40000004 Data=00000000
# UVM_INFO C:/Documents/DoAnThietKeViMach/Project/SoC/VERIFICATION/Monitor/cpu_monitor.sv(335) @ 5005000: uvm_test_top.env.agent.monitor [AXI_WR] CPU -> SPI  Addr=40000004 Data=00000000 Strb=1111 BRESP=00
# UVM_INFO C:/Documents/DoAnThietKeViMach/Project/SoC/VERIFICATION/Scoreboard/cpu_scoreboard.sv(246) @ 5005000: uvm_test_top.env.scoreboard [SCB_PERIPH] [SPI] WRITE Addr=40000004 Data=00000000
# UVM_INFO C:/Documents/DoAnThietKeViMach/Project/SoC/VERIFICATION/Monitor/cpu_monitor.sv(268) @ 5005000: uvm_test_top.env.agent.monitor [MEM] STORE Addr=40000004 Data=00000000
# UVM_INFO C:/Documents/DoAnThietKeViMach/Project/SoC/VERIFICATION/Monitor/cpu_monitor.sv(296) @ 5005000: uvm_test_top.env.agent.monitor [WB] x31 <= 00000000  (PC~00000104)
# UVM_INFO C:/Documents/DoAnThietKeViMach/Project/SoC/VERIFICATION/Monitor/cpu_monitor.sv(268) @ 5015000: uvm_test_top.env.agent.monitor [MEM] STORE Addr=40000004 Data=00000000
# UVM_INFO C:/Documents/DoAnThietKeViMach/Project/SoC/VERIFICATION/Monitor/cpu_monitor.sv(296) @ 5015000: uvm_test_top.env.agent.monitor [WB] x31 <= 00000000  (PC~00000104)
# UVM_INFO C:/Documents/DoAnThietKeViMach/Project/SoC/VERIFICATION/Monitor/cpu_monitor.sv(268) @ 5025000: uvm_test_top.env.agent.monitor [MEM] STORE Addr=40000004 Data=00000000
# UVM_INFO C:/Documents/DoAnThietKeViMach/Project/SoC/VERIFICATION/Monitor/cpu_monitor.sv(296) @ 5025000: uvm_test_top.env.agent.monitor [WB] x31 <= 00000000  (PC~00000104)
# UVM_INFO C:/Documents/DoAnThietKeViMach/Project/SoC/VERIFICATION/Monitor/cpu_monitor.sv(268) @ 5035000: uvm_test_top.env.agent.monitor [MEM] STORE Addr=40000004 Data=00000000
# UVM_INFO C:/Documents/DoAnThietKeViMach/Project/SoC/VERIFICATION/Monitor/cpu_monitor.sv(296) @ 5035000: uvm_test_top.env.agent.monitor [WB] x31 <= 00000000  (PC~00000104)
# UVM_INFO C:/Documents/DoAnThietKeViMach/Project/SoC/VERIFICATION/Monitor/cpu_monitor.sv(364) @ 5045000: uvm_test_top.env.agent.monitor [AXI_RD] CPU <- IRAM  Addr=00000108 Data=00005263 RRESP=00
# UVM_INFO C:/Documents/DoAnThietKeViMach/Project/SoC/VERIFICATION/Monitor/cpu_monitor.sv(268) @ 5045000: uvm_test_top.env.agent.monitor [MEM] STORE Addr=40000004 Data=00000000
# UVM_INFO C:/Documents/DoAnThietKeViMach/Project/SoC/VERIFICATION/Monitor/cpu_monitor.sv(296) @ 5045000: uvm_test_top.env.agent.monitor [WB] x31 <= 00000000  (PC~00000104)
# UVM_INFO C:/Documents/DoAnThietKeViMach/Project/SoC/VERIFICATION/Monitor/cpu_monitor.sv(364) @ 5085000: uvm_test_top.env.agent.monitor [AXI_RD] CPU <- SPI  Addr=40000004 Data=00000000 RRESP=00
# UVM_INFO C:/Documents/DoAnThietKeViMach/Project/SoC/VERIFICATION/Scoreboard/cpu_scoreboard.sv(126) @ 5085000: uvm_test_top.env.scoreboard [SCB_PASS] [SPI] READ PASS Addr=40000004 Expected=00000000 Got=00000000
# UVM_INFO C:/Documents/DoAnThietKeViMach/Project/SoC/VERIFICATION/Monitor/cpu_monitor.sv(364) @ 5125000: uvm_test_top.env.agent.monitor [AXI_RD] CPU <- IRAM  Addr=00000108 Data=00005263 RRESP=00
