--- [SIM ONLY] axi_multi_slaves_test ---
MODE = UVM_MASTER
Reading C:/app/QuestaSim/tcl/vsim/pref.tcl 

# 10.2c

# vsim +UVM_TESTNAME=axi_multi_slaves_test +UVM_MASTER +MEM_SEED=349289174 -coverage -do {run -all; quit} -c -sv_seed 349289174 vopt_top 
# //  Questa Sim-64
# //  Version 10.2c Unknown Platform Jul 19 2013
# //
# //  Copyright 1991-2013 Mentor Graphics Corporation
# //  All Rights Reserved.
# //
# //  THIS WORK CONTAINS TRADE SECRET AND PROPRIETARY INFORMATION
# //  WHICH IS THE PROPERTY OF MENTOR GRAPHICS CORPORATION OR ITS
# //  LICENSORS AND IS SUBJECT TO LICENSE TERMS.
# //
# Loading sv_std.std
# Loading mtiUvm.uvm_pkg
# Loading work.soc_pkg(fast)
# Loading work.top_tb(fast)
# Loading work.clk_rst_inf(fast)
# Loading work.soc_inf(fast)
# Loading work.cpu_monitor_inf(fast)
# Loading work.TOP(fast)
# Loading work.AXI_Master(fast)
# Loading work.CPU(fast)
# Loading work.pc_reg(fast)
# Loading work.IF_ID(fast)
# Loading work.ControlUnit(fast)
# Loading work.MainDecoder(fast)
# Loading work.ALUControl(fast)
# Loading work.RegFile(fast)
# Loading work.signExtend(fast)
# Loading work.ID_EX(fast)
# Loading work.ALU(fast)
# Loading work.EX_MEM(fast)
# Loading work.MEM_WB(fast)
# Loading work.HazardUnit(fast)
# Loading work.LSU(fast)
# Loading work.AXI4_Lite_Interconnect(fast)
# Loading work.IRAM(fast)
# Loading work.DRAM(fast)
# Loading work.Timer(fast)
# Loading work.UART(fast)
# Loading work.SPI(fast)
# Loading work.axi4_lite_sva(fast)
# Loading mtiUvm.questa_uvm_pkg(fast)
# Loading C:/app/QuestaSim/uvm-1.1d\win64\uvm_dpi.dll
# run -all 
# ----------------------------------------------------------------
# UVM-1.1d
# (C) 2007-2013 Mentor Graphics Corporation
# (C) 2007-2013 Cadence Design Systems, Inc.
# (C) 2006-2013 Synopsys, Inc.
# (C) 2011-2013 Cypress Semiconductor Corp.
# ----------------------------------------------------------------
# 
#   ***********       IMPORTANT RELEASE NOTES         ************
# 
#   You are using a version of the UVM library that has been compiled
#   with `UVM_NO_DEPRECATED undefined.
#   See http://www.eda.org/svdb/view.php?id=3313 for more details.
# 
#   You are using a version of the UVM library that has been compiled
#   with `UVM_OBJECT_MUST_HAVE_CONSTRUCTOR undefined.
#   See http://www.eda.org/svdb/view.php?id=3770 for more details.
# 
#       (Specify +UVM_NO_RELNOTES to turn off this notice)
# 
# UVM_INFO verilog_src/questa_uvm_pkg-1.2/src/questa_uvm_pkg.sv(215) @ 0: reporter [Questa UVM] QUESTA_UVM-1.2.2
# UVM_INFO verilog_src/questa_uvm_pkg-1.2/src/questa_uvm_pkg.sv(217) @ 0: reporter [Questa UVM]  questa_uvm::init(+struct)
# [IRAM] Loading file: instr.mem
# [IRAM] mem[0] = 100000b7
# [IRAM] mem[1] = 20000137
# [IRAM] mem[2] = 300001b7
# [IRAM] mem[3] = 40000237
# [IRAM] mem[4] = 00d5deb3
# [IRAM] mem[5] = 00007263
# [IRAM] mem[6] = 00007263
# [IRAM] mem[7] = 528faa13
# [IRAM] mem[8] = 2394af13
# [IRAM] mem[9] = 00422d83
# [IRAM] mem[10] = 00d12023
# [IRAM] mem[11] = 00c1a783
# [IRAM] mem[12] = 00422803
# [IRAM] mem[13] = 00c22e03
# [IRAM] mem[14] = 00000263
# [IRAM] mem[15] = 2a1cf413
# [IRAM] mem[16] = 01322223
# [IRAM] mem[17] = 00a1a023
# [IRAM] mem[18] = e8ee7b93
# [IRAM] mem[19] = 6680a823
# [IRAM] mem[20] = 00000263
# [IRAM] mem[21] = b6a94b93
# [IRAM] mem[22] = 00022003
# [IRAM] mem[23] = 00012483
# [IRAM] mem[24] = 0191a023
# [IRAM] mem[25] = 00e66933
# [IRAM] mem[26] = 00005263
# [IRAM] mem[27] = 01712223
# [IRAM] mem[28] = 00a12223
# [IRAM] mem[29] = 00c22803
# [IRAM] mem[30] = 012b2db3
# [IRAM] mem[31] = 00722223
# [IRAM] mem[32] = 01962333
# [IRAM] mem[33] = 00812003
# [IRAM] mem[34] = f9a8e513
# [IRAM] mem[35] = 00000263
# [IRAM] mem[36] = 0a00a283
# [IRAM] mem[37] = 00a47fb3
# [IRAM] mem[38] = 00c12023
# [IRAM] mem[39] = 00007263
# [IRAM] mem[40] = 01806263
# [IRAM] mem[41] = 00522623
# [IRAM] mem[42] = 01d1a023
# [IRAM] mem[43] = 01d22623
# [IRAM] mem[44] = 00c1a603
# [IRAM] mem[45] = 00007263
# [IRAM] mem[46] = 00007263
# [IRAM] mem[47] = 00b01263
# [IRAM] mem[48] = 0041a003
# [IRAM] mem[49] = 0190a423
# [IRAM] mem[50] = 005d69b3
# [IRAM] mem[51] = 00f1a023
# [IRAM] mem[52] = 01d1a023
# [IRAM] mem[53] = 00012803
# [IRAM] mem[54] = 00412683
# [IRAM] mem[55] = 00812003
# [IRAM] mem[56] = 01901263
# [IRAM] mem[57] = 01822623
# [IRAM] mem[58] = 00022003
# [IRAM] mem[59] = 00007263
# [IRAM] mem[60] = 40b90ab3
# [IRAM] mem[61] = 5de0a823
# [IRAM] mem[62] = 01cc0833
# [IRAM] mem[63] = aaf4ec13
# [IRAM] mem[64] = 00af5533
# [IRAM] mem[65] = 00007263
# [IRAM] mem[66] = 0081a003
# [IRAM] mem[67] = 0041a003
# [IRAM] mem[68] = 0081a003
# [IRAM] mem[69] = 01a36633
# [IRAM] mem[70] = 00822003
# [IRAM] mem[71] = babe6f13
# [IRAM] mem[72] = 00f01263
# [IRAM] mem[73] = 01612023
# [IRAM] mem[74] = 00812003
# [IRAM] mem[75] = 00412483
# [IRAM] mem[76] = 0081a003
# [IRAM] mem[77] = 01204263
# [IRAM] mem[78] = 5530a023
# [IRAM] mem[79] = 00022003
# [IRAM] mem[80] = 0040066f
# [IRAM] mem[81] = 9177ac13
# [IRAM] mem[82] = 00ee79b3
# [IRAM] mem[83] = 0127d433
# [IRAM] mem[84] = 03c0a883
# [IRAM] mem[85] = 00812003
# [IRAM] mem[86] = 01704263
# [IRAM] mem[87] = 00e9feb3
# [IRAM] mem[88] = 00501263
# [IRAM] mem[89] = 00d01263
# [IRAM] mem[90] = 00f06263
# [IRAM] mem[91] = 00812003
# [IRAM] mem[92] = 00005263
# [IRAM] mem[93] = 08996a13
# [IRAM] mem[94] = 00822003
# [IRAM] mem[95] = 4080ab83
# [IRAM] mem[96] = 00005263
# [IRAM] mem[97] = 013a5c33
# [IRAM] mem[98] = 01e61a33
# [IRAM] mem[99] = 41d855b3
# [IRAM] mem[100] = 01a385b3
# [IRAM] mem[101] = 014bd3b3
# [IRAM] mem[102] = 01522023
# [IRAM] mem[103] = 4a80a883
# [IRAM] mem[104] = 015a93b3
# [IRAM] mem[105] = 0041a003
# [IRAM] mem[106] = 0081a003
# [IRAM] mem[107] = 01e22023
# [IRAM] mem[108] = 4910ac23
# [IRAM] mem[109] = 01206263
# [IRAM] mem[110] = 004005ef
# [IRAM] mem[111] = 0091a623
# [IRAM] mem[112] = 1f944913
# [IRAM] mem[113] = 00005263
# [IRAM] mem[114] = 01612223
# [IRAM] mem[115] = 01512023
# [IRAM] mem[116] = 00ec1d33
# [IRAM] mem[117] = 14c0aa83
# [IRAM] mem[118] = 2200a583
# [IRAM] mem[119] = 00c1ac83
# [IRAM] mem[120] = 0040046f
# [IRAM] mem[121] = 01c01263
# [IRAM] mem[122] = 00804263
# [IRAM] mem[123] = 00000263
# [IRAM] mem[124] = 0081a003
# [IRAM] mem[125] = 00000263
# [IRAM] mem[126] = 0040036f
# [IRAM] mem[127] = 1700a803
# [IRAM] mem[128] = d8184613
# [IRAM] mem[129] = 00606263
# [IRAM] mem[130] = 00012e03
# [IRAM] mem[131] = 01206263
# [IRAM] mem[132] = 26f0a623
# [IRAM] mem[133] = 004002ef
# [IRAM] mem[134] = 00012303
# [IRAM] mem[135] = 01404263
# [IRAM] mem[136] = 00d489b3
# [IRAM] mem[137] = 00a12223
# [IRAM] mem[138] = 0041a003
# [IRAM] mem[139] = 00412783
# [IRAM] mem[140] = 00005263
# [IRAM] mem[141] = 0041a003
# [IRAM] mem[142] = 00000263
# [IRAM] mem[143] = 00906263
# [IRAM] mem[144] = 00e70e33
# [IRAM] mem[145] = 4f40a783
# [IRAM] mem[146] = 01304263
# [IRAM] mem[147] = 01b1a623
# [IRAM] mem[148] = 00812223
# [IRAM] mem[149] = 00012a83
# [IRAM] mem[150] = 82ec4393
# [IRAM] mem[151] = fb7d4713
# [IRAM] mem[152] = 0111a623
# [IRAM] mem[153] = 00422283
# [IRAM] mem[154] = 01b2c833
# [IRAM] mem[155] = 01d69933
# [IRAM] mem[156] = 0081a003
# [IRAM] mem[157] = 01612223
# [IRAM] mem[158] = 41bb5833
# [IRAM] mem[159] = 01f04263
# [IRAM] mem[160] = 2d40a583
# [IRAM] mem[161] = 168c0f13
# [IRAM] mem[162] = 01659ab3
# [IRAM] mem[163] = 00012c83
# [IRAM] mem[164] = 01104263
# [IRAM] mem[165] = 00812023
# [IRAM] mem[166] = 00412603
# [IRAM] mem[167] = 00c67a33
# [IRAM] mem[168] = 01c22223
# [IRAM] mem[169] = 35bb7613
# [IRAM] mem[170] = 0121a623
# [IRAM] mem[171] = 01b67833
# [IRAM] mem[172] = cbf7a593
# [IRAM] mem[173] = 00812003
# [IRAM] mem[174] = 2e40a603
# [IRAM] mem[175] = 00b1a023
# [IRAM] mem[176] = 00000263
# [IRAM] mem[177] = 78a0aa23
# [IRAM] mem[178] = 00c1a803
# [IRAM] mem[179] = 00c1a983
# [IRAM] mem[180] = f7a97813
# [IRAM] mem[181] = 0041a003
# [IRAM] mem[182] = 0091a623
# [IRAM] mem[183] = b5f72f93
# [IRAM] mem[184] = 844a4293
# [IRAM] mem[185] = 01d1a623
# [IRAM] mem[186] = 3a23a393
# [IRAM] mem[187] = 00c1ad03
# [IRAM] mem[188] = 00412703
# [IRAM] mem[189] = 00412883
# [IRAM] mem[190] = a58f2913
# [IRAM] mem[191] = 0112a533
# [IRAM] mem[192] = 00722023
# [IRAM] mem[193] = 01512023
# [IRAM] mem[194] = 00400def
# [IRAM] mem[195] = 00c22683
# [IRAM] mem[196] = 00005263
# [IRAM] mem[197] = 0040096f
# [IRAM] mem[198] = 01706263
# [IRAM] mem[199] = 00400eef
# [IRAM] Loaded 200 instruction words
# [TB] Mode: UVM MASTER => driver controls AXI bus
# UVM_INFO @ 0: reporter [RNTST] Running test axi_multi_slaves_test...
# ** Warning: (vsim-PLI-8707) No address specified on line 3 of file "instr.mem" 
# 
# while loading into associative array using readmem command.    : C:/Documents/DoAnThietKeViMach/Project/SoC/VERIFICATION/Scoreboard/axi_scoreboard.sv(31)
#    Time: 0 ps  Iteration: 8  Region: /uvm_pkg::uvm_phase::m_run_phases
# UVM_INFO C:/Documents/DoAnThietKeViMach/Project/SoC/VERIFICATION/Sequence/axi_multi_slaves_sequence.sv(38) @ 0: uvm_test_top.env.agent.sequencer@@seq [SEQ] --- Basic AXI4-Lite Multi Slaves ---
# UVM_INFO C:/Documents/DoAnThietKeViMach/Project/SoC/VERIFICATION/Sequence/axi_multi_slaves_sequence.sv(43) @ 0: uvm_test_top.env.agent.sequencer@@seq [SEQ] === TEST 1: Basic DRAM Access ===
# [DRAM WRITE] addr=10000000 data=a5a5a5a5
# UVM_INFO C:/Documents/DoAnThietKeViMach/Project/SoC/VERIFICATION/Monitor/axi_monitor.sv(55) @ 65000: uvm_test_top.env.agent.monitor [MON_WR] Detected WRITE : Addr=10000000 Data=a5a5a5a5 Strb=1111 Prot=000 BResp=00
# UVM_INFO C:/Documents/DoAnThietKeViMach/Project/SoC/VERIFICATION/Driver/axi_driver.sv(63) @ 75000: uvm_test_top.env.agent.driver [DRV] Write Done: Addr=10000000 Data=a5a5a5a5 Prot=000
# [DRAM WRITE] addr=10000004 data=5a5a5a5a
# UVM_INFO C:/Documents/DoAnThietKeViMach/Project/SoC/VERIFICATION/Monitor/axi_monitor.sv(55) @ 115000: uvm_test_top.env.agent.monitor [MON_WR] Detected WRITE : Addr=10000004 Data=5a5a5a5a Strb=1111 Prot=000 BResp=00
# UVM_INFO C:/Documents/DoAnThietKeViMach/Project/SoC/VERIFICATION/Driver/axi_driver.sv(63) @ 125000: uvm_test_top.env.agent.driver [DRV] Write Done: Addr=10000004 Data=5a5a5a5a Prot=000
# [DRAM READ] addr=10000000 data=a5a5a5a5
# UVM_INFO C:/Documents/DoAnThietKeViMach/Project/SoC/VERIFICATION/Monitor/axi_monitor.sv(82) @ 165000: uvm_test_top.env.agent.monitor [MON_RD] Detected READ  : Addr=10000000 Data=a5a5a5a5 Prot=000 RResp=00
# UVM_INFO C:/Documents/DoAnThietKeViMach/Project/SoC/VERIFICATION/Scoreboard/axi_scoreboard.sv(77) @ 165000: uvm_test_top.env.scoreboard [SCB_PASS] [DRAM] PASS Addr=10000000 Expected=a5a5a5a5 Got=a5a5a5a5
# UVM_INFO C:/Documents/DoAnThietKeViMach/Project/SoC/VERIFICATION/Driver/axi_driver.sv(83) @ 175000: uvm_test_top.env.agent.driver [DRV] Read Done: Addr=10000000 Data=a5a5a5a5 Prot=000
# [DRAM READ] addr=10000004 data=5a5a5a5a
# UVM_INFO C:/Documents/DoAnThietKeViMach/Project/SoC/VERIFICATION/Monitor/axi_monitor.sv(82) @ 215000: uvm_test_top.env.agent.monitor [MON_RD] Detected READ  : Addr=10000004 Data=5a5a5a5a Prot=000 RResp=00
# UVM_INFO C:/Documents/DoAnThietKeViMach/Project/SoC/VERIFICATION/Scoreboard/axi_scoreboard.sv(77) @ 215000: uvm_test_top.env.scoreboard [SCB_PASS] [DRAM] PASS Addr=10000004 Expected=5a5a5a5a Got=5a5a5a5a
# UVM_INFO C:/Documents/DoAnThietKeViMach/Project/SoC/VERIFICATION/Driver/axi_driver.sv(83) @ 225000: uvm_test_top.env.agent.driver [DRV] Read Done: Addr=10000004 Data=5a5a5a5a Prot=000
# UVM_INFO C:/Documents/DoAnThietKeViMach/Project/SoC/VERIFICATION/Sequence/axi_multi_slaves_sequence.sv(52) @ 225000: uvm_test_top.env.agent.sequencer@@seq [SEQ] === TEST 2: Timer Basic Operation ===
# UVM_INFO C:/Documents/DoAnThietKeViMach/Project/SoC/VERIFICATION/Monitor/axi_monitor.sv(55) @ 275000: uvm_test_top.env.agent.monitor [MON_WR] Detected WRITE : Addr=20000004 Data=00000064 Strb=1111 Prot=001 BResp=00
# UVM_INFO C:/Documents/DoAnThietKeViMach/Project/SoC/VERIFICATION/Scoreboard/axi_scoreboard.sv(94) @ 275000: uvm_test_top.env.scoreboard [SCB_WR] [TIMER] WRITE Addr=20000004 Data=00000064
# UVM_INFO C:/Documents/DoAnThietKeViMach/Project/SoC/VERIFICATION/Driver/axi_driver.sv(63) @ 285000: uvm_test_top.env.agent.driver [DRV] Write Done: Addr=20000004 Data=00000064 Prot=001
# UVM_INFO C:/Documents/DoAnThietKeViMach/Project/SoC/VERIFICATION/Monitor/axi_monitor.sv(55) @ 335000: uvm_test_top.env.agent.monitor [MON_WR] Detected WRITE : Addr=20000000 Data=00000001 Strb=1111 Prot=001 BResp=00
# UVM_INFO C:/Documents/DoAnThietKeViMach/Project/SoC/VERIFICATION/Scoreboard/axi_scoreboard.sv(94) @ 335000: uvm_test_top.env.scoreboard [SCB_WR] [TIMER] WRITE Addr=20000000 Data=00000001
# UVM_INFO C:/Documents/DoAnThietKeViMach/Project/SoC/VERIFICATION/Driver/axi_driver.sv(63) @ 345000: uvm_test_top.env.agent.driver [DRV] Write Done: Addr=20000000 Data=00000001 Prot=001
# UVM_INFO C:/Documents/DoAnThietKeViMach/Project/SoC/VERIFICATION/Monitor/axi_monitor.sv(82) @ 385000: uvm_test_top.env.agent.monitor [MON_RD] Detected READ  : Addr=20000004 Data=00000064 Prot=000 RResp=00
# UVM_INFO C:/Documents/DoAnThietKeViMach/Project/SoC/VERIFICATION/Scoreboard/axi_scoreboard.sv(110) @ 385000: uvm_test_top.env.scoreboard [SCB_PASS] [TIMER] PASS Addr=20000004 Expected=00000064 Got=00000064
# UVM_INFO C:/Documents/DoAnThietKeViMach/Project/SoC/VERIFICATION/Driver/axi_driver.sv(83) @ 395000: uvm_test_top.env.agent.driver [DRV] Read Done: Addr=20000004 Data=00000064 Prot=000
# UVM_INFO C:/Documents/DoAnThietKeViMach/Project/SoC/VERIFICATION/Monitor/axi_monitor.sv(82) @ 435000: uvm_test_top.env.agent.monitor [MON_RD] Detected READ  : Addr=20000000 Data=00000001 Prot=000 RResp=00
# UVM_INFO C:/Documents/DoAnThietKeViMach/Project/SoC/VERIFICATION/Scoreboard/axi_scoreboard.sv(110) @ 435000: uvm_test_top.env.scoreboard [SCB_PASS] [TIMER] PASS Addr=20000000 Expected=00000001 Got=00000001
# UVM_INFO C:/Documents/DoAnThietKeViMach/Project/SoC/VERIFICATION/Driver/axi_driver.sv(83) @ 445000: uvm_test_top.env.agent.driver [DRV] Read Done: Addr=20000000 Data=00000001 Prot=000
# UVM_INFO C:/Documents/DoAnThietKeViMach/Project/SoC/VERIFICATION/Monitor/axi_monitor.sv(82) @ 485000: uvm_test_top.env.agent.monitor [MON_RD] Detected READ  : Addr=20000008 Data=0000000e Prot=000 RResp=00
# UVM_INFO C:/Documents/DoAnThietKeViMach/Project/SoC/VERIFICATION/Scoreboard/axi_scoreboard.sv(118) @ 485000: uvm_test_top.env.scoreboard [SCB_RD] [TIMER] READ Addr=20000008 Data=0000000e (status/no prior write)
# UVM_INFO C:/Documents/DoAnThietKeViMach/Project/SoC/VERIFICATION/Driver/axi_driver.sv(83) @ 495000: uvm_test_top.env.agent.driver [DRV] Read Done: Addr=20000008 Data=0000000e Prot=000
# UVM_INFO C:/Documents/DoAnThietKeViMach/Project/SoC/VERIFICATION/Sequence/axi_multi_slaves_sequence.sv(62) @ 495000: uvm_test_top.env.agent.sequencer@@seq [SEQ] === TEST 3: UART Communication ===
# UVM_INFO C:/Documents/DoAnThietKeViMach/Project/SoC/VERIFICATION/Monitor/axi_monitor.sv(55) @ 535000: uvm_test_top.env.agent.monitor [MON_WR] Detected WRITE : Addr=3000000c Data=000001b2 Strb=1111 Prot=000 BResp=00
# UVM_INFO C:/Documents/DoAnThietKeViMach/Project/SoC/VERIFICATION/Scoreboard/axi_scoreboard.sv(94) @ 535000: uvm_test_top.env.scoreboard [SCB_WR] [UART] WRITE Addr=3000000c Data=000001b2
# UVM_INFO C:/Documents/DoAnThietKeViMach/Project/SoC/VERIFICATION/Driver/axi_driver.sv(63) @ 545000: uvm_test_top.env.agent.driver [DRV] Write Done: Addr=3000000c Data=000001b2 Prot=000
# UVM_INFO C:/Documents/DoAnThietKeViMach/Project/SoC/VERIFICATION/Monitor/axi_monitor.sv(55) @ 585000: uvm_test_top.env.agent.monitor [MON_WR] Detected WRITE : Addr=30000000 Data=00000041 Strb=1111 Prot=000 BResp=00
# UVM_INFO C:/Documents/DoAnThietKeViMach/Project/SoC/VERIFICATION/Scoreboard/axi_scoreboard.sv(94) @ 585000: uvm_test_top.env.scoreboard [SCB_WR] [UART] WRITE Addr=30000000 Data=00000041
# UVM_INFO C:/Documents/DoAnThietKeViMach/Project/SoC/VERIFICATION/Driver/axi_driver.sv(63) @ 595000: uvm_test_top.env.agent.driver [DRV] Write Done: Addr=30000000 Data=00000041 Prot=000
# UVM_INFO C:/Documents/DoAnThietKeViMach/Project/SoC/VERIFICATION/Monitor/axi_monitor.sv(82) @ 635000: uvm_test_top.env.agent.monitor [MON_RD] Detected READ  : Addr=3000000c Data=000001b2 Prot=000 RResp=00
# UVM_INFO C:/Documents/DoAnThietKeViMach/Project/SoC/VERIFICATION/Scoreboard/axi_scoreboard.sv(110) @ 635000: uvm_test_top.env.scoreboard [SCB_PASS] [UART] PASS Addr=3000000c Expected=000001b2 Got=000001b2
# UVM_INFO C:/Documents/DoAnThietKeViMach/Project/SoC/VERIFICATION/Driver/axi_driver.sv(83) @ 645000: uvm_test_top.env.agent.driver [DRV] Read Done: Addr=3000000c Data=000001b2 Prot=000
# UVM_INFO C:/Documents/DoAnThietKeViMach/Project/SoC/VERIFICATION/Monitor/axi_monitor.sv(82) @ 685000: uvm_test_top.env.agent.monitor [MON_RD] Detected READ  : Addr=30000000 Data=00000000 Prot=000 RResp=00
# UVM_INFO C:/Documents/DoAnThietKeViMach/Project/SoC/VERIFICATION/Scoreboard/axi_scoreboard.sv(104) @ 685000: uvm_test_top.env.scoreboard [SCB_PASS] [UART] PASS Addr=30000000 is write-only, read returned 00000000 (expected 0x00)
# UVM_INFO C:/Documents/DoAnThietKeViMach/Project/SoC/VERIFICATION/Driver/axi_driver.sv(83) @ 695000: uvm_test_top.env.agent.driver [DRV] Read Done: Addr=30000000 Data=00000000 Prot=000
# UVM_INFO C:/Documents/DoAnThietKeViMach/Project/SoC/VERIFICATION/Sequence/axi_multi_slaves_sequence.sv(71) @ 695000: uvm_test_top.env.agent.sequencer@@seq [SEQ] === TEST 4: SPI Data Transfer ===
# UVM_INFO C:/Documents/DoAnThietKeViMach/Project/SoC/VERIFICATION/Monitor/axi_monitor.sv(55) @ 735000: uvm_test_top.env.agent.monitor [MON_WR] Detected WRITE : Addr=4000000c Data=0000000a Strb=1111 Prot=000 BResp=00
# UVM_INFO C:/Documents/DoAnThietKeViMach/Project/SoC/VERIFICATION/Scoreboard/axi_scoreboard.sv(94) @ 735000: uvm_test_top.env.scoreboard [SCB_WR] [SPI] WRITE Addr=4000000c Data=0000000a
# UVM_INFO C:/Documents/DoAnThietKeViMach/Project/SoC/VERIFICATION/Driver/axi_driver.sv(63) @ 745000: uvm_test_top.env.agent.driver [DRV] Write Done: Addr=4000000c Data=0000000a Prot=000
# UVM_INFO C:/Documents/DoAnThietKeViMach/Project/SoC/VERIFICATION/Monitor/axi_monitor.sv(55) @ 785000: uvm_test_top.env.agent.monitor [MON_WR] Detected WRITE : Addr=40000000 Data=000000ab Strb=1111 Prot=000 BResp=00
# UVM_INFO C:/Documents/DoAnThietKeViMach/Project/SoC/VERIFICATION/Scoreboard/axi_scoreboard.sv(94) @ 785000: uvm_test_top.env.scoreboard [SCB_WR] [SPI] WRITE Addr=40000000 Data=000000ab
# UVM_INFO C:/Documents/DoAnThietKeViMach/Project/SoC/VERIFICATION/Driver/axi_driver.sv(63) @ 795000: uvm_test_top.env.agent.driver [DRV] Write Done: Addr=40000000 Data=000000ab Prot=000
# UVM_INFO C:/Documents/DoAnThietKeViMach/Project/SoC/VERIFICATION/Monitor/axi_monitor.sv(82) @ 835000: uvm_test_top.env.agent.monitor [MON_RD] Detected READ  : Addr=4000000c Data=0000000a Prot=000 RResp=00
# UVM_INFO C:/Documents/DoAnThietKeViMach/Project/SoC/VERIFICATION/Scoreboard/axi_scoreboard.sv(110) @ 835000: uvm_test_top.env.scoreboard [SCB_PASS] [SPI] PASS Addr=4000000c Expected=0000000a Got=0000000a
# UVM_INFO C:/Documents/DoAnThietKeViMach/Project/SoC/VERIFICATION/Driver/axi_driver.sv(83) @ 845000: uvm_test_top.env.agent.driver [DRV] Read Done: Addr=4000000c Data=0000000a Prot=000
# UVM_INFO C:/Documents/DoAnThietKeViMach/Project/SoC/VERIFICATION/Monitor/axi_monitor.sv(82) @ 885000: uvm_test_top.env.agent.monitor [MON_RD] Detected READ  : Addr=40000000 Data=00000000 Prot=000 RResp=00
# UVM_INFO C:/Documents/DoAnThietKeViMach/Project/SoC/VERIFICATION/Scoreboard/axi_scoreboard.sv(104) @ 885000: uvm_test_top.env.scoreboard [SCB_PASS] [SPI] PASS Addr=40000000 is write-only, read returned 00000000 (expected 0x00)
# UVM_INFO C:/Documents/DoAnThietKeViMach/Project/SoC/VERIFICATION/Driver/axi_driver.sv(83) @ 895000: uvm_test_top.env.agent.driver [DRV] Read Done: Addr=40000000 Data=00000000 Prot=000
# UVM_INFO C:/Documents/DoAnThietKeViMach/Project/SoC/VERIFICATION/Sequence/axi_multi_slaves_sequence.sv(80) @ 895000: uvm_test_top.env.agent.sequencer@@seq [SEQ] === TEST 5: DRAM Burst Write/Read ===
# [DRAM WRITE] addr=10000000 data=10000000
# UVM_INFO C:/Documents/DoAnThietKeViMach/Project/SoC/VERIFICATION/Monitor/axi_monitor.sv(55) @ 935000: uvm_test_top.env.agent.monitor [MON_WR] Detected WRITE : Addr=10000000 Data=10000000 Strb=1111 Prot=000 BResp=00
# UVM_INFO C:/Documents/DoAnThietKeViMach/Project/SoC/VERIFICATION/Driver/axi_driver.sv(63) @ 945000: uvm_test_top.env.agent.driver [DRV] Write Done: Addr=10000000 Data=10000000 Prot=000
# [DRAM WRITE] addr=10000004 data=10000001
# UVM_INFO C:/Documents/DoAnThietKeViMach/Project/SoC/VERIFICATION/Monitor/axi_monitor.sv(55) @ 985000: uvm_test_top.env.agent.monitor [MON_WR] Detected WRITE : Addr=10000004 Data=10000001 Strb=1111 Prot=000 BResp=00
# UVM_INFO C:/Documents/DoAnThietKeViMach/Project/SoC/VERIFICATION/Driver/axi_driver.sv(63) @ 995000: uvm_test_top.env.agent.driver [DRV] Write Done: Addr=10000004 Data=10000001 Prot=000
# [DRAM WRITE] addr=10000008 data=10000002
# UVM_INFO C:/Documents/DoAnThietKeViMach/Project/SoC/VERIFICATION/Monitor/axi_monitor.sv(55) @ 1035000: uvm_test_top.env.agent.monitor [MON_WR] Detected WRITE : Addr=10000008 Data=10000002 Strb=1111 Prot=000 BResp=00
# UVM_INFO C:/Documents/DoAnThietKeViMach/Project/SoC/VERIFICATION/Driver/axi_driver.sv(63) @ 1045000: uvm_test_top.env.agent.driver [DRV] Write Done: Addr=10000008 Data=10000002 Prot=000
# [DRAM WRITE] addr=1000000c data=10000003
# UVM_INFO C:/Documents/DoAnThietKeViMach/Project/SoC/VERIFICATION/Monitor/axi_monitor.sv(55) @ 1085000: uvm_test_top.env.agent.monitor [MON_WR] Detected WRITE : Addr=1000000c Data=10000003 Strb=1111 Prot=000 BResp=00
# UVM_INFO C:/Documents/DoAnThietKeViMach/Project/SoC/VERIFICATION/Driver/axi_driver.sv(63) @ 1095000: uvm_test_top.env.agent.driver [DRV] Write Done: Addr=1000000c Data=10000003 Prot=000
# [DRAM WRITE] addr=10000010 data=10000004
# UVM_INFO C:/Documents/DoAnThietKeViMach/Project/SoC/VERIFICATION/Monitor/axi_monitor.sv(55) @ 1135000: uvm_test_top.env.agent.monitor [MON_WR] Detected WRITE : Addr=10000010 Data=10000004 Strb=1111 Prot=000 BResp=00
# UVM_INFO C:/Documents/DoAnThietKeViMach/Project/SoC/VERIFICATION/Driver/axi_driver.sv(63) @ 1145000: uvm_test_top.env.agent.driver [DRV] Write Done: Addr=10000010 Data=10000004 Prot=000
# [DRAM WRITE] addr=10000014 data=10000005
# UVM_INFO C:/Documents/DoAnThietKeViMach/Project/SoC/VERIFICATION/Monitor/axi_monitor.sv(55) @ 1185000: uvm_test_top.env.agent.monitor [MON_WR] Detected WRITE : Addr=10000014 Data=10000005 Strb=1111 Prot=000 BResp=00
# UVM_INFO C:/Documents/DoAnThietKeViMach/Project/SoC/VERIFICATION/Driver/axi_driver.sv(63) @ 1195000: uvm_test_top.env.agent.driver [DRV] Write Done: Addr=10000014 Data=10000005 Prot=000
# [DRAM WRITE] addr=10000018 data=10000006
# UVM_INFO C:/Documents/DoAnThietKeViMach/Project/SoC/VERIFICATION/Monitor/axi_monitor.sv(55) @ 1235000: uvm_test_top.env.agent.monitor [MON_WR] Detected WRITE : Addr=10000018 Data=10000006 Strb=1111 Prot=000 BResp=00
# UVM_INFO C:/Documents/DoAnThietKeViMach/Project/SoC/VERIFICATION/Driver/axi_driver.sv(63) @ 1245000: uvm_test_top.env.agent.driver [DRV] Write Done: Addr=10000018 Data=10000006 Prot=000
# [DRAM WRITE] addr=1000001c data=10000007
# UVM_INFO C:/Documents/DoAnThietKeViMach/Project/SoC/VERIFICATION/Monitor/axi_monitor.sv(55) @ 1285000: uvm_test_top.env.agent.monitor [MON_WR] Detected WRITE : Addr=1000001c Data=10000007 Strb=1111 Prot=000 BResp=00
# UVM_INFO C:/Documents/DoAnThietKeViMach/Project/SoC/VERIFICATION/Driver/axi_driver.sv(63) @ 1295000: uvm_test_top.env.agent.driver [DRV] Write Done: Addr=1000001c Data=10000007 Prot=000
# [DRAM READ] addr=10000000 data=10000000
# UVM_INFO C:/Documents/DoAnThietKeViMach/Project/SoC/VERIFICATION/Monitor/axi_monitor.sv(82) @ 1335000: uvm_test_top.env.agent.monitor [MON_RD] Detected READ  : Addr=10000000 Data=10000000 Prot=000 RResp=00
# UVM_INFO C:/Documents/DoAnThietKeViMach/Project/SoC/VERIFICATION/Scoreboard/axi_scoreboard.sv(77) @ 1335000: uvm_test_top.env.scoreboard [SCB_PASS] [DRAM] PASS Addr=10000000 Expected=10000000 Got=10000000
# UVM_INFO C:/Documents/DoAnThietKeViMach/Project/SoC/VERIFICATION/Driver/axi_driver.sv(83) @ 1345000: uvm_test_top.env.agent.driver [DRV] Read Done: Addr=10000000 Data=10000000 Prot=000
# [DRAM READ] addr=10000004 data=10000001
# UVM_INFO C:/Documents/DoAnThietKeViMach/Project/SoC/VERIFICATION/Monitor/axi_monitor.sv(82) @ 1385000: uvm_test_top.env.agent.monitor [MON_RD] Detected READ  : Addr=10000004 Data=10000001 Prot=000 RResp=00
# UVM_INFO C:/Documents/DoAnThietKeViMach/Project/SoC/VERIFICATION/Scoreboard/axi_scoreboard.sv(77) @ 1385000: uvm_test_top.env.scoreboard [SCB_PASS] [DRAM] PASS Addr=10000004 Expected=10000001 Got=10000001
# UVM_INFO C:/Documents/DoAnThietKeViMach/Project/SoC/VERIFICATION/Driver/axi_driver.sv(83) @ 1395000: uvm_test_top.env.agent.driver [DRV] Read Done: Addr=10000004 Data=10000001 Prot=000
# [DRAM READ] addr=10000008 data=10000002
# UVM_INFO C:/Documents/DoAnThietKeViMach/Project/SoC/VERIFICATION/Monitor/axi_monitor.sv(82) @ 1435000: uvm_test_top.env.agent.monitor [MON_RD] Detected READ  : Addr=10000008 Data=10000002 Prot=000 RResp=00
# UVM_INFO C:/Documents/DoAnThietKeViMach/Project/SoC/VERIFICATION/Scoreboard/axi_scoreboard.sv(77) @ 1435000: uvm_test_top.env.scoreboard [SCB_PASS] [DRAM] PASS Addr=10000008 Expected=10000002 Got=10000002
# UVM_INFO C:/Documents/DoAnThietKeViMach/Project/SoC/VERIFICATION/Driver/axi_driver.sv(83) @ 1445000: uvm_test_top.env.agent.driver [DRV] Read Done: Addr=10000008 Data=10000002 Prot=000
# [DRAM READ] addr=1000000c data=10000003
# UVM_INFO C:/Documents/DoAnThietKeViMach/Project/SoC/VERIFICATION/Monitor/axi_monitor.sv(82) @ 1485000: uvm_test_top.env.agent.monitor [MON_RD] Detected READ  : Addr=1000000c Data=10000003 Prot=000 RResp=00
# UVM_INFO C:/Documents/DoAnThietKeViMach/Project/SoC/VERIFICATION/Scoreboard/axi_scoreboard.sv(77) @ 1485000: uvm_test_top.env.scoreboard [SCB_PASS] [DRAM] PASS Addr=1000000c Expected=10000003 Got=10000003
# UVM_INFO C:/Documents/DoAnThietKeViMach/Project/SoC/VERIFICATION/Driver/axi_driver.sv(83) @ 1495000: uvm_test_top.env.agent.driver [DRV] Read Done: Addr=1000000c Data=10000003 Prot=000
# [DRAM READ] addr=10000010 data=10000004
# UVM_INFO C:/Documents/DoAnThietKeViMach/Project/SoC/VERIFICATION/Monitor/axi_monitor.sv(82) @ 1535000: uvm_test_top.env.agent.monitor [MON_RD] Detected READ  : Addr=10000010 Data=10000004 Prot=000 RResp=00
# UVM_INFO C:/Documents/DoAnThietKeViMach/Project/SoC/VERIFICATION/Scoreboard/axi_scoreboard.sv(77) @ 1535000: uvm_test_top.env.scoreboard [SCB_PASS] [DRAM] PASS Addr=10000010 Expected=10000004 Got=10000004
# UVM_INFO C:/Documents/DoAnThietKeViMach/Project/SoC/VERIFICATION/Driver/axi_driver.sv(83) @ 1545000: uvm_test_top.env.agent.driver [DRV] Read Done: Addr=10000010 Data=10000004 Prot=000
# [DRAM READ] addr=10000014 data=10000005
# UVM_INFO C:/Documents/DoAnThietKeViMach/Project/SoC/VERIFICATION/Monitor/axi_monitor.sv(82) @ 1585000: uvm_test_top.env.agent.monitor [MON_RD] Detected READ  : Addr=10000014 Data=10000005 Prot=000 RResp=00
# UVM_INFO C:/Documents/DoAnThietKeViMach/Project/SoC/VERIFICATION/Scoreboard/axi_scoreboard.sv(77) @ 1585000: uvm_test_top.env.scoreboard [SCB_PASS] [DRAM] PASS Addr=10000014 Expected=10000005 Got=10000005
# UVM_INFO C:/Documents/DoAnThietKeViMach/Project/SoC/VERIFICATION/Driver/axi_driver.sv(83) @ 1595000: uvm_test_top.env.agent.driver [DRV] Read Done: Addr=10000014 Data=10000005 Prot=000
# [DRAM READ] addr=10000018 data=10000006
# UVM_INFO C:/Documents/DoAnThietKeViMach/Project/SoC/VERIFICATION/Monitor/axi_monitor.sv(82) @ 1635000: uvm_test_top.env.agent.monitor [MON_RD] Detected READ  : Addr=10000018 Data=10000006 Prot=000 RResp=00
# UVM_INFO C:/Documents/DoAnThietKeViMach/Project/SoC/VERIFICATION/Scoreboard/axi_scoreboard.sv(77) @ 1635000: uvm_test_top.env.scoreboard [SCB_PASS] [DRAM] PASS Addr=10000018 Expected=10000006 Got=10000006
# UVM_INFO C:/Documents/DoAnThietKeViMach/Project/SoC/VERIFICATION/Driver/axi_driver.sv(83) @ 1645000: uvm_test_top.env.agent.driver [DRV] Read Done: Addr=10000018 Data=10000006 Prot=000
# [DRAM READ] addr=1000001c data=10000007
# UVM_INFO C:/Documents/DoAnThietKeViMach/Project/SoC/VERIFICATION/Monitor/axi_monitor.sv(82) @ 1685000: uvm_test_top.env.agent.monitor [MON_RD] Detected READ  : Addr=1000001c Data=10000007 Prot=000 RResp=00
# UVM_INFO C:/Documents/DoAnThietKeViMach/Project/SoC/VERIFICATION/Scoreboard/axi_scoreboard.sv(77) @ 1685000: uvm_test_top.env.scoreboard [SCB_PASS] [DRAM] PASS Addr=1000001c Expected=10000007 Got=10000007
# UVM_INFO C:/Documents/DoAnThietKeViMach/Project/SoC/VERIFICATION/Driver/axi_driver.sv(83) @ 1695000: uvm_test_top.env.agent.driver [DRV] Read Done: Addr=1000001c Data=10000007 Prot=000
# UVM_INFO C:/Documents/DoAnThietKeViMach/Project/SoC/VERIFICATION/Sequence/axi_multi_slaves_sequence.sv(91) @ 1695000: uvm_test_top.env.agent.sequencer@@seq [SEQ] === TEST 6: Interleaved Access Across Slaves ===
# [DRAM WRITE] addr=10000000 data=deadbeef
# UVM_INFO C:/Documents/DoAnThietKeViMach/Project/SoC/VERIFICATION/Monitor/axi_monitor.sv(55) @ 1735000: uvm_test_top.env.agent.monitor [MON_WR] Detected WRITE : Addr=10000000 Data=deadbeef Strb=1111 Prot=000 BResp=00
# UVM_INFO C:/Documents/DoAnThietKeViMach/Project/SoC/VERIFICATION/Driver/axi_driver.sv(63) @ 1745000: uvm_test_top.env.agent.driver [DRV] Write Done: Addr=10000000 Data=deadbeef Prot=000
# UVM_INFO C:/Documents/DoAnThietKeViMach/Project/SoC/VERIFICATION/Monitor/axi_monitor.sv(55) @ 1795000: uvm_test_top.env.agent.monitor [MON_WR] Detected WRITE : Addr=20000004 Data=00000032 Strb=1111 Prot=001 BResp=00
# UVM_INFO C:/Documents/DoAnThietKeViMach/Project/SoC/VERIFICATION/Scoreboard/axi_scoreboard.sv(94) @ 1795000: uvm_test_top.env.scoreboard [SCB_WR] [TIMER] WRITE Addr=20000004 Data=00000032
# UVM_INFO C:/Documents/DoAnThietKeViMach/Project/SoC/VERIFICATION/Driver/axi_driver.sv(63) @ 1805000: uvm_test_top.env.agent.driver [DRV] Write Done: Addr=20000004 Data=00000032 Prot=001
# UVM_INFO C:/Documents/DoAnThietKeViMach/Project/SoC/VERIFICATION/Monitor/axi_monitor.sv(55) @ 1845000: uvm_test_top.env.agent.monitor [MON_WR] Detected WRITE : Addr=3000000c Data=00000100 Strb=1111 Prot=000 BResp=00
# UVM_INFO C:/Documents/DoAnThietKeViMach/Project/SoC/VERIFICATION/Scoreboard/axi_scoreboard.sv(94) @ 1845000: uvm_test_top.env.scoreboard [SCB_WR] [UART] WRITE Addr=3000000c Data=00000100
# UVM_INFO C:/Documents/DoAnThietKeViMach/Project/SoC/VERIFICATION/Driver/axi_driver.sv(63) @ 1855000: uvm_test_top.env.agent.driver [DRV] Write Done: Addr=3000000c Data=00000100 Prot=000
# UVM_INFO C:/Documents/DoAnThietKeViMach/Project/SoC/VERIFICATION/Monitor/axi_monitor.sv(55) @ 1895000: uvm_test_top.env.agent.monitor [MON_WR] Detected WRITE : Addr=4000000c Data=00000005 Strb=1111 Prot=000 BResp=00
# UVM_INFO C:/Documents/DoAnThietKeViMach/Project/SoC/VERIFICATION/Scoreboard/axi_scoreboard.sv(94) @ 1895000: uvm_test_top.env.scoreboard [SCB_WR] [SPI] WRITE Addr=4000000c Data=00000005
# UVM_INFO C:/Documents/DoAnThietKeViMach/Project/SoC/VERIFICATION/Driver/axi_driver.sv(63) @ 1905000: uvm_test_top.env.agent.driver [DRV] Write Done: Addr=4000000c Data=00000005 Prot=000
# [DRAM READ] addr=10000000 data=deadbeef
# UVM_INFO C:/Documents/DoAnThietKeViMach/Project/SoC/VERIFICATION/Monitor/axi_monitor.sv(82) @ 1945000: uvm_test_top.env.agent.monitor [MON_RD] Detected READ  : Addr=10000000 Data=deadbeef Prot=000 RResp=00
# UVM_INFO C:/Documents/DoAnThietKeViMach/Project/SoC/VERIFICATION/Scoreboard/axi_scoreboard.sv(77) @ 1945000: uvm_test_top.env.scoreboard [SCB_PASS] [DRAM] PASS Addr=10000000 Expected=deadbeef Got=deadbeef
# UVM_INFO C:/Documents/DoAnThietKeViMach/Project/SoC/VERIFICATION/Driver/axi_driver.sv(83) @ 1955000: uvm_test_top.env.agent.driver [DRV] Read Done: Addr=10000000 Data=deadbeef Prot=000
# UVM_INFO C:/Documents/DoAnThietKeViMach/Project/SoC/VERIFICATION/Monitor/axi_monitor.sv(82) @ 1995000: uvm_test_top.env.agent.monitor [MON_RD] Detected READ  : Addr=20000004 Data=00000032 Prot=000 RResp=00
# UVM_INFO C:/Documents/DoAnThietKeViMach/Project/SoC/VERIFICATION/Scoreboard/axi_scoreboard.sv(110) @ 1995000: uvm_test_top.env.scoreboard [SCB_PASS] [TIMER] PASS Addr=20000004 Expected=00000032 Got=00000032
# UVM_INFO C:/Documents/DoAnThietKeViMach/Project/SoC/VERIFICATION/Driver/axi_driver.sv(83) @ 2005000: uvm_test_top.env.agent.driver [DRV] Read Done: Addr=20000004 Data=00000032 Prot=000
# UVM_INFO C:/Documents/DoAnThietKeViMach/Project/SoC/VERIFICATION/Monitor/axi_monitor.sv(82) @ 2045000: uvm_test_top.env.agent.monitor [MON_RD] Detected READ  : Addr=3000000c Data=00000100 Prot=000 RResp=00
# UVM_INFO C:/Documents/DoAnThietKeViMach/Project/SoC/VERIFICATION/Scoreboard/axi_scoreboard.sv(110) @ 2045000: uvm_test_top.env.scoreboard [SCB_PASS] [UART] PASS Addr=3000000c Expected=00000100 Got=00000100
# UVM_INFO C:/Documents/DoAnThietKeViMach/Project/SoC/VERIFICATION/Driver/axi_driver.sv(83) @ 2055000: uvm_test_top.env.agent.driver [DRV] Read Done: Addr=3000000c Data=00000100 Prot=000
# UVM_INFO C:/Documents/DoAnThietKeViMach/Project/SoC/VERIFICATION/Monitor/axi_monitor.sv(82) @ 2095000: uvm_test_top.env.agent.monitor [MON_RD] Detected READ  : Addr=4000000c Data=00000005 Prot=000 RResp=00
# UVM_INFO C:/Documents/DoAnThietKeViMach/Project/SoC/VERIFICATION/Scoreboard/axi_scoreboard.sv(110) @ 2095000: uvm_test_top.env.scoreboard [SCB_PASS] [SPI] PASS Addr=4000000c Expected=00000005 Got=00000005
# UVM_INFO C:/Documents/DoAnThietKeViMach/Project/SoC/VERIFICATION/Driver/axi_driver.sv(83) @ 2105000: uvm_test_top.env.agent.driver [DRV] Read Done: Addr=4000000c Data=00000005 Prot=000
# UVM_INFO C:/Documents/DoAnThietKeViMach/Project/SoC/VERIFICATION/Sequence/axi_multi_slaves_sequence.sv(105) @ 2105000: uvm_test_top.env.agent.sequencer@@seq [SEQ] === TEST 7: Timer Disable/Re-enable ===
# UVM_INFO C:/Documents/DoAnThietKeViMach/Project/SoC/VERIFICATION/Monitor/axi_monitor.sv(55) @ 2155000: uvm_test_top.env.agent.monitor [MON_WR] Detected WRITE : Addr=20000004 Data=00000050 Strb=1111 Prot=001 BResp=00
# UVM_INFO C:/Documents/DoAnThietKeViMach/Project/SoC/VERIFICATION/Scoreboard/axi_scoreboard.sv(94) @ 2155000: uvm_test_top.env.scoreboard [SCB_WR] [TIMER] WRITE Addr=20000004 Data=00000050
# UVM_INFO C:/Documents/DoAnThietKeViMach/Project/SoC/VERIFICATION/Driver/axi_driver.sv(63) @ 2165000: uvm_test_top.env.agent.driver [DRV] Write Done: Addr=20000004 Data=00000050 Prot=001
# UVM_INFO C:/Documents/DoAnThietKeViMach/Project/SoC/VERIFICATION/Monitor/axi_monitor.sv(55) @ 2215000: uvm_test_top.env.agent.monitor [MON_WR] Detected WRITE : Addr=20000000 Data=00000001 Strb=1111 Prot=001 BResp=00
# UVM_INFO C:/Documents/DoAnThietKeViMach/Project/SoC/VERIFICATION/Scoreboard/axi_scoreboard.sv(94) @ 2215000: uvm_test_top.env.scoreboard [SCB_WR] [TIMER] WRITE Addr=20000000 Data=00000001
# UVM_INFO C:/Documents/DoAnThietKeViMach/Project/SoC/VERIFICATION/Driver/axi_driver.sv(63) @ 2225000: uvm_test_top.env.agent.driver [DRV] Write Done: Addr=20000000 Data=00000001 Prot=001
# UVM_INFO C:/Documents/DoAnThietKeViMach/Project/SoC/VERIFICATION/Monitor/axi_monitor.sv(82) @ 2265000: uvm_test_top.env.agent.monitor [MON_RD] Detected READ  : Addr=20000008 Data=00000028 Prot=000 RResp=00
# UVM_INFO C:/Documents/DoAnThietKeViMach/Project/SoC/VERIFICATION/Scoreboard/axi_scoreboard.sv(118) @ 2265000: uvm_test_top.env.scoreboard [SCB_RD] [TIMER] READ Addr=20000008 Data=00000028 (status/no prior write)
# UVM_INFO C:/Documents/DoAnThietKeViMach/Project/SoC/VERIFICATION/Driver/axi_driver.sv(83) @ 2275000: uvm_test_top.env.agent.driver [DRV] Read Done: Addr=20000008 Data=00000028 Prot=000
# UVM_INFO C:/Documents/DoAnThietKeViMach/Project/SoC/VERIFICATION/Monitor/axi_monitor.sv(55) @ 2325000: uvm_test_top.env.agent.monitor [MON_WR] Detected WRITE : Addr=20000000 Data=00000000 Strb=1111 Prot=001 BResp=00
# UVM_INFO C:/Documents/DoAnThietKeViMach/Project/SoC/VERIFICATION/Scoreboard/axi_scoreboard.sv(94) @ 2325000: uvm_test_top.env.scoreboard [SCB_WR] [TIMER] WRITE Addr=20000000 Data=00000000
# UVM_INFO C:/Documents/DoAnThietKeViMach/Project/SoC/VERIFICATION/Driver/axi_driver.sv(63) @ 2335000: uvm_test_top.env.agent.driver [DRV] Write Done: Addr=20000000 Data=00000000 Prot=001
# UVM_INFO C:/Documents/DoAnThietKeViMach/Project/SoC/VERIFICATION/Monitor/axi_monitor.sv(82) @ 2375000: uvm_test_top.env.agent.monitor [MON_RD] Detected READ  : Addr=20000008 Data=00000000 Prot=000 RResp=00
# UVM_INFO C:/Documents/DoAnThietKeViMach/Project/SoC/VERIFICATION/Scoreboard/axi_scoreboard.sv(118) @ 2375000: uvm_test_top.env.scoreboard [SCB_RD] [TIMER] READ Addr=20000008 Data=00000000 (status/no prior write)
# UVM_INFO C:/Documents/DoAnThietKeViMach/Project/SoC/VERIFICATION/Driver/axi_driver.sv(83) @ 2385000: uvm_test_top.env.agent.driver [DRV] Read Done: Addr=20000008 Data=00000000 Prot=000
# UVM_INFO C:/Documents/DoAnThietKeViMach/Project/SoC/VERIFICATION/Monitor/axi_monitor.sv(82) @ 2425000: uvm_test_top.env.agent.monitor [MON_RD] Detected READ  : Addr=20000000 Data=00000000 Prot=000 RResp=00
# UVM_INFO C:/Documents/DoAnThietKeViMach/Project/SoC/VERIFICATION/Scoreboard/axi_scoreboard.sv(110) @ 2425000: uvm_test_top.env.scoreboard [SCB_PASS] [TIMER] PASS Addr=20000000 Expected=00000000 Got=00000000
# UVM_INFO C:/Documents/DoAnThietKeViMach/Project/SoC/VERIFICATION/Driver/axi_driver.sv(83) @ 2435000: uvm_test_top.env.agent.driver [DRV] Read Done: Addr=20000000 Data=00000000 Prot=000
# UVM_INFO C:/Documents/DoAnThietKeViMach/Project/SoC/VERIFICATION/Sequence/axi_multi_slaves_sequence.sv(116) @ 2435000: uvm_test_top.env.agent.sequencer@@seq [SEQ] === TEST 8: UART Multiple TX ===
# UVM_INFO C:/Documents/DoAnThietKeViMach/Project/SoC/VERIFICATION/Monitor/axi_monitor.sv(55) @ 2475000: uvm_test_top.env.agent.monitor [MON_WR] Detected WRITE : Addr=3000000c Data=000001b2 Strb=1111 Prot=000 BResp=00
# UVM_INFO C:/Documents/DoAnThietKeViMach/Project/SoC/VERIFICATION/Scoreboard/axi_scoreboard.sv(94) @ 2475000: uvm_test_top.env.scoreboard [SCB_WR] [UART] WRITE Addr=3000000c Data=000001b2
# UVM_INFO C:/Documents/DoAnThietKeViMach/Project/SoC/VERIFICATION/Driver/axi_driver.sv(63) @ 2485000: uvm_test_top.env.agent.driver [DRV] Write Done: Addr=3000000c Data=000001b2 Prot=000
# UVM_INFO C:/Documents/DoAnThietKeViMach/Project/SoC/VERIFICATION/Monitor/axi_monitor.sv(55) @ 2525000: uvm_test_top.env.agent.monitor [MON_WR] Detected WRITE : Addr=30000000 Data=00000048 Strb=1111 Prot=000 BResp=00
# UVM_INFO C:/Documents/DoAnThietKeViMach/Project/SoC/VERIFICATION/Scoreboard/axi_scoreboard.sv(94) @ 2525000: uvm_test_top.env.scoreboard [SCB_WR] [UART] WRITE Addr=30000000 Data=00000048
# UVM_INFO C:/Documents/DoAnThietKeViMach/Project/SoC/VERIFICATION/Driver/axi_driver.sv(63) @ 2535000: uvm_test_top.env.agent.driver [DRV] Write Done: Addr=30000000 Data=00000048 Prot=000
# UVM_INFO C:/Documents/DoAnThietKeViMach/Project/SoC/VERIFICATION/Monitor/axi_monitor.sv(55) @ 2575000: uvm_test_top.env.agent.monitor [MON_WR] Detected WRITE : Addr=30000000 Data=00000045 Strb=1111 Prot=000 BResp=00
# UVM_INFO C:/Documents/DoAnThietKeViMach/Project/SoC/VERIFICATION/Scoreboard/axi_scoreboard.sv(94) @ 2575000: uvm_test_top.env.scoreboard [SCB_WR] [UART] WRITE Addr=30000000 Data=00000045
# UVM_INFO C:/Documents/DoAnThietKeViMach/Project/SoC/VERIFICATION/Driver/axi_driver.sv(63) @ 2585000: uvm_test_top.env.agent.driver [DRV] Write Done: Addr=30000000 Data=00000045 Prot=000
# UVM_INFO C:/Documents/DoAnThietKeViMach/Project/SoC/VERIFICATION/Monitor/axi_monitor.sv(55) @ 2625000: uvm_test_top.env.agent.monitor [MON_WR] Detected WRITE : Addr=30000000 Data=0000004c Strb=1111 Prot=000 BResp=00
# UVM_INFO C:/Documents/DoAnThietKeViMach/Project/SoC/VERIFICATION/Scoreboard/axi_scoreboard.sv(94) @ 2625000: uvm_test_top.env.scoreboard [SCB_WR] [UART] WRITE Addr=30000000 Data=0000004c
# UVM_INFO C:/Documents/DoAnThietKeViMach/Project/SoC/VERIFICATION/Driver/axi_driver.sv(63) @ 2635000: uvm_test_top.env.agent.driver [DRV] Write Done: Addr=30000000 Data=0000004c Prot=000
# UVM_INFO C:/Documents/DoAnThietKeViMach/Project/SoC/VERIFICATION/Monitor/axi_monitor.sv(55) @ 2675000: uvm_test_top.env.agent.monitor [MON_WR] Detected WRITE : Addr=30000000 Data=0000004c Strb=1111 Prot=000 BResp=00
# UVM_INFO C:/Documents/DoAnThietKeViMach/Project/SoC/VERIFICATION/Scoreboard/axi_scoreboard.sv(94) @ 2675000: uvm_test_top.env.scoreboard [SCB_WR] [UART] WRITE Addr=30000000 Data=0000004c
# UVM_INFO C:/Documents/DoAnThietKeViMach/Project/SoC/VERIFICATION/Driver/axi_driver.sv(63) @ 2685000: uvm_test_top.env.agent.driver [DRV] Write Done: Addr=30000000 Data=0000004c Prot=000
# UVM_INFO C:/Documents/DoAnThietKeViMach/Project/SoC/VERIFICATION/Monitor/axi_monitor.sv(55) @ 2725000: uvm_test_top.env.agent.monitor [MON_WR] Detected WRITE : Addr=30000000 Data=0000004f Strb=1111 Prot=000 BResp=00
# UVM_INFO C:/Documents/DoAnThietKeViMach/Project/SoC/VERIFICATION/Scoreboard/axi_scoreboard.sv(94) @ 2725000: uvm_test_top.env.scoreboard [SCB_WR] [UART] WRITE Addr=30000000 Data=0000004f
# UVM_INFO C:/Documents/DoAnThietKeViMach/Project/SoC/VERIFICATION/Driver/axi_driver.sv(63) @ 2735000: uvm_test_top.env.agent.driver [DRV] Write Done: Addr=30000000 Data=0000004f Prot=000
# UVM_INFO C:/Documents/DoAnThietKeViMach/Project/SoC/VERIFICATION/Sequence/axi_multi_slaves_sequence.sv(127) @ 2735000: uvm_test_top.env.agent.sequencer@@seq [SEQ] === TEST 9: SPI Multiple Transfers ===
# UVM_INFO C:/Documents/DoAnThietKeViMach/Project/SoC/VERIFICATION/Monitor/axi_monitor.sv(55) @ 2775000: uvm_test_top.env.agent.monitor [MON_WR] Detected WRITE : Addr=4000000c Data=00000008 Strb=1111 Prot=000 BResp=00
# UVM_INFO C:/Documents/DoAnThietKeViMach/Project/SoC/VERIFICATION/Scoreboard/axi_scoreboard.sv(94) @ 2775000: uvm_test_top.env.scoreboard [SCB_WR] [SPI] WRITE Addr=4000000c Data=00000008
# UVM_INFO C:/Documents/DoAnThietKeViMach/Project/SoC/VERIFICATION/Driver/axi_driver.sv(63) @ 2785000: uvm_test_top.env.agent.driver [DRV] Write Done: Addr=4000000c Data=00000008 Prot=000
# UVM_INFO C:/Documents/DoAnThietKeViMach/Project/SoC/VERIFICATION/Monitor/axi_monitor.sv(55) @ 2825000: uvm_test_top.env.agent.monitor [MON_WR] Detected WRITE : Addr=40000000 Data=000000ff Strb=1111 Prot=000 BResp=00
# UVM_INFO C:/Documents/DoAnThietKeViMach/Project/SoC/VERIFICATION/Scoreboard/axi_scoreboard.sv(94) @ 2825000: uvm_test_top.env.scoreboard [SCB_WR] [SPI] WRITE Addr=40000000 Data=000000ff
# UVM_INFO C:/Documents/DoAnThietKeViMach/Project/SoC/VERIFICATION/Driver/axi_driver.sv(63) @ 2835000: uvm_test_top.env.agent.driver [DRV] Write Done: Addr=40000000 Data=000000ff Prot=000
# UVM_INFO C:/Documents/DoAnThietKeViMach/Project/SoC/VERIFICATION/Monitor/axi_monitor.sv(55) @ 2875000: uvm_test_top.env.agent.monitor [MON_WR] Detected WRITE : Addr=40000000 Data=00000055 Strb=1111 Prot=000 BResp=00
# UVM_INFO C:/Documents/DoAnThietKeViMach/Project/SoC/VERIFICATION/Scoreboard/axi_scoreboard.sv(94) @ 2875000: uvm_test_top.env.scoreboard [SCB_WR] [SPI] WRITE Addr=40000000 Data=00000055
# UVM_INFO C:/Documents/DoAnThietKeViMach/Project/SoC/VERIFICATION/Driver/axi_driver.sv(63) @ 2885000: uvm_test_top.env.agent.driver [DRV] Write Done: Addr=40000000 Data=00000055 Prot=000
# UVM_INFO C:/Documents/DoAnThietKeViMach/Project/SoC/VERIFICATION/Monitor/axi_monitor.sv(55) @ 2925000: uvm_test_top.env.agent.monitor [MON_WR] Detected WRITE : Addr=40000000 Data=000000aa Strb=1111 Prot=000 BResp=00
# UVM_INFO C:/Documents/DoAnThietKeViMach/Project/SoC/VERIFICATION/Scoreboard/axi_scoreboard.sv(94) @ 2925000: uvm_test_top.env.scoreboard [SCB_WR] [SPI] WRITE Addr=40000000 Data=000000aa
# UVM_INFO C:/Documents/DoAnThietKeViMach/Project/SoC/VERIFICATION/Driver/axi_driver.sv(63) @ 2935000: uvm_test_top.env.agent.driver [DRV] Write Done: Addr=40000000 Data=000000aa Prot=000
# UVM_INFO C:/Documents/DoAnThietKeViMach/Project/SoC/VERIFICATION/Monitor/axi_monitor.sv(82) @ 2975000: uvm_test_top.env.agent.monitor [MON_RD] Detected READ  : Addr=40000000 Data=00000000 Prot=000 RResp=00
# UVM_INFO C:/Documents/DoAnThietKeViMach/Project/SoC/VERIFICATION/Scoreboard/axi_scoreboard.sv(104) @ 2975000: uvm_test_top.env.scoreboard [SCB_PASS] [SPI] PASS Addr=40000000 is write-only, read returned 00000000 (expected 0x00)
# UVM_INFO C:/Documents/DoAnThietKeViMach/Project/SoC/VERIFICATION/Driver/axi_driver.sv(83) @ 2985000: uvm_test_top.env.agent.driver [DRV] Read Done: Addr=40000000 Data=00000000 Prot=000
# UVM_INFO C:/Documents/DoAnThietKeViMach/Project/SoC/VERIFICATION/Sequence/axi_multi_slaves_sequence.sv(137) @ 2985000: uvm_test_top.env.agent.sequencer@@seq [SEQ] === TEST 10: DRAM Address Boundaries ===
# [DRAM WRITE] addr=10000000 data=00000001
# UVM_INFO C:/Documents/DoAnThietKeViMach/Project/SoC/VERIFICATION/Monitor/axi_monitor.sv(55) @ 3025000: uvm_test_top.env.agent.monitor [MON_WR] Detected WRITE : Addr=10000000 Data=00000001 Strb=1111 Prot=000 BResp=00
# UVM_INFO C:/Documents/DoAnThietKeViMach/Project/SoC/VERIFICATION/Driver/axi_driver.sv(63) @ 3035000: uvm_test_top.env.agent.driver [DRV] Write Done: Addr=10000000 Data=00000001 Prot=000
# [DRAM WRITE] addr=10000ffc data=ffffffff
# UVM_INFO C:/Documents/DoAnThietKeViMach/Project/SoC/VERIFICATION/Monitor/axi_monitor.sv(55) @ 3075000: uvm_test_top.env.agent.monitor [MON_WR] Detected WRITE : Addr=10000ffc Data=ffffffff Strb=1111 Prot=000 BResp=00
# UVM_INFO C:/Documents/DoAnThietKeViMach/Project/SoC/VERIFICATION/Driver/axi_driver.sv(63) @ 3085000: uvm_test_top.env.agent.driver [DRV] Write Done: Addr=10000ffc Data=ffffffff Prot=000
# [DRAM READ] addr=10000000 data=00000001
# UVM_INFO C:/Documents/DoAnThietKeViMach/Project/SoC/VERIFICATION/Monitor/axi_monitor.sv(82) @ 3125000: uvm_test_top.env.agent.monitor [MON_RD] Detected READ  : Addr=10000000 Data=00000001 Prot=000 RResp=00
# UVM_INFO C:/Documents/DoAnThietKeViMach/Project/SoC/VERIFICATION/Scoreboard/axi_scoreboard.sv(77) @ 3125000: uvm_test_top.env.scoreboard [SCB_PASS] [DRAM] PASS Addr=10000000 Expected=00000001 Got=00000001
# UVM_INFO C:/Documents/DoAnThietKeViMach/Project/SoC/VERIFICATION/Driver/axi_driver.sv(83) @ 3135000: uvm_test_top.env.agent.driver [DRV] Read Done: Addr=10000000 Data=00000001 Prot=000
# [DRAM READ] addr=10000ffc data=ffffffff
# UVM_INFO C:/Documents/DoAnThietKeViMach/Project/SoC/VERIFICATION/Monitor/axi_monitor.sv(82) @ 3175000: uvm_test_top.env.agent.monitor [MON_RD] Detected READ  : Addr=10000ffc Data=ffffffff Prot=000 RResp=00
# UVM_INFO C:/Documents/DoAnThietKeViMach/Project/SoC/VERIFICATION/Scoreboard/axi_scoreboard.sv(77) @ 3175000: uvm_test_top.env.scoreboard [SCB_PASS] [DRAM] PASS Addr=10000ffc Expected=ffffffff Got=ffffffff
# UVM_INFO C:/Documents/DoAnThietKeViMach/Project/SoC/VERIFICATION/Driver/axi_driver.sv(83) @ 3185000: uvm_test_top.env.agent.driver [DRV] Read Done: Addr=10000ffc Data=ffffffff Prot=000
# UVM_INFO C:/Documents/DoAnThietKeViMach/Project/SoC/VERIFICATION/Sequence/axi_multi_slaves_sequence.sv(146) @ 3185000: uvm_test_top.env.agent.sequencer@@seq [SEQ] === TEST 11: Read All Status Registers ===
# UVM_INFO C:/Documents/DoAnThietKeViMach/Project/SoC/VERIFICATION/Monitor/axi_monitor.sv(82) @ 3225000: uvm_test_top.env.agent.monitor [MON_RD] Detected READ  : Addr=20000000 Data=00000000 Prot=000 RResp=00
# UVM_INFO C:/Documents/DoAnThietKeViMach/Project/SoC/VERIFICATION/Scoreboard/axi_scoreboard.sv(110) @ 3225000: uvm_test_top.env.scoreboard [SCB_PASS] [TIMER] PASS Addr=20000000 Expected=00000000 Got=00000000
# UVM_INFO C:/Documents/DoAnThietKeViMach/Project/SoC/VERIFICATION/Driver/axi_driver.sv(83) @ 3235000: uvm_test_top.env.agent.driver [DRV] Read Done: Addr=20000000 Data=00000000 Prot=000
# UVM_INFO C:/Documents/DoAnThietKeViMach/Project/SoC/VERIFICATION/Monitor/axi_monitor.sv(82) @ 3275000: uvm_test_top.env.agent.monitor [MON_RD] Detected READ  : Addr=20000004 Data=00000050 Prot=000 RResp=00
# UVM_INFO C:/Documents/DoAnThietKeViMach/Project/SoC/VERIFICATION/Scoreboard/axi_scoreboard.sv(110) @ 3275000: uvm_test_top.env.scoreboard [SCB_PASS] [TIMER] PASS Addr=20000004 Expected=00000050 Got=00000050
# UVM_INFO C:/Documents/DoAnThietKeViMach/Project/SoC/VERIFICATION/Driver/axi_driver.sv(83) @ 3285000: uvm_test_top.env.agent.driver [DRV] Read Done: Addr=20000004 Data=00000050 Prot=000
# UVM_INFO C:/Documents/DoAnThietKeViMach/Project/SoC/VERIFICATION/Monitor/axi_monitor.sv(82) @ 3325000: uvm_test_top.env.agent.monitor [MON_RD] Detected READ  : Addr=20000008 Data=00000000 Prot=000 RResp=00
# UVM_INFO C:/Documents/DoAnThietKeViMach/Project/SoC/VERIFICATION/Scoreboard/axi_scoreboard.sv(118) @ 3325000: uvm_test_top.env.scoreboard [SCB_RD] [TIMER] READ Addr=20000008 Data=00000000 (status/no prior write)
# UVM_INFO C:/Documents/DoAnThietKeViMach/Project/SoC/VERIFICATION/Driver/axi_driver.sv(83) @ 3335000: uvm_test_top.env.agent.driver [DRV] Read Done: Addr=20000008 Data=00000000 Prot=000
# UVM_INFO C:/Documents/DoAnThietKeViMach/Project/SoC/VERIFICATION/Monitor/axi_monitor.sv(82) @ 3375000: uvm_test_top.env.agent.monitor [MON_RD] Detected READ  : Addr=3000000c Data=000001b2 Prot=000 RResp=00
# UVM_INFO C:/Documents/DoAnThietKeViMach/Project/SoC/VERIFICATION/Scoreboard/axi_scoreboard.sv(110) @ 3375000: uvm_test_top.env.scoreboard [SCB_PASS] [UART] PASS Addr=3000000c Expected=000001b2 Got=000001b2
# UVM_INFO C:/Documents/DoAnThietKeViMach/Project/SoC/VERIFICATION/Driver/axi_driver.sv(83) @ 3385000: uvm_test_top.env.agent.driver [DRV] Read Done: Addr=3000000c Data=000001b2 Prot=000
# UVM_INFO C:/Documents/DoAnThietKeViMach/Project/SoC/VERIFICATION/Monitor/axi_monitor.sv(82) @ 3425000: uvm_test_top.env.agent.monitor [MON_RD] Detected READ  : Addr=4000000c Data=00000008 Prot=000 RResp=00
# UVM_INFO C:/Documents/DoAnThietKeViMach/Project/SoC/VERIFICATION/Scoreboard/axi_scoreboard.sv(110) @ 3425000: uvm_test_top.env.scoreboard [SCB_PASS] [SPI] PASS Addr=4000000c Expected=00000008 Got=00000008
# UVM_INFO C:/Documents/DoAnThietKeViMach/Project/SoC/VERIFICATION/Driver/axi_driver.sv(83) @ 3435000: uvm_test_top.env.agent.driver [DRV] Read Done: Addr=4000000c Data=00000008 Prot=000
# UVM_INFO C:/Documents/DoAnThietKeViMach/Project/SoC/VERIFICATION/Sequence/axi_multi_slaves_sequence.sv(156) @ 3435000: uvm_test_top.env.agent.sequencer@@seq [SEQ] === TEST 12: Rapid DRAM Writes ===
# [DRAM WRITE] addr=10000100 data=11111111
# UVM_INFO C:/Documents/DoAnThietKeViMach/Project/SoC/VERIFICATION/Monitor/axi_monitor.sv(55) @ 3475000: uvm_test_top.env.agent.monitor [MON_WR] Detected WRITE : Addr=10000100 Data=11111111 Strb=1111 Prot=000 BResp=00
# UVM_INFO C:/Documents/DoAnThietKeViMach/Project/SoC/VERIFICATION/Driver/axi_driver.sv(63) @ 3485000: uvm_test_top.env.agent.driver [DRV] Write Done: Addr=10000100 Data=11111111 Prot=000
# [DRAM WRITE] addr=10000104 data=22222222
# UVM_INFO C:/Documents/DoAnThietKeViMach/Project/SoC/VERIFICATION/Monitor/axi_monitor.sv(55) @ 3525000: uvm_test_top.env.agent.monitor [MON_WR] Detected WRITE : Addr=10000104 Data=22222222 Strb=1111 Prot=000 BResp=00
# UVM_INFO C:/Documents/DoAnThietKeViMach/Project/SoC/VERIFICATION/Driver/axi_driver.sv(63) @ 3535000: uvm_test_top.env.agent.driver [DRV] Write Done: Addr=10000104 Data=22222222 Prot=000
# [DRAM WRITE] addr=10000108 data=33333333
# UVM_INFO C:/Documents/DoAnThietKeViMach/Project/SoC/VERIFICATION/Monitor/axi_monitor.sv(55) @ 3575000: uvm_test_top.env.agent.monitor [MON_WR] Detected WRITE : Addr=10000108 Data=33333333 Strb=1111 Prot=000 BResp=00
# UVM_INFO C:/Documents/DoAnThietKeViMach/Project/SoC/VERIFICATION/Driver/axi_driver.sv(63) @ 3585000: uvm_test_top.env.agent.driver [DRV] Write Done: Addr=10000108 Data=33333333 Prot=000
# [DRAM WRITE] addr=1000010c data=44444444
# UVM_INFO C:/Documents/DoAnThietKeViMach/Project/SoC/VERIFICATION/Monitor/axi_monitor.sv(55) @ 3625000: uvm_test_top.env.agent.monitor [MON_WR] Detected WRITE : Addr=1000010c Data=44444444 Strb=1111 Prot=000 BResp=00
# UVM_INFO C:/Documents/DoAnThietKeViMach/Project/SoC/VERIFICATION/Driver/axi_driver.sv(63) @ 3635000: uvm_test_top.env.agent.driver [DRV] Write Done: Addr=1000010c Data=44444444 Prot=000
# [DRAM READ] addr=10000100 data=11111111
# UVM_INFO C:/Documents/DoAnThietKeViMach/Project/SoC/VERIFICATION/Monitor/axi_monitor.sv(82) @ 3675000: uvm_test_top.env.agent.monitor [MON_RD] Detected READ  : Addr=10000100 Data=11111111 Prot=000 RResp=00
# UVM_INFO C:/Documents/DoAnThietKeViMach/Project/SoC/VERIFICATION/Scoreboard/axi_scoreboard.sv(77) @ 3675000: uvm_test_top.env.scoreboard [SCB_PASS] [DRAM] PASS Addr=10000100 Expected=11111111 Got=11111111
# UVM_INFO C:/Documents/DoAnThietKeViMach/Project/SoC/VERIFICATION/Driver/axi_driver.sv(83) @ 3685000: uvm_test_top.env.agent.driver [DRV] Read Done: Addr=10000100 Data=11111111 Prot=000
# [DRAM READ] addr=10000104 data=22222222
# UVM_INFO C:/Documents/DoAnThietKeViMach/Project/SoC/VERIFICATION/Monitor/axi_monitor.sv(82) @ 3725000: uvm_test_top.env.agent.monitor [MON_RD] Detected READ  : Addr=10000104 Data=22222222 Prot=000 RResp=00
# UVM_INFO C:/Documents/DoAnThietKeViMach/Project/SoC/VERIFICATION/Scoreboard/axi_scoreboard.sv(77) @ 3725000: uvm_test_top.env.scoreboard [SCB_PASS] [DRAM] PASS Addr=10000104 Expected=22222222 Got=22222222
# UVM_INFO C:/Documents/DoAnThietKeViMach/Project/SoC/VERIFICATION/Driver/axi_driver.sv(83) @ 3735000: uvm_test_top.env.agent.driver [DRV] Read Done: Addr=10000104 Data=22222222 Prot=000
# [DRAM READ] addr=10000108 data=33333333
# UVM_INFO C:/Documents/DoAnThietKeViMach/Project/SoC/VERIFICATION/Monitor/axi_monitor.sv(82) @ 3775000: uvm_test_top.env.agent.monitor [MON_RD] Detected READ  : Addr=10000108 Data=33333333 Prot=000 RResp=00
# UVM_INFO C:/Documents/DoAnThietKeViMach/Project/SoC/VERIFICATION/Scoreboard/axi_scoreboard.sv(77) @ 3775000: uvm_test_top.env.scoreboard [SCB_PASS] [DRAM] PASS Addr=10000108 Expected=33333333 Got=33333333
# UVM_INFO C:/Documents/DoAnThietKeViMach/Project/SoC/VERIFICATION/Driver/axi_driver.sv(83) @ 3785000: uvm_test_top.env.agent.driver [DRV] Read Done: Addr=10000108 Data=33333333 Prot=000
# [DRAM READ] addr=1000010c data=44444444
# UVM_INFO C:/Documents/DoAnThietKeViMach/Project/SoC/VERIFICATION/Monitor/axi_monitor.sv(82) @ 3825000: uvm_test_top.env.agent.monitor [MON_RD] Detected READ  : Addr=1000010c Data=44444444 Prot=000 RResp=00
# UVM_INFO C:/Documents/DoAnThietKeViMach/Project/SoC/VERIFICATION/Scoreboard/axi_scoreboard.sv(77) @ 3825000: uvm_test_top.env.scoreboard [SCB_PASS] [DRAM] PASS Addr=1000010c Expected=44444444 Got=44444444
# UVM_INFO C:/Documents/DoAnThietKeViMach/Project/SoC/VERIFICATION/Driver/axi_driver.sv(83) @ 3835000: uvm_test_top.env.agent.driver [DRV] Read Done: Addr=1000010c Data=44444444 Prot=000
# UVM_INFO C:/Documents/DoAnThietKeViMach/Project/SoC/VERIFICATION/Sequence/axi_multi_slaves_sequence.sv(169) @ 3835000: uvm_test_top.env.agent.sequencer@@seq [SEQ] === TEST 13: Timer Period Update ===
# UVM_INFO C:/Documents/DoAnThietKeViMach/Project/SoC/VERIFICATION/Monitor/axi_monitor.sv(55) @ 3885000: uvm_test_top.env.agent.monitor [MON_WR] Detected WRITE : Addr=20000004 Data=00000010 Strb=1111 Prot=001 BResp=00
# UVM_INFO C:/Documents/DoAnThietKeViMach/Project/SoC/VERIFICATION/Scoreboard/axi_scoreboard.sv(94) @ 3885000: uvm_test_top.env.scoreboard [SCB_WR] [TIMER] WRITE Addr=20000004 Data=00000010
# UVM_INFO C:/Documents/DoAnThietKeViMach/Project/SoC/VERIFICATION/Driver/axi_driver.sv(63) @ 3895000: uvm_test_top.env.agent.driver [DRV] Write Done: Addr=20000004 Data=00000010 Prot=001
# UVM_INFO C:/Documents/DoAnThietKeViMach/Project/SoC/VERIFICATION/Monitor/axi_monitor.sv(55) @ 3945000: uvm_test_top.env.agent.monitor [MON_WR] Detected WRITE : Addr=20000000 Data=00000001 Strb=1111 Prot=001 BResp=00
# UVM_INFO C:/Documents/DoAnThietKeViMach/Project/SoC/VERIFICATION/Scoreboard/axi_scoreboard.sv(94) @ 3945000: uvm_test_top.env.scoreboard [SCB_WR] [TIMER] WRITE Addr=20000000 Data=00000001
# UVM_INFO C:/Documents/DoAnThietKeViMach/Project/SoC/VERIFICATION/Driver/axi_driver.sv(63) @ 3955000: uvm_test_top.env.agent.driver [DRV] Write Done: Addr=20000000 Data=00000001 Prot=001
# UVM_INFO C:/Documents/DoAnThietKeViMach/Project/SoC/VERIFICATION/Monitor/axi_monitor.sv(82) @ 3995000: uvm_test_top.env.agent.monitor [MON_RD] Detected READ  : Addr=20000004 Data=00000010 Prot=000 RResp=00
# UVM_INFO C:/Documents/DoAnThietKeViMach/Project/SoC/VERIFICATION/Scoreboard/axi_scoreboard.sv(110) @ 3995000: uvm_test_top.env.scoreboard [SCB_PASS] [TIMER] PASS Addr=20000004 Expected=00000010 Got=00000010
# UVM_INFO C:/Documents/DoAnThietKeViMach/Project/SoC/VERIFICATION/Driver/axi_driver.sv(83) @ 4005000: uvm_test_top.env.agent.driver [DRV] Read Done: Addr=20000004 Data=00000010 Prot=000
# UVM_INFO C:/Documents/DoAnThietKeViMach/Project/SoC/VERIFICATION/Monitor/axi_monitor.sv(55) @ 4055000: uvm_test_top.env.agent.monitor [MON_WR] Detected WRITE : Addr=20000004 Data=00000020 Strb=1111 Prot=001 BResp=00
# UVM_INFO C:/Documents/DoAnThietKeViMach/Project/SoC/VERIFICATION/Scoreboard/axi_scoreboard.sv(94) @ 4055000: uvm_test_top.env.scoreboard [SCB_WR] [TIMER] WRITE Addr=20000004 Data=00000020
# UVM_INFO C:/Documents/DoAnThietKeViMach/Project/SoC/VERIFICATION/Driver/axi_driver.sv(63) @ 4065000: uvm_test_top.env.agent.driver [DRV] Write Done: Addr=20000004 Data=00000020 Prot=001
# UVM_INFO C:/Documents/DoAnThietKeViMach/Project/SoC/VERIFICATION/Monitor/axi_monitor.sv(82) @ 4105000: uvm_test_top.env.agent.monitor [MON_RD] Detected READ  : Addr=20000004 Data=00000020 Prot=000 RResp=00
# UVM_INFO C:/Documents/DoAnThietKeViMach/Project/SoC/VERIFICATION/Scoreboard/axi_scoreboard.sv(110) @ 4105000: uvm_test_top.env.scoreboard [SCB_PASS] [TIMER] PASS Addr=20000004 Expected=00000020 Got=00000020
# UVM_INFO C:/Documents/DoAnThietKeViMach/Project/SoC/VERIFICATION/Driver/axi_driver.sv(83) @ 4115000: uvm_test_top.env.agent.driver [DRV] Read Done: Addr=20000004 Data=00000020 Prot=000
# UVM_INFO C:/Documents/DoAnThietKeViMach/Project/SoC/VERIFICATION/Sequence/axi_multi_slaves_sequence.sv(179) @ 4115000: uvm_test_top.env.agent.sequencer@@seq [SEQ] === TEST 14: UART/SPI Baud Variations ===
# UVM_INFO C:/Documents/DoAnThietKeViMach/Project/SoC/VERIFICATION/Monitor/axi_monitor.sv(55) @ 4155000: uvm_test_top.env.agent.monitor [MON_WR] Detected WRITE : Addr=3000000c Data=00000064 Strb=1111 Prot=000 BResp=00
# UVM_INFO C:/Documents/DoAnThietKeViMach/Project/SoC/VERIFICATION/Scoreboard/axi_scoreboard.sv(94) @ 4155000: uvm_test_top.env.scoreboard [SCB_WR] [UART] WRITE Addr=3000000c Data=00000064
# UVM_INFO C:/Documents/DoAnThietKeViMach/Project/SoC/VERIFICATION/Driver/axi_driver.sv(63) @ 4165000: uvm_test_top.env.agent.driver [DRV] Write Done: Addr=3000000c Data=00000064 Prot=000
# UVM_INFO C:/Documents/DoAnThietKeViMach/Project/SoC/VERIFICATION/Monitor/axi_monitor.sv(82) @ 4205000: uvm_test_top.env.agent.monitor [MON_RD] Detected READ  : Addr=3000000c Data=00000064 Prot=000 RResp=00
# UVM_INFO C:/Documents/DoAnThietKeViMach/Project/SoC/VERIFICATION/Scoreboard/axi_scoreboard.sv(110) @ 4205000: uvm_test_top.env.scoreboard [SCB_PASS] [UART] PASS Addr=3000000c Expected=00000064 Got=00000064
# UVM_INFO C:/Documents/DoAnThietKeViMach/Project/SoC/VERIFICATION/Driver/axi_driver.sv(83) @ 4215000: uvm_test_top.env.agent.driver [DRV] Read Done: Addr=3000000c Data=00000064 Prot=000
# UVM_INFO C:/Documents/DoAnThietKeViMach/Project/SoC/VERIFICATION/Monitor/axi_monitor.sv(55) @ 4255000: uvm_test_top.env.agent.monitor [MON_WR] Detected WRITE : Addr=3000000c Data=00000032 Strb=1111 Prot=000 BResp=00
# UVM_INFO C:/Documents/DoAnThietKeViMach/Project/SoC/VERIFICATION/Scoreboard/axi_scoreboard.sv(94) @ 4255000: uvm_test_top.env.scoreboard [SCB_WR] [UART] WRITE Addr=3000000c Data=00000032
# UVM_INFO C:/Documents/DoAnThietKeViMach/Project/SoC/VERIFICATION/Driver/axi_driver.sv(63) @ 4265000: uvm_test_top.env.agent.driver [DRV] Write Done: Addr=3000000c Data=00000032 Prot=000
# UVM_INFO C:/Documents/DoAnThietKeViMach/Project/SoC/VERIFICATION/Monitor/axi_monitor.sv(82) @ 4305000: uvm_test_top.env.agent.monitor [MON_RD] Detected READ  : Addr=3000000c Data=00000032 Prot=000 RResp=00
# UVM_INFO C:/Documents/DoAnThietKeViMach/Project/SoC/VERIFICATION/Scoreboard/axi_scoreboard.sv(110) @ 4305000: uvm_test_top.env.scoreboard [SCB_PASS] [UART] PASS Addr=3000000c Expected=00000032 Got=00000032
# UVM_INFO C:/Documents/DoAnThietKeViMach/Project/SoC/VERIFICATION/Driver/axi_driver.sv(83) @ 4315000: uvm_test_top.env.agent.driver [DRV] Read Done: Addr=3000000c Data=00000032 Prot=000
# UVM_INFO C:/Documents/DoAnThietKeViMach/Project/SoC/VERIFICATION/Monitor/axi_monitor.sv(55) @ 4355000: uvm_test_top.env.agent.monitor [MON_WR] Detected WRITE : Addr=4000000c Data=00000002 Strb=1111 Prot=000 BResp=00
# UVM_INFO C:/Documents/DoAnThietKeViMach/Project/SoC/VERIFICATION/Scoreboard/axi_scoreboard.sv(94) @ 4355000: uvm_test_top.env.scoreboard [SCB_WR] [SPI] WRITE Addr=4000000c Data=00000002
# UVM_INFO C:/Documents/DoAnThietKeViMach/Project/SoC/VERIFICATION/Driver/axi_driver.sv(63) @ 4365000: uvm_test_top.env.agent.driver [DRV] Write Done: Addr=4000000c Data=00000002 Prot=000
# UVM_INFO C:/Documents/DoAnThietKeViMach/Project/SoC/VERIFICATION/Monitor/axi_monitor.sv(82) @ 4405000: uvm_test_top.env.agent.monitor [MON_RD] Detected READ  : Addr=4000000c Data=00000002 Prot=000 RResp=00
# UVM_INFO C:/Documents/DoAnThietKeViMach/Project/SoC/VERIFICATION/Scoreboard/axi_scoreboard.sv(110) @ 4405000: uvm_test_top.env.scoreboard [SCB_PASS] [SPI] PASS Addr=4000000c Expected=00000002 Got=00000002
# UVM_INFO C:/Documents/DoAnThietKeViMach/Project/SoC/VERIFICATION/Driver/axi_driver.sv(83) @ 4415000: uvm_test_top.env.agent.driver [DRV] Read Done: Addr=4000000c Data=00000002 Prot=000
# UVM_INFO C:/Documents/DoAnThietKeViMach/Project/SoC/VERIFICATION/Monitor/axi_monitor.sv(55) @ 4455000: uvm_test_top.env.agent.monitor [MON_WR] Detected WRITE : Addr=4000000c Data=0000001e Strb=1111 Prot=000 BResp=00
# UVM_INFO C:/Documents/DoAnThietKeViMach/Project/SoC/VERIFICATION/Scoreboard/axi_scoreboard.sv(94) @ 4455000: uvm_test_top.env.scoreboard [SCB_WR] [SPI] WRITE Addr=4000000c Data=0000001e
# UVM_INFO C:/Documents/DoAnThietKeViMach/Project/SoC/VERIFICATION/Driver/axi_driver.sv(63) @ 4465000: uvm_test_top.env.agent.driver [DRV] Write Done: Addr=4000000c Data=0000001e Prot=000
# UVM_INFO C:/Documents/DoAnThietKeViMach/Project/SoC/VERIFICATION/Monitor/axi_monitor.sv(82) @ 4505000: uvm_test_top.env.agent.monitor [MON_RD] Detected READ  : Addr=4000000c Data=0000001e Prot=000 RResp=00
# UVM_INFO C:/Documents/DoAnThietKeViMach/Project/SoC/VERIFICATION/Scoreboard/axi_scoreboard.sv(110) @ 4505000: uvm_test_top.env.scoreboard [SCB_PASS] [SPI] PASS Addr=4000000c Expected=0000001e Got=0000001e
# UVM_INFO C:/Documents/DoAnThietKeViMach/Project/SoC/VERIFICATION/Driver/axi_driver.sv(83) @ 4515000: uvm_test_top.env.agent.driver [DRV] Read Done: Addr=4000000c Data=0000001e Prot=000
# UVM_INFO C:/Documents/DoAnThietKeViMach/Project/SoC/VERIFICATION/Sequence/axi_multi_slaves_sequence.sv(193) @ 4515000: uvm_test_top.env.agent.sequencer@@seq [SEQ] === TEST 15: Final Multi-Slave Integrity ===
# [DRAM WRITE] addr=10000000 data=cafebabe
# UVM_INFO C:/Documents/DoAnThietKeViMach/Project/SoC/VERIFICATION/Monitor/axi_monitor.sv(55) @ 4555000: uvm_test_top.env.agent.monitor [MON_WR] Detected WRITE : Addr=10000000 Data=cafebabe Strb=1111 Prot=000 BResp=00
# UVM_INFO C:/Documents/DoAnThietKeViMach/Project/SoC/VERIFICATION/Driver/axi_driver.sv(63) @ 4565000: uvm_test_top.env.agent.driver [DRV] Write Done: Addr=10000000 Data=cafebabe Prot=000
# UVM_INFO C:/Documents/DoAnThietKeViMach/Project/SoC/VERIFICATION/Monitor/axi_monitor.sv(55) @ 4615000: uvm_test_top.env.agent.monitor [MON_WR] Detected WRITE : Addr=20000004 Data=0000007f Strb=1111 Prot=001 BResp=00
# UVM_INFO C:/Documents/DoAnThietKeViMach/Project/SoC/VERIFICATION/Scoreboard/axi_scoreboard.sv(94) @ 4615000: uvm_test_top.env.scoreboard [SCB_WR] [TIMER] WRITE Addr=20000004 Data=0000007f
# UVM_INFO C:/Documents/DoAnThietKeViMach/Project/SoC/VERIFICATION/Driver/axi_driver.sv(63) @ 4625000: uvm_test_top.env.agent.driver [DRV] Write Done: Addr=20000004 Data=0000007f Prot=001
# UVM_INFO C:/Documents/DoAnThietKeViMach/Project/SoC/VERIFICATION/Monitor/axi_monitor.sv(55) @ 4665000: uvm_test_top.env.agent.monitor [MON_WR] Detected WRITE : Addr=3000000c Data=00000200 Strb=1111 Prot=000 BResp=00
# UVM_INFO C:/Documents/DoAnThietKeViMach/Project/SoC/VERIFICATION/Scoreboard/axi_scoreboard.sv(94) @ 4665000: uvm_test_top.env.scoreboard [SCB_WR] [UART] WRITE Addr=3000000c Data=00000200
# UVM_INFO C:/Documents/DoAnThietKeViMach/Project/SoC/VERIFICATION/Driver/axi_driver.sv(63) @ 4675000: uvm_test_top.env.agent.driver [DRV] Write Done: Addr=3000000c Data=00000200 Prot=000
# UVM_INFO C:/Documents/DoAnThietKeViMach/Project/SoC/VERIFICATION/Monitor/axi_monitor.sv(55) @ 4715000: uvm_test_top.env.agent.monitor [MON_WR] Detected WRITE : Addr=4000000c Data=0000000f Strb=1111 Prot=000 BResp=00
# UVM_INFO C:/Documents/DoAnThietKeViMach/Project/SoC/VERIFICATION/Scoreboard/axi_scoreboard.sv(94) @ 4715000: uvm_test_top.env.scoreboard [SCB_WR] [SPI] WRITE Addr=4000000c Data=0000000f
# UVM_INFO C:/Documents/DoAnThietKeViMach/Project/SoC/VERIFICATION/Driver/axi_driver.sv(63) @ 4725000: uvm_test_top.env.agent.driver [DRV] Write Done: Addr=4000000c Data=0000000f Prot=000
# [DRAM READ] addr=10000000 data=cafebabe
# UVM_INFO C:/Documents/DoAnThietKeViMach/Project/SoC/VERIFICATION/Monitor/axi_monitor.sv(82) @ 4765000: uvm_test_top.env.agent.monitor [MON_RD] Detected READ  : Addr=10000000 Data=cafebabe Prot=000 RResp=00
# UVM_INFO C:/Documents/DoAnThietKeViMach/Project/SoC/VERIFICATION/Scoreboard/axi_scoreboard.sv(77) @ 4765000: uvm_test_top.env.scoreboard [SCB_PASS] [DRAM] PASS Addr=10000000 Expected=cafebabe Got=cafebabe
# UVM_INFO C:/Documents/DoAnThietKeViMach/Project/SoC/VERIFICATION/Driver/axi_driver.sv(83) @ 4775000: uvm_test_top.env.agent.driver [DRV] Read Done: Addr=10000000 Data=cafebabe Prot=000
# UVM_INFO C:/Documents/DoAnThietKeViMach/Project/SoC/VERIFICATION/Monitor/axi_monitor.sv(82) @ 4815000: uvm_test_top.env.agent.monitor [MON_RD] Detected READ  : Addr=20000004 Data=0000007f Prot=000 RResp=00
# UVM_INFO C:/Documents/DoAnThietKeViMach/Project/SoC/VERIFICATION/Scoreboard/axi_scoreboard.sv(110) @ 4815000: uvm_test_top.env.scoreboard [SCB_PASS] [TIMER] PASS Addr=20000004 Expected=0000007f Got=0000007f
# UVM_INFO C:/Documents/DoAnThietKeViMach/Project/SoC/VERIFICATION/Driver/axi_driver.sv(83) @ 4825000: uvm_test_top.env.agent.driver [DRV] Read Done: Addr=20000004 Data=0000007f Prot=000
# UVM_INFO C:/Documents/DoAnThietKeViMach/Project/SoC/VERIFICATION/Monitor/axi_monitor.sv(82) @ 4865000: uvm_test_top.env.agent.monitor [MON_RD] Detected READ  : Addr=3000000c Data=00000200 Prot=000 RResp=00
# UVM_INFO C:/Documents/DoAnThietKeViMach/Project/SoC/VERIFICATION/Scoreboard/axi_scoreboard.sv(110) @ 4865000: uvm_test_top.env.scoreboard [SCB_PASS] [UART] PASS Addr=3000000c Expected=00000200 Got=00000200
# UVM_INFO C:/Documents/DoAnThietKeViMach/Project/SoC/VERIFICATION/Driver/axi_driver.sv(83) @ 4875000: uvm_test_top.env.agent.driver [DRV] Read Done: Addr=3000000c Data=00000200 Prot=000
# UVM_INFO C:/Documents/DoAnThietKeViMach/Project/SoC/VERIFICATION/Monitor/axi_monitor.sv(82) @ 4915000: uvm_test_top.env.agent.monitor [MON_RD] Detected READ  : Addr=4000000c Data=0000000f Prot=000 RResp=00
# UVM_INFO C:/Documents/DoAnThietKeViMach/Project/SoC/VERIFICATION/Scoreboard/axi_scoreboard.sv(110) @ 4915000: uvm_test_top.env.scoreboard [SCB_PASS] [SPI] PASS Addr=4000000c Expected=0000000f Got=0000000f
# UVM_INFO C:/Documents/DoAnThietKeViMach/Project/SoC/VERIFICATION/Driver/axi_driver.sv(83) @ 4925000: uvm_test_top.env.agent.driver [DRV] Read Done: Addr=4000000c Data=0000000f Prot=000
# UVM_INFO C:/Documents/DoAnThietKeViMach/Project/SoC/VERIFICATION/Sequence/axi_multi_slaves_sequence.sv(207) @ 4925000: uvm_test_top.env.agent.sequencer@@seq [SEQ] === TEST 16: AXI Protocol/DRAM Coverage Closure ===
# [DRAM WRITE] addr=10000400 data=00000000
# UVM_INFO C:/Documents/DoAnThietKeViMach/Project/SoC/VERIFICATION/Monitor/axi_monitor.sv(55) @ 4965000: uvm_test_top.env.agent.monitor [MON_WR] Detected WRITE : Addr=10000400 Data=00000000 Strb=1111 Prot=000 BResp=00
# UVM_INFO C:/Documents/DoAnThietKeViMach/Project/SoC/VERIFICATION/Driver/axi_driver.sv(63) @ 4975000: uvm_test_top.env.agent.driver [DRV] Write Done: Addr=10000400 Data=00000000 Prot=000
# [DRAM READ] addr=10000400 data=00000000
# UVM_INFO C:/Documents/DoAnThietKeViMach/Project/SoC/VERIFICATION/Monitor/axi_monitor.sv(82) @ 5015000: uvm_test_top.env.agent.monitor [MON_RD] Detected READ  : Addr=10000400 Data=00000000 Prot=000 RResp=00
# UVM_INFO C:/Documents/DoAnThietKeViMach/Project/SoC/VERIFICATION/Scoreboard/axi_scoreboard.sv(77) @ 5015000: uvm_test_top.env.scoreboard [SCB_PASS] [DRAM] PASS Addr=10000400 Expected=00000000 Got=00000000
# UVM_INFO C:/Documents/DoAnThietKeViMach/Project/SoC/VERIFICATION/Driver/axi_driver.sv(83) @ 5025000: uvm_test_top.env.agent.driver [DRV] Read Done: Addr=10000400 Data=00000000 Prot=000
# [DRAM WRITE] addr=10002000 data=aaaa5555
# UVM_INFO C:/Documents/DoAnThietKeViMach/Project/SoC/VERIFICATION/Monitor/axi_monitor.sv(55) @ 5065000: uvm_test_top.env.agent.monitor [MON_WR] Detected WRITE : Addr=10002000 Data=aaaa5555 Strb=1111 Prot=001 BResp=00
# UVM_INFO C:/Documents/DoAnThietKeViMach/Project/SoC/VERIFICATION/Driver/axi_driver.sv(63) @ 5075000: uvm_test_top.env.agent.driver [DRV] Write Done: Addr=10002000 Data=aaaa5555 Prot=001
# [DRAM READ] addr=10002000 data=aaaa5555
# UVM_INFO C:/Documents/DoAnThietKeViMach/Project/SoC/VERIFICATION/Monitor/axi_monitor.sv(82) @ 5115000: uvm_test_top.env.agent.monitor [MON_RD] Detected READ  : Addr=10002000 Data=aaaa5555 Prot=001 RResp=00
# UVM_INFO C:/Documents/DoAnThietKeViMach/Project/SoC/VERIFICATION/Scoreboard/axi_scoreboard.sv(77) @ 5115000: uvm_test_top.env.scoreboard [SCB_PASS] [DRAM] PASS Addr=10002000 Expected=aaaa5555 Got=aaaa5555
# UVM_INFO C:/Documents/DoAnThietKeViMach/Project/SoC/VERIFICATION/Driver/axi_driver.sv(83) @ 5125000: uvm_test_top.env.agent.driver [DRV] Read Done: Addr=10002000 Data=aaaa5555 Prot=001
# [DRAM WRITE] addr=10003ffc data=5555aaaa
# UVM_INFO C:/Documents/DoAnThietKeViMach/Project/SoC/VERIFICATION/Monitor/axi_monitor.sv(55) @ 5165000: uvm_test_top.env.agent.monitor [MON_WR] Detected WRITE : Addr=10003ffc Data=5555aaaa Strb=1111 Prot=010 BResp=00
# UVM_INFO C:/Documents/DoAnThietKeViMach/Project/SoC/VERIFICATION/Driver/axi_driver.sv(63) @ 5175000: uvm_test_top.env.agent.driver [DRV] Write Done: Addr=10003ffc Data=5555aaaa Prot=010
# [DRAM READ] addr=10003ffc data=5555aaaa
# UVM_INFO C:/Documents/DoAnThietKeViMach/Project/SoC/VERIFICATION/Monitor/axi_monitor.sv(82) @ 5215000: uvm_test_top.env.agent.monitor [MON_RD] Detected READ  : Addr=10003ffc Data=5555aaaa Prot=010 RResp=00
# UVM_INFO C:/Documents/DoAnThietKeViMach/Project/SoC/VERIFICATION/Scoreboard/axi_scoreboard.sv(77) @ 5215000: uvm_test_top.env.scoreboard [SCB_PASS] [DRAM] PASS Addr=10003ffc Expected=5555aaaa Got=5555aaaa
# UVM_INFO C:/Documents/DoAnThietKeViMach/Project/SoC/VERIFICATION/Driver/axi_driver.sv(83) @ 5225000: uvm_test_top.env.agent.driver [DRV] Read Done: Addr=10003ffc Data=5555aaaa Prot=010
# [DRAM WRITE] addr=10002100 data=00000001
# UVM_INFO C:/Documents/DoAnThietKeViMach/Project/SoC/VERIFICATION/Monitor/axi_monitor.sv(55) @ 5265000: uvm_test_top.env.agent.monitor [MON_WR] Detected WRITE : Addr=10002100 Data=00000001 Strb=1111 Prot=111 BResp=00
# UVM_INFO C:/Documents/DoAnThietKeViMach/Project/SoC/VERIFICATION/Driver/axi_driver.sv(63) @ 5275000: uvm_test_top.env.agent.driver [DRV] Write Done: Addr=10002100 Data=00000001 Prot=111
# [DRAM READ] addr=10002100 data=00000001
# UVM_INFO C:/Documents/DoAnThietKeViMach/Project/SoC/VERIFICATION/Monitor/axi_monitor.sv(82) @ 5315000: uvm_test_top.env.agent.monitor [MON_RD] Detected READ  : Addr=10002100 Data=00000001 Prot=111 RResp=00
# UVM_INFO C:/Documents/DoAnThietKeViMach/Project/SoC/VERIFICATION/Scoreboard/axi_scoreboard.sv(77) @ 5315000: uvm_test_top.env.scoreboard [SCB_PASS] [DRAM] PASS Addr=10002100 Expected=00000001 Got=00000001
# UVM_INFO C:/Documents/DoAnThietKeViMach/Project/SoC/VERIFICATION/Driver/axi_driver.sv(83) @ 5325000: uvm_test_top.env.agent.driver [DRV] Read Done: Addr=10002100 Data=00000001 Prot=111
# [DRAM WRITE] addr=10002200 data=00000000
# UVM_INFO C:/Documents/DoAnThietKeViMach/Project/SoC/VERIFICATION/Monitor/axi_monitor.sv(55) @ 5365000: uvm_test_top.env.agent.monitor [MON_WR] Detected WRITE : Addr=10002200 Data=00000000 Strb=1111 Prot=000 BResp=00
# UVM_INFO C:/Documents/DoAnThietKeViMach/Project/SoC/VERIFICATION/Driver/axi_driver.sv(63) @ 5375000: uvm_test_top.env.agent.driver [DRV] Write Done: Addr=10002200 Data=00000000 Prot=000
# [DRAM WRITE] addr=10002200 data=11111111
# UVM_INFO C:/Documents/DoAnThietKeViMach/Project/SoC/VERIFICATION/Monitor/axi_monitor.sv(55) @ 5415000: uvm_test_top.env.agent.monitor [MON_WR] Detected WRITE : Addr=10002200 Data=11111111 Strb=0001 Prot=000 BResp=00
# UVM_INFO C:/Documents/DoAnThietKeViMach/Project/SoC/VERIFICATION/Driver/axi_driver.sv(63) @ 5425000: uvm_test_top.env.agent.driver [DRV] Write Done: Addr=10002200 Data=11111111 Prot=000
# [DRAM READ] addr=10002200 data=00000011
# UVM_INFO C:/Documents/DoAnThietKeViMach/Project/SoC/VERIFICATION/Monitor/axi_monitor.sv(82) @ 5465000: uvm_test_top.env.agent.monitor [MON_RD] Detected READ  : Addr=10002200 Data=00000011 Prot=000 RResp=00
# UVM_INFO C:/Documents/DoAnThietKeViMach/Project/SoC/VERIFICATION/Scoreboard/axi_scoreboard.sv(77) @ 5465000: uvm_test_top.env.scoreboard [SCB_PASS] [DRAM] PASS Addr=10002200 Expected=00000011 Got=00000011
# UVM_INFO C:/Documents/DoAnThietKeViMach/Project/SoC/VERIFICATION/Driver/axi_driver.sv(83) @ 5475000: uvm_test_top.env.agent.driver [DRV] Read Done: Addr=10002200 Data=00000011 Prot=000
# [DRAM WRITE] addr=10002204 data=00000000
# UVM_INFO C:/Documents/DoAnThietKeViMach/Project/SoC/VERIFICATION/Monitor/axi_monitor.sv(55) @ 5515000: uvm_test_top.env.agent.monitor [MON_WR] Detected WRITE : Addr=10002204 Data=00000000 Strb=1111 Prot=000 BResp=00
# UVM_INFO C:/Documents/DoAnThietKeViMach/Project/SoC/VERIFICATION/Driver/axi_driver.sv(63) @ 5525000: uvm_test_top.env.agent.driver [DRV] Write Done: Addr=10002204 Data=00000000 Prot=000
# [DRAM WRITE] addr=10002204 data=22222222
# UVM_INFO C:/Documents/DoAnThietKeViMach/Project/SoC/VERIFICATION/Monitor/axi_monitor.sv(55) @ 5565000: uvm_test_top.env.agent.monitor [MON_WR] Detected WRITE : Addr=10002204 Data=22222222 Strb=0010 Prot=000 BResp=00
# UVM_INFO C:/Documents/DoAnThietKeViMach/Project/SoC/VERIFICATION/Driver/axi_driver.sv(63) @ 5575000: uvm_test_top.env.agent.driver [DRV] Write Done: Addr=10002204 Data=22222222 Prot=000
# [DRAM READ] addr=10002204 data=00002200
# UVM_INFO C:/Documents/DoAnThietKeViMach/Project/SoC/VERIFICATION/Monitor/axi_monitor.sv(82) @ 5615000: uvm_test_top.env.agent.monitor [MON_RD] Detected READ  : Addr=10002204 Data=00002200 Prot=000 RResp=00
# UVM_INFO C:/Documents/DoAnThietKeViMach/Project/SoC/VERIFICATION/Scoreboard/axi_scoreboard.sv(77) @ 5615000: uvm_test_top.env.scoreboard [SCB_PASS] [DRAM] PASS Addr=10002204 Expected=00002200 Got=00002200
# UVM_INFO C:/Documents/DoAnThietKeViMach/Project/SoC/VERIFICATION/Driver/axi_driver.sv(83) @ 5625000: uvm_test_top.env.agent.driver [DRV] Read Done: Addr=10002204 Data=00002200 Prot=000
# [DRAM WRITE] addr=10002208 data=00000000
# UVM_INFO C:/Documents/DoAnThietKeViMach/Project/SoC/VERIFICATION/Monitor/axi_monitor.sv(55) @ 5665000: uvm_test_top.env.agent.monitor [MON_WR] Detected WRITE : Addr=10002208 Data=00000000 Strb=1111 Prot=000 BResp=00
# UVM_INFO C:/Documents/DoAnThietKeViMach/Project/SoC/VERIFICATION/Driver/axi_driver.sv(63) @ 5675000: uvm_test_top.env.agent.driver [DRV] Write Done: Addr=10002208 Data=00000000 Prot=000
# [DRAM WRITE] addr=10002208 data=44444444
# UVM_INFO C:/Documents/DoAnThietKeViMach/Project/SoC/VERIFICATION/Monitor/axi_monitor.sv(55) @ 5715000: uvm_test_top.env.agent.monitor [MON_WR] Detected WRITE : Addr=10002208 Data=44444444 Strb=0100 Prot=000 BResp=00
# UVM_INFO C:/Documents/DoAnThietKeViMach/Project/SoC/VERIFICATION/Driver/axi_driver.sv(63) @ 5725000: uvm_test_top.env.agent.driver [DRV] Write Done: Addr=10002208 Data=44444444 Prot=000
# [DRAM READ] addr=10002208 data=00440000
# UVM_INFO C:/Documents/DoAnThietKeViMach/Project/SoC/VERIFICATION/Monitor/axi_monitor.sv(82) @ 5765000: uvm_test_top.env.agent.monitor [MON_RD] Detected READ  : Addr=10002208 Data=00440000 Prot=000 RResp=00
# UVM_INFO C:/Documents/DoAnThietKeViMach/Project/SoC/VERIFICATION/Scoreboard/axi_scoreboard.sv(77) @ 5765000: uvm_test_top.env.scoreboard [SCB_PASS] [DRAM] PASS Addr=10002208 Expected=00440000 Got=00440000
# UVM_INFO C:/Documents/DoAnThietKeViMach/Project/SoC/VERIFICATION/Driver/axi_driver.sv(83) @ 5775000: uvm_test_top.env.agent.driver [DRV] Read Done: Addr=10002208 Data=00440000 Prot=000
# [DRAM WRITE] addr=1000220c data=00000000
# UVM_INFO C:/Documents/DoAnThietKeViMach/Project/SoC/VERIFICATION/Monitor/axi_monitor.sv(55) @ 5815000: uvm_test_top.env.agent.monitor [MON_WR] Detected WRITE : Addr=1000220c Data=00000000 Strb=1111 Prot=000 BResp=00
# UVM_INFO C:/Documents/DoAnThietKeViMach/Project/SoC/VERIFICATION/Driver/axi_driver.sv(63) @ 5825000: uvm_test_top.env.agent.driver [DRV] Write Done: Addr=1000220c Data=00000000 Prot=000
# [DRAM WRITE] addr=1000220c data=88888888
# UVM_INFO C:/Documents/DoAnThietKeViMach/Project/SoC/VERIFICATION/Monitor/axi_monitor.sv(55) @ 5865000: uvm_test_top.env.agent.monitor [MON_WR] Detected WRITE : Addr=1000220c Data=88888888 Strb=1000 Prot=000 BResp=00
# UVM_INFO C:/Documents/DoAnThietKeViMach/Project/SoC/VERIFICATION/Driver/axi_driver.sv(63) @ 5875000: uvm_test_top.env.agent.driver [DRV] Write Done: Addr=1000220c Data=88888888 Prot=000
# [DRAM READ] addr=1000220c data=88000000
# UVM_INFO C:/Documents/DoAnThietKeViMach/Project/SoC/VERIFICATION/Monitor/axi_monitor.sv(82) @ 5915000: uvm_test_top.env.agent.monitor [MON_RD] Detected READ  : Addr=1000220c Data=88000000 Prot=000 RResp=00
# UVM_INFO C:/Documents/DoAnThietKeViMach/Project/SoC/VERIFICATION/Scoreboard/axi_scoreboard.sv(77) @ 5915000: uvm_test_top.env.scoreboard [SCB_PASS] [DRAM] PASS Addr=1000220c Expected=88000000 Got=88000000
# UVM_INFO C:/Documents/DoAnThietKeViMach/Project/SoC/VERIFICATION/Driver/axi_driver.sv(83) @ 5925000: uvm_test_top.env.agent.driver [DRV] Read Done: Addr=1000220c Data=88000000 Prot=000
# [DRAM WRITE] addr=10002210 data=00000000
# UVM_INFO C:/Documents/DoAnThietKeViMach/Project/SoC/VERIFICATION/Monitor/axi_monitor.sv(55) @ 5965000: uvm_test_top.env.agent.monitor [MON_WR] Detected WRITE : Addr=10002210 Data=00000000 Strb=1111 Prot=000 BResp=00
# UVM_INFO C:/Documents/DoAnThietKeViMach/Project/SoC/VERIFICATION/Driver/axi_driver.sv(63) @ 5975000: uvm_test_top.env.agent.driver [DRV] Write Done: Addr=10002210 Data=00000000 Prot=000
# [DRAM WRITE] addr=10002210 data=33333333
# UVM_INFO C:/Documents/DoAnThietKeViMach/Project/SoC/VERIFICATION/Monitor/axi_monitor.sv(55) @ 6015000: uvm_test_top.env.agent.monitor [MON_WR] Detected WRITE : Addr=10002210 Data=33333333 Strb=0011 Prot=000 BResp=00
# UVM_INFO C:/Documents/DoAnThietKeViMach/Project/SoC/VERIFICATION/Driver/axi_driver.sv(63) @ 6025000: uvm_test_top.env.agent.driver [DRV] Write Done: Addr=10002210 Data=33333333 Prot=000
# [DRAM READ] addr=10002210 data=00003333
# UVM_INFO C:/Documents/DoAnThietKeViMach/Project/SoC/VERIFICATION/Monitor/axi_monitor.sv(82) @ 6065000: uvm_test_top.env.agent.monitor [MON_RD] Detected READ  : Addr=10002210 Data=00003333 Prot=000 RResp=00
# UVM_INFO C:/Documents/DoAnThietKeViMach/Project/SoC/VERIFICATION/Scoreboard/axi_scoreboard.sv(77) @ 6065000: uvm_test_top.env.scoreboard [SCB_PASS] [DRAM] PASS Addr=10002210 Expected=00003333 Got=00003333
# UVM_INFO C:/Documents/DoAnThietKeViMach/Project/SoC/VERIFICATION/Driver/axi_driver.sv(83) @ 6075000: uvm_test_top.env.agent.driver [DRV] Read Done: Addr=10002210 Data=00003333 Prot=000
# [DRAM WRITE] addr=10002214 data=00000000
# UVM_INFO C:/Documents/DoAnThietKeViMach/Project/SoC/VERIFICATION/Monitor/axi_monitor.sv(55) @ 6115000: uvm_test_top.env.agent.monitor [MON_WR] Detected WRITE : Addr=10002214 Data=00000000 Strb=1111 Prot=000 BResp=00
# UVM_INFO C:/Documents/DoAnThietKeViMach/Project/SoC/VERIFICATION/Driver/axi_driver.sv(63) @ 6125000: uvm_test_top.env.agent.driver [DRV] Write Done: Addr=10002214 Data=00000000 Prot=000
# [DRAM WRITE] addr=10002214 data=cccccccc
# UVM_INFO C:/Documents/DoAnThietKeViMach/Project/SoC/VERIFICATION/Monitor/axi_monitor.sv(55) @ 6165000: uvm_test_top.env.agent.monitor [MON_WR] Detected WRITE : Addr=10002214 Data=cccccccc Strb=1100 Prot=000 BResp=00
# UVM_INFO C:/Documents/DoAnThietKeViMach/Project/SoC/VERIFICATION/Driver/axi_driver.sv(63) @ 6175000: uvm_test_top.env.agent.driver [DRV] Write Done: Addr=10002214 Data=cccccccc Prot=000
# [DRAM READ] addr=10002214 data=cccc0000
# UVM_INFO C:/Documents/DoAnThietKeViMach/Project/SoC/VERIFICATION/Monitor/axi_monitor.sv(82) @ 6215000: uvm_test_top.env.agent.monitor [MON_RD] Detected READ  : Addr=10002214 Data=cccc0000 Prot=000 RResp=00
# UVM_INFO C:/Documents/DoAnThietKeViMach/Project/SoC/VERIFICATION/Scoreboard/axi_scoreboard.sv(77) @ 6215000: uvm_test_top.env.scoreboard [SCB_PASS] [DRAM] PASS Addr=10002214 Expected=cccc0000 Got=cccc0000
# UVM_INFO C:/Documents/DoAnThietKeViMach/Project/SoC/VERIFICATION/Driver/axi_driver.sv(83) @ 6225000: uvm_test_top.env.agent.driver [DRV] Read Done: Addr=10002214 Data=cccc0000 Prot=000
# UVM_INFO C:/Documents/DoAnThietKeViMach/Project/SoC/VERIFICATION/Sequence/axi_multi_slaves_sequence.sv(239) @ 6225000: uvm_test_top.env.agent.sequencer@@seq [SEQ] === TEST 17: Peripheral Register Coverage Closure ===
# UVM_INFO C:/Documents/DoAnThietKeViMach/Project/SoC/VERIFICATION/Monitor/axi_monitor.sv(55) @ 6275000: uvm_test_top.env.agent.monitor [MON_WR] Detected WRITE : Addr=20000004 Data=00000025 Strb=1111 Prot=001 BResp=00
# UVM_INFO C:/Documents/DoAnThietKeViMach/Project/SoC/VERIFICATION/Scoreboard/axi_scoreboard.sv(94) @ 6275000: uvm_test_top.env.scoreboard [SCB_WR] [TIMER] WRITE Addr=20000004 Data=00000025
# UVM_INFO C:/Documents/DoAnThietKeViMach/Project/SoC/VERIFICATION/Driver/axi_driver.sv(63) @ 6285000: uvm_test_top.env.agent.driver [DRV] Write Done: Addr=20000004 Data=00000025 Prot=001
# UVM_INFO C:/Documents/DoAnThietKeViMach/Project/SoC/VERIFICATION/Monitor/axi_monitor.sv(55) @ 6335000: uvm_test_top.env.agent.monitor [MON_WR] Detected WRITE : Addr=20000000 Data=00000001 Strb=1111 Prot=001 BResp=00
# UVM_INFO C:/Documents/DoAnThietKeViMach/Project/SoC/VERIFICATION/Scoreboard/axi_scoreboard.sv(94) @ 6335000: uvm_test_top.env.scoreboard [SCB_WR] [TIMER] WRITE Addr=20000000 Data=00000001
# UVM_INFO C:/Documents/DoAnThietKeViMach/Project/SoC/VERIFICATION/Driver/axi_driver.sv(63) @ 6345000: uvm_test_top.env.agent.driver [DRV] Write Done: Addr=20000000 Data=00000001 Prot=001
# UVM_INFO C:/Documents/DoAnThietKeViMach/Project/SoC/VERIFICATION/Monitor/axi_monitor.sv(82) @ 6385000: uvm_test_top.env.agent.monitor [MON_RD] Detected READ  : Addr=20000000 Data=00000001 Prot=001 RResp=00
# UVM_INFO C:/Documents/DoAnThietKeViMach/Project/SoC/VERIFICATION/Scoreboard/axi_scoreboard.sv(110) @ 6385000: uvm_test_top.env.scoreboard [SCB_PASS] [TIMER] PASS Addr=20000000 Expected=00000001 Got=00000001
# UVM_INFO C:/Documents/DoAnThietKeViMach/Project/SoC/VERIFICATION/Driver/axi_driver.sv(83) @ 6395000: uvm_test_top.env.agent.driver [DRV] Read Done: Addr=20000000 Data=00000001 Prot=001
# UVM_INFO C:/Documents/DoAnThietKeViMach/Project/SoC/VERIFICATION/Monitor/axi_monitor.sv(82) @ 6435000: uvm_test_top.env.agent.monitor [MON_RD] Detected READ  : Addr=20000004 Data=00000025 Prot=001 RResp=00
# UVM_INFO C:/Documents/DoAnThietKeViMach/Project/SoC/VERIFICATION/Scoreboard/axi_scoreboard.sv(110) @ 6435000: uvm_test_top.env.scoreboard [SCB_PASS] [TIMER] PASS Addr=20000004 Expected=00000025 Got=00000025
# UVM_INFO C:/Documents/DoAnThietKeViMach/Project/SoC/VERIFICATION/Driver/axi_driver.sv(83) @ 6445000: uvm_test_top.env.agent.driver [DRV] Read Done: Addr=20000004 Data=00000025 Prot=001
# UVM_INFO C:/Documents/DoAnThietKeViMach/Project/SoC/VERIFICATION/Monitor/axi_monitor.sv(82) @ 6485000: uvm_test_top.env.agent.monitor [MON_RD] Detected READ  : Addr=20000008 Data=00000013 Prot=001 RResp=00
# UVM_INFO C:/Documents/DoAnThietKeViMach/Project/SoC/VERIFICATION/Scoreboard/axi_scoreboard.sv(118) @ 6485000: uvm_test_top.env.scoreboard [SCB_RD] [TIMER] READ Addr=20000008 Data=00000013 (status/no prior write)
# UVM_INFO C:/Documents/DoAnThietKeViMach/Project/SoC/VERIFICATION/Driver/axi_driver.sv(83) @ 6495000: uvm_test_top.env.agent.driver [DRV] Read Done: Addr=20000008 Data=00000013 Prot=001
# UVM_INFO C:/Documents/DoAnThietKeViMach/Project/SoC/VERIFICATION/Monitor/axi_monitor.sv(55) @ 6535000: uvm_test_top.env.agent.monitor [MON_WR] Detected WRITE : Addr=3000000c Data=0001c200 Strb=1111 Prot=010 BResp=00
# UVM_INFO C:/Documents/DoAnThietKeViMach/Project/SoC/VERIFICATION/Scoreboard/axi_scoreboard.sv(94) @ 6535000: uvm_test_top.env.scoreboard [SCB_WR] [UART] WRITE Addr=3000000c Data=0001c200
# UVM_INFO C:/Documents/DoAnThietKeViMach/Project/SoC/VERIFICATION/Driver/axi_driver.sv(63) @ 6545000: uvm_test_top.env.agent.driver [DRV] Write Done: Addr=3000000c Data=0001c200 Prot=010
# UVM_INFO C:/Documents/DoAnThietKeViMach/Project/SoC/VERIFICATION/Monitor/axi_monitor.sv(55) @ 6585000: uvm_test_top.env.agent.monitor [MON_WR] Detected WRITE : Addr=30000000 Data=00000055 Strb=1111 Prot=010 BResp=00
# UVM_INFO C:/Documents/DoAnThietKeViMach/Project/SoC/VERIFICATION/Scoreboard/axi_scoreboard.sv(94) @ 6585000: uvm_test_top.env.scoreboard [SCB_WR] [UART] WRITE Addr=30000000 Data=00000055
# UVM_INFO C:/Documents/DoAnThietKeViMach/Project/SoC/VERIFICATION/Driver/axi_driver.sv(63) @ 6595000: uvm_test_top.env.agent.driver [DRV] Write Done: Addr=30000000 Data=00000055 Prot=010
# UVM_INFO C:/Documents/DoAnThietKeViMach/Project/SoC/VERIFICATION/Monitor/axi_monitor.sv(82) @ 6635000: uvm_test_top.env.agent.monitor [MON_RD] Detected READ  : Addr=30000004 Data=000000xx Prot=010 RResp=00
# UVM_INFO C:/Documents/DoAnThietKeViMach/Project/SoC/VERIFICATION/Scoreboard/axi_scoreboard.sv(118) @ 6635000: uvm_test_top.env.scoreboard [SCB_RD] [UART] READ Addr=30000004 Data=000000xx (status/no prior write)
# UVM_INFO C:/Documents/DoAnThietKeViMach/Project/SoC/VERIFICATION/Driver/axi_driver.sv(83) @ 6645000: uvm_test_top.env.agent.driver [DRV] Read Done: Addr=30000004 Data=000000xx Prot=010
# UVM_INFO C:/Documents/DoAnThietKeViMach/Project/SoC/VERIFICATION/Monitor/axi_monitor.sv(82) @ 6685000: uvm_test_top.env.agent.monitor [MON_RD] Detected READ  : Addr=30000008 Data=00000001 Prot=010 RResp=00
# UVM_INFO C:/Documents/DoAnThietKeViMach/Project/SoC/VERIFICATION/Scoreboard/axi_scoreboard.sv(118) @ 6685000: uvm_test_top.env.scoreboard [SCB_RD] [UART] READ Addr=30000008 Data=00000001 (status/no prior write)
# UVM_INFO C:/Documents/DoAnThietKeViMach/Project/SoC/VERIFICATION/Driver/axi_driver.sv(83) @ 6695000: uvm_test_top.env.agent.driver [DRV] Read Done: Addr=30000008 Data=00000001 Prot=010
# UVM_INFO C:/Documents/DoAnThietKeViMach/Project/SoC/VERIFICATION/Monitor/axi_monitor.sv(82) @ 6735000: uvm_test_top.env.agent.monitor [MON_RD] Detected READ  : Addr=3000000c Data=0001c200 Prot=010 RResp=00
# UVM_INFO C:/Documents/DoAnThietKeViMach/Project/SoC/VERIFICATION/Scoreboard/axi_scoreboard.sv(110) @ 6735000: uvm_test_top.env.scoreboard [SCB_PASS] [UART] PASS Addr=3000000c Expected=0001c200 Got=0001c200
# UVM_INFO C:/Documents/DoAnThietKeViMach/Project/SoC/VERIFICATION/Driver/axi_driver.sv(83) @ 6745000: uvm_test_top.env.agent.driver [DRV] Read Done: Addr=3000000c Data=0001c200 Prot=010
# UVM_INFO C:/Documents/DoAnThietKeViMach/Project/SoC/VERIFICATION/Monitor/axi_monitor.sv(55) @ 6785000: uvm_test_top.env.agent.monitor [MON_WR] Detected WRITE : Addr=40000004 Data=00000001 Strb=1111 Prot=000 BResp=00
# UVM_INFO C:/Documents/DoAnThietKeViMach/Project/SoC/VERIFICATION/Scoreboard/axi_scoreboard.sv(94) @ 6785000: uvm_test_top.env.scoreboard [SCB_WR] [SPI] WRITE Addr=40000004 Data=00000001
# UVM_INFO C:/Documents/DoAnThietKeViMach/Project/SoC/VERIFICATION/Driver/axi_driver.sv(63) @ 6795000: uvm_test_top.env.agent.driver [DRV] Write Done: Addr=40000004 Data=00000001 Prot=000
# UVM_INFO C:/Documents/DoAnThietKeViMach/Project/SoC/VERIFICATION/Monitor/axi_monitor.sv(55) @ 6835000: uvm_test_top.env.agent.monitor [MON_WR] Detected WRITE : Addr=4000000c Data=00000004 Strb=1111 Prot=000 BResp=00
# UVM_INFO C:/Documents/DoAnThietKeViMach/Project/SoC/VERIFICATION/Scoreboard/axi_scoreboard.sv(94) @ 6835000: uvm_test_top.env.scoreboard [SCB_WR] [SPI] WRITE Addr=4000000c Data=00000004
# UVM_INFO C:/Documents/DoAnThietKeViMach/Project/SoC/VERIFICATION/Driver/axi_driver.sv(63) @ 6845000: uvm_test_top.env.agent.driver [DRV] Write Done: Addr=4000000c Data=00000004 Prot=000
# UVM_INFO C:/Documents/DoAnThietKeViMach/Project/SoC/VERIFICATION/Monitor/axi_monitor.sv(55) @ 6885000: uvm_test_top.env.agent.monitor [MON_WR] Detected WRITE : Addr=40000000 Data=000000a5 Strb=1111 Prot=000 BResp=00
# UVM_INFO C:/Documents/DoAnThietKeViMach/Project/SoC/VERIFICATION/Scoreboard/axi_scoreboard.sv(94) @ 6885000: uvm_test_top.env.scoreboard [SCB_WR] [SPI] WRITE Addr=40000000 Data=000000a5
# UVM_INFO C:/Documents/DoAnThietKeViMach/Project/SoC/VERIFICATION/Driver/axi_driver.sv(63) @ 6895000: uvm_test_top.env.agent.driver [DRV] Write Done: Addr=40000000 Data=000000a5 Prot=000
# UVM_INFO C:/Documents/DoAnThietKeViMach/Project/SoC/VERIFICATION/Monitor/axi_monitor.sv(82) @ 6935000: uvm_test_top.env.agent.monitor [MON_RD] Detected READ  : Addr=40000004 Data=00000001 Prot=000 RResp=00
# UVM_INFO C:/Documents/DoAnThietKeViMach/Project/SoC/VERIFICATION/Scoreboard/axi_scoreboard.sv(110) @ 6935000: uvm_test_top.env.scoreboard [SCB_PASS] [SPI] PASS Addr=40000004 Expected=00000001 Got=00000001
# UVM_INFO C:/Documents/DoAnThietKeViMach/Project/SoC/VERIFICATION/Driver/axi_driver.sv(83) @ 6945000: uvm_test_top.env.agent.driver [DRV] Read Done: Addr=40000004 Data=00000001 Prot=000
# UVM_INFO C:/Documents/DoAnThietKeViMach/Project/SoC/VERIFICATION/Monitor/axi_monitor.sv(82) @ 6985000: uvm_test_top.env.agent.monitor [MON_RD] Detected READ  : Addr=40000008 Data=00000001 Prot=000 RResp=00
# UVM_INFO C:/Documents/DoAnThietKeViMach/Project/SoC/VERIFICATION/Scoreboard/axi_scoreboard.sv(118) @ 6985000: uvm_test_top.env.scoreboard [SCB_RD] [SPI] READ Addr=40000008 Data=00000001 (status/no prior write)
# UVM_INFO C:/Documents/DoAnThietKeViMach/Project/SoC/VERIFICATION/Driver/axi_driver.sv(83) @ 6995000: uvm_test_top.env.agent.driver [DRV] Read Done: Addr=40000008 Data=00000001 Prot=000
# UVM_INFO C:/Documents/DoAnThietKeViMach/Project/SoC/VERIFICATION/Monitor/axi_monitor.sv(82) @ 7035000: uvm_test_top.env.agent.monitor [MON_RD] Detected READ  : Addr=4000000c Data=00000004 Prot=000 RResp=00
# UVM_INFO C:/Documents/DoAnThietKeViMach/Project/SoC/VERIFICATION/Scoreboard/axi_scoreboard.sv(110) @ 7035000: uvm_test_top.env.scoreboard [SCB_PASS] [SPI] PASS Addr=4000000c Expected=00000004 Got=00000004
# UVM_INFO C:/Documents/DoAnThietKeViMach/Project/SoC/VERIFICATION/Driver/axi_driver.sv(83) @ 7045000: uvm_test_top.env.agent.driver [DRV] Read Done: Addr=4000000c Data=00000004 Prot=000
# UVM_INFO C:/Documents/DoAnThietKeViMach/Project/SoC/VERIFICATION/Sequence/axi_multi_slaves_sequence.sv(262) @ 7045000: uvm_test_top.env.agent.sequencer@@seq [SEQ] === TEST 18: Decode Error Coverage ===
# UVM_INFO C:/Documents/DoAnThietKeViMach/Project/SoC/VERIFICATION/Monitor/axi_monitor.sv(55) @ 7075000: uvm_test_top.env.agent.monitor [MON_WR] Detected WRITE : Addr=50000000 Data=12345678 Strb=1111 Prot=010 BResp=11
# UVM_INFO C:/Documents/DoAnThietKeViMach/Project/SoC/VERIFICATION/Scoreboard/axi_scoreboard.sv(48) @ 7075000: uvm_test_top.env.scoreboard [SCB_PASS] [DECERR] PASS WRITE Addr=50000000 BResp=11
# UVM_INFO C:/Documents/DoAnThietKeViMach/Project/SoC/VERIFICATION/Driver/axi_driver.sv(63) @ 7085000: uvm_test_top.env.agent.driver [DRV] Write Done: Addr=50000000 Data=12345678 Prot=010
# UVM_INFO C:/Documents/DoAnThietKeViMach/Project/SoC/VERIFICATION/Monitor/axi_monitor.sv(82) @ 7115000: uvm_test_top.env.agent.monitor [MON_RD] Detected READ  : Addr=50000000 Data=deadbeef Prot=010 RResp=11
# UVM_INFO C:/Documents/DoAnThietKeViMach/Project/SoC/VERIFICATION/Scoreboard/axi_scoreboard.sv(53) @ 7115000: uvm_test_top.env.scoreboard [SCB_PASS] [DECERR] PASS READ Addr=50000000 Data=deadbeef RResp=11
# UVM_INFO C:/Documents/DoAnThietKeViMach/Project/SoC/VERIFICATION/Driver/axi_driver.sv(83) @ 7125000: uvm_test_top.env.agent.driver [DRV] Read Done: Addr=50000000 Data=deadbeef Prot=010
# UVM_INFO C:/Documents/DoAnThietKeViMach/Project/SoC/VERIFICATION/Sequence/axi_multi_slaves_sequence.sv(266) @ 7125000: uvm_test_top.env.agent.sequencer@@seq [SEQ] --- All Multi-Slave Tests Complete ---
# UVM_INFO verilog_src/uvm-1.1d/src/base/uvm_objection.svh(1268) @ 7225000: reporter [TEST_DONE] 'run' phase is ready to proceed to the 'extract' phase
# UVM_INFO C:/Documents/DoAnThietKeViMach/Project/SoC/VERIFICATION/Coverage/axi_coverage.sv(296) @ 7225000: uvm_test_top.env.coverage [COV] 
# UVM_INFO C:/Documents/DoAnThietKeViMach/Project/SoC/VERIFICATION/Coverage/axi_coverage.sv(297) @ 7225000: uvm_test_top.env.coverage [COV] ======================================================
# UVM_INFO C:/Documents/DoAnThietKeViMach/Project/SoC/VERIFICATION/Coverage/axi_coverage.sv(298) @ 7225000: uvm_test_top.env.coverage [COV]                FUNCTIONAL COVERAGE REPORT             
# UVM_INFO C:/Documents/DoAnThietKeViMach/Project/SoC/VERIFICATION/Coverage/axi_coverage.sv(299) @ 7225000: uvm_test_top.env.coverage [COV] ======================================================
# UVM_INFO C:/Documents/DoAnThietKeViMach/Project/SoC/VERIFICATION/Coverage/axi_coverage.sv(301) @ 7225000: uvm_test_top.env.coverage [COV]  AXI Protocol Coverage   :  95.96%  (target >90%)
# UVM_INFO C:/Documents/DoAnThietKeViMach/Project/SoC/VERIFICATION/Coverage/axi_coverage.sv(302) @ 7225000: uvm_test_top.env.coverage [COV]  Data Pattern Coverage   : 100.00%  (target >90%)
# UVM_INFO C:/Documents/DoAnThietKeViMach/Project/SoC/VERIFICATION/Coverage/axi_coverage.sv(303) @ 7225000: uvm_test_top.env.coverage [COV]  DRAM Address Coverage   : 100.00%  (target >90%)
# UVM_INFO C:/Documents/DoAnThietKeViMach/Project/SoC/VERIFICATION/Coverage/axi_coverage.sv(304) @ 7225000: uvm_test_top.env.coverage [COV]  Peripheral Reg Coverage : 100.00%  (target >80%)
# UVM_INFO C:/Documents/DoAnThietKeViMach/Project/SoC/VERIFICATION/Coverage/axi_coverage.sv(305) @ 7225000: uvm_test_top.env.coverage [COV]  CPU Pipeline Coverage   : 100.00%  (target >80%)
# UVM_INFO C:/Documents/DoAnThietKeViMach/Project/SoC/VERIFICATION/Coverage/axi_coverage.sv(307) @ 7225000: uvm_test_top.env.coverage [COV] ------------------------------------------------------
# UVM_INFO C:/Documents/DoAnThietKeViMach/Project/SoC/VERIFICATION/Coverage/axi_coverage.sv(309) @ 7225000: uvm_test_top.env.coverage [COV]  TOTAL (avg)             :  99.19%  (target >90%)
# UVM_INFO C:/Documents/DoAnThietKeViMach/Project/SoC/VERIFICATION/Coverage/axi_coverage.sv(311) @ 7225000: uvm_test_top.env.coverage [COV] ======================================================
# UVM_INFO C:/Documents/DoAnThietKeViMach/Project/SoC/VERIFICATION/Coverage/axi_coverage.sv(312) @ 7225000: uvm_test_top.env.coverage [COV] 
# 
# --- UVM Report Summary ---
# 
# ** Report counts by severity
# UVM_INFO :  423
# UVM_WARNING :    0
# UVM_ERROR :    0
# UVM_FATAL :    0
# ** Report counts by id
# [COV]    13
# [DRV]   140
# [MON_RD]    66
# [MON_WR]    74
# [Questa UVM]     2
# [RNTST]     1
# [SCB_PASS]    59
# [SCB_RD]     8
# [SCB_WR]    39
# [SEQ]    20
# [TEST_DONE]     1
# ** Note: $finish    : C:/app/QuestaSim/win64/../verilog_src/uvm-1.1d/src/base/uvm_root.svh(430)
#    Time: 7225 ns  Iteration: 54  Instance: /top_tb
