--- [SIM ONLY] cpu_test ---
MODE = CPU_MASTER
Reading C:/app/QuestaSim/tcl/vsim/pref.tcl 

# 10.2c

# vsim +UVM_TESTNAME=cpu_test +CPU_MASTER +MEM_SEED=4164348126 -coverage -do {run -all; quit} -c -sv_seed 4164348126 vopt_top 
# //  Questa Sim-64
# //  Version 10.2c Unknown Platform Jul 19 2013
# //
# //  Copyright 1991-2013 Mentor Graphics Corporation
# //  All Rights Reserved.
# //
# //  THIS WORK CONTAINS TRADE SECRET AND PROPRIETARY INFORMATION
# //  WHICH IS THE PROPERTY OF MENTOR GRAPHICS CORPORATION OR ITS
# //  LICENSORS AND IS SUBJECT TO LICENSE TERMS.
# //
# Loading sv_std.std
# Loading mtiUvm.uvm_pkg
# Loading work.soc_pkg(fast)
# Loading work.top_tb(fast)
# Loading work.clk_rst_inf(fast)
# Loading work.soc_inf(fast)
# Loading work.cpu_monitor_inf(fast)
# Loading work.TOP(fast)
# Loading work.AXI_Master(fast)
# Loading work.CPU(fast)
# Loading work.pc_reg(fast)
# Loading work.IF_ID(fast)
# Loading work.ControlUnit(fast)
# Loading work.MainDecoder(fast)
# Loading work.ALUControl(fast)
# Loading work.RegFile(fast)
# Loading work.signExtend(fast)
# Loading work.ID_EX(fast)
# Loading work.ALU(fast)
# Loading work.EX_MEM(fast)
# Loading work.MEM_WB(fast)
# Loading work.HazardUnit(fast)
# Loading work.LSU(fast)
# Loading work.AXI4_Lite_Interconnect(fast)
# Loading work.IRAM(fast)
# Loading work.DRAM(fast)
# Loading work.Timer(fast)
# Loading work.UART(fast)
# Loading work.SPI(fast)
# Loading mtiUvm.questa_uvm_pkg(fast)
# Loading C:/app/QuestaSim/uvm-1.1d\win64\uvm_dpi.dll
# run -all 
# ----------------------------------------------------------------
# UVM-1.1d
# (C) 2007-2013 Mentor Graphics Corporation
# (C) 2007-2013 Cadence Design Systems, Inc.
# (C) 2006-2013 Synopsys, Inc.
# (C) 2011-2013 Cypress Semiconductor Corp.
# ----------------------------------------------------------------
# 
#   ***********       IMPORTANT RELEASE NOTES         ************
# 
#   You are using a version of the UVM library that has been compiled
#   with `UVM_NO_DEPRECATED undefined.
#   See http://www.eda.org/svdb/view.php?id=3313 for more details.
# 
#   You are using a version of the UVM library that has been compiled
#   with `UVM_OBJECT_MUST_HAVE_CONSTRUCTOR undefined.
#   See http://www.eda.org/svdb/view.php?id=3770 for more details.
# 
#       (Specify +UVM_NO_RELNOTES to turn off this notice)
# 
# UVM_INFO verilog_src/questa_uvm_pkg-1.2/src/questa_uvm_pkg.sv(215) @ 0: reporter [Questa UVM] QUESTA_UVM-1.2.2
# UVM_INFO verilog_src/questa_uvm_pkg-1.2/src/questa_uvm_pkg.sv(217) @ 0: reporter [Questa UVM]  questa_uvm::init(+struct)
# [IRAM] Loading file: instr.mem
# [IRAM] mem[0] = 100000b7
# [IRAM] mem[1] = 00b9d4b3
# [IRAM] mem[2] = d4dc8693
# [IRAM] mem[3] = 01c0076f
# [IRAM] mem[4] = 014a9eb3
# [IRAM] mem[5] = 05d0ae23
# [IRAM] mem[6] = 31ff8313
# [IRAM] mem[7] = eee47993
# [IRAM] mem[8] = 0108ee33
# [IRAM] mem[9] = 41470a33
# [IRAM] mem[10] = e34cfa13
# [IRAM] mem[11] = 3c40ab83
# [IRAM] mem[12] = 77d34313
# [IRAM] mem[13] = 00d3d933
# [IRAM] mem[14] = 00340263
# [IRAM] mem[15] = 028d8863
# [IRAM] mem[16] = 024004ef
# [IRAM] mem[17] = 01995c33
# [IRAM] mem[18] = 7fe27293
# [IRAM] mem[19] = 405d5cb3
# [IRAM] mem[20] = 5f166713
# [IRAM] mem[21] = 0176f633
# [IRAM] mem[22] = 75d0ae23
# [IRAM] mem[23] = 002dd733
# [IRAM] mem[24] = 01fe6f33
# [IRAM] mem[25] = 019249b3
# [IRAM] mem[26] = adad4d93
# [IRAM] mem[27] = 02400d6f
# [IRAM] mem[28] = 6e00a583
# [IRAM] mem[29] = 64788193
# [IRAM] mem[30] = 01c0096f
# [IRAM] mem[31] = 00c00def
# [IRAM] mem[32] = 40768733
# [IRAM] mem[33] = 00a50a63
# [IRAM] mem[34] = 0920a023
# [IRAM] mem[35] = 28e0aa23
# [IRAM] mem[36] = 58ff8493
# [IRAM] mem[37] = 018ddc33
# [IRAM] mem[38] = 00a323b3
# [IRAM] mem[39] = 1fb44a13
# [IRAM] mem[40] = 00b60e63
# [IRAM] mem[41] = 00d4c433
# [IRAM] mem[42] = 00e5e533
# [IRAM] mem[43] = 40b98133
# [IRAM] mem[44] = 4840a983
# [IRAM] mem[45] = 6bae6f13
# [IRAM] mem[46] = 0171ddb3
# [IRAM] mem[47] = 7a6ec393
# [IRAM] mem[48] = 0108c2b3
# [IRAM] mem[49] = a6f9e913
# [IRAM] mem[50] = efd46893
# [IRAM] mem[51] = 126efc13
# [IRAM] mem[52] = 01a215b3
# [IRAM] mem[53] = 00878e63
# [IRAM] mem[54] = 7fc0a583
# [IRAM] mem[55] = 738d7913
# [IRAM] mem[56] = 0040a603
# [IRAM] mem[57] = 7000a203
# [IRAM] mem[58] = 98ef6313
# [IRAM] mem[59] = 0081c233
# [IRAM] mem[60] = 0157ce33
# [IRAM] mem[61] = 34b0ae23
# [IRAM] mem[62] = 406858b3
# [IRAM] mem[63] = 006c1bb3
# [IRAM] mem[64] = 2770ac23
# [IRAM] mem[65] = 4560a623
# [IRAM] mem[66] = 28b0ac23
# [IRAM] mem[67] = 7880a283
# [IRAM] mem[68] = 6880a223
# [IRAM] mem[69] = 01aef9b3
# [IRAM] mem[70] = 4300ac23
# [IRAM] mem[71] = 51e0a623
# [IRAM] mem[72] = 004745b3
# [IRAM] mem[73] = 01455f33
# [IRAM] mem[74] = 0043f1b3
# [IRAM] mem[75] = a4b14e13
# [IRAM] mem[76] = db667693
# [IRAM] mem[77] = 13f0a623
# [IRAM] mem[78] = fcd50713
# [IRAM] mem[79] = 21998a93
# [IRAM] mem[80] = 5000ae03
# [IRAM] mem[81] = 2240a583
# [IRAM] mem[82] = 4130a023
# [IRAM] mem[83] = 0420a623
# [IRAM] mem[84] = 57a0ae23
# [IRAM] mem[85] = 00d3d733
# [IRAM] mem[86] = 177efd13
# [IRAM] mem[87] = 30b0a823
# [IRAM] mem[88] = 01021433
# [IRAM] mem[89] = 1bfc8613
# [IRAM] mem[90] = 01d5c833
# [IRAM] mem[91] = 018b9133
# [IRAM] mem[92] = 7ed0ac23
# [IRAM] mem[93] = 01cb93b3
# [IRAM] mem[94] = 00a2c2b3
# [IRAM] mem[95] = 5ad0a423
# [IRAM] mem[96] = 21d67c93
# [IRAM] mem[97] = 63c0a103
# [IRAM] mem[98] = 24e84593
# [IRAM] mem[99] = 00f1c6b3
# [IRAM] mem[100] = 0068ccb3
# [TB] Mode: CPU MASTER â?? CPU drives AXI, UVM observes
# UVM_INFO @ 0: reporter [RNTST] Running test cpu_test...
# UVM_INFO C:/Documents/DoAnThietKeViMach/Project/SoC/VERIFICATION/Scoreboard/cpu_scoreboard.sv(98) @ 0: uvm_test_top.env.scoreboard [SCB] Loaded expected registers from: expected.mem
# UVM_INFO C:/Documents/DoAnThietKeViMach/Project/SoC/VERIFICATION/Test/cpu_test.sv(55) @ 0: uvm_test_top [TEST] Program has 101 instructions, end PC = 00000194
# UVM_INFO C:/Documents/DoAnThietKeViMach/Project/SoC/VERIFICATION/Monitor/cpu_monitor.sv(197) @ 35000: uvm_test_top.env.agent.monitor [CPU_MON] === CPU Monitor started == watching pipeline ===
# UVM_INFO C:/Documents/DoAnThietKeViMach/Project/SoC/VERIFICATION/Monitor/cpu_monitor.sv(199) @ 35000: uvm_test_top.env.agent.monitor [CPU_MON] ============================================================
# UVM_INFO C:/Documents/DoAnThietKeViMach/Project/SoC/VERIFICATION/Test/cpu_test.sv(62) @ 55000: uvm_test_top [TEST] Reset released â?? CPU executing from IRAM
# UVM_INFO C:/Documents/DoAnThietKeViMach/Project/SoC/VERIFICATION/Monitor/cpu_monitor.sv(356) @ 55000: uvm_test_top.env.agent.monitor [AXI_RD] CPU <- IRAM  Addr=00000000 Data=100000b7 RRESP=00
# UVM_INFO C:/Documents/DoAnThietKeViMach/Project/SoC/VERIFICATION/Monitor/cpu_monitor.sv(356) @ 95000: uvm_test_top.env.agent.monitor [AXI_RD] CPU <- IRAM  Addr=00000004 Data=00b9d4b3 RRESP=00
# UVM_INFO C:/Documents/DoAnThietKeViMach/Project/SoC/VERIFICATION/Monitor/cpu_monitor.sv(226) @ 95000: uvm_test_top.env.agent.monitor [IF] PC=00000004  INSTR=00b9d4b3  [SRL  x9, x19, x11]            
# UVM_INFO C:/Documents/DoAnThietKeViMach/Project/SoC/VERIFICATION/Monitor/cpu_monitor.sv(356) @ 135000: uvm_test_top.env.agent.monitor [AXI_RD] CPU <- IRAM  Addr=00000008 Data=d4dc8693 RRESP=00
# UVM_INFO C:/Documents/DoAnThietKeViMach/Project/SoC/VERIFICATION/Monitor/cpu_monitor.sv(226) @ 135000: uvm_test_top.env.agent.monitor [IF] PC=00000008  INSTR=d4dc8693  [ADDI x13, x25, -691]            
# UVM_INFO C:/Documents/DoAnThietKeViMach/Project/SoC/VERIFICATION/Monitor/cpu_monitor.sv(356) @ 175000: uvm_test_top.env.agent.monitor [AXI_RD] CPU <- IRAM  Addr=0000000c Data=01c0076f RRESP=00
# UVM_INFO C:/Documents/DoAnThietKeViMach/Project/SoC/VERIFICATION/Monitor/cpu_monitor.sv(226) @ 175000: uvm_test_top.env.agent.monitor [IF] PC=0000000c  INSTR=01c0076f  [JAL  x14, ...]            
# UVM_INFO C:/Documents/DoAnThietKeViMach/Project/SoC/VERIFICATION/Monitor/cpu_monitor.sv(288) @ 185000: uvm_test_top.env.agent.monitor [WB] x01 <= 10000000  (PC~0000000c)
# UVM_INFO C:/Documents/DoAnThietKeViMach/Project/SoC/VERIFICATION/Monitor/cpu_monitor.sv(288) @ 195000: uvm_test_top.env.agent.monitor [WB] x01 <= 10000000  (PC~0000000c)
# UVM_INFO C:/Documents/DoAnThietKeViMach/Project/SoC/VERIFICATION/Monitor/cpu_monitor.sv(288) @ 205000: uvm_test_top.env.agent.monitor [WB] x01 <= 10000000  (PC~0000000c)
# UVM_INFO C:/Documents/DoAnThietKeViMach/Project/SoC/VERIFICATION/Monitor/cpu_monitor.sv(356) @ 215000: uvm_test_top.env.agent.monitor [AXI_RD] CPU <- IRAM  Addr=00000010 Data=014a9eb3 RRESP=00
# UVM_INFO C:/Documents/DoAnThietKeViMach/Project/SoC/VERIFICATION/Monitor/cpu_monitor.sv(226) @ 215000: uvm_test_top.env.agent.monitor [IF] PC=00000010  INSTR=014a9eb3  [SLL  x29, x21, x20]            
# UVM_INFO C:/Documents/DoAnThietKeViMach/Project/SoC/VERIFICATION/Monitor/cpu_monitor.sv(288) @ 215000: uvm_test_top.env.agent.monitor [WB] x01 <= 10000000  (PC~00000010)
# UVM_INFO C:/Documents/DoAnThietKeViMach/Project/SoC/VERIFICATION/Monitor/cpu_monitor.sv(288) @ 225000: uvm_test_top.env.agent.monitor [WB] x09 <= 00000000  (PC~00000010)
# UVM_INFO C:/Documents/DoAnThietKeViMach/Project/SoC/VERIFICATION/Monitor/cpu_monitor.sv(288) @ 235000: uvm_test_top.env.agent.monitor [WB] x09 <= 00000000  (PC~00000010)
# UVM_INFO C:/Documents/DoAnThietKeViMach/Project/SoC/VERIFICATION/Monitor/cpu_monitor.sv(288) @ 245000: uvm_test_top.env.agent.monitor [WB] x09 <= 00000000  (PC~00000010)
# UVM_INFO C:/Documents/DoAnThietKeViMach/Project/SoC/VERIFICATION/Monitor/cpu_monitor.sv(356) @ 255000: uvm_test_top.env.agent.monitor [AXI_RD] CPU <- IRAM  Addr=00000014 Data=05d0ae23 RRESP=00
# UVM_INFO C:/Documents/DoAnThietKeViMach/Project/SoC/VERIFICATION/Monitor/cpu_monitor.sv(226) @ 255000: uvm_test_top.env.agent.monitor [IF] PC=00000014  INSTR=05d0ae23  [SW   x29, 93(x1)]            
# UVM_INFO C:/Documents/DoAnThietKeViMach/Project/SoC/VERIFICATION/Monitor/cpu_monitor.sv(288) @ 255000: uvm_test_top.env.agent.monitor [WB] x09 <= 00000000  (PC~00000014)
# UVM_INFO C:/Documents/DoAnThietKeViMach/Project/SoC/VERIFICATION/Monitor/cpu_monitor.sv(288) @ 265000: uvm_test_top.env.agent.monitor [WB] x13 <= fffffd4d  (PC~00000014)
# UVM_INFO C:/Documents/DoAnThietKeViMach/Project/SoC/VERIFICATION/Monitor/cpu_monitor.sv(288) @ 275000: uvm_test_top.env.agent.monitor [WB] x13 <= fffffd4d  (PC~00000014)
# UVM_INFO C:/Documents/DoAnThietKeViMach/Project/SoC/VERIFICATION/Monitor/cpu_monitor.sv(288) @ 285000: uvm_test_top.env.agent.monitor [WB] x13 <= fffffd4d  (PC~00000014)
# UVM_INFO C:/Documents/DoAnThietKeViMach/Project/SoC/VERIFICATION/Monitor/cpu_monitor.sv(356) @ 295000: uvm_test_top.env.agent.monitor [AXI_RD] CPU <- IRAM  Addr=00000028 Data=e34cfa13 RRESP=00
# UVM_INFO C:/Documents/DoAnThietKeViMach/Project/SoC/VERIFICATION/Monitor/cpu_monitor.sv(226) @ 295000: uvm_test_top.env.agent.monitor [IF] PC=00000028  INSTR=e34cfa13  [ANDI x20, x25, -460]            
# UVM_INFO C:/Documents/DoAnThietKeViMach/Project/SoC/VERIFICATION/Monitor/cpu_monitor.sv(288) @ 295000: uvm_test_top.env.agent.monitor [WB] x13 <= fffffd4d  (PC~00000028)
# UVM_INFO C:/Documents/DoAnThietKeViMach/Project/SoC/VERIFICATION/Monitor/cpu_monitor.sv(288) @ 305000: uvm_test_top.env.agent.monitor [WB] x14 <= 00000010  (PC~00000028)
# UVM_INFO C:/Documents/DoAnThietKeViMach/Project/SoC/VERIFICATION/Monitor/cpu_monitor.sv(288) @ 315000: uvm_test_top.env.agent.monitor [WB] x14 <= 00000010  (PC~00000028)
# UVM_INFO C:/Documents/DoAnThietKeViMach/Project/SoC/VERIFICATION/Monitor/cpu_monitor.sv(288) @ 325000: uvm_test_top.env.agent.monitor [WB] x14 <= 00000010  (PC~00000028)
# UVM_INFO C:/Documents/DoAnThietKeViMach/Project/SoC/VERIFICATION/Monitor/cpu_monitor.sv(356) @ 335000: uvm_test_top.env.agent.monitor [AXI_RD] CPU <- IRAM  Addr=0000002c Data=3c40ab83 RRESP=00
# UVM_INFO C:/Documents/DoAnThietKeViMach/Project/SoC/VERIFICATION/Monitor/cpu_monitor.sv(226) @ 335000: uvm_test_top.env.agent.monitor [IF] PC=0000002c  INSTR=3c40ab83  [LW   x23, 964(x1)]            
# UVM_INFO C:/Documents/DoAnThietKeViMach/Project/SoC/VERIFICATION/Monitor/cpu_monitor.sv(288) @ 335000: uvm_test_top.env.agent.monitor [WB] x14 <= 00000010  (PC~0000002c)
# UVM_INFO C:/Documents/DoAnThietKeViMach/Project/SoC/VERIFICATION/Monitor/cpu_monitor.sv(356) @ 375000: uvm_test_top.env.agent.monitor [AXI_RD] CPU <- IRAM  Addr=00000030 Data=77d34313 RRESP=00
# UVM_INFO C:/Documents/DoAnThietKeViMach/Project/SoC/VERIFICATION/Monitor/cpu_monitor.sv(226) @ 375000: uvm_test_top.env.agent.monitor [IF] PC=00000030  INSTR=77d34313  [XORI x6, x6, 1917]            
# UVM_INFO C:/Documents/DoAnThietKeViMach/Project/SoC/VERIFICATION/Monitor/cpu_monitor.sv(356) @ 415000: uvm_test_top.env.agent.monitor [AXI_RD] CPU <- IRAM  Addr=00000034 Data=00d3d933 RRESP=00
# UVM_INFO C:/Documents/DoAnThietKeViMach/Project/SoC/VERIFICATION/Monitor/cpu_monitor.sv(226) @ 415000: uvm_test_top.env.agent.monitor [IF] PC=00000034  INSTR=00d3d933  [SRL  x18, x7, x13]            
# [DRAM READ] addr=100003c4 data=00000000
# UVM_INFO C:/Documents/DoAnThietKeViMach/Project/SoC/VERIFICATION/Monitor/cpu_monitor.sv(356) @ 455000: uvm_test_top.env.agent.monitor [AXI_RD] CPU <- DRAM  Addr=100003c4 Data=00000000 RRESP=00
# UVM_INFO C:/Documents/DoAnThietKeViMach/Project/SoC/VERIFICATION/Monitor/cpu_monitor.sv(288) @ 455000: uvm_test_top.env.agent.monitor [WB] x20 <= 00000000  (PC~00000034)
# UVM_INFO C:/Documents/DoAnThietKeViMach/Project/SoC/VERIFICATION/Monitor/cpu_monitor.sv(288) @ 465000: uvm_test_top.env.agent.monitor [WB] x20 <= 00000000  (PC~00000034)
# UVM_INFO C:/Documents/DoAnThietKeViMach/Project/SoC/VERIFICATION/Monitor/cpu_monitor.sv(288) @ 475000: uvm_test_top.env.agent.monitor [WB] x20 <= 00000000  (PC~00000034)
# UVM_INFO C:/Documents/DoAnThietKeViMach/Project/SoC/VERIFICATION/Monitor/cpu_monitor.sv(288) @ 485000: uvm_test_top.env.agent.monitor [WB] x20 <= 00000000  (PC~00000034)
# UVM_INFO C:/Documents/DoAnThietKeViMach/Project/SoC/VERIFICATION/Monitor/cpu_monitor.sv(356) @ 495000: uvm_test_top.env.agent.monitor [AXI_RD] CPU <- IRAM  Addr=00000038 Data=00340263 RRESP=00
# UVM_INFO C:/Documents/DoAnThietKeViMach/Project/SoC/VERIFICATION/Monitor/cpu_monitor.sv(226) @ 495000: uvm_test_top.env.agent.monitor [IF] PC=00000038  INSTR=00340263  [BEQ  x8, x3, ...]            
# UVM_INFO C:/Documents/DoAnThietKeViMach/Project/SoC/VERIFICATION/Monitor/cpu_monitor.sv(288) @ 495000: uvm_test_top.env.agent.monitor [WB] x20 <= 00000000  (PC~00000038)
# UVM_INFO C:/Documents/DoAnThietKeViMach/Project/SoC/VERIFICATION/Monitor/cpu_monitor.sv(288) @ 505000: uvm_test_top.env.agent.monitor [WB] x23 <= 00000000  (PC~00000038)
# UVM_INFO C:/Documents/DoAnThietKeViMach/Project/SoC/VERIFICATION/Monitor/cpu_monitor.sv(288) @ 515000: uvm_test_top.env.agent.monitor [WB] x23 <= 00000000  (PC~00000038)
# UVM_INFO C:/Documents/DoAnThietKeViMach/Project/SoC/VERIFICATION/Monitor/cpu_monitor.sv(288) @ 525000: uvm_test_top.env.agent.monitor [WB] x23 <= 00000000  (PC~00000038)
# UVM_INFO C:/Documents/DoAnThietKeViMach/Project/SoC/VERIFICATION/Monitor/cpu_monitor.sv(356) @ 535000: uvm_test_top.env.agent.monitor [AXI_RD] CPU <- IRAM  Addr=0000003c Data=028d8863 RRESP=00
# UVM_INFO C:/Documents/DoAnThietKeViMach/Project/SoC/VERIFICATION/Monitor/cpu_monitor.sv(226) @ 535000: uvm_test_top.env.agent.monitor [IF] PC=0000003c  INSTR=028d8863  [BEQ  x27, x8, ...]            
# UVM_INFO C:/Documents/DoAnThietKeViMach/Project/SoC/VERIFICATION/Monitor/cpu_monitor.sv(288) @ 535000: uvm_test_top.env.agent.monitor [WB] x23 <= 00000000  (PC~0000003c)
# UVM_INFO C:/Documents/DoAnThietKeViMach/Project/SoC/VERIFICATION/Monitor/cpu_monitor.sv(288) @ 545000: uvm_test_top.env.agent.monitor [WB] x06 <= 0000077d  (PC~0000003c)
# UVM_INFO C:/Documents/DoAnThietKeViMach/Project/SoC/VERIFICATION/Monitor/cpu_monitor.sv(288) @ 555000: uvm_test_top.env.agent.monitor [WB] x06 <= 0000077d  (PC~0000003c)
# UVM_INFO C:/Documents/DoAnThietKeViMach/Project/SoC/VERIFICATION/Monitor/cpu_monitor.sv(288) @ 565000: uvm_test_top.env.agent.monitor [WB] x06 <= 0000077d  (PC~0000003c)
# UVM_INFO C:/Documents/DoAnThietKeViMach/Project/SoC/VERIFICATION/Monitor/cpu_monitor.sv(356) @ 575000: uvm_test_top.env.agent.monitor [AXI_RD] CPU <- IRAM  Addr=00000040 Data=024004ef RRESP=00
# UVM_INFO C:/Documents/DoAnThietKeViMach/Project/SoC/VERIFICATION/Monitor/cpu_monitor.sv(226) @ 575000: uvm_test_top.env.agent.monitor [IF] PC=00000040  INSTR=024004ef  [JAL  x9, ...]            
# UVM_INFO C:/Documents/DoAnThietKeViMach/Project/SoC/VERIFICATION/Monitor/cpu_monitor.sv(288) @ 575000: uvm_test_top.env.agent.monitor [WB] x06 <= 0000077d  (PC~00000040)
# UVM_INFO C:/Documents/DoAnThietKeViMach/Project/SoC/VERIFICATION/Monitor/cpu_monitor.sv(288) @ 585000: uvm_test_top.env.agent.monitor [WB] x18 <= 00000000  (PC~00000040)
# UVM_INFO C:/Documents/DoAnThietKeViMach/Project/SoC/VERIFICATION/Monitor/cpu_monitor.sv(288) @ 595000: uvm_test_top.env.agent.monitor [WB] x18 <= 00000000  (PC~00000040)
# UVM_INFO C:/Documents/DoAnThietKeViMach/Project/SoC/VERIFICATION/Monitor/cpu_monitor.sv(288) @ 605000: uvm_test_top.env.agent.monitor [WB] x18 <= 00000000  (PC~00000040)
# UVM_INFO C:/Documents/DoAnThietKeViMach/Project/SoC/VERIFICATION/Monitor/cpu_monitor.sv(356) @ 615000: uvm_test_top.env.agent.monitor [AXI_RD] CPU <- IRAM  Addr=0000003c Data=028d8863 RRESP=00
# UVM_INFO C:/Documents/DoAnThietKeViMach/Project/SoC/VERIFICATION/Monitor/cpu_monitor.sv(226) @ 615000: uvm_test_top.env.agent.monitor [IF] PC=0000003c  INSTR=028d8863  [BEQ  x27, x8, ...]            
# UVM_INFO C:/Documents/DoAnThietKeViMach/Project/SoC/VERIFICATION/Monitor/cpu_monitor.sv(288) @ 615000: uvm_test_top.env.agent.monitor [WB] x18 <= 00000000  (PC~0000003c)
# UVM_INFO C:/Documents/DoAnThietKeViMach/Project/SoC/VERIFICATION/Monitor/cpu_monitor.sv(356) @ 655000: uvm_test_top.env.agent.monitor [AXI_RD] CPU <- IRAM  Addr=00000040 Data=024004ef RRESP=00
# UVM_INFO C:/Documents/DoAnThietKeViMach/Project/SoC/VERIFICATION/Monitor/cpu_monitor.sv(226) @ 655000: uvm_test_top.env.agent.monitor [IF] PC=00000040  INSTR=024004ef  [JAL  x9, ...]            
# UVM_INFO C:/Documents/DoAnThietKeViMach/Project/SoC/VERIFICATION/Monitor/cpu_monitor.sv(356) @ 695000: uvm_test_top.env.agent.monitor [AXI_RD] CPU <- IRAM  Addr=00000044 Data=01995c33 RRESP=00
# UVM_INFO C:/Documents/DoAnThietKeViMach/Project/SoC/VERIFICATION/Monitor/cpu_monitor.sv(226) @ 695000: uvm_test_top.env.agent.monitor [IF] PC=00000044  INSTR=01995c33  [SRL  x24, x18, x25]            
# UVM_INFO C:/Documents/DoAnThietKeViMach/Project/SoC/VERIFICATION/Monitor/cpu_monitor.sv(356) @ 735000: uvm_test_top.env.agent.monitor [AXI_RD] CPU <- IRAM  Addr=0000006c Data=02400d6f RRESP=00
# UVM_INFO C:/Documents/DoAnThietKeViMach/Project/SoC/VERIFICATION/Monitor/cpu_monitor.sv(226) @ 735000: uvm_test_top.env.agent.monitor [IF] PC=0000006c  INSTR=02400d6f  [JAL  x26, ...]            
# UVM_INFO C:/Documents/DoAnThietKeViMach/Project/SoC/VERIFICATION/Monitor/cpu_monitor.sv(356) @ 775000: uvm_test_top.env.agent.monitor [AXI_RD] CPU <- IRAM  Addr=00000070 Data=6e00a583 RRESP=00
# UVM_INFO C:/Documents/DoAnThietKeViMach/Project/SoC/VERIFICATION/Monitor/cpu_monitor.sv(226) @ 775000: uvm_test_top.env.agent.monitor [IF] PC=00000070  INSTR=6e00a583  [LW   x11, 1760(x1)]            
# UVM_INFO C:/Documents/DoAnThietKeViMach/Project/SoC/VERIFICATION/Monitor/cpu_monitor.sv(356) @ 815000: uvm_test_top.env.agent.monitor [AXI_RD] CPU <- IRAM  Addr=00000074 Data=64788193 RRESP=00
# UVM_INFO C:/Documents/DoAnThietKeViMach/Project/SoC/VERIFICATION/Monitor/cpu_monitor.sv(226) @ 815000: uvm_test_top.env.agent.monitor [IF] PC=00000074  INSTR=64788193  [ADDI x3, x17, 1607]            
# UVM_INFO C:/Documents/DoAnThietKeViMach/Project/SoC/VERIFICATION/Monitor/cpu_monitor.sv(356) @ 855000: uvm_test_top.env.agent.monitor [AXI_RD] CPU <- IRAM  Addr=00000090 Data=58ff8493 RRESP=00
# UVM_INFO C:/Documents/DoAnThietKeViMach/Project/SoC/VERIFICATION/Monitor/cpu_monitor.sv(226) @ 855000: uvm_test_top.env.agent.monitor [IF] PC=00000090  INSTR=58ff8493  [ADDI x9, x31, 1423]            
# UVM_INFO C:/Documents/DoAnThietKeViMach/Project/SoC/VERIFICATION/Monitor/cpu_monitor.sv(288) @ 865000: uvm_test_top.env.agent.monitor [WB] x26 <= 00000070  (PC~00000090)
# UVM_INFO C:/Documents/DoAnThietKeViMach/Project/SoC/VERIFICATION/Monitor/cpu_monitor.sv(288) @ 875000: uvm_test_top.env.agent.monitor [WB] x26 <= 00000070  (PC~00000090)
# UVM_INFO C:/Documents/DoAnThietKeViMach/Project/SoC/VERIFICATION/Monitor/cpu_monitor.sv(288) @ 885000: uvm_test_top.env.agent.monitor [WB] x26 <= 00000070  (PC~00000090)
# UVM_INFO C:/Documents/DoAnThietKeViMach/Project/SoC/VERIFICATION/Monitor/cpu_monitor.sv(356) @ 895000: uvm_test_top.env.agent.monitor [AXI_RD] CPU <- IRAM  Addr=00000094 Data=018ddc33 RRESP=00
# UVM_INFO C:/Documents/DoAnThietKeViMach/Project/SoC/VERIFICATION/Monitor/cpu_monitor.sv(226) @ 895000: uvm_test_top.env.agent.monitor [IF] PC=00000094  INSTR=018ddc33  [SRL  x24, x27, x24]            
# UVM_INFO C:/Documents/DoAnThietKeViMach/Project/SoC/VERIFICATION/Monitor/cpu_monitor.sv(288) @ 895000: uvm_test_top.env.agent.monitor [WB] x26 <= 00000070  (PC~00000094)
# UVM_INFO C:/Documents/DoAnThietKeViMach/Project/SoC/VERIFICATION/Monitor/cpu_monitor.sv(356) @ 935000: uvm_test_top.env.agent.monitor [AXI_RD] CPU <- IRAM  Addr=00000098 Data=00a323b3 RRESP=00
# UVM_INFO C:/Documents/DoAnThietKeViMach/Project/SoC/VERIFICATION/Monitor/cpu_monitor.sv(226) @ 935000: uvm_test_top.env.agent.monitor [IF] PC=00000098  INSTR=00a323b3  [SLT  x7, x6, x10]            
# UVM_INFO C:/Documents/DoAnThietKeViMach/Project/SoC/VERIFICATION/Monitor/cpu_monitor.sv(356) @ 975000: uvm_test_top.env.agent.monitor [AXI_RD] CPU <- IRAM  Addr=0000009c Data=1fb44a13 RRESP=00
# UVM_INFO C:/Documents/DoAnThietKeViMach/Project/SoC/VERIFICATION/Monitor/cpu_monitor.sv(226) @ 975000: uvm_test_top.env.agent.monitor [IF] PC=0000009c  INSTR=1fb44a13  [XORI x20, x8, 507]            
# UVM_INFO C:/Documents/DoAnThietKeViMach/Project/SoC/VERIFICATION/Monitor/cpu_monitor.sv(288) @ 985000: uvm_test_top.env.agent.monitor [WB] x09 <= 0000058f  (PC~0000009c)
# UVM_INFO C:/Documents/DoAnThietKeViMach/Project/SoC/VERIFICATION/Monitor/cpu_monitor.sv(288) @ 995000: uvm_test_top.env.agent.monitor [WB] x09 <= 0000058f  (PC~0000009c)
# UVM_INFO C:/Documents/DoAnThietKeViMach/Project/SoC/VERIFICATION/Monitor/cpu_monitor.sv(288) @ 1005000: uvm_test_top.env.agent.monitor [WB] x09 <= 0000058f  (PC~0000009c)
# UVM_INFO C:/Documents/DoAnThietKeViMach/Project/SoC/VERIFICATION/Monitor/cpu_monitor.sv(356) @ 1015000: uvm_test_top.env.agent.monitor [AXI_RD] CPU <- IRAM  Addr=000000a0 Data=00b60e63 RRESP=00
# UVM_INFO C:/Documents/DoAnThietKeViMach/Project/SoC/VERIFICATION/Monitor/cpu_monitor.sv(226) @ 1015000: uvm_test_top.env.agent.monitor [IF] PC=000000a0  INSTR=00b60e63  [BEQ  x12, x11, ...]            
# UVM_INFO C:/Documents/DoAnThietKeViMach/Project/SoC/VERIFICATION/Monitor/cpu_monitor.sv(288) @ 1015000: uvm_test_top.env.agent.monitor [WB] x09 <= 0000058f  (PC~000000a0)
# UVM_INFO C:/Documents/DoAnThietKeViMach/Project/SoC/VERIFICATION/Monitor/cpu_monitor.sv(288) @ 1025000: uvm_test_top.env.agent.monitor [WB] x24 <= 00000000  (PC~000000a0)
# UVM_INFO C:/Documents/DoAnThietKeViMach/Project/SoC/VERIFICATION/Monitor/cpu_monitor.sv(288) @ 1035000: uvm_test_top.env.agent.monitor [WB] x24 <= 00000000  (PC~000000a0)
# UVM_INFO C:/Documents/DoAnThietKeViMach/Project/SoC/VERIFICATION/Monitor/cpu_monitor.sv(288) @ 1045000: uvm_test_top.env.agent.monitor [WB] x24 <= 00000000  (PC~000000a0)
# UVM_INFO C:/Documents/DoAnThietKeViMach/Project/SoC/VERIFICATION/Monitor/cpu_monitor.sv(356) @ 1055000: uvm_test_top.env.agent.monitor [AXI_RD] CPU <- IRAM  Addr=000000a4 Data=00d4c433 RRESP=00
# UVM_INFO C:/Documents/DoAnThietKeViMach/Project/SoC/VERIFICATION/Monitor/cpu_monitor.sv(226) @ 1055000: uvm_test_top.env.agent.monitor [IF] PC=000000a4  INSTR=00d4c433  [XOR  x8, x9, x13]            
# UVM_INFO C:/Documents/DoAnThietKeViMach/Project/SoC/VERIFICATION/Monitor/cpu_monitor.sv(288) @ 1055000: uvm_test_top.env.agent.monitor [WB] x24 <= 00000000  (PC~000000a4)
# UVM_INFO C:/Documents/DoAnThietKeViMach/Project/SoC/VERIFICATION/Monitor/cpu_monitor.sv(288) @ 1065000: uvm_test_top.env.agent.monitor [WB] x07 <= 00000000  (PC~000000a4)
# UVM_INFO C:/Documents/DoAnThietKeViMach/Project/SoC/VERIFICATION/Monitor/cpu_monitor.sv(288) @ 1075000: uvm_test_top.env.agent.monitor [WB] x07 <= 00000000  (PC~000000a4)
# UVM_INFO C:/Documents/DoAnThietKeViMach/Project/SoC/VERIFICATION/Monitor/cpu_monitor.sv(288) @ 1085000: uvm_test_top.env.agent.monitor [WB] x07 <= 00000000  (PC~000000a4)
# UVM_INFO C:/Documents/DoAnThietKeViMach/Project/SoC/VERIFICATION/Monitor/cpu_monitor.sv(356) @ 1095000: uvm_test_top.env.agent.monitor [AXI_RD] CPU <- IRAM  Addr=000000a8 Data=00e5e533 RRESP=00
# UVM_INFO C:/Documents/DoAnThietKeViMach/Project/SoC/VERIFICATION/Monitor/cpu_monitor.sv(226) @ 1095000: uvm_test_top.env.agent.monitor [IF] PC=000000a8  INSTR=00e5e533  [OR   x10, x11, x14]            
# UVM_INFO C:/Documents/DoAnThietKeViMach/Project/SoC/VERIFICATION/Monitor/cpu_monitor.sv(288) @ 1095000: uvm_test_top.env.agent.monitor [WB] x07 <= 00000000  (PC~000000a8)
# UVM_INFO C:/Documents/DoAnThietKeViMach/Project/SoC/VERIFICATION/Monitor/cpu_monitor.sv(288) @ 1105000: uvm_test_top.env.agent.monitor [WB] x20 <= 000001fb  (PC~000000a8)
# UVM_INFO C:/Documents/DoAnThietKeViMach/Project/SoC/VERIFICATION/Monitor/cpu_monitor.sv(288) @ 1115000: uvm_test_top.env.agent.monitor [WB] x20 <= 000001fb  (PC~000000a8)
# UVM_INFO C:/Documents/DoAnThietKeViMach/Project/SoC/VERIFICATION/Monitor/cpu_monitor.sv(288) @ 1125000: uvm_test_top.env.agent.monitor [WB] x20 <= 000001fb  (PC~000000a8)
# UVM_INFO C:/Documents/DoAnThietKeViMach/Project/SoC/VERIFICATION/Monitor/cpu_monitor.sv(356) @ 1135000: uvm_test_top.env.agent.monitor [AXI_RD] CPU <- IRAM  Addr=000000bc Data=7a6ec393 RRESP=00
# UVM_INFO C:/Documents/DoAnThietKeViMach/Project/SoC/VERIFICATION/Monitor/cpu_monitor.sv(226) @ 1135000: uvm_test_top.env.agent.monitor [IF] PC=000000bc  INSTR=7a6ec393  [XORI x7, x29, 1958]            
# UVM_INFO C:/Documents/DoAnThietKeViMach/Project/SoC/VERIFICATION/Monitor/cpu_monitor.sv(288) @ 1135000: uvm_test_top.env.agent.monitor [WB] x20 <= 000001fb  (PC~000000bc)
# UVM_INFO C:/Documents/DoAnThietKeViMach/Project/SoC/VERIFICATION/Monitor/cpu_monitor.sv(356) @ 1175000: uvm_test_top.env.agent.monitor [AXI_RD] CPU <- IRAM  Addr=000000c0 Data=0108c2b3 RRESP=00
# UVM_INFO C:/Documents/DoAnThietKeViMach/Project/SoC/VERIFICATION/Monitor/cpu_monitor.sv(226) @ 1175000: uvm_test_top.env.agent.monitor [IF] PC=000000c0  INSTR=0108c2b3  [XOR  x5, x17, x16]            
# UVM_INFO C:/Documents/DoAnThietKeViMach/Project/SoC/VERIFICATION/Monitor/cpu_monitor.sv(356) @ 1215000: uvm_test_top.env.agent.monitor [AXI_RD] CPU <- IRAM  Addr=000000c4 Data=a6f9e913 RRESP=00
# UVM_INFO C:/Documents/DoAnThietKeViMach/Project/SoC/VERIFICATION/Monitor/cpu_monitor.sv(226) @ 1215000: uvm_test_top.env.agent.monitor [IF] PC=000000c4  INSTR=a6f9e913  [ORI  x18, x19, -1425]            
# UVM_INFO C:/Documents/DoAnThietKeViMach/Project/SoC/VERIFICATION/Monitor/cpu_monitor.sv(356) @ 1255000: uvm_test_top.env.agent.monitor [AXI_RD] CPU <- IRAM  Addr=000000c8 Data=efd46893 RRESP=00
# UVM_INFO C:/Documents/DoAnThietKeViMach/Project/SoC/VERIFICATION/Monitor/cpu_monitor.sv(226) @ 1255000: uvm_test_top.env.agent.monitor [IF] PC=000000c8  INSTR=efd46893  [ORI  x17, x8, -259]            
# UVM_INFO C:/Documents/DoAnThietKeViMach/Project/SoC/VERIFICATION/Monitor/cpu_monitor.sv(288) @ 1265000: uvm_test_top.env.agent.monitor [WB] x07 <= 000007a6  (PC~000000c8)
# UVM_INFO C:/Documents/DoAnThietKeViMach/Project/SoC/VERIFICATION/Monitor/cpu_monitor.sv(288) @ 1275000: uvm_test_top.env.agent.monitor [WB] x07 <= 000007a6  (PC~000000c8)
# UVM_INFO C:/Documents/DoAnThietKeViMach/Project/SoC/VERIFICATION/Monitor/cpu_monitor.sv(288) @ 1285000: uvm_test_top.env.agent.monitor [WB] x07 <= 000007a6  (PC~000000c8)
# UVM_INFO C:/Documents/DoAnThietKeViMach/Project/SoC/VERIFICATION/Monitor/cpu_monitor.sv(356) @ 1295000: uvm_test_top.env.agent.monitor [AXI_RD] CPU <- IRAM  Addr=000000cc Data=126efc13 RRESP=00
# UVM_INFO C:/Documents/DoAnThietKeViMach/Project/SoC/VERIFICATION/Monitor/cpu_monitor.sv(226) @ 1295000: uvm_test_top.env.agent.monitor [IF] PC=000000cc  INSTR=126efc13  [ANDI x24, x29, 294]            
# UVM_INFO C:/Documents/DoAnThietKeViMach/Project/SoC/VERIFICATION/Monitor/cpu_monitor.sv(288) @ 1295000: uvm_test_top.env.agent.monitor [WB] x07 <= 000007a6  (PC~000000cc)
# UVM_INFO C:/Documents/DoAnThietKeViMach/Project/SoC/VERIFICATION/Monitor/cpu_monitor.sv(288) @ 1305000: uvm_test_top.env.agent.monitor [WB] x05 <= 00000000  (PC~000000cc)
# UVM_INFO C:/Documents/DoAnThietKeViMach/Project/SoC/VERIFICATION/Monitor/cpu_monitor.sv(288) @ 1315000: uvm_test_top.env.agent.monitor [WB] x05 <= 00000000  (PC~000000cc)
# UVM_INFO C:/Documents/DoAnThietKeViMach/Project/SoC/VERIFICATION/Monitor/cpu_monitor.sv(288) @ 1325000: uvm_test_top.env.agent.monitor [WB] x05 <= 00000000  (PC~000000cc)
# UVM_INFO C:/Documents/DoAnThietKeViMach/Project/SoC/VERIFICATION/Monitor/cpu_monitor.sv(356) @ 1335000: uvm_test_top.env.agent.monitor [AXI_RD] CPU <- IRAM  Addr=000000d0 Data=01a215b3 RRESP=00
# UVM_INFO C:/Documents/DoAnThietKeViMach/Project/SoC/VERIFICATION/Monitor/cpu_monitor.sv(226) @ 1335000: uvm_test_top.env.agent.monitor [IF] PC=000000d0  INSTR=01a215b3  [SLL  x11, x4, x26]            
# UVM_INFO C:/Documents/DoAnThietKeViMach/Project/SoC/VERIFICATION/Monitor/cpu_monitor.sv(288) @ 1335000: uvm_test_top.env.agent.monitor [WB] x05 <= 00000000  (PC~000000d0)
# UVM_INFO C:/Documents/DoAnThietKeViMach/Project/SoC/VERIFICATION/Monitor/cpu_monitor.sv(288) @ 1345000: uvm_test_top.env.agent.monitor [WB] x18 <= fffffa6f  (PC~000000d0)
# UVM_INFO C:/Documents/DoAnThietKeViMach/Project/SoC/VERIFICATION/Monitor/cpu_monitor.sv(288) @ 1355000: uvm_test_top.env.agent.monitor [WB] x18 <= fffffa6f  (PC~000000d0)
# UVM_INFO C:/Documents/DoAnThietKeViMach/Project/SoC/VERIFICATION/Monitor/cpu_monitor.sv(288) @ 1365000: uvm_test_top.env.agent.monitor [WB] x18 <= fffffa6f  (PC~000000d0)
# UVM_INFO C:/Documents/DoAnThietKeViMach/Project/SoC/VERIFICATION/Monitor/cpu_monitor.sv(356) @ 1375000: uvm_test_top.env.agent.monitor [AXI_RD] CPU <- IRAM  Addr=000000d4 Data=00878e63 RRESP=00
# UVM_INFO C:/Documents/DoAnThietKeViMach/Project/SoC/VERIFICATION/Monitor/cpu_monitor.sv(226) @ 1375000: uvm_test_top.env.agent.monitor [IF] PC=000000d4  INSTR=00878e63  [BEQ  x15, x8, ...]            
# UVM_INFO C:/Documents/DoAnThietKeViMach/Project/SoC/VERIFICATION/Monitor/cpu_monitor.sv(288) @ 1375000: uvm_test_top.env.agent.monitor [WB] x18 <= fffffa6f  (PC~000000d4)
# UVM_INFO C:/Documents/DoAnThietKeViMach/Project/SoC/VERIFICATION/Monitor/cpu_monitor.sv(288) @ 1385000: uvm_test_top.env.agent.monitor [WB] x17 <= fffffefd  (PC~000000d4)
# UVM_INFO C:/Documents/DoAnThietKeViMach/Project/SoC/VERIFICATION/Monitor/cpu_monitor.sv(288) @ 1395000: uvm_test_top.env.agent.monitor [WB] x17 <= fffffefd  (PC~000000d4)
# UVM_INFO C:/Documents/DoAnThietKeViMach/Project/SoC/VERIFICATION/Monitor/cpu_monitor.sv(288) @ 1405000: uvm_test_top.env.agent.monitor [WB] x17 <= fffffefd  (PC~000000d4)
# UVM_INFO C:/Documents/DoAnThietKeViMach/Project/SoC/VERIFICATION/Monitor/cpu_monitor.sv(356) @ 1415000: uvm_test_top.env.agent.monitor [AXI_RD] CPU <- IRAM  Addr=000000d8 Data=7fc0a583 RRESP=00
# UVM_INFO C:/Documents/DoAnThietKeViMach/Project/SoC/VERIFICATION/Monitor/cpu_monitor.sv(226) @ 1415000: uvm_test_top.env.agent.monitor [IF] PC=000000d8  INSTR=7fc0a583  [LW   x11, 2044(x1)]            
# UVM_INFO C:/Documents/DoAnThietKeViMach/Project/SoC/VERIFICATION/Monitor/cpu_monitor.sv(288) @ 1415000: uvm_test_top.env.agent.monitor [WB] x17 <= fffffefd  (PC~000000d8)
# UVM_INFO C:/Documents/DoAnThietKeViMach/Project/SoC/VERIFICATION/Monitor/cpu_monitor.sv(288) @ 1425000: uvm_test_top.env.agent.monitor [WB] x24 <= 00000000  (PC~000000d8)
# UVM_INFO C:/Documents/DoAnThietKeViMach/Project/SoC/VERIFICATION/Monitor/cpu_monitor.sv(288) @ 1435000: uvm_test_top.env.agent.monitor [WB] x24 <= 00000000  (PC~000000d8)
# UVM_INFO C:/Documents/DoAnThietKeViMach/Project/SoC/VERIFICATION/Monitor/cpu_monitor.sv(288) @ 1445000: uvm_test_top.env.agent.monitor [WB] x24 <= 00000000  (PC~000000d8)
# UVM_INFO C:/Documents/DoAnThietKeViMach/Project/SoC/VERIFICATION/Monitor/cpu_monitor.sv(356) @ 1455000: uvm_test_top.env.agent.monitor [AXI_RD] CPU <- IRAM  Addr=000000dc Data=738d7913 RRESP=00
# UVM_INFO C:/Documents/DoAnThietKeViMach/Project/SoC/VERIFICATION/Monitor/cpu_monitor.sv(226) @ 1455000: uvm_test_top.env.agent.monitor [IF] PC=000000dc  INSTR=738d7913  [ANDI x18, x26, 1848]            
# UVM_INFO C:/Documents/DoAnThietKeViMach/Project/SoC/VERIFICATION/Monitor/cpu_monitor.sv(288) @ 1455000: uvm_test_top.env.agent.monitor [WB] x24 <= 00000000  (PC~000000dc)
# UVM_INFO C:/Documents/DoAnThietKeViMach/Project/SoC/VERIFICATION/Monitor/cpu_monitor.sv(288) @ 1465000: uvm_test_top.env.agent.monitor [WB] x11 <= 00000000  (PC~000000dc)
# UVM_INFO C:/Documents/DoAnThietKeViMach/Project/SoC/VERIFICATION/Monitor/cpu_monitor.sv(288) @ 1475000: uvm_test_top.env.agent.monitor [WB] x11 <= 00000000  (PC~000000dc)
# UVM_INFO C:/Documents/DoAnThietKeViMach/Project/SoC/VERIFICATION/Monitor/cpu_monitor.sv(288) @ 1485000: uvm_test_top.env.agent.monitor [WB] x11 <= 00000000  (PC~000000dc)
# UVM_INFO C:/Documents/DoAnThietKeViMach/Project/SoC/VERIFICATION/Monitor/cpu_monitor.sv(356) @ 1495000: uvm_test_top.env.agent.monitor [AXI_RD] CPU <- IRAM  Addr=000000f0 Data=0157ce33 RRESP=00
# UVM_INFO C:/Documents/DoAnThietKeViMach/Project/SoC/VERIFICATION/Monitor/cpu_monitor.sv(226) @ 1495000: uvm_test_top.env.agent.monitor [IF] PC=000000f0  INSTR=0157ce33  [XOR  x28, x15, x21]            
# UVM_INFO C:/Documents/DoAnThietKeViMach/Project/SoC/VERIFICATION/Monitor/cpu_monitor.sv(288) @ 1495000: uvm_test_top.env.agent.monitor [WB] x11 <= 00000000  (PC~000000f0)
# UVM_INFO C:/Documents/DoAnThietKeViMach/Project/SoC/VERIFICATION/Monitor/cpu_monitor.sv(356) @ 1535000: uvm_test_top.env.agent.monitor [AXI_RD] CPU <- IRAM  Addr=000000f4 Data=34b0ae23 RRESP=00
# UVM_INFO C:/Documents/DoAnThietKeViMach/Project/SoC/VERIFICATION/Monitor/cpu_monitor.sv(226) @ 1535000: uvm_test_top.env.agent.monitor [IF] PC=000000f4  INSTR=34b0ae23  [SW   x11, 843(x1)]            
# UVM_INFO C:/Documents/DoAnThietKeViMach/Project/SoC/VERIFICATION/Monitor/cpu_monitor.sv(356) @ 1575000: uvm_test_top.env.agent.monitor [AXI_RD] CPU <- IRAM  Addr=000000f8 Data=406858b3 RRESP=00
# UVM_INFO C:/Documents/DoAnThietKeViMach/Project/SoC/VERIFICATION/Monitor/cpu_monitor.sv(226) @ 1575000: uvm_test_top.env.agent.monitor [IF] PC=000000f8  INSTR=406858b3  [SRA  x17, x16, x6]            
# UVM_INFO C:/Documents/DoAnThietKeViMach/Project/SoC/VERIFICATION/Monitor/cpu_monitor.sv(356) @ 1615000: uvm_test_top.env.agent.monitor [AXI_RD] CPU <- IRAM  Addr=000000fc Data=006c1bb3 RRESP=00
# UVM_INFO C:/Documents/DoAnThietKeViMach/Project/SoC/VERIFICATION/Monitor/cpu_monitor.sv(226) @ 1615000: uvm_test_top.env.agent.monitor [IF] PC=000000fc  INSTR=006c1bb3  [SLL  x23, x24, x6]            
# UVM_INFO C:/Documents/DoAnThietKeViMach/Project/SoC/VERIFICATION/Monitor/cpu_monitor.sv(260) @ 1625000: uvm_test_top.env.agent.monitor [MEM] STORE Addr=1000035c Data=00000000
# UVM_INFO C:/Documents/DoAnThietKeViMach/Project/SoC/VERIFICATION/Monitor/cpu_monitor.sv(260) @ 1635000: uvm_test_top.env.agent.monitor [MEM] STORE Addr=1000035c Data=00000000
# [DRAM WRITE] addr=1000035c data=00000000
# UVM_INFO C:/Documents/DoAnThietKeViMach/Project/SoC/VERIFICATION/Monitor/cpu_monitor.sv(260) @ 1645000: uvm_test_top.env.agent.monitor [MEM] STORE Addr=1000035c Data=00000000
# UVM_INFO C:/Documents/DoAnThietKeViMach/Project/SoC/VERIFICATION/Monitor/cpu_monitor.sv(327) @ 1655000: uvm_test_top.env.agent.monitor [AXI_WR] CPU -> DRAM  Addr=1000035c Data=00000000 Strb=1111 BRESP=00
# UVM_INFO C:/Documents/DoAnThietKeViMach/Project/SoC/VERIFICATION/Monitor/cpu_monitor.sv(260) @ 1655000: uvm_test_top.env.agent.monitor [MEM] STORE Addr=1000035c Data=00000000
# UVM_INFO C:/Documents/DoAnThietKeViMach/Project/SoC/VERIFICATION/Monitor/cpu_monitor.sv(288) @ 1655000: uvm_test_top.env.agent.monitor [WB] x28 <= 00000000  (PC~000000fc)
# UVM_INFO C:/Documents/DoAnThietKeViMach/Project/SoC/VERIFICATION/Monitor/cpu_monitor.sv(260) @ 1665000: uvm_test_top.env.agent.monitor [MEM] STORE Addr=1000035c Data=00000000
# UVM_INFO C:/Documents/DoAnThietKeViMach/Project/SoC/VERIFICATION/Monitor/cpu_monitor.sv(288) @ 1665000: uvm_test_top.env.agent.monitor [WB] x28 <= 00000000  (PC~000000fc)
# UVM_INFO C:/Documents/DoAnThietKeViMach/Project/SoC/VERIFICATION/Monitor/cpu_monitor.sv(260) @ 1675000: uvm_test_top.env.agent.monitor [MEM] STORE Addr=1000035c Data=00000000
# UVM_INFO C:/Documents/DoAnThietKeViMach/Project/SoC/VERIFICATION/Monitor/cpu_monitor.sv(288) @ 1675000: uvm_test_top.env.agent.monitor [WB] x28 <= 00000000  (PC~000000fc)
# UVM_INFO C:/Documents/DoAnThietKeViMach/Project/SoC/VERIFICATION/Monitor/cpu_monitor.sv(260) @ 1685000: uvm_test_top.env.agent.monitor [MEM] STORE Addr=1000035c Data=00000000
# UVM_INFO C:/Documents/DoAnThietKeViMach/Project/SoC/VERIFICATION/Monitor/cpu_monitor.sv(288) @ 1685000: uvm_test_top.env.agent.monitor [WB] x28 <= 00000000  (PC~000000fc)
# UVM_INFO C:/Documents/DoAnThietKeViMach/Project/SoC/VERIFICATION/Monitor/cpu_monitor.sv(356) @ 1695000: uvm_test_top.env.agent.monitor [AXI_RD] CPU <- IRAM  Addr=00000100 Data=2770ac23 RRESP=00
# UVM_INFO C:/Documents/DoAnThietKeViMach/Project/SoC/VERIFICATION/Monitor/cpu_monitor.sv(226) @ 1695000: uvm_test_top.env.agent.monitor [IF] PC=00000100  INSTR=2770ac23  [SW   x23, 631(x1)]            
# UVM_INFO C:/Documents/DoAnThietKeViMach/Project/SoC/VERIFICATION/Monitor/cpu_monitor.sv(260) @ 1695000: uvm_test_top.env.agent.monitor [MEM] STORE Addr=1000035c Data=00000000
# UVM_INFO C:/Documents/DoAnThietKeViMach/Project/SoC/VERIFICATION/Monitor/cpu_monitor.sv(288) @ 1695000: uvm_test_top.env.agent.monitor [WB] x28 <= 00000000  (PC~00000100)
# UVM_INFO C:/Documents/DoAnThietKeViMach/Project/SoC/VERIFICATION/Monitor/cpu_monitor.sv(356) @ 1735000: uvm_test_top.env.agent.monitor [AXI_RD] CPU <- IRAM  Addr=00000104 Data=4560a623 RRESP=00
# UVM_INFO C:/Documents/DoAnThietKeViMach/Project/SoC/VERIFICATION/Monitor/cpu_monitor.sv(226) @ 1735000: uvm_test_top.env.agent.monitor [IF] PC=00000104  INSTR=4560a623  [SW   x22, 1110(x1)]            
# UVM_INFO C:/Documents/DoAnThietKeViMach/Project/SoC/VERIFICATION/Monitor/cpu_monitor.sv(288) @ 1745000: uvm_test_top.env.agent.monitor [WB] x17 <= 00000000  (PC~00000104)
# UVM_INFO C:/Documents/DoAnThietKeViMach/Project/SoC/VERIFICATION/Monitor/cpu_monitor.sv(288) @ 1755000: uvm_test_top.env.agent.monitor [WB] x17 <= 00000000  (PC~00000104)
# UVM_INFO C:/Documents/DoAnThietKeViMach/Project/SoC/VERIFICATION/Monitor/cpu_monitor.sv(288) @ 1765000: uvm_test_top.env.agent.monitor [WB] x17 <= 00000000  (PC~00000104)
# UVM_INFO C:/Documents/DoAnThietKeViMach/Project/SoC/VERIFICATION/Monitor/cpu_monitor.sv(356) @ 1775000: uvm_test_top.env.agent.monitor [AXI_RD] CPU <- IRAM  Addr=00000108 Data=28b0ac23 RRESP=00
# UVM_INFO C:/Documents/DoAnThietKeViMach/Project/SoC/VERIFICATION/Monitor/cpu_monitor.sv(226) @ 1775000: uvm_test_top.env.agent.monitor [IF] PC=00000108  INSTR=28b0ac23  [SW   x11, 651(x1)]            
# UVM_INFO C:/Documents/DoAnThietKeViMach/Project/SoC/VERIFICATION/Monitor/cpu_monitor.sv(288) @ 1775000: uvm_test_top.env.agent.monitor [WB] x17 <= 00000000  (PC~00000108)
# UVM_INFO C:/Documents/DoAnThietKeViMach/Project/SoC/VERIFICATION/Monitor/cpu_monitor.sv(260) @ 1785000: uvm_test_top.env.agent.monitor [MEM] STORE Addr=10000278 Data=00000000
# UVM_INFO C:/Documents/DoAnThietKeViMach/Project/SoC/VERIFICATION/Monitor/cpu_monitor.sv(260) @ 1795000: uvm_test_top.env.agent.monitor [MEM] STORE Addr=10000278 Data=00000000
# [DRAM WRITE] addr=10000278 data=00000000
# UVM_INFO C:/Documents/DoAnThietKeViMach/Project/SoC/VERIFICATION/Monitor/cpu_monitor.sv(260) @ 1805000: uvm_test_top.env.agent.monitor [MEM] STORE Addr=10000278 Data=00000000
# UVM_INFO C:/Documents/DoAnThietKeViMach/Project/SoC/VERIFICATION/Monitor/cpu_monitor.sv(327) @ 1815000: uvm_test_top.env.agent.monitor [AXI_WR] CPU -> DRAM  Addr=10000278 Data=00000000 Strb=1111 BRESP=00
# UVM_INFO C:/Documents/DoAnThietKeViMach/Project/SoC/VERIFICATION/Monitor/cpu_monitor.sv(260) @ 1815000: uvm_test_top.env.agent.monitor [MEM] STORE Addr=10000278 Data=00000000
# UVM_INFO C:/Documents/DoAnThietKeViMach/Project/SoC/VERIFICATION/Monitor/cpu_monitor.sv(288) @ 1815000: uvm_test_top.env.agent.monitor [WB] x23 <= 00000000  (PC~00000108)
# UVM_INFO C:/Documents/DoAnThietKeViMach/Project/SoC/VERIFICATION/Monitor/cpu_monitor.sv(260) @ 1825000: uvm_test_top.env.agent.monitor [MEM] STORE Addr=10000278 Data=00000000
# UVM_INFO C:/Documents/DoAnThietKeViMach/Project/SoC/VERIFICATION/Monitor/cpu_monitor.sv(288) @ 1825000: uvm_test_top.env.agent.monitor [WB] x23 <= 00000000  (PC~00000108)
# UVM_INFO C:/Documents/DoAnThietKeViMach/Project/SoC/VERIFICATION/Monitor/cpu_monitor.sv(260) @ 1835000: uvm_test_top.env.agent.monitor [MEM] STORE Addr=10000278 Data=00000000
# UVM_INFO C:/Documents/DoAnThietKeViMach/Project/SoC/VERIFICATION/Monitor/cpu_monitor.sv(288) @ 1835000: uvm_test_top.env.agent.monitor [WB] x23 <= 00000000  (PC~00000108)
# UVM_INFO C:/Documents/DoAnThietKeViMach/Project/SoC/VERIFICATION/Monitor/cpu_monitor.sv(260) @ 1845000: uvm_test_top.env.agent.monitor [MEM] STORE Addr=10000278 Data=00000000
# UVM_INFO C:/Documents/DoAnThietKeViMach/Project/SoC/VERIFICATION/Monitor/cpu_monitor.sv(288) @ 1845000: uvm_test_top.env.agent.monitor [WB] x23 <= 00000000  (PC~00000108)
# UVM_INFO C:/Documents/DoAnThietKeViMach/Project/SoC/VERIFICATION/Monitor/cpu_monitor.sv(356) @ 1855000: uvm_test_top.env.agent.monitor [AXI_RD] CPU <- IRAM  Addr=0000010c Data=7880a283 RRESP=00
# UVM_INFO C:/Documents/DoAnThietKeViMach/Project/SoC/VERIFICATION/Monitor/cpu_monitor.sv(226) @ 1855000: uvm_test_top.env.agent.monitor [IF] PC=0000010c  INSTR=7880a283  [LW   x5, 1928(x1)]            
# UVM_INFO C:/Documents/DoAnThietKeViMach/Project/SoC/VERIFICATION/Monitor/cpu_monitor.sv(260) @ 1855000: uvm_test_top.env.agent.monitor [MEM] STORE Addr=10000278 Data=00000000
# UVM_INFO C:/Documents/DoAnThietKeViMach/Project/SoC/VERIFICATION/Monitor/cpu_monitor.sv(288) @ 1855000: uvm_test_top.env.agent.monitor [WB] x23 <= 00000000  (PC~0000010c)
# UVM_INFO C:/Documents/DoAnThietKeViMach/Project/SoC/VERIFICATION/Monitor/cpu_monitor.sv(260) @ 1865000: uvm_test_top.env.agent.monitor [MEM] STORE Addr=1000044c Data=00000000
# UVM_INFO C:/Documents/DoAnThietKeViMach/Project/SoC/VERIFICATION/Monitor/cpu_monitor.sv(260) @ 1875000: uvm_test_top.env.agent.monitor [MEM] STORE Addr=1000044c Data=00000000
# [DRAM WRITE] addr=1000044c data=00000000
# UVM_INFO C:/Documents/DoAnThietKeViMach/Project/SoC/VERIFICATION/Monitor/cpu_monitor.sv(260) @ 1885000: uvm_test_top.env.agent.monitor [MEM] STORE Addr=1000044c Data=00000000
# UVM_INFO C:/Documents/DoAnThietKeViMach/Project/SoC/VERIFICATION/Monitor/cpu_monitor.sv(327) @ 1895000: uvm_test_top.env.agent.monitor [AXI_WR] CPU -> DRAM  Addr=1000044c Data=00000000 Strb=1111 BRESP=00
# UVM_INFO C:/Documents/DoAnThietKeViMach/Project/SoC/VERIFICATION/Monitor/cpu_monitor.sv(260) @ 1895000: uvm_test_top.env.agent.monitor [MEM] STORE Addr=1000044c Data=00000000
# UVM_INFO C:/Documents/DoAnThietKeViMach/Project/SoC/VERIFICATION/Monitor/cpu_monitor.sv(260) @ 1905000: uvm_test_top.env.agent.monitor [MEM] STORE Addr=1000044c Data=00000000
# UVM_INFO C:/Documents/DoAnThietKeViMach/Project/SoC/VERIFICATION/Monitor/cpu_monitor.sv(260) @ 1915000: uvm_test_top.env.agent.monitor [MEM] STORE Addr=1000044c Data=00000000
# UVM_INFO C:/Documents/DoAnThietKeViMach/Project/SoC/VERIFICATION/Monitor/cpu_monitor.sv(260) @ 1925000: uvm_test_top.env.agent.monitor [MEM] STORE Addr=1000044c Data=00000000
# UVM_INFO C:/Documents/DoAnThietKeViMach/Project/SoC/VERIFICATION/Monitor/cpu_monitor.sv(356) @ 1935000: uvm_test_top.env.agent.monitor [AXI_RD] CPU <- IRAM  Addr=00000110 Data=6880a223 RRESP=00
# UVM_INFO C:/Documents/DoAnThietKeViMach/Project/SoC/VERIFICATION/Monitor/cpu_monitor.sv(226) @ 1935000: uvm_test_top.env.agent.monitor [IF] PC=00000110  INSTR=6880a223  [SW   x8, 1672(x1)]            
# UVM_INFO C:/Documents/DoAnThietKeViMach/Project/SoC/VERIFICATION/Monitor/cpu_monitor.sv(260) @ 1935000: uvm_test_top.env.agent.monitor [MEM] STORE Addr=1000044c Data=00000000
# UVM_INFO C:/Documents/DoAnThietKeViMach/Project/SoC/VERIFICATION/Monitor/cpu_monitor.sv(260) @ 1945000: uvm_test_top.env.agent.monitor [MEM] STORE Addr=10000298 Data=00000000
# UVM_INFO C:/Documents/DoAnThietKeViMach/Project/SoC/VERIFICATION/Monitor/cpu_monitor.sv(260) @ 1955000: uvm_test_top.env.agent.monitor [MEM] STORE Addr=10000298 Data=00000000
# [DRAM WRITE] addr=10000298 data=00000000
# UVM_INFO C:/Documents/DoAnThietKeViMach/Project/SoC/VERIFICATION/Monitor/cpu_monitor.sv(260) @ 1965000: uvm_test_top.env.agent.monitor [MEM] STORE Addr=10000298 Data=00000000
# UVM_INFO C:/Documents/DoAnThietKeViMach/Project/SoC/VERIFICATION/Monitor/cpu_monitor.sv(327) @ 1975000: uvm_test_top.env.agent.monitor [AXI_WR] CPU -> DRAM  Addr=10000298 Data=00000000 Strb=1111 BRESP=00
# UVM_INFO C:/Documents/DoAnThietKeViMach/Project/SoC/VERIFICATION/Monitor/cpu_monitor.sv(260) @ 1975000: uvm_test_top.env.agent.monitor [MEM] STORE Addr=10000298 Data=00000000
# UVM_INFO C:/Documents/DoAnThietKeViMach/Project/SoC/VERIFICATION/Monitor/cpu_monitor.sv(260) @ 1985000: uvm_test_top.env.agent.monitor [MEM] STORE Addr=10000298 Data=00000000
# UVM_INFO C:/Documents/DoAnThietKeViMach/Project/SoC/VERIFICATION/Monitor/cpu_monitor.sv(260) @ 1995000: uvm_test_top.env.agent.monitor [MEM] STORE Addr=10000298 Data=00000000
# UVM_INFO C:/Documents/DoAnThietKeViMach/Project/SoC/VERIFICATION/Monitor/cpu_monitor.sv(260) @ 2005000: uvm_test_top.env.agent.monitor [MEM] STORE Addr=10000298 Data=00000000
# UVM_INFO C:/Documents/DoAnThietKeViMach/Project/SoC/VERIFICATION/Monitor/cpu_monitor.sv(356) @ 2015000: uvm_test_top.env.agent.monitor [AXI_RD] CPU <- IRAM  Addr=00000114 Data=01aef9b3 RRESP=00
# UVM_INFO C:/Documents/DoAnThietKeViMach/Project/SoC/VERIFICATION/Monitor/cpu_monitor.sv(226) @ 2015000: uvm_test_top.env.agent.monitor [IF] PC=00000114  INSTR=01aef9b3  [AND  x19, x29, x26]            
# UVM_INFO C:/Documents/DoAnThietKeViMach/Project/SoC/VERIFICATION/Monitor/cpu_monitor.sv(260) @ 2015000: uvm_test_top.env.agent.monitor [MEM] STORE Addr=10000298 Data=00000000
# [DRAM READ] addr=10000788 data=00000000
# UVM_INFO C:/Documents/DoAnThietKeViMach/Project/SoC/VERIFICATION/Monitor/cpu_monitor.sv(356) @ 2055000: uvm_test_top.env.agent.monitor [AXI_RD] CPU <- DRAM  Addr=10000788 Data=00000000 RRESP=00
# UVM_INFO C:/Documents/DoAnThietKeViMach/Project/SoC/VERIFICATION/Monitor/cpu_monitor.sv(356) @ 2095000: uvm_test_top.env.agent.monitor [AXI_RD] CPU <- IRAM  Addr=00000118 Data=4300ac23 RRESP=00
# UVM_INFO C:/Documents/DoAnThietKeViMach/Project/SoC/VERIFICATION/Monitor/cpu_monitor.sv(226) @ 2095000: uvm_test_top.env.agent.monitor [IF] PC=00000118  INSTR=4300ac23  [SW   x16, 1072(x1)]            
# UVM_INFO C:/Documents/DoAnThietKeViMach/Project/SoC/VERIFICATION/Monitor/cpu_monitor.sv(260) @ 2105000: uvm_test_top.env.agent.monitor [MEM] STORE Addr=10000684 Data=00000000
# UVM_INFO C:/Documents/DoAnThietKeViMach/Project/SoC/VERIFICATION/Monitor/cpu_monitor.sv(260) @ 2115000: uvm_test_top.env.agent.monitor [MEM] STORE Addr=10000684 Data=00000000
# [DRAM WRITE] addr=10000684 data=00000000
# UVM_INFO C:/Documents/DoAnThietKeViMach/Project/SoC/VERIFICATION/Monitor/cpu_monitor.sv(260) @ 2125000: uvm_test_top.env.agent.monitor [MEM] STORE Addr=10000684 Data=00000000
# UVM_INFO C:/Documents/DoAnThietKeViMach/Project/SoC/VERIFICATION/Monitor/cpu_monitor.sv(327) @ 2135000: uvm_test_top.env.agent.monitor [AXI_WR] CPU -> DRAM  Addr=10000684 Data=00000000 Strb=1111 BRESP=00
# UVM_INFO C:/Documents/DoAnThietKeViMach/Project/SoC/VERIFICATION/Monitor/cpu_monitor.sv(260) @ 2135000: uvm_test_top.env.agent.monitor [MEM] STORE Addr=10000684 Data=00000000
# UVM_INFO C:/Documents/DoAnThietKeViMach/Project/SoC/VERIFICATION/Monitor/cpu_monitor.sv(288) @ 2135000: uvm_test_top.env.agent.monitor [WB] x05 <= 00000000  (PC~00000118)
# UVM_INFO C:/Documents/DoAnThietKeViMach/Project/SoC/VERIFICATION/Monitor/cpu_monitor.sv(260) @ 2145000: uvm_test_top.env.agent.monitor [MEM] STORE Addr=10000684 Data=00000000
# UVM_INFO C:/Documents/DoAnThietKeViMach/Project/SoC/VERIFICATION/Monitor/cpu_monitor.sv(288) @ 2145000: uvm_test_top.env.agent.monitor [WB] x05 <= 00000000  (PC~00000118)
# UVM_INFO C:/Documents/DoAnThietKeViMach/Project/SoC/VERIFICATION/Monitor/cpu_monitor.sv(260) @ 2155000: uvm_test_top.env.agent.monitor [MEM] STORE Addr=10000684 Data=00000000
# UVM_INFO C:/Documents/DoAnThietKeViMach/Project/SoC/VERIFICATION/Monitor/cpu_monitor.sv(288) @ 2155000: uvm_test_top.env.agent.monitor [WB] x05 <= 00000000  (PC~00000118)
# UVM_INFO C:/Documents/DoAnThietKeViMach/Project/SoC/VERIFICATION/Monitor/cpu_monitor.sv(260) @ 2165000: uvm_test_top.env.agent.monitor [MEM] STORE Addr=10000684 Data=00000000
# UVM_INFO C:/Documents/DoAnThietKeViMach/Project/SoC/VERIFICATION/Monitor/cpu_monitor.sv(288) @ 2165000: uvm_test_top.env.agent.monitor [WB] x05 <= 00000000  (PC~00000118)
# UVM_INFO C:/Documents/DoAnThietKeViMach/Project/SoC/VERIFICATION/Monitor/cpu_monitor.sv(356) @ 2175000: uvm_test_top.env.agent.monitor [AXI_RD] CPU <- IRAM  Addr=0000011c Data=51e0a623 RRESP=00
# UVM_INFO C:/Documents/DoAnThietKeViMach/Project/SoC/VERIFICATION/Monitor/cpu_monitor.sv(226) @ 2175000: uvm_test_top.env.agent.monitor [IF] PC=0000011c  INSTR=51e0a623  [SW   x30, 1310(x1)]            
# UVM_INFO C:/Documents/DoAnThietKeViMach/Project/SoC/VERIFICATION/Monitor/cpu_monitor.sv(260) @ 2175000: uvm_test_top.env.agent.monitor [MEM] STORE Addr=10000684 Data=00000000
# UVM_INFO C:/Documents/DoAnThietKeViMach/Project/SoC/VERIFICATION/Monitor/cpu_monitor.sv(288) @ 2175000: uvm_test_top.env.agent.monitor [WB] x05 <= 00000000  (PC~0000011c)
# UVM_INFO C:/Documents/DoAnThietKeViMach/Project/SoC/VERIFICATION/Monitor/cpu_monitor.sv(356) @ 2215000: uvm_test_top.env.agent.monitor [AXI_RD] CPU <- IRAM  Addr=00000120 Data=004745b3 RRESP=00
# UVM_INFO C:/Documents/DoAnThietKeViMach/Project/SoC/VERIFICATION/Monitor/cpu_monitor.sv(226) @ 2215000: uvm_test_top.env.agent.monitor [IF] PC=00000120  INSTR=004745b3  [XOR  x11, x14, x4]            
# UVM_INFO C:/Documents/DoAnThietKeViMach/Project/SoC/VERIFICATION/Monitor/cpu_monitor.sv(260) @ 2225000: uvm_test_top.env.agent.monitor [MEM] STORE Addr=10000438 Data=00000000
# UVM_INFO C:/Documents/DoAnThietKeViMach/Project/SoC/VERIFICATION/Monitor/cpu_monitor.sv(260) @ 2235000: uvm_test_top.env.agent.monitor [MEM] STORE Addr=10000438 Data=00000000
# [DRAM WRITE] addr=10000438 data=00000000
# UVM_INFO C:/Documents/DoAnThietKeViMach/Project/SoC/VERIFICATION/Monitor/cpu_monitor.sv(260) @ 2245000: uvm_test_top.env.agent.monitor [MEM] STORE Addr=10000438 Data=00000000
# UVM_INFO C:/Documents/DoAnThietKeViMach/Project/SoC/VERIFICATION/Monitor/cpu_monitor.sv(327) @ 2255000: uvm_test_top.env.agent.monitor [AXI_WR] CPU -> DRAM  Addr=10000438 Data=00000000 Strb=1111 BRESP=00
# UVM_INFO C:/Documents/DoAnThietKeViMach/Project/SoC/VERIFICATION/Monitor/cpu_monitor.sv(260) @ 2255000: uvm_test_top.env.agent.monitor [MEM] STORE Addr=10000438 Data=00000000
# UVM_INFO C:/Documents/DoAnThietKeViMach/Project/SoC/VERIFICATION/Monitor/cpu_monitor.sv(288) @ 2255000: uvm_test_top.env.agent.monitor [WB] x19 <= 00000000  (PC~00000120)
# UVM_INFO C:/Documents/DoAnThietKeViMach/Project/SoC/VERIFICATION/Monitor/cpu_monitor.sv(260) @ 2265000: uvm_test_top.env.agent.monitor [MEM] STORE Addr=10000438 Data=00000000
# UVM_INFO C:/Documents/DoAnThietKeViMach/Project/SoC/VERIFICATION/Monitor/cpu_monitor.sv(288) @ 2265000: uvm_test_top.env.agent.monitor [WB] x19 <= 00000000  (PC~00000120)
# UVM_INFO C:/Documents/DoAnThietKeViMach/Project/SoC/VERIFICATION/Monitor/cpu_monitor.sv(260) @ 2275000: uvm_test_top.env.agent.monitor [MEM] STORE Addr=10000438 Data=00000000
# UVM_INFO C:/Documents/DoAnThietKeViMach/Project/SoC/VERIFICATION/Monitor/cpu_monitor.sv(288) @ 2275000: uvm_test_top.env.agent.monitor [WB] x19 <= 00000000  (PC~00000120)
# UVM_INFO C:/Documents/DoAnThietKeViMach/Project/SoC/VERIFICATION/Monitor/cpu_monitor.sv(260) @ 2285000: uvm_test_top.env.agent.monitor [MEM] STORE Addr=10000438 Data=00000000
# UVM_INFO C:/Documents/DoAnThietKeViMach/Project/SoC/VERIFICATION/Monitor/cpu_monitor.sv(288) @ 2285000: uvm_test_top.env.agent.monitor [WB] x19 <= 00000000  (PC~00000120)
# UVM_INFO C:/Documents/DoAnThietKeViMach/Project/SoC/VERIFICATION/Monitor/cpu_monitor.sv(356) @ 2295000: uvm_test_top.env.agent.monitor [AXI_RD] CPU <- IRAM  Addr=00000124 Data=01455f33 RRESP=00
# UVM_INFO C:/Documents/DoAnThietKeViMach/Project/SoC/VERIFICATION/Monitor/cpu_monitor.sv(226) @ 2295000: uvm_test_top.env.agent.monitor [IF] PC=00000124  INSTR=01455f33  [SRL  x30, x10, x20]            
# UVM_INFO C:/Documents/DoAnThietKeViMach/Project/SoC/VERIFICATION/Monitor/cpu_monitor.sv(260) @ 2295000: uvm_test_top.env.agent.monitor [MEM] STORE Addr=10000438 Data=00000000
# UVM_INFO C:/Documents/DoAnThietKeViMach/Project/SoC/VERIFICATION/Monitor/cpu_monitor.sv(288) @ 2295000: uvm_test_top.env.agent.monitor [WB] x19 <= 00000000  (PC~00000124)
# UVM_INFO C:/Documents/DoAnThietKeViMach/Project/SoC/VERIFICATION/Monitor/cpu_monitor.sv(260) @ 2305000: uvm_test_top.env.agent.monitor [MEM] STORE Addr=1000050c Data=00000000
# UVM_INFO C:/Documents/DoAnThietKeViMach/Project/SoC/VERIFICATION/Monitor/cpu_monitor.sv(260) @ 2315000: uvm_test_top.env.agent.monitor [MEM] STORE Addr=1000050c Data=00000000
# [DRAM WRITE] addr=1000050c data=00000000
# UVM_INFO C:/Documents/DoAnThietKeViMach/Project/SoC/VERIFICATION/Monitor/cpu_monitor.sv(260) @ 2325000: uvm_test_top.env.agent.monitor [MEM] STORE Addr=1000050c Data=00000000
# UVM_INFO C:/Documents/DoAnThietKeViMach/Project/SoC/VERIFICATION/Monitor/cpu_monitor.sv(327) @ 2335000: uvm_test_top.env.agent.monitor [AXI_WR] CPU -> DRAM  Addr=1000050c Data=00000000 Strb=1111 BRESP=00
# UVM_INFO C:/Documents/DoAnThietKeViMach/Project/SoC/VERIFICATION/Monitor/cpu_monitor.sv(260) @ 2335000: uvm_test_top.env.agent.monitor [MEM] STORE Addr=1000050c Data=00000000
# UVM_INFO C:/Documents/DoAnThietKeViMach/Project/SoC/VERIFICATION/Monitor/cpu_monitor.sv(260) @ 2345000: uvm_test_top.env.agent.monitor [MEM] STORE Addr=1000050c Data=00000000
# UVM_INFO C:/Documents/DoAnThietKeViMach/Project/SoC/VERIFICATION/Monitor/cpu_monitor.sv(260) @ 2355000: uvm_test_top.env.agent.monitor [MEM] STORE Addr=1000050c Data=00000000
# UVM_INFO C:/Documents/DoAnThietKeViMach/Project/SoC/VERIFICATION/Monitor/cpu_monitor.sv(260) @ 2365000: uvm_test_top.env.agent.monitor [MEM] STORE Addr=1000050c Data=00000000
# UVM_INFO C:/Documents/DoAnThietKeViMach/Project/SoC/VERIFICATION/Monitor/cpu_monitor.sv(356) @ 2375000: uvm_test_top.env.agent.monitor [AXI_RD] CPU <- IRAM  Addr=00000128 Data=0043f1b3 RRESP=00
# UVM_INFO C:/Documents/DoAnThietKeViMach/Project/SoC/VERIFICATION/Monitor/cpu_monitor.sv(226) @ 2375000: uvm_test_top.env.agent.monitor [IF] PC=00000128  INSTR=0043f1b3  [AND  x3, x7, x4]            
# UVM_INFO C:/Documents/DoAnThietKeViMach/Project/SoC/VERIFICATION/Monitor/cpu_monitor.sv(260) @ 2375000: uvm_test_top.env.agent.monitor [MEM] STORE Addr=1000050c Data=00000000
# UVM_INFO C:/Documents/DoAnThietKeViMach/Project/SoC/VERIFICATION/Monitor/cpu_monitor.sv(356) @ 2415000: uvm_test_top.env.agent.monitor [AXI_RD] CPU <- IRAM  Addr=0000012c Data=a4b14e13 RRESP=00
# UVM_INFO C:/Documents/DoAnThietKeViMach/Project/SoC/VERIFICATION/Monitor/cpu_monitor.sv(226) @ 2415000: uvm_test_top.env.agent.monitor [IF] PC=0000012c  INSTR=a4b14e13  [XORI x28, x2, -1461]            
# UVM_INFO C:/Documents/DoAnThietKeViMach/Project/SoC/VERIFICATION/Monitor/cpu_monitor.sv(288) @ 2425000: uvm_test_top.env.agent.monitor [WB] x11 <= 00000010  (PC~0000012c)
# UVM_INFO C:/Documents/DoAnThietKeViMach/Project/SoC/VERIFICATION/Monitor/cpu_monitor.sv(288) @ 2435000: uvm_test_top.env.agent.monitor [WB] x11 <= 00000010  (PC~0000012c)
# UVM_INFO C:/Documents/DoAnThietKeViMach/Project/SoC/VERIFICATION/Monitor/cpu_monitor.sv(288) @ 2445000: uvm_test_top.env.agent.monitor [WB] x11 <= 00000010  (PC~0000012c)
# UVM_INFO C:/Documents/DoAnThietKeViMach/Project/SoC/VERIFICATION/Monitor/cpu_monitor.sv(356) @ 2455000: uvm_test_top.env.agent.monitor [AXI_RD] CPU <- IRAM  Addr=00000130 Data=db667693 RRESP=00
# UVM_INFO C:/Documents/DoAnThietKeViMach/Project/SoC/VERIFICATION/Monitor/cpu_monitor.sv(226) @ 2455000: uvm_test_top.env.agent.monitor [IF] PC=00000130  INSTR=db667693  [ANDI x13, x12, -586]            
# UVM_INFO C:/Documents/DoAnThietKeViMach/Project/SoC/VERIFICATION/Monitor/cpu_monitor.sv(288) @ 2455000: uvm_test_top.env.agent.monitor [WB] x11 <= 00000010  (PC~00000130)
# UVM_INFO C:/Documents/DoAnThietKeViMach/Project/SoC/VERIFICATION/Monitor/cpu_monitor.sv(288) @ 2465000: uvm_test_top.env.agent.monitor [WB] x30 <= 00000000  (PC~00000130)
# UVM_INFO C:/Documents/DoAnThietKeViMach/Project/SoC/VERIFICATION/Monitor/cpu_monitor.sv(288) @ 2475000: uvm_test_top.env.agent.monitor [WB] x30 <= 00000000  (PC~00000130)
# UVM_INFO C:/Documents/DoAnThietKeViMach/Project/SoC/VERIFICATION/Monitor/cpu_monitor.sv(288) @ 2485000: uvm_test_top.env.agent.monitor [WB] x30 <= 00000000  (PC~00000130)
# UVM_INFO C:/Documents/DoAnThietKeViMach/Project/SoC/VERIFICATION/Monitor/cpu_monitor.sv(356) @ 2495000: uvm_test_top.env.agent.monitor [AXI_RD] CPU <- IRAM  Addr=00000134 Data=13f0a623 RRESP=00
# UVM_INFO C:/Documents/DoAnThietKeViMach/Project/SoC/VERIFICATION/Monitor/cpu_monitor.sv(226) @ 2495000: uvm_test_top.env.agent.monitor [IF] PC=00000134  INSTR=13f0a623  [SW   x31, 319(x1)]            
# UVM_INFO C:/Documents/DoAnThietKeViMach/Project/SoC/VERIFICATION/Monitor/cpu_monitor.sv(288) @ 2495000: uvm_test_top.env.agent.monitor [WB] x30 <= 00000000  (PC~00000134)
# UVM_INFO C:/Documents/DoAnThietKeViMach/Project/SoC/VERIFICATION/Monitor/cpu_monitor.sv(288) @ 2505000: uvm_test_top.env.agent.monitor [WB] x03 <= 00000000  (PC~00000134)
# UVM_INFO C:/Documents/DoAnThietKeViMach/Project/SoC/VERIFICATION/Monitor/cpu_monitor.sv(288) @ 2515000: uvm_test_top.env.agent.monitor [WB] x03 <= 00000000  (PC~00000134)
# UVM_INFO C:/Documents/DoAnThietKeViMach/Project/SoC/VERIFICATION/Monitor/cpu_monitor.sv(288) @ 2525000: uvm_test_top.env.agent.monitor [WB] x03 <= 00000000  (PC~00000134)
# UVM_INFO C:/Documents/DoAnThietKeViMach/Project/SoC/VERIFICATION/Monitor/cpu_monitor.sv(356) @ 2535000: uvm_test_top.env.agent.monitor [AXI_RD] CPU <- IRAM  Addr=00000138 Data=fcd50713 RRESP=00
# UVM_INFO C:/Documents/DoAnThietKeViMach/Project/SoC/VERIFICATION/Monitor/cpu_monitor.sv(226) @ 2535000: uvm_test_top.env.agent.monitor [IF] PC=00000138  INSTR=fcd50713  [ADDI x14, x10, -51]            
# UVM_INFO C:/Documents/DoAnThietKeViMach/Project/SoC/VERIFICATION/Monitor/cpu_monitor.sv(288) @ 2535000: uvm_test_top.env.agent.monitor [WB] x03 <= 00000000  (PC~00000138)
# UVM_INFO C:/Documents/DoAnThietKeViMach/Project/SoC/VERIFICATION/Monitor/cpu_monitor.sv(288) @ 2545000: uvm_test_top.env.agent.monitor [WB] x28 <= fffffa4b  (PC~00000138)
# UVM_INFO C:/Documents/DoAnThietKeViMach/Project/SoC/VERIFICATION/Monitor/cpu_monitor.sv(288) @ 2555000: uvm_test_top.env.agent.monitor [WB] x28 <= fffffa4b  (PC~00000138)
# UVM_INFO C:/Documents/DoAnThietKeViMach/Project/SoC/VERIFICATION/Monitor/cpu_monitor.sv(288) @ 2565000: uvm_test_top.env.agent.monitor [WB] x28 <= fffffa4b  (PC~00000138)
# UVM_INFO C:/Documents/DoAnThietKeViMach/Project/SoC/VERIFICATION/Monitor/cpu_monitor.sv(356) @ 2575000: uvm_test_top.env.agent.monitor [AXI_RD] CPU <- IRAM  Addr=0000013c Data=21998a93 RRESP=00
# UVM_INFO C:/Documents/DoAnThietKeViMach/Project/SoC/VERIFICATION/Monitor/cpu_monitor.sv(226) @ 2575000: uvm_test_top.env.agent.monitor [IF] PC=0000013c  INSTR=21998a93  [ADDI x21, x19, 537]            
# UVM_INFO C:/Documents/DoAnThietKeViMach/Project/SoC/VERIFICATION/Monitor/cpu_monitor.sv(288) @ 2575000: uvm_test_top.env.agent.monitor [WB] x28 <= fffffa4b  (PC~0000013c)
# UVM_INFO C:/Documents/DoAnThietKeViMach/Project/SoC/VERIFICATION/Monitor/cpu_monitor.sv(260) @ 2585000: uvm_test_top.env.agent.monitor [MEM] STORE Addr=1000012c Data=00000000
# UVM_INFO C:/Documents/DoAnThietKeViMach/Project/SoC/VERIFICATION/Monitor/cpu_monitor.sv(260) @ 2595000: uvm_test_top.env.agent.monitor [MEM] STORE Addr=1000012c Data=00000000
# [DRAM WRITE] addr=1000012c data=00000000
# UVM_INFO C:/Documents/DoAnThietKeViMach/Project/SoC/VERIFICATION/Monitor/cpu_monitor.sv(260) @ 2605000: uvm_test_top.env.agent.monitor [MEM] STORE Addr=1000012c Data=00000000
# UVM_INFO C:/Documents/DoAnThietKeViMach/Project/SoC/VERIFICATION/Monitor/cpu_monitor.sv(327) @ 2615000: uvm_test_top.env.agent.monitor [AXI_WR] CPU -> DRAM  Addr=1000012c Data=00000000 Strb=1111 BRESP=00
# UVM_INFO C:/Documents/DoAnThietKeViMach/Project/SoC/VERIFICATION/Monitor/cpu_monitor.sv(260) @ 2615000: uvm_test_top.env.agent.monitor [MEM] STORE Addr=1000012c Data=00000000
# UVM_INFO C:/Documents/DoAnThietKeViMach/Project/SoC/VERIFICATION/Monitor/cpu_monitor.sv(288) @ 2615000: uvm_test_top.env.agent.monitor [WB] x13 <= 00000000  (PC~0000013c)
# UVM_INFO C:/Documents/DoAnThietKeViMach/Project/SoC/VERIFICATION/Monitor/cpu_monitor.sv(260) @ 2625000: uvm_test_top.env.agent.monitor [MEM] STORE Addr=1000012c Data=00000000
# UVM_INFO C:/Documents/DoAnThietKeViMach/Project/SoC/VERIFICATION/Monitor/cpu_monitor.sv(288) @ 2625000: uvm_test_top.env.agent.monitor [WB] x13 <= 00000000  (PC~0000013c)
# UVM_INFO C:/Documents/DoAnThietKeViMach/Project/SoC/VERIFICATION/Monitor/cpu_monitor.sv(260) @ 2635000: uvm_test_top.env.agent.monitor [MEM] STORE Addr=1000012c Data=00000000
# UVM_INFO C:/Documents/DoAnThietKeViMach/Project/SoC/VERIFICATION/Monitor/cpu_monitor.sv(288) @ 2635000: uvm_test_top.env.agent.monitor [WB] x13 <= 00000000  (PC~0000013c)
# UVM_INFO C:/Documents/DoAnThietKeViMach/Project/SoC/VERIFICATION/Monitor/cpu_monitor.sv(260) @ 2645000: uvm_test_top.env.agent.monitor [MEM] STORE Addr=1000012c Data=00000000
# UVM_INFO C:/Documents/DoAnThietKeViMach/Project/SoC/VERIFICATION/Monitor/cpu_monitor.sv(288) @ 2645000: uvm_test_top.env.agent.monitor [WB] x13 <= 00000000  (PC~0000013c)
# UVM_INFO C:/Documents/DoAnThietKeViMach/Project/SoC/VERIFICATION/Monitor/cpu_monitor.sv(356) @ 2655000: uvm_test_top.env.agent.monitor [AXI_RD] CPU <- IRAM  Addr=00000140 Data=5000ae03 RRESP=00
# UVM_INFO C:/Documents/DoAnThietKeViMach/Project/SoC/VERIFICATION/Monitor/cpu_monitor.sv(226) @ 2655000: uvm_test_top.env.agent.monitor [IF] PC=00000140  INSTR=5000ae03  [LW   x28, 1280(x1)]            
# UVM_INFO C:/Documents/DoAnThietKeViMach/Project/SoC/VERIFICATION/Monitor/cpu_monitor.sv(260) @ 2655000: uvm_test_top.env.agent.monitor [MEM] STORE Addr=1000012c Data=00000000
# UVM_INFO C:/Documents/DoAnThietKeViMach/Project/SoC/VERIFICATION/Monitor/cpu_monitor.sv(288) @ 2655000: uvm_test_top.env.agent.monitor [WB] x13 <= 00000000  (PC~00000140)
# UVM_INFO C:/Documents/DoAnThietKeViMach/Project/SoC/VERIFICATION/Monitor/cpu_monitor.sv(356) @ 2695000: uvm_test_top.env.agent.monitor [AXI_RD] CPU <- IRAM  Addr=00000144 Data=2240a583 RRESP=00
# UVM_INFO C:/Documents/DoAnThietKeViMach/Project/SoC/VERIFICATION/Monitor/cpu_monitor.sv(226) @ 2695000: uvm_test_top.env.agent.monitor [IF] PC=00000144  INSTR=2240a583  [LW   x11, 548(x1)]            
# UVM_INFO C:/Documents/DoAnThietKeViMach/Project/SoC/VERIFICATION/Monitor/cpu_monitor.sv(288) @ 2705000: uvm_test_top.env.agent.monitor [WB] x14 <= ffffffcd  (PC~00000144)
# UVM_INFO C:/Documents/DoAnThietKeViMach/Project/SoC/VERIFICATION/Monitor/cpu_monitor.sv(288) @ 2715000: uvm_test_top.env.agent.monitor [WB] x14 <= ffffffcd  (PC~00000144)
# UVM_INFO C:/Documents/DoAnThietKeViMach/Project/SoC/VERIFICATION/Monitor/cpu_monitor.sv(288) @ 2725000: uvm_test_top.env.agent.monitor [WB] x14 <= ffffffcd  (PC~00000144)
# UVM_INFO C:/Documents/DoAnThietKeViMach/Project/SoC/VERIFICATION/Monitor/cpu_monitor.sv(356) @ 2735000: uvm_test_top.env.agent.monitor [AXI_RD] CPU <- IRAM  Addr=00000148 Data=4130a023 RRESP=00
# UVM_INFO C:/Documents/DoAnThietKeViMach/Project/SoC/VERIFICATION/Monitor/cpu_monitor.sv(226) @ 2735000: uvm_test_top.env.agent.monitor [IF] PC=00000148  INSTR=4130a023  [SW   x19, 1043(x1)]            
# UVM_INFO C:/Documents/DoAnThietKeViMach/Project/SoC/VERIFICATION/Monitor/cpu_monitor.sv(288) @ 2735000: uvm_test_top.env.agent.monitor [WB] x14 <= ffffffcd  (PC~00000148)
# [DRAM READ] addr=10000500 data=00000000
# UVM_INFO C:/Documents/DoAnThietKeViMach/Project/SoC/VERIFICATION/Monitor/cpu_monitor.sv(356) @ 2775000: uvm_test_top.env.agent.monitor [AXI_RD] CPU <- DRAM  Addr=10000500 Data=00000000 RRESP=00
# UVM_INFO C:/Documents/DoAnThietKeViMach/Project/SoC/VERIFICATION/Monitor/cpu_monitor.sv(288) @ 2775000: uvm_test_top.env.agent.monitor [WB] x21 <= 00000219  (PC~00000148)
# UVM_INFO C:/Documents/DoAnThietKeViMach/Project/SoC/VERIFICATION/Monitor/cpu_monitor.sv(288) @ 2785000: uvm_test_top.env.agent.monitor [WB] x21 <= 00000219  (PC~00000148)
# UVM_INFO C:/Documents/DoAnThietKeViMach/Project/SoC/VERIFICATION/Monitor/cpu_monitor.sv(288) @ 2795000: uvm_test_top.env.agent.monitor [WB] x21 <= 00000219  (PC~00000148)
# UVM_INFO C:/Documents/DoAnThietKeViMach/Project/SoC/VERIFICATION/Monitor/cpu_monitor.sv(288) @ 2805000: uvm_test_top.env.agent.monitor [WB] x21 <= 00000219  (PC~00000148)
# UVM_INFO C:/Documents/DoAnThietKeViMach/Project/SoC/VERIFICATION/Monitor/cpu_monitor.sv(356) @ 2815000: uvm_test_top.env.agent.monitor [AXI_RD] CPU <- IRAM  Addr=0000014c Data=0420a623 RRESP=00
# UVM_INFO C:/Documents/DoAnThietKeViMach/Project/SoC/VERIFICATION/Monitor/cpu_monitor.sv(226) @ 2815000: uvm_test_top.env.agent.monitor [IF] PC=0000014c  INSTR=0420a623  [SW   x2, 66(x1)]            
# UVM_INFO C:/Documents/DoAnThietKeViMach/Project/SoC/VERIFICATION/Monitor/cpu_monitor.sv(288) @ 2815000: uvm_test_top.env.agent.monitor [WB] x21 <= 00000219  (PC~0000014c)
# [DRAM READ] addr=10000224 data=00000000
# UVM_INFO C:/Documents/DoAnThietKeViMach/Project/SoC/VERIFICATION/Monitor/cpu_monitor.sv(356) @ 2855000: uvm_test_top.env.agent.monitor [AXI_RD] CPU <- DRAM  Addr=10000224 Data=00000000 RRESP=00
# UVM_INFO C:/Documents/DoAnThietKeViMach/Project/SoC/VERIFICATION/Monitor/cpu_monitor.sv(288) @ 2855000: uvm_test_top.env.agent.monitor [WB] x28 <= 00000000  (PC~0000014c)
# UVM_INFO C:/Documents/DoAnThietKeViMach/Project/SoC/VERIFICATION/Monitor/cpu_monitor.sv(288) @ 2865000: uvm_test_top.env.agent.monitor [WB] x28 <= 00000000  (PC~0000014c)
# UVM_INFO C:/Documents/DoAnThietKeViMach/Project/SoC/VERIFICATION/Monitor/cpu_monitor.sv(288) @ 2875000: uvm_test_top.env.agent.monitor [WB] x28 <= 00000000  (PC~0000014c)
# UVM_INFO C:/Documents/DoAnThietKeViMach/Project/SoC/VERIFICATION/Monitor/cpu_monitor.sv(288) @ 2885000: uvm_test_top.env.agent.monitor [WB] x28 <= 00000000  (PC~0000014c)
# UVM_INFO C:/Documents/DoAnThietKeViMach/Project/SoC/VERIFICATION/Monitor/cpu_monitor.sv(356) @ 2895000: uvm_test_top.env.agent.monitor [AXI_RD] CPU <- IRAM  Addr=00000150 Data=57a0ae23 RRESP=00
# UVM_INFO C:/Documents/DoAnThietKeViMach/Project/SoC/VERIFICATION/Monitor/cpu_monitor.sv(226) @ 2895000: uvm_test_top.env.agent.monitor [IF] PC=00000150  INSTR=57a0ae23  [SW   x26, 1402(x1)]            
# UVM_INFO C:/Documents/DoAnThietKeViMach/Project/SoC/VERIFICATION/Monitor/cpu_monitor.sv(288) @ 2895000: uvm_test_top.env.agent.monitor [WB] x28 <= 00000000  (PC~00000150)
# UVM_INFO C:/Documents/DoAnThietKeViMach/Project/SoC/VERIFICATION/Monitor/cpu_monitor.sv(260) @ 2905000: uvm_test_top.env.agent.monitor [MEM] STORE Addr=10000400 Data=00000000
# UVM_INFO C:/Documents/DoAnThietKeViMach/Project/SoC/VERIFICATION/Monitor/cpu_monitor.sv(260) @ 2915000: uvm_test_top.env.agent.monitor [MEM] STORE Addr=10000400 Data=00000000
# [DRAM WRITE] addr=10000400 data=00000000
# UVM_INFO C:/Documents/DoAnThietKeViMach/Project/SoC/VERIFICATION/Monitor/cpu_monitor.sv(260) @ 2925000: uvm_test_top.env.agent.monitor [MEM] STORE Addr=10000400 Data=00000000
# UVM_INFO C:/Documents/DoAnThietKeViMach/Project/SoC/VERIFICATION/Monitor/cpu_monitor.sv(327) @ 2935000: uvm_test_top.env.agent.monitor [AXI_WR] CPU -> DRAM  Addr=10000400 Data=00000000 Strb=1111 BRESP=00
# UVM_INFO C:/Documents/DoAnThietKeViMach/Project/SoC/VERIFICATION/Monitor/cpu_monitor.sv(260) @ 2935000: uvm_test_top.env.agent.monitor [MEM] STORE Addr=10000400 Data=00000000
# UVM_INFO C:/Documents/DoAnThietKeViMach/Project/SoC/VERIFICATION/Monitor/cpu_monitor.sv(288) @ 2935000: uvm_test_top.env.agent.monitor [WB] x11 <= 00000000  (PC~00000150)
# UVM_INFO C:/Documents/DoAnThietKeViMach/Project/SoC/VERIFICATION/Monitor/cpu_monitor.sv(260) @ 2945000: uvm_test_top.env.agent.monitor [MEM] STORE Addr=10000400 Data=00000000
# UVM_INFO C:/Documents/DoAnThietKeViMach/Project/SoC/VERIFICATION/Monitor/cpu_monitor.sv(288) @ 2945000: uvm_test_top.env.agent.monitor [WB] x11 <= 00000000  (PC~00000150)
# UVM_INFO C:/Documents/DoAnThietKeViMach/Project/SoC/VERIFICATION/Monitor/cpu_monitor.sv(260) @ 2955000: uvm_test_top.env.agent.monitor [MEM] STORE Addr=10000400 Data=00000000
# UVM_INFO C:/Documents/DoAnThietKeViMach/Project/SoC/VERIFICATION/Monitor/cpu_monitor.sv(288) @ 2955000: uvm_test_top.env.agent.monitor [WB] x11 <= 00000000  (PC~00000150)
# UVM_INFO C:/Documents/DoAnThietKeViMach/Project/SoC/VERIFICATION/Monitor/cpu_monitor.sv(260) @ 2965000: uvm_test_top.env.agent.monitor [MEM] STORE Addr=10000400 Data=00000000
# UVM_INFO C:/Documents/DoAnThietKeViMach/Project/SoC/VERIFICATION/Monitor/cpu_monitor.sv(288) @ 2965000: uvm_test_top.env.agent.monitor [WB] x11 <= 00000000  (PC~00000150)
# UVM_INFO C:/Documents/DoAnThietKeViMach/Project/SoC/VERIFICATION/Monitor/cpu_monitor.sv(356) @ 2975000: uvm_test_top.env.agent.monitor [AXI_RD] CPU <- IRAM  Addr=00000154 Data=00d3d733 RRESP=00
# UVM_INFO C:/Documents/DoAnThietKeViMach/Project/SoC/VERIFICATION/Monitor/cpu_monitor.sv(226) @ 2975000: uvm_test_top.env.agent.monitor [IF] PC=00000154  INSTR=00d3d733  [SRL  x14, x7, x13]            
# UVM_INFO C:/Documents/DoAnThietKeViMach/Project/SoC/VERIFICATION/Monitor/cpu_monitor.sv(260) @ 2975000: uvm_test_top.env.agent.monitor [MEM] STORE Addr=10000400 Data=00000000
# UVM_INFO C:/Documents/DoAnThietKeViMach/Project/SoC/VERIFICATION/Monitor/cpu_monitor.sv(288) @ 2975000: uvm_test_top.env.agent.monitor [WB] x11 <= 00000000  (PC~00000154)
# UVM_INFO C:/Documents/DoAnThietKeViMach/Project/SoC/VERIFICATION/Monitor/cpu_monitor.sv(260) @ 2985000: uvm_test_top.env.agent.monitor [MEM] STORE Addr=1000004c Data=00000000
# UVM_INFO C:/Documents/DoAnThietKeViMach/Project/SoC/VERIFICATION/Monitor/cpu_monitor.sv(260) @ 2995000: uvm_test_top.env.agent.monitor [MEM] STORE Addr=1000004c Data=00000000
# [DRAM WRITE] addr=1000004c data=00000000
# UVM_INFO C:/Documents/DoAnThietKeViMach/Project/SoC/VERIFICATION/Monitor/cpu_monitor.sv(260) @ 3005000: uvm_test_top.env.agent.monitor [MEM] STORE Addr=1000004c Data=00000000
# UVM_INFO C:/Documents/DoAnThietKeViMach/Project/SoC/VERIFICATION/Monitor/cpu_monitor.sv(327) @ 3015000: uvm_test_top.env.agent.monitor [AXI_WR] CPU -> DRAM  Addr=1000004c Data=00000000 Strb=1111 BRESP=00
# UVM_INFO C:/Documents/DoAnThietKeViMach/Project/SoC/VERIFICATION/Monitor/cpu_monitor.sv(260) @ 3015000: uvm_test_top.env.agent.monitor [MEM] STORE Addr=1000004c Data=00000000
# UVM_INFO C:/Documents/DoAnThietKeViMach/Project/SoC/VERIFICATION/Monitor/cpu_monitor.sv(260) @ 3025000: uvm_test_top.env.agent.monitor [MEM] STORE Addr=1000004c Data=00000000
# UVM_INFO C:/Documents/DoAnThietKeViMach/Project/SoC/VERIFICATION/Monitor/cpu_monitor.sv(260) @ 3035000: uvm_test_top.env.agent.monitor [MEM] STORE Addr=1000004c Data=00000000
# UVM_INFO C:/Documents/DoAnThietKeViMach/Project/SoC/VERIFICATION/Monitor/cpu_monitor.sv(260) @ 3045000: uvm_test_top.env.agent.monitor [MEM] STORE Addr=1000004c Data=00000000
# UVM_INFO C:/Documents/DoAnThietKeViMach/Project/SoC/VERIFICATION/Monitor/cpu_monitor.sv(356) @ 3055000: uvm_test_top.env.agent.monitor [AXI_RD] CPU <- IRAM  Addr=00000158 Data=177efd13 RRESP=00
# UVM_INFO C:/Documents/DoAnThietKeViMach/Project/SoC/VERIFICATION/Monitor/cpu_monitor.sv(226) @ 3055000: uvm_test_top.env.agent.monitor [IF] PC=00000158  INSTR=177efd13  [ANDI x26, x29, 375]            
# UVM_INFO C:/Documents/DoAnThietKeViMach/Project/SoC/VERIFICATION/Monitor/cpu_monitor.sv(260) @ 3055000: uvm_test_top.env.agent.monitor [MEM] STORE Addr=1000004c Data=00000000
# UVM_INFO C:/Documents/DoAnThietKeViMach/Project/SoC/VERIFICATION/Monitor/cpu_monitor.sv(260) @ 3065000: uvm_test_top.env.agent.monitor [MEM] STORE Addr=1000057c Data=00000070
# UVM_INFO C:/Documents/DoAnThietKeViMach/Project/SoC/VERIFICATION/Monitor/cpu_monitor.sv(260) @ 3075000: uvm_test_top.env.agent.monitor [MEM] STORE Addr=1000057c Data=00000070
# [DRAM WRITE] addr=1000057c data=00000070
# UVM_INFO C:/Documents/DoAnThietKeViMach/Project/SoC/VERIFICATION/Monitor/cpu_monitor.sv(260) @ 3085000: uvm_test_top.env.agent.monitor [MEM] STORE Addr=1000057c Data=00000070
# UVM_INFO C:/Documents/DoAnThietKeViMach/Project/SoC/VERIFICATION/Monitor/cpu_monitor.sv(327) @ 3095000: uvm_test_top.env.agent.monitor [AXI_WR] CPU -> DRAM  Addr=1000057c Data=00000070 Strb=1111 BRESP=00
# UVM_INFO C:/Documents/DoAnThietKeViMach/Project/SoC/VERIFICATION/Monitor/cpu_monitor.sv(260) @ 3095000: uvm_test_top.env.agent.monitor [MEM] STORE Addr=1000057c Data=00000070
# UVM_INFO C:/Documents/DoAnThietKeViMach/Project/SoC/VERIFICATION/Monitor/cpu_monitor.sv(260) @ 3105000: uvm_test_top.env.agent.monitor [MEM] STORE Addr=1000057c Data=00000070
# UVM_INFO C:/Documents/DoAnThietKeViMach/Project/SoC/VERIFICATION/Monitor/cpu_monitor.sv(260) @ 3115000: uvm_test_top.env.agent.monitor [MEM] STORE Addr=1000057c Data=00000070
# UVM_INFO C:/Documents/DoAnThietKeViMach/Project/SoC/VERIFICATION/Monitor/cpu_monitor.sv(260) @ 3125000: uvm_test_top.env.agent.monitor [MEM] STORE Addr=1000057c Data=00000070
# UVM_INFO C:/Documents/DoAnThietKeViMach/Project/SoC/VERIFICATION/Monitor/cpu_monitor.sv(356) @ 3135000: uvm_test_top.env.agent.monitor [AXI_RD] CPU <- IRAM  Addr=0000015c Data=30b0a823 RRESP=00
# UVM_INFO C:/Documents/DoAnThietKeViMach/Project/SoC/VERIFICATION/Monitor/cpu_monitor.sv(226) @ 3135000: uvm_test_top.env.agent.monitor [IF] PC=0000015c  INSTR=30b0a823  [SW   x11, 779(x1)]            
# UVM_INFO C:/Documents/DoAnThietKeViMach/Project/SoC/VERIFICATION/Monitor/cpu_monitor.sv(260) @ 3135000: uvm_test_top.env.agent.monitor [MEM] STORE Addr=1000057c Data=00000070
# UVM_INFO C:/Documents/DoAnThietKeViMach/Project/SoC/VERIFICATION/Monitor/cpu_monitor.sv(356) @ 3175000: uvm_test_top.env.agent.monitor [AXI_RD] CPU <- IRAM  Addr=00000160 Data=01021433 RRESP=00
# UVM_INFO C:/Documents/DoAnThietKeViMach/Project/SoC/VERIFICATION/Monitor/cpu_monitor.sv(226) @ 3175000: uvm_test_top.env.agent.monitor [IF] PC=00000160  INSTR=01021433  [SLL  x8, x4, x16]            
# UVM_INFO C:/Documents/DoAnThietKeViMach/Project/SoC/VERIFICATION/Monitor/cpu_monitor.sv(288) @ 3185000: uvm_test_top.env.agent.monitor [WB] x14 <= 000007a6  (PC~00000160)
# UVM_INFO C:/Documents/DoAnThietKeViMach/Project/SoC/VERIFICATION/Monitor/cpu_monitor.sv(288) @ 3195000: uvm_test_top.env.agent.monitor [WB] x14 <= 000007a6  (PC~00000160)
# UVM_INFO C:/Documents/DoAnThietKeViMach/Project/SoC/VERIFICATION/Monitor/cpu_monitor.sv(288) @ 3205000: uvm_test_top.env.agent.monitor [WB] x14 <= 000007a6  (PC~00000160)
# UVM_INFO C:/Documents/DoAnThietKeViMach/Project/SoC/VERIFICATION/Monitor/cpu_monitor.sv(356) @ 3215000: uvm_test_top.env.agent.monitor [AXI_RD] CPU <- IRAM  Addr=00000164 Data=1bfc8613 RRESP=00
# UVM_INFO C:/Documents/DoAnThietKeViMach/Project/SoC/VERIFICATION/Monitor/cpu_monitor.sv(226) @ 3215000: uvm_test_top.env.agent.monitor [IF] PC=00000164  INSTR=1bfc8613  [ADDI x12, x25, 447]            
# UVM_INFO C:/Documents/DoAnThietKeViMach/Project/SoC/VERIFICATION/Monitor/cpu_monitor.sv(288) @ 3215000: uvm_test_top.env.agent.monitor [WB] x14 <= 000007a6  (PC~00000164)
# UVM_INFO C:/Documents/DoAnThietKeViMach/Project/SoC/VERIFICATION/Monitor/cpu_monitor.sv(260) @ 3225000: uvm_test_top.env.agent.monitor [MEM] STORE Addr=10000310 Data=00000000
# UVM_INFO C:/Documents/DoAnThietKeViMach/Project/SoC/VERIFICATION/Monitor/cpu_monitor.sv(260) @ 3235000: uvm_test_top.env.agent.monitor [MEM] STORE Addr=10000310 Data=00000000
# [DRAM WRITE] addr=10000310 data=00000000
# UVM_INFO C:/Documents/DoAnThietKeViMach/Project/SoC/VERIFICATION/Monitor/cpu_monitor.sv(260) @ 3245000: uvm_test_top.env.agent.monitor [MEM] STORE Addr=10000310 Data=00000000
# UVM_INFO C:/Documents/DoAnThietKeViMach/Project/SoC/VERIFICATION/Monitor/cpu_monitor.sv(327) @ 3255000: uvm_test_top.env.agent.monitor [AXI_WR] CPU -> DRAM  Addr=10000310 Data=00000000 Strb=1111 BRESP=00
# UVM_INFO C:/Documents/DoAnThietKeViMach/Project/SoC/VERIFICATION/Monitor/cpu_monitor.sv(260) @ 3255000: uvm_test_top.env.agent.monitor [MEM] STORE Addr=10000310 Data=00000000
# UVM_INFO C:/Documents/DoAnThietKeViMach/Project/SoC/VERIFICATION/Monitor/cpu_monitor.sv(288) @ 3255000: uvm_test_top.env.agent.monitor [WB] x26 <= 00000000  (PC~00000164)
# UVM_INFO C:/Documents/DoAnThietKeViMach/Project/SoC/VERIFICATION/Monitor/cpu_monitor.sv(260) @ 3265000: uvm_test_top.env.agent.monitor [MEM] STORE Addr=10000310 Data=00000000
# UVM_INFO C:/Documents/DoAnThietKeViMach/Project/SoC/VERIFICATION/Monitor/cpu_monitor.sv(288) @ 3265000: uvm_test_top.env.agent.monitor [WB] x26 <= 00000000  (PC~00000164)
# UVM_INFO C:/Documents/DoAnThietKeViMach/Project/SoC/VERIFICATION/Monitor/cpu_monitor.sv(260) @ 3275000: uvm_test_top.env.agent.monitor [MEM] STORE Addr=10000310 Data=00000000
# UVM_INFO C:/Documents/DoAnThietKeViMach/Project/SoC/VERIFICATION/Monitor/cpu_monitor.sv(288) @ 3275000: uvm_test_top.env.agent.monitor [WB] x26 <= 00000000  (PC~00000164)
# UVM_INFO C:/Documents/DoAnThietKeViMach/Project/SoC/VERIFICATION/Monitor/cpu_monitor.sv(260) @ 3285000: uvm_test_top.env.agent.monitor [MEM] STORE Addr=10000310 Data=00000000
# UVM_INFO C:/Documents/DoAnThietKeViMach/Project/SoC/VERIFICATION/Monitor/cpu_monitor.sv(288) @ 3285000: uvm_test_top.env.agent.monitor [WB] x26 <= 00000000  (PC~00000164)
# UVM_INFO C:/Documents/DoAnThietKeViMach/Project/SoC/VERIFICATION/Monitor/cpu_monitor.sv(356) @ 3295000: uvm_test_top.env.agent.monitor [AXI_RD] CPU <- IRAM  Addr=00000168 Data=01d5c833 RRESP=00
# UVM_INFO C:/Documents/DoAnThietKeViMach/Project/SoC/VERIFICATION/Monitor/cpu_monitor.sv(226) @ 3295000: uvm_test_top.env.agent.monitor [IF] PC=00000168  INSTR=01d5c833  [XOR  x16, x11, x29]            
# UVM_INFO C:/Documents/DoAnThietKeViMach/Project/SoC/VERIFICATION/Monitor/cpu_monitor.sv(260) @ 3295000: uvm_test_top.env.agent.monitor [MEM] STORE Addr=10000310 Data=00000000
# UVM_INFO C:/Documents/DoAnThietKeViMach/Project/SoC/VERIFICATION/Monitor/cpu_monitor.sv(288) @ 3295000: uvm_test_top.env.agent.monitor [WB] x26 <= 00000000  (PC~00000168)
# UVM_INFO C:/Documents/DoAnThietKeViMach/Project/SoC/VERIFICATION/Monitor/cpu_monitor.sv(356) @ 3335000: uvm_test_top.env.agent.monitor [AXI_RD] CPU <- IRAM  Addr=0000016c Data=018b9133 RRESP=00
# UVM_INFO C:/Documents/DoAnThietKeViMach/Project/SoC/VERIFICATION/Monitor/cpu_monitor.sv(226) @ 3335000: uvm_test_top.env.agent.monitor [IF] PC=0000016c  INSTR=018b9133  [SLL  x2, x23, x24]            
# UVM_INFO C:/Documents/DoAnThietKeViMach/Project/SoC/VERIFICATION/Monitor/cpu_monitor.sv(288) @ 3345000: uvm_test_top.env.agent.monitor [WB] x08 <= 00000000  (PC~0000016c)
# UVM_INFO C:/Documents/DoAnThietKeViMach/Project/SoC/VERIFICATION/Monitor/cpu_monitor.sv(288) @ 3355000: uvm_test_top.env.agent.monitor [WB] x08 <= 00000000  (PC~0000016c)
# UVM_INFO C:/Documents/DoAnThietKeViMach/Project/SoC/VERIFICATION/Monitor/cpu_monitor.sv(288) @ 3365000: uvm_test_top.env.agent.monitor [WB] x08 <= 00000000  (PC~0000016c)
# UVM_INFO C:/Documents/DoAnThietKeViMach/Project/SoC/VERIFICATION/Monitor/cpu_monitor.sv(356) @ 3375000: uvm_test_top.env.agent.monitor [AXI_RD] CPU <- IRAM  Addr=00000170 Data=7ed0ac23 RRESP=00
# UVM_INFO C:/Documents/DoAnThietKeViMach/Project/SoC/VERIFICATION/Monitor/cpu_monitor.sv(226) @ 3375000: uvm_test_top.env.agent.monitor [IF] PC=00000170  INSTR=7ed0ac23  [SW   x13, 2029(x1)]            
# UVM_INFO C:/Documents/DoAnThietKeViMach/Project/SoC/VERIFICATION/Monitor/cpu_monitor.sv(288) @ 3375000: uvm_test_top.env.agent.monitor [WB] x08 <= 00000000  (PC~00000170)
# UVM_INFO C:/Documents/DoAnThietKeViMach/Project/SoC/VERIFICATION/Monitor/cpu_monitor.sv(288) @ 3385000: uvm_test_top.env.agent.monitor [WB] x12 <= 000001bf  (PC~00000170)
# UVM_INFO C:/Documents/DoAnThietKeViMach/Project/SoC/VERIFICATION/Monitor/cpu_monitor.sv(288) @ 3395000: uvm_test_top.env.agent.monitor [WB] x12 <= 000001bf  (PC~00000170)
# UVM_INFO C:/Documents/DoAnThietKeViMach/Project/SoC/VERIFICATION/Monitor/cpu_monitor.sv(288) @ 3405000: uvm_test_top.env.agent.monitor [WB] x12 <= 000001bf  (PC~00000170)
# UVM_INFO C:/Documents/DoAnThietKeViMach/Project/SoC/VERIFICATION/Monitor/cpu_monitor.sv(356) @ 3415000: uvm_test_top.env.agent.monitor [AXI_RD] CPU <- IRAM  Addr=00000174 Data=01cb93b3 RRESP=00
# UVM_INFO C:/Documents/DoAnThietKeViMach/Project/SoC/VERIFICATION/Monitor/cpu_monitor.sv(226) @ 3415000: uvm_test_top.env.agent.monitor [IF] PC=00000174  INSTR=01cb93b3  [SLL  x7, x23, x28]            
# UVM_INFO C:/Documents/DoAnThietKeViMach/Project/SoC/VERIFICATION/Monitor/cpu_monitor.sv(288) @ 3415000: uvm_test_top.env.agent.monitor [WB] x12 <= 000001bf  (PC~00000174)
# UVM_INFO C:/Documents/DoAnThietKeViMach/Project/SoC/VERIFICATION/Monitor/cpu_monitor.sv(288) @ 3425000: uvm_test_top.env.agent.monitor [WB] x16 <= 00000000  (PC~00000174)
# UVM_INFO C:/Documents/DoAnThietKeViMach/Project/SoC/VERIFICATION/Monitor/cpu_monitor.sv(288) @ 3435000: uvm_test_top.env.agent.monitor [WB] x16 <= 00000000  (PC~00000174)
# UVM_INFO C:/Documents/DoAnThietKeViMach/Project/SoC/VERIFICATION/Monitor/cpu_monitor.sv(288) @ 3445000: uvm_test_top.env.agent.monitor [WB] x16 <= 00000000  (PC~00000174)
# UVM_INFO C:/Documents/DoAnThietKeViMach/Project/SoC/VERIFICATION/Monitor/cpu_monitor.sv(356) @ 3455000: uvm_test_top.env.agent.monitor [AXI_RD] CPU <- IRAM  Addr=00000178 Data=00a2c2b3 RRESP=00
# UVM_INFO C:/Documents/DoAnThietKeViMach/Project/SoC/VERIFICATION/Monitor/cpu_monitor.sv(226) @ 3455000: uvm_test_top.env.agent.monitor [IF] PC=00000178  INSTR=00a2c2b3  [XOR  x5, x5, x10]            
# UVM_INFO C:/Documents/DoAnThietKeViMach/Project/SoC/VERIFICATION/Monitor/cpu_monitor.sv(288) @ 3455000: uvm_test_top.env.agent.monitor [WB] x16 <= 00000000  (PC~00000178)
# UVM_INFO C:/Documents/DoAnThietKeViMach/Project/SoC/VERIFICATION/Monitor/cpu_monitor.sv(260) @ 3465000: uvm_test_top.env.agent.monitor [MEM] STORE Addr=100007f8 Data=00000000
# UVM_INFO C:/Documents/DoAnThietKeViMach/Project/SoC/VERIFICATION/Monitor/cpu_monitor.sv(260) @ 3475000: uvm_test_top.env.agent.monitor [MEM] STORE Addr=100007f8 Data=00000000
# [DRAM WRITE] addr=100007f8 data=00000000
# UVM_INFO C:/Documents/DoAnThietKeViMach/Project/SoC/VERIFICATION/Monitor/cpu_monitor.sv(260) @ 3485000: uvm_test_top.env.agent.monitor [MEM] STORE Addr=100007f8 Data=00000000
# UVM_INFO C:/Documents/DoAnThietKeViMach/Project/SoC/VERIFICATION/Monitor/cpu_monitor.sv(327) @ 3495000: uvm_test_top.env.agent.monitor [AXI_WR] CPU -> DRAM  Addr=100007f8 Data=00000000 Strb=1111 BRESP=00
# UVM_INFO C:/Documents/DoAnThietKeViMach/Project/SoC/VERIFICATION/Monitor/cpu_monitor.sv(260) @ 3495000: uvm_test_top.env.agent.monitor [MEM] STORE Addr=100007f8 Data=00000000
# UVM_INFO C:/Documents/DoAnThietKeViMach/Project/SoC/VERIFICATION/Monitor/cpu_monitor.sv(288) @ 3495000: uvm_test_top.env.agent.monitor [WB] x02 <= 00000000  (PC~00000178)
# UVM_INFO C:/Documents/DoAnThietKeViMach/Project/SoC/VERIFICATION/Monitor/cpu_monitor.sv(260) @ 3505000: uvm_test_top.env.agent.monitor [MEM] STORE Addr=100007f8 Data=00000000
# UVM_INFO C:/Documents/DoAnThietKeViMach/Project/SoC/VERIFICATION/Monitor/cpu_monitor.sv(288) @ 3505000: uvm_test_top.env.agent.monitor [WB] x02 <= 00000000  (PC~00000178)
# UVM_INFO C:/Documents/DoAnThietKeViMach/Project/SoC/VERIFICATION/Monitor/cpu_monitor.sv(260) @ 3515000: uvm_test_top.env.agent.monitor [MEM] STORE Addr=100007f8 Data=00000000
# UVM_INFO C:/Documents/DoAnThietKeViMach/Project/SoC/VERIFICATION/Monitor/cpu_monitor.sv(288) @ 3515000: uvm_test_top.env.agent.monitor [WB] x02 <= 00000000  (PC~00000178)
# UVM_INFO C:/Documents/DoAnThietKeViMach/Project/SoC/VERIFICATION/Monitor/cpu_monitor.sv(260) @ 3525000: uvm_test_top.env.agent.monitor [MEM] STORE Addr=100007f8 Data=00000000
# UVM_INFO C:/Documents/DoAnThietKeViMach/Project/SoC/VERIFICATION/Monitor/cpu_monitor.sv(288) @ 3525000: uvm_test_top.env.agent.monitor [WB] x02 <= 00000000  (PC~00000178)
# UVM_INFO C:/Documents/DoAnThietKeViMach/Project/SoC/VERIFICATION/Monitor/cpu_monitor.sv(356) @ 3535000: uvm_test_top.env.agent.monitor [AXI_RD] CPU <- IRAM  Addr=0000017c Data=5ad0a423 RRESP=00
# UVM_INFO C:/Documents/DoAnThietKeViMach/Project/SoC/VERIFICATION/Monitor/cpu_monitor.sv(226) @ 3535000: uvm_test_top.env.agent.monitor [IF] PC=0000017c  INSTR=5ad0a423  [SW   x13, 1453(x1)]            
# UVM_INFO C:/Documents/DoAnThietKeViMach/Project/SoC/VERIFICATION/Monitor/cpu_monitor.sv(260) @ 3535000: uvm_test_top.env.agent.monitor [MEM] STORE Addr=100007f8 Data=00000000
# UVM_INFO C:/Documents/DoAnThietKeViMach/Project/SoC/VERIFICATION/Monitor/cpu_monitor.sv(288) @ 3535000: uvm_test_top.env.agent.monitor [WB] x02 <= 00000000  (PC~0000017c)
# UVM_INFO C:/Documents/DoAnThietKeViMach/Project/SoC/VERIFICATION/Monitor/cpu_monitor.sv(356) @ 3575000: uvm_test_top.env.agent.monitor [AXI_RD] CPU <- IRAM  Addr=00000180 Data=21d67c93 RRESP=00
# UVM_INFO C:/Documents/DoAnThietKeViMach/Project/SoC/VERIFICATION/Monitor/cpu_monitor.sv(226) @ 3575000: uvm_test_top.env.agent.monitor [IF] PC=00000180  INSTR=21d67c93  [ANDI x25, x12, 541]            
# UVM_INFO C:/Documents/DoAnThietKeViMach/Project/SoC/VERIFICATION/Monitor/cpu_monitor.sv(288) @ 3585000: uvm_test_top.env.agent.monitor [WB] x07 <= 00000000  (PC~00000180)
# UVM_INFO C:/Documents/DoAnThietKeViMach/Project/SoC/VERIFICATION/Monitor/cpu_monitor.sv(288) @ 3595000: uvm_test_top.env.agent.monitor [WB] x07 <= 00000000  (PC~00000180)
# UVM_INFO C:/Documents/DoAnThietKeViMach/Project/SoC/VERIFICATION/Monitor/cpu_monitor.sv(288) @ 3605000: uvm_test_top.env.agent.monitor [WB] x07 <= 00000000  (PC~00000180)
# UVM_INFO C:/Documents/DoAnThietKeViMach/Project/SoC/VERIFICATION/Monitor/cpu_monitor.sv(356) @ 3615000: uvm_test_top.env.agent.monitor [AXI_RD] CPU <- IRAM  Addr=00000184 Data=63c0a103 RRESP=00
# UVM_INFO C:/Documents/DoAnThietKeViMach/Project/SoC/VERIFICATION/Monitor/cpu_monitor.sv(226) @ 3615000: uvm_test_top.env.agent.monitor [IF] PC=00000184  INSTR=63c0a103  [LW   x2, 1596(x1)]            
# UVM_INFO C:/Documents/DoAnThietKeViMach/Project/SoC/VERIFICATION/Monitor/cpu_monitor.sv(288) @ 3615000: uvm_test_top.env.agent.monitor [WB] x07 <= 00000000  (PC~00000184)
# UVM_INFO C:/Documents/DoAnThietKeViMach/Project/SoC/VERIFICATION/Monitor/cpu_monitor.sv(260) @ 3625000: uvm_test_top.env.agent.monitor [MEM] STORE Addr=100005a8 Data=00000000
# UVM_INFO C:/Documents/DoAnThietKeViMach/Project/SoC/VERIFICATION/Monitor/cpu_monitor.sv(260) @ 3635000: uvm_test_top.env.agent.monitor [MEM] STORE Addr=100005a8 Data=00000000
# [DRAM WRITE] addr=100005a8 data=00000000
# UVM_INFO C:/Documents/DoAnThietKeViMach/Project/SoC/VERIFICATION/Monitor/cpu_monitor.sv(260) @ 3645000: uvm_test_top.env.agent.monitor [MEM] STORE Addr=100005a8 Data=00000000
# UVM_INFO C:/Documents/DoAnThietKeViMach/Project/SoC/VERIFICATION/Monitor/cpu_monitor.sv(327) @ 3655000: uvm_test_top.env.agent.monitor [AXI_WR] CPU -> DRAM  Addr=100005a8 Data=00000000 Strb=1111 BRESP=00
# UVM_INFO C:/Documents/DoAnThietKeViMach/Project/SoC/VERIFICATION/Monitor/cpu_monitor.sv(260) @ 3655000: uvm_test_top.env.agent.monitor [MEM] STORE Addr=100005a8 Data=00000000
# UVM_INFO C:/Documents/DoAnThietKeViMach/Project/SoC/VERIFICATION/Monitor/cpu_monitor.sv(288) @ 3655000: uvm_test_top.env.agent.monitor [WB] x05 <= 00000000  (PC~00000184)
# UVM_INFO C:/Documents/DoAnThietKeViMach/Project/SoC/VERIFICATION/Monitor/cpu_monitor.sv(260) @ 3665000: uvm_test_top.env.agent.monitor [MEM] STORE Addr=100005a8 Data=00000000
# UVM_INFO C:/Documents/DoAnThietKeViMach/Project/SoC/VERIFICATION/Monitor/cpu_monitor.sv(288) @ 3665000: uvm_test_top.env.agent.monitor [WB] x05 <= 00000000  (PC~00000184)
# UVM_INFO C:/Documents/DoAnThietKeViMach/Project/SoC/VERIFICATION/Monitor/cpu_monitor.sv(260) @ 3675000: uvm_test_top.env.agent.monitor [MEM] STORE Addr=100005a8 Data=00000000
# UVM_INFO C:/Documents/DoAnThietKeViMach/Project/SoC/VERIFICATION/Monitor/cpu_monitor.sv(288) @ 3675000: uvm_test_top.env.agent.monitor [WB] x05 <= 00000000  (PC~00000184)
# UVM_INFO C:/Documents/DoAnThietKeViMach/Project/SoC/VERIFICATION/Monitor/cpu_monitor.sv(260) @ 3685000: uvm_test_top.env.agent.monitor [MEM] STORE Addr=100005a8 Data=00000000
# UVM_INFO C:/Documents/DoAnThietKeViMach/Project/SoC/VERIFICATION/Monitor/cpu_monitor.sv(288) @ 3685000: uvm_test_top.env.agent.monitor [WB] x05 <= 00000000  (PC~00000184)
# UVM_INFO C:/Documents/DoAnThietKeViMach/Project/SoC/VERIFICATION/Monitor/cpu_monitor.sv(356) @ 3695000: uvm_test_top.env.agent.monitor [AXI_RD] CPU <- IRAM  Addr=00000188 Data=24e84593 RRESP=00
# UVM_INFO C:/Documents/DoAnThietKeViMach/Project/SoC/VERIFICATION/Monitor/cpu_monitor.sv(226) @ 3695000: uvm_test_top.env.agent.monitor [IF] PC=00000188  INSTR=24e84593  [XORI x11, x16, 590]            
# UVM_INFO C:/Documents/DoAnThietKeViMach/Project/SoC/VERIFICATION/Monitor/cpu_monitor.sv(260) @ 3695000: uvm_test_top.env.agent.monitor [MEM] STORE Addr=100005a8 Data=00000000
# UVM_INFO C:/Documents/DoAnThietKeViMach/Project/SoC/VERIFICATION/Monitor/cpu_monitor.sv(288) @ 3695000: uvm_test_top.env.agent.monitor [WB] x05 <= 00000000  (PC~00000188)
# UVM_INFO C:/Documents/DoAnThietKeViMach/Project/SoC/VERIFICATION/Monitor/cpu_monitor.sv(356) @ 3735000: uvm_test_top.env.agent.monitor [AXI_RD] CPU <- IRAM  Addr=0000018c Data=00f1c6b3 RRESP=00
# UVM_INFO C:/Documents/DoAnThietKeViMach/Project/SoC/VERIFICATION/Monitor/cpu_monitor.sv(226) @ 3735000: uvm_test_top.env.agent.monitor [IF] PC=0000018c  INSTR=00f1c6b3  [XOR  x13, x3, x15]            
# [DRAM READ] addr=1000063c data=00000000
# UVM_INFO C:/Documents/DoAnThietKeViMach/Project/SoC/VERIFICATION/Monitor/cpu_monitor.sv(356) @ 3775000: uvm_test_top.env.agent.monitor [AXI_RD] CPU <- DRAM  Addr=1000063c Data=00000000 RRESP=00
# UVM_INFO C:/Documents/DoAnThietKeViMach/Project/SoC/VERIFICATION/Monitor/cpu_monitor.sv(288) @ 3775000: uvm_test_top.env.agent.monitor [WB] x25 <= 0000001d  (PC~0000018c)
# UVM_INFO C:/Documents/DoAnThietKeViMach/Project/SoC/VERIFICATION/Monitor/cpu_monitor.sv(288) @ 3785000: uvm_test_top.env.agent.monitor [WB] x25 <= 0000001d  (PC~0000018c)
# UVM_INFO C:/Documents/DoAnThietKeViMach/Project/SoC/VERIFICATION/Monitor/cpu_monitor.sv(288) @ 3795000: uvm_test_top.env.agent.monitor [WB] x25 <= 0000001d  (PC~0000018c)
# UVM_INFO C:/Documents/DoAnThietKeViMach/Project/SoC/VERIFICATION/Monitor/cpu_monitor.sv(288) @ 3805000: uvm_test_top.env.agent.monitor [WB] x25 <= 0000001d  (PC~0000018c)
# UVM_INFO C:/Documents/DoAnThietKeViMach/Project/SoC/VERIFICATION/Monitor/cpu_monitor.sv(356) @ 3815000: uvm_test_top.env.agent.monitor [AXI_RD] CPU <- IRAM  Addr=00000190 Data=0068ccb3 RRESP=00
# UVM_INFO C:/Documents/DoAnThietKeViMach/Project/SoC/VERIFICATION/Monitor/cpu_monitor.sv(226) @ 3815000: uvm_test_top.env.agent.monitor [IF] PC=00000190  INSTR=0068ccb3  [XOR  x25, x17, x6]            
# UVM_INFO C:/Documents/DoAnThietKeViMach/Project/SoC/VERIFICATION/Monitor/cpu_monitor.sv(288) @ 3815000: uvm_test_top.env.agent.monitor [WB] x25 <= 0000001d  (PC~00000190)
# UVM_INFO C:/Documents/DoAnThietKeViMach/Project/SoC/VERIFICATION/Monitor/cpu_monitor.sv(288) @ 3825000: uvm_test_top.env.agent.monitor [WB] x02 <= 00000000  (PC~00000190)
# UVM_INFO C:/Documents/DoAnThietKeViMach/Project/SoC/VERIFICATION/Test/cpu_test.sv(74) @ 3835000: uvm_test_top [TEST] PC=00000194 reached end of program â?? stopping
# UVM_INFO C:/Documents/DoAnThietKeViMach/Project/SoC/VERIFICATION/Monitor/cpu_monitor.sv(288) @ 3835000: uvm_test_top.env.agent.monitor [WB] x02 <= 00000000  (PC~00000190)
# UVM_INFO C:/Documents/DoAnThietKeViMach/Project/SoC/VERIFICATION/Monitor/cpu_monitor.sv(288) @ 3845000: uvm_test_top.env.agent.monitor [WB] x02 <= 00000000  (PC~00000190)
# UVM_INFO C:/Documents/DoAnThietKeViMach/Project/SoC/VERIFICATION/Monitor/cpu_monitor.sv(356) @ 3855000: uvm_test_top.env.agent.monitor [AXI_RD] CPU <- IRAM  Addr=00000194 Data=xxxxxxxx RRESP=00
# UVM_INFO C:/Documents/DoAnThietKeViMach/Project/SoC/VERIFICATION/Monitor/cpu_monitor.sv(226) @ 3855000: uvm_test_top.env.agent.monitor [IF] PC=00000194  INSTR=xxxxxxxx  [???  [xxxxxxxx]]            
# UVM_INFO C:/Documents/DoAnThietKeViMach/Project/SoC/VERIFICATION/Monitor/cpu_monitor.sv(288) @ 3855000: uvm_test_top.env.agent.monitor [WB] x02 <= 00000000  (PC~00000194)
# UVM_INFO C:/Documents/DoAnThietKeViMach/Project/SoC/VERIFICATION/Monitor/cpu_monitor.sv(288) @ 3865000: uvm_test_top.env.agent.monitor [WB] x11 <= 0000024e  (PC~00000194)
# UVM_INFO C:/Documents/DoAnThietKeViMach/Project/SoC/VERIFICATION/Monitor/cpu_monitor.sv(288) @ 3875000: uvm_test_top.env.agent.monitor [WB] x11 <= 0000024e  (PC~00000194)
# UVM_INFO C:/Documents/DoAnThietKeViMach/Project/SoC/VERIFICATION/Monitor/cpu_monitor.sv(288) @ 3885000: uvm_test_top.env.agent.monitor [WB] x11 <= 0000024e  (PC~00000194)
# UVM_INFO C:/Documents/DoAnThietKeViMach/Project/SoC/VERIFICATION/Monitor/cpu_monitor.sv(356) @ 3895000: uvm_test_top.env.agent.monitor [AXI_RD] CPU <- IRAM  Addr=00000198 Data=xxxxxxxx RRESP=00
# UVM_INFO C:/Documents/DoAnThietKeViMach/Project/SoC/VERIFICATION/Monitor/cpu_monitor.sv(226) @ 3895000: uvm_test_top.env.agent.monitor [IF] PC=00000198  INSTR=xxxxxxxx  [???  [xxxxxxxx]]            
# UVM_INFO C:/Documents/DoAnThietKeViMach/Project/SoC/VERIFICATION/Monitor/cpu_monitor.sv(288) @ 3895000: uvm_test_top.env.agent.monitor [WB] x11 <= 0000024e  (PC~00000198)
# UVM_INFO C:/Documents/DoAnThietKeViMach/Project/SoC/VERIFICATION/Monitor/cpu_monitor.sv(288) @ 3905000: uvm_test_top.env.agent.monitor [WB] x13 <= 00000000  (PC~00000198)
# UVM_INFO C:/Documents/DoAnThietKeViMach/Project/SoC/VERIFICATION/Monitor/cpu_monitor.sv(288) @ 3915000: uvm_test_top.env.agent.monitor [WB] x13 <= 00000000  (PC~00000198)
# UVM_INFO C:/Documents/DoAnThietKeViMach/Project/SoC/VERIFICATION/Monitor/cpu_monitor.sv(288) @ 3925000: uvm_test_top.env.agent.monitor [WB] x13 <= 00000000  (PC~00000198)
# UVM_INFO C:/Documents/DoAnThietKeViMach/Project/SoC/VERIFICATION/Monitor/cpu_monitor.sv(356) @ 3935000: uvm_test_top.env.agent.monitor [AXI_RD] CPU <- IRAM  Addr=0000019c Data=xxxxxxxx RRESP=00
# UVM_INFO C:/Documents/DoAnThietKeViMach/Project/SoC/VERIFICATION/Monitor/cpu_monitor.sv(226) @ 3935000: uvm_test_top.env.agent.monitor [IF] PC=0000019c  INSTR=xxxxxxxx  [???  [xxxxxxxx]]            
# UVM_INFO C:/Documents/DoAnThietKeViMach/Project/SoC/VERIFICATION/Monitor/cpu_monitor.sv(288) @ 3935000: uvm_test_top.env.agent.monitor [WB] x13 <= 00000000  (PC~0000019c)
# UVM_INFO C:/Documents/DoAnThietKeViMach/Project/SoC/VERIFICATION/Monitor/cpu_monitor.sv(288) @ 3945000: uvm_test_top.env.agent.monitor [WB] x25 <= 0000077d  (PC~0000019c)
# UVM_INFO C:/Documents/DoAnThietKeViMach/Project/SoC/VERIFICATION/Monitor/cpu_monitor.sv(288) @ 3955000: uvm_test_top.env.agent.monitor [WB] x25 <= 0000077d  (PC~0000019c)
# UVM_INFO C:/Documents/DoAnThietKeViMach/Project/SoC/VERIFICATION/Monitor/cpu_monitor.sv(288) @ 3965000: uvm_test_top.env.agent.monitor [WB] x25 <= 0000077d  (PC~0000019c)
# UVM_INFO C:/Documents/DoAnThietKeViMach/Project/SoC/VERIFICATION/Monitor/cpu_monitor.sv(356) @ 3975000: uvm_test_top.env.agent.monitor [AXI_RD] CPU <- IRAM  Addr=000001a0 Data=xxxxxxxx RRESP=00
# UVM_INFO C:/Documents/DoAnThietKeViMach/Project/SoC/VERIFICATION/Monitor/cpu_monitor.sv(226) @ 3975000: uvm_test_top.env.agent.monitor [IF] PC=000001a0  INSTR=xxxxxxxx  [???  [xxxxxxxx]]            
# UVM_INFO C:/Documents/DoAnThietKeViMach/Project/SoC/VERIFICATION/Monitor/cpu_monitor.sv(288) @ 3975000: uvm_test_top.env.agent.monitor [WB] x25 <= 0000077d  (PC~000001a0)
# UVM_INFO C:/Documents/DoAnThietKeViMach/Project/SoC/VERIFICATION/Monitor/cpu_monitor.sv(356) @ 4015000: uvm_test_top.env.agent.monitor [AXI_RD] CPU <- IRAM  Addr=000001a4 Data=xxxxxxxx RRESP=00
# UVM_INFO C:/Documents/DoAnThietKeViMach/Project/SoC/VERIFICATION/Monitor/cpu_monitor.sv(226) @ 4015000: uvm_test_top.env.agent.monitor [IF] PC=000001a4  INSTR=xxxxxxxx  [???  [xxxxxxxx]]            
# UVM_INFO C:/Documents/DoAnThietKeViMach/Project/SoC/VERIFICATION/Monitor/cpu_monitor.sv(356) @ 4055000: uvm_test_top.env.agent.monitor [AXI_RD] CPU <- IRAM  Addr=000001a8 Data=xxxxxxxx RRESP=00
# UVM_INFO C:/Documents/DoAnThietKeViMach/Project/SoC/VERIFICATION/Monitor/cpu_monitor.sv(226) @ 4055000: uvm_test_top.env.agent.monitor [IF] PC=000001a8  INSTR=xxxxxxxx  [???  [xxxxxxxx]]            
# UVM_INFO C:/Documents/DoAnThietKeViMach/Project/SoC/VERIFICATION/Monitor/cpu_monitor.sv(356) @ 4095000: uvm_test_top.env.agent.monitor [AXI_RD] CPU <- IRAM  Addr=000001ac Data=xxxxxxxx RRESP=00
# UVM_INFO C:/Documents/DoAnThietKeViMach/Project/SoC/VERIFICATION/Monitor/cpu_monitor.sv(226) @ 4095000: uvm_test_top.env.agent.monitor [IF] PC=000001ac  INSTR=xxxxxxxx  [???  [xxxxxxxx]]            
# UVM_INFO verilog_src/uvm-1.1d/src/base/uvm_objection.svh(1268) @ 4135000: reporter [TEST_DONE] 'run' phase is ready to proceed to the 'extract' phase
# UVM_INFO C:/Documents/DoAnThietKeViMach/Project/SoC/VERIFICATION/Scoreboard/cpu_scoreboard.sv(157) @ 4135000: uvm_test_top.env.scoreboard [SCB] 
# UVM_INFO C:/Documents/DoAnThietKeViMach/Project/SoC/VERIFICATION/Scoreboard/cpu_scoreboard.sv(160) @ 4135000: uvm_test_top.env.scoreboard [SCB] ==============================================================
# UVM_INFO C:/Documents/DoAnThietKeViMach/Project/SoC/VERIFICATION/Scoreboard/cpu_scoreboard.sv(164) @ 4135000: uvm_test_top.env.scoreboard [SCB]             CPU REGISTER FILE - FINAL RESULT                  
# UVM_INFO C:/Documents/DoAnThietKeViMach/Project/SoC/VERIFICATION/Scoreboard/cpu_scoreboard.sv(168) @ 4135000: uvm_test_top.env.scoreboard [SCB] ==============================================================
# UVM_INFO C:/Documents/DoAnThietKeViMach/Project/SoC/VERIFICATION/Scoreboard/cpu_scoreboard.sv(172) @ 4135000: uvm_test_top.env.scoreboard [SCB]  REG   |   EXPECTED   |    ACTUAL    | MATCH |    STATUS    
