--- [SIM ONLY] cpu_test ---
MODE = CPU_MASTER
UVM_TESTNAME = cpu_test
Reading C:/app/QuestaSim/tcl/vsim/pref.tcl 

# 10.2c

# vsim +UVM_TESTNAME=cpu_test +CPU_MASTER +MEM_SEED=2620073240 +CPU_INSTR_COUNT=208 -coverage -do {run -all; quit} -c -sv_seed 2620073240 vopt_top 
# //  Questa Sim-64
# //  Version 10.2c Unknown Platform Jul 19 2013
# //
# //  Copyright 1991-2013 Mentor Graphics Corporation
# //  All Rights Reserved.
# //
# //  THIS WORK CONTAINS TRADE SECRET AND PROPRIETARY INFORMATION
# //  WHICH IS THE PROPERTY OF MENTOR GRAPHICS CORPORATION OR ITS
# //  LICENSORS AND IS SUBJECT TO LICENSE TERMS.
# //
# Loading sv_std.std
# Loading mtiUvm.uvm_pkg
# Loading work.soc_pkg(fast)
# Loading work.top_tb(fast)
# Loading work.clk_rst_inf(fast)
# Loading work.soc_inf(fast)
# Loading work.cpu_monitor_inf(fast)
# Loading work.TOP(fast)
# Loading work.AXI_Master(fast)
# Loading work.CPU(fast)
# Loading work.pc_reg(fast)
# Loading work.IF_ID(fast)
# Loading work.ControlUnit(fast)
# Loading work.MainDecoder(fast)
# Loading work.ALUControl(fast)
# Loading work.RegFile(fast)
# Loading work.signExtend(fast)
# Loading work.ID_EX(fast)
# Loading work.ALU(fast)
# Loading work.EX_MEM(fast)
# Loading work.MEM_WB(fast)
# Loading work.HazardUnit(fast)
# Loading work.LSU(fast)
# Loading work.AXI4_Lite_Interconnect(fast)
# Loading work.IRAM(fast)
# Loading work.DRAM(fast)
# Loading work.Timer(fast)
# Loading work.UART(fast)
# Loading work.SPI(fast)
# Loading work.axi4_lite_sva(fast)
# Loading work.cpu_sva(fast)
# Loading mtiUvm.questa_uvm_pkg(fast)
# Loading C:/app/QuestaSim/uvm-1.1d\win64\uvm_dpi.dll
# run -all 
# ----------------------------------------------------------------
# UVM-1.1d
# (C) 2007-2013 Mentor Graphics Corporation
# (C) 2007-2013 Cadence Design Systems, Inc.
# (C) 2006-2013 Synopsys, Inc.
# (C) 2011-2013 Cypress Semiconductor Corp.
# ----------------------------------------------------------------
# 
#   ***********       IMPORTANT RELEASE NOTES         ************
# 
#   You are using a version of the UVM library that has been compiled
#   with `UVM_NO_DEPRECATED undefined.
#   See http://www.eda.org/svdb/view.php?id=3313 for more details.
# 
#   You are using a version of the UVM library that has been compiled
#   with `UVM_OBJECT_MUST_HAVE_CONSTRUCTOR undefined.
#   See http://www.eda.org/svdb/view.php?id=3770 for more details.
# 
#       (Specify +UVM_NO_RELNOTES to turn off this notice)
# 
# UVM_INFO verilog_src/questa_uvm_pkg-1.2/src/questa_uvm_pkg.sv(215) @ 0: reporter [Questa UVM] QUESTA_UVM-1.2.2
# UVM_INFO verilog_src/questa_uvm_pkg-1.2/src/questa_uvm_pkg.sv(217) @ 0: reporter [Questa UVM]  questa_uvm::init(+struct)
# [IRAM] Loading file: instr.mem
# [IRAM] mem[0] = 100000b7
# [IRAM] mem[1] = 20000137
# [IRAM] mem[2] = 300001b7
# [IRAM] mem[3] = 40000237
# [IRAM] mem[4] = 05a00293
# [IRAM] mem[5] = 3050a023
# [IRAM] mem[6] = 3000a303
# [IRAM] mem[7] = 00629463
# [IRAM] mem[8] = 05a00393
# [IRAM] mem[9] = 0080006f
# [IRAM] mem[10] = 0a500393
# [IRAM] mem[11] = 3e70a823
# [IRAM] mem[12] = 00005263
# [IRAM] mem[13] = 2d99c293
# [IRAM] mem[14] = 0081a003
# [IRAM] mem[15] = 00022003
# [IRAM] mem[16] = 0040066f
# [IRAM] mem[17] = 00012f03
# [IRAM] mem[18] = 00000263
# [IRAM] mem[19] = 004007ef
# [IRAM] mem[20] = 00000263
# [IRAM] mem[21] = 00005263
# [IRAM] mem[22] = 00000263
# [IRAM] mem[23] = 00801263
# [IRAM] mem[24] = 00007263
# [IRAM] mem[25] = 01c06263
# [IRAM] mem[26] = 01112223
# [IRAM] mem[27] = 69aa6813
# [IRAM] mem[28] = 00af4b33
# [IRAM] mem[29] = 5ac0a403
# [IRAM] mem[30] = 00c2a433
# [IRAM] mem[31] = 00d04263
# [IRAM] mem[32] = 4667e813
# [IRAM] mem[33] = 004002ef
# [IRAM] mem[34] = 0081a003
# [IRAM] mem[35] = 80d9ee13
# [IRAM] mem[36] = 00012f83
# [IRAM] mem[37] = 00000263
# [IRAM] mem[38] = 1950a023
# [IRAM] mem[39] = 00922623
# [IRAM] mem[40] = 00007263
# [IRAM] mem[41] = 00412e83
# [IRAM] mem[42] = 6ac0a683
# [IRAM] mem[43] = 01d06263
# [IRAM] mem[44] = 01912223
# [IRAM] mem[45] = 00007263
# [IRAM] mem[46] = cb184e93
# [IRAM] mem[47] = 7280ac03
# [IRAM] mem[48] = 00007263
# [IRAM] mem[49] = 01822223
# [IRAM] mem[50] = 0101a623
# [IRAM] mem[51] = e7748c13
# [IRAM] mem[52] = 00812003
# [IRAM] mem[53] = 0086ea33
# [IRAM] mem[54] = 00005263
# [IRAM] mem[55] = 00512023
# [IRAM] mem[56] = 00901263
# [IRAM] mem[57] = 00400e6f
# [IRAM] mem[58] = 77ba2893
# [IRAM] mem[59] = 00400b6f
# [IRAM] mem[60] = 00422683
# [IRAM] mem[61] = 007b2f33
# [IRAM] mem[62] = 01312023
# [IRAM] mem[63] = 5b47ee13
# [IRAM] mem[64] = 01a89ab3
# [IRAM] mem[65] = 01e1a623
# [IRAM] mem[66] = 00412383
# [IRAM] mem[67] = 00412f03
# [IRAM] mem[68] = 00400e6f
# [IRAM] mem[69] = 00012e03
# [IRAM] mem[70] = 01f618b3
# [IRAM] mem[71] = 40f78a93
# [IRAM] mem[72] = 00812003
# [IRAM] mem[73] = 62658413
# [IRAM] mem[74] = 00c1a403
# [IRAM] mem[75] = 00c22783
# [IRAM] mem[76] = c7e77a13
# [IRAM] mem[77] = 00412583
# [IRAM] mem[78] = 00b1a623
# [IRAM] mem[79] = 2290a023
# [IRAM] mem[80] = 417c0b33
# [IRAM] mem[81] = 60acee13
# [IRAM] mem[82] = 00007263
# [IRAM] mem[83] = 016c29b3
# [IRAM] mem[84] = 01106263
# [IRAM] mem[85] = 7160a023
# [IRAM] mem[86] = 00022003
# [IRAM] mem[87] = 00022003
# [IRAM] mem[88] = a4d2a313
# [IRAM] mem[89] = 00c22783
# [IRAM] mem[90] = 006715b3
# [IRAM] mem[91] = 0167edb3
# [IRAM] mem[92] = 01112223
# [IRAM] mem[93] = 01122223
# [IRAM] mem[94] = 01495fb3
# [IRAM] mem[95] = 1800a503
# [IRAM] mem[96] = 00b06263
# [IRAM] mem[97] = 00422403
# [IRAM] mem[98] = 4113d9b3
# [IRAM] mem[99] = 00c4d633
# [IRAM] mem[100] = 00c1a403
# [IRAM] mem[101] = 01c80533
# [IRAM] mem[102] = 0081a003
# [IRAM] mem[103] = 00000263
# [IRAM] mem[104] = 01c06263
# [IRAM] mem[105] = 00822003
# [IRAM] mem[106] = 416c5733
# [IRAM] mem[107] = 01801263
# [IRAM] mem[108] = 00812023
# [IRAM] mem[109] = 004002ef
# [IRAM] mem[110] = 00812003
# [IRAM] mem[111] = 27bda593
# [IRAM] mem[112] = 00422f83
# [IRAM] mem[113] = 01ef9eb3
# [IRAM] mem[114] = 0041a003
# [IRAM] mem[115] = 0081a003
# [IRAM] mem[116] = 00005263
# [IRAM] mem[117] = 414e5a33
# [IRAM] mem[118] = 01d1a023
# [IRAM] mem[119] = 01e1a623
# [IRAM] mem[120] = 1d84c893
# [IRAM] mem[121] = 414489b3
# [IRAM] mem[122] = 00012c83
# [IRAM] mem[123] = 00012883
# [IRAM] mem[124] = 00606263
# [IRAM] mem[125] = 00412b83
# [IRAM] mem[126] = 00000263
# [IRAM] mem[127] = 1180ae83
# [IRAM] mem[128] = 0041a003
# [IRAM] mem[129] = 5080a603
# [IRAM] mem[130] = 0041a003
# [IRAM] mem[131] = 00a1a023
# [IRAM] mem[132] = 00007263
# [IRAM] mem[133] = 0081a003
# [IRAM] mem[134] = 00400c6f
# [IRAM] mem[135] = 0081a003
# [IRAM] mem[136] = 00c1a803
# [IRAM] mem[137] = 5a80a023
# [IRAM] mem[138] = 01b1a023
# [IRAM] mem[139] = 5a00a503
# [IRAM] mem[140] = 00412a83
# [IRAM] mem[141] = 00822003
# [IRAM] mem[142] = 01204263
# [IRAM] mem[143] = 0141a023
# [IRAM] mem[144] = 00005263
# [IRAM] mem[145] = 01c04263
# [IRAM] mem[146] = 01b1a623
# [IRAM] mem[147] = 0181a023
# [IRAM] mem[148] = 00000263
# [IRAM] mem[149] = 01f04263
# [IRAM] mem[150] = 01f06263
# [IRAM] mem[151] = 5a544d93
# [IRAM] mem[152] = 6a40a683
# [IRAM] mem[153] = 00c1a383
# [IRAM] mem[154] = bb6a0d93
# [IRAM] mem[155] = cc38cf93
# [IRAM] mem[156] = 00c1ae83
# [IRAM] mem[157] = 942f2293
# [IRAM] mem[158] = 01bdf6b3
# [IRAM] mem[159] = 00007263
# [IRAM] mem[160] = 00f12223
# [IRAM] mem[161] = 01ae8933
# [IRAM] mem[162] = 9505ed13
# [IRAM] mem[163] = 01c12223
# [IRAM] mem[164] = 4880a803
# [IRAM] mem[165] = 59b0a023
# [IRAM] mem[166] = 00005263
# [IRAM] mem[167] = 01422623
# [IRAM] mem[168] = 00005263
# [IRAM] mem[169] = 9c3f4713
# [IRAM] mem[170] = 00822003
# [IRAM] mem[171] = 00622023
# [IRAM] mem[172] = 01101263
# [IRAM] mem[173] = 00812003
# [IRAM] mem[174] = 00b22623
# [IRAM] mem[175] = 01312223
# [IRAM] mem[176] = 01722223
# [IRAM] mem[177] = 01512023
# [IRAM] mem[178] = 01901263
# [IRAM] mem[179] = 4082d7b3
# [IRAM] mem[180] = 00ee6933
# [IRAM] mem[181] = 01d1a623
# [IRAM] mem[182] = 0041a003
# [IRAM] mem[183] = 00f3acb3
# [IRAM] mem[184] = 00c1ad03
# [IRAM] mem[185] = 00812003
# [IRAM] mem[186] = 79e0a423
# [IRAM] mem[187] = 00604263
# [IRAM] mem[188] = 2fb0a223
# [IRAM] mem[189] = 01f2ad33
# [IRAM] mem[190] = 00b22023
# [IRAM] mem[191] = 02a0a023
# [IRAM] mem[192] = 0051a023
# [IRAM] mem[193] = 6200a983
# [IRAM] mem[194] = 0041a003
# [IRAM] mem[195] = 00812003
# [IRAM] mem[196] = 00012383
# [IRAM] mem[197] = 01c04263
# [IRAM] mem[198] = 00c22783
# [IRAM] mem[199] = 01612023
# [IRAM] mem[200] = 0041a003
# [IRAM] mem[201] = 74cfe393
# [IRAM] mem[202] = 523ce893
# [IRAM] mem[203] = 75c0ae83
# [IRAM] mem[204] = 01012023
# [IRAM] mem[205] = 2240a903
# [IRAM] mem[206] = 01f01263
# [IRAM] mem[207] = 005c4db3
# [IRAM] mem[208] = 00000013
# [IRAM] mem[209] = 00000013
# [IRAM] mem[210] = 00000013
# [IRAM] mem[211] = 00000013
# [IRAM] mem[212] = 00000013
# [IRAM] mem[213] = 00000013
# [IRAM] mem[214] = 00000013
# [IRAM] mem[215] = 00000013
# [IRAM] mem[216] = 00000013
# [IRAM] mem[217] = 00000013
# [IRAM] mem[218] = 00000013
# [IRAM] mem[219] = 00000013
# [IRAM] mem[220] = 00000013
# [IRAM] mem[221] = 00000013
# [IRAM] mem[222] = 00000013
# [IRAM] mem[223] = 00000013
# [IRAM] mem[224] = 00000013
# [IRAM] mem[225] = 00000013
# [IRAM] mem[226] = 00000013
# [IRAM] mem[227] = 00000013
# [IRAM] mem[228] = 00000013
# [IRAM] mem[229] = 00000013
# [IRAM] mem[230] = 00000013
# [IRAM] mem[231] = 00000013
# [IRAM] mem[232] = 00000013
# [IRAM] mem[233] = 00000013
# [IRAM] mem[234] = 00000013
# [IRAM] mem[235] = 00000013
# [IRAM] mem[236] = 00000013
# [IRAM] mem[237] = 00000013
# [IRAM] mem[238] = 00000013
# [IRAM] mem[239] = 00000013
# [IRAM] mem[240] = 00000013
# [IRAM] mem[241] = 00000013
# [IRAM] mem[242] = 00000013
# [IRAM] mem[243] = 00000013
# [IRAM] mem[244] = 00000013
# [IRAM] mem[245] = 00000013
# [IRAM] mem[246] = 00000013
# [IRAM] mem[247] = 00000013
# [IRAM] mem[248] = 00000013
# [IRAM] mem[249] = 00000013
# [IRAM] mem[250] = 00000013
# [IRAM] mem[251] = 00000013
# [IRAM] mem[252] = 00000013
# [IRAM] mem[253] = 00000013
# [IRAM] mem[254] = 00000013
# [IRAM] mem[255] = 00000013
# [IRAM] Loaded 16384 instruction words
# [TB] Mode: CPU MASTER => CPU drives AXI, UVM observes
# UVM_INFO @ 0: reporter [RNTST] Running test cpu_test...
# UVM_INFO C:/Documents/DoAnThietKeViMach/Project/SoC/VERIFICATION/Scoreboard/cpu_scoreboard.sv(190) @ 0: uvm_test_top.env.scoreboard [SCB] Loaded expected registers from: expected.mem
# UVM_INFO C:/Documents/DoAnThietKeViMach/Project/SoC/VERIFICATION/Test/cpu_test.sv(55) @ 0: uvm_test_top [TEST] Program has 208 instructions, end PC = 00000340
# UVM_INFO C:/Documents/DoAnThietKeViMach/Project/SoC/VERIFICATION/Monitor/cpu_monitor.sv(201) @ 35000: uvm_test_top.env.agent.monitor [CPU_MON] === CPU Monitor started == watching pipeline ===
# UVM_INFO C:/Documents/DoAnThietKeViMach/Project/SoC/VERIFICATION/Monitor/cpu_monitor.sv(202) @ 35000: uvm_test_top.env.agent.monitor [CPU_MON] ============================================================
# UVM_INFO C:/Documents/DoAnThietKeViMach/Project/SoC/VERIFICATION/Test/cpu_test.sv(61) @ 55000: uvm_test_top [TEST] Reset released - CPU executing from IRAM
# UVM_INFO C:/Documents/DoAnThietKeViMach/Project/SoC/VERIFICATION/Monitor/cpu_monitor.sv(336) @ 55000: uvm_test_top.env.agent.monitor [AXI_RD] CPU <- IRAM  Addr=00000000 Data=100000b7 RRESP=00
# UVM_INFO C:/Documents/DoAnThietKeViMach/Project/SoC/VERIFICATION/Monitor/cpu_monitor.sv(336) @ 95000: uvm_test_top.env.agent.monitor [AXI_RD] CPU <- IRAM  Addr=00000004 Data=20000137 RRESP=00
# UVM_INFO C:/Documents/DoAnThietKeViMach/Project/SoC/VERIFICATION/Monitor/cpu_monitor.sv(230) @ 95000: uvm_test_top.env.agent.monitor [IF] PC=00000004  INSTR=20000137  [LUI  x2, 0x20000]            
# UVM_INFO C:/Documents/DoAnThietKeViMach/Project/SoC/VERIFICATION/Monitor/cpu_monitor.sv(336) @ 135000: uvm_test_top.env.agent.monitor [AXI_RD] CPU <- IRAM  Addr=00000008 Data=300001b7 RRESP=00
# UVM_INFO C:/Documents/DoAnThietKeViMach/Project/SoC/VERIFICATION/Monitor/cpu_monitor.sv(230) @ 135000: uvm_test_top.env.agent.monitor [IF] PC=00000008  INSTR=300001b7  [LUI  x3, 0x30000]            
# UVM_INFO C:/Documents/DoAnThietKeViMach/Project/SoC/VERIFICATION/Monitor/cpu_monitor.sv(336) @ 175000: uvm_test_top.env.agent.monitor [AXI_RD] CPU <- IRAM  Addr=0000000c Data=40000237 RRESP=00
# UVM_INFO C:/Documents/DoAnThietKeViMach/Project/SoC/VERIFICATION/Monitor/cpu_monitor.sv(230) @ 175000: uvm_test_top.env.agent.monitor [IF] PC=0000000c  INSTR=40000237  [LUI  x4, 0x40000]            
# UVM_INFO C:/Documents/DoAnThietKeViMach/Project/SoC/VERIFICATION/Monitor/cpu_monitor.sv(276) @ 185000: uvm_test_top.env.agent.monitor [WB] x01 <= 10000000  (PC~0000000c)
# UVM_INFO C:/Documents/DoAnThietKeViMach/Project/SoC/VERIFICATION/Monitor/cpu_monitor.sv(276) @ 195000: uvm_test_top.env.agent.monitor [WB] x01 <= 10000000  (PC~0000000c)
# UVM_INFO C:/Documents/DoAnThietKeViMach/Project/SoC/VERIFICATION/Monitor/cpu_monitor.sv(276) @ 205000: uvm_test_top.env.agent.monitor [WB] x01 <= 10000000  (PC~0000000c)
# UVM_INFO C:/Documents/DoAnThietKeViMach/Project/SoC/VERIFICATION/Monitor/cpu_monitor.sv(336) @ 215000: uvm_test_top.env.agent.monitor [AXI_RD] CPU <- IRAM  Addr=00000010 Data=05a00293 RRESP=00
# UVM_INFO C:/Documents/DoAnThietKeViMach/Project/SoC/VERIFICATION/Monitor/cpu_monitor.sv(230) @ 215000: uvm_test_top.env.agent.monitor [IF] PC=00000010  INSTR=05a00293  [ADDI x5, x0, 90]            
# UVM_INFO C:/Documents/DoAnThietKeViMach/Project/SoC/VERIFICATION/Monitor/cpu_monitor.sv(276) @ 215000: uvm_test_top.env.agent.monitor [WB] x01 <= 10000000  (PC~00000010)
# UVM_INFO C:/Documents/DoAnThietKeViMach/Project/SoC/VERIFICATION/Monitor/cpu_monitor.sv(276) @ 225000: uvm_test_top.env.agent.monitor [WB] x02 <= 20000000  (PC~00000010)
# UVM_INFO C:/Documents/DoAnThietKeViMach/Project/SoC/VERIFICATION/Monitor/cpu_monitor.sv(276) @ 235000: uvm_test_top.env.agent.monitor [WB] x02 <= 20000000  (PC~00000010)
# UVM_INFO C:/Documents/DoAnThietKeViMach/Project/SoC/VERIFICATION/Monitor/cpu_monitor.sv(276) @ 245000: uvm_test_top.env.agent.monitor [WB] x02 <= 20000000  (PC~00000010)
# UVM_INFO C:/Documents/DoAnThietKeViMach/Project/SoC/VERIFICATION/Monitor/cpu_monitor.sv(336) @ 255000: uvm_test_top.env.agent.monitor [AXI_RD] CPU <- IRAM  Addr=00000014 Data=3050a023 RRESP=00
# UVM_INFO C:/Documents/DoAnThietKeViMach/Project/SoC/VERIFICATION/Monitor/cpu_monitor.sv(230) @ 255000: uvm_test_top.env.agent.monitor [IF] PC=00000014  INSTR=3050a023  [SW   x5, 773(x1)]            
# UVM_INFO C:/Documents/DoAnThietKeViMach/Project/SoC/VERIFICATION/Monitor/cpu_monitor.sv(276) @ 255000: uvm_test_top.env.agent.monitor [WB] x02 <= 20000000  (PC~00000014)
# UVM_INFO C:/Documents/DoAnThietKeViMach/Project/SoC/VERIFICATION/Monitor/cpu_monitor.sv(276) @ 265000: uvm_test_top.env.agent.monitor [WB] x03 <= 30000000  (PC~00000014)
# UVM_INFO C:/Documents/DoAnThietKeViMach/Project/SoC/VERIFICATION/Monitor/cpu_monitor.sv(276) @ 275000: uvm_test_top.env.agent.monitor [WB] x03 <= 30000000  (PC~00000014)
# UVM_INFO C:/Documents/DoAnThietKeViMach/Project/SoC/VERIFICATION/Monitor/cpu_monitor.sv(276) @ 285000: uvm_test_top.env.agent.monitor [WB] x03 <= 30000000  (PC~00000014)
# UVM_INFO C:/Documents/DoAnThietKeViMach/Project/SoC/VERIFICATION/Monitor/cpu_monitor.sv(336) @ 295000: uvm_test_top.env.agent.monitor [AXI_RD] CPU <- IRAM  Addr=00000018 Data=3000a303 RRESP=00
# UVM_INFO C:/Documents/DoAnThietKeViMach/Project/SoC/VERIFICATION/Monitor/cpu_monitor.sv(230) @ 295000: uvm_test_top.env.agent.monitor [IF] PC=00000018  INSTR=3000a303  [LW   x6, 768(x1)]            
# UVM_INFO C:/Documents/DoAnThietKeViMach/Project/SoC/VERIFICATION/Monitor/cpu_monitor.sv(276) @ 295000: uvm_test_top.env.agent.monitor [WB] x03 <= 30000000  (PC~00000018)
# UVM_INFO C:/Documents/DoAnThietKeViMach/Project/SoC/VERIFICATION/Monitor/cpu_monitor.sv(276) @ 305000: uvm_test_top.env.agent.monitor [WB] x04 <= 40000000  (PC~00000018)
# UVM_INFO C:/Documents/DoAnThietKeViMach/Project/SoC/VERIFICATION/Monitor/cpu_monitor.sv(276) @ 315000: uvm_test_top.env.agent.monitor [WB] x04 <= 40000000  (PC~00000018)
# UVM_INFO C:/Documents/DoAnThietKeViMach/Project/SoC/VERIFICATION/Monitor/cpu_monitor.sv(276) @ 325000: uvm_test_top.env.agent.monitor [WB] x04 <= 40000000  (PC~00000018)
# UVM_INFO C:/Documents/DoAnThietKeViMach/Project/SoC/VERIFICATION/Monitor/cpu_monitor.sv(336) @ 335000: uvm_test_top.env.agent.monitor [AXI_RD] CPU <- IRAM  Addr=0000001c Data=00629463 RRESP=00
# UVM_INFO C:/Documents/DoAnThietKeViMach/Project/SoC/VERIFICATION/Monitor/cpu_monitor.sv(230) @ 335000: uvm_test_top.env.agent.monitor [IF] PC=0000001c  INSTR=00629463  [BNE  x5, x6, ...]            
# UVM_INFO C:/Documents/DoAnThietKeViMach/Project/SoC/VERIFICATION/Monitor/cpu_monitor.sv(276) @ 335000: uvm_test_top.env.agent.monitor [WB] x04 <= 40000000  (PC~0000001c)
# UVM_INFO C:/Documents/DoAnThietKeViMach/Project/SoC/VERIFICATION/Monitor/cpu_monitor.sv(251) @ 345000: uvm_test_top.env.agent.monitor [MEM] STORE Addr=10000300 Data=0000005a
# UVM_INFO C:/Documents/DoAnThietKeViMach/Project/SoC/VERIFICATION/Monitor/cpu_monitor.sv(251) @ 355000: uvm_test_top.env.agent.monitor [MEM] STORE Addr=10000300 Data=0000005a
# [DRAM WRITE] addr=10000300 data=0000005a
# UVM_INFO C:/Documents/DoAnThietKeViMach/Project/SoC/VERIFICATION/Monitor/cpu_monitor.sv(251) @ 365000: uvm_test_top.env.agent.monitor [MEM] STORE Addr=10000300 Data=0000005a
# UVM_INFO C:/Documents/DoAnThietKeViMach/Project/SoC/VERIFICATION/Monitor/cpu_monitor.sv(310) @ 375000: uvm_test_top.env.agent.monitor [AXI_WR] CPU -> DRAM  Addr=10000300 Data=0000005a Strb=1111 BRESP=00
# UVM_INFO C:/Documents/DoAnThietKeViMach/Project/SoC/VERIFICATION/Monitor/cpu_monitor.sv(251) @ 375000: uvm_test_top.env.agent.monitor [MEM] STORE Addr=10000300 Data=0000005a
# UVM_INFO C:/Documents/DoAnThietKeViMach/Project/SoC/VERIFICATION/Monitor/cpu_monitor.sv(276) @ 375000: uvm_test_top.env.agent.monitor [WB] x05 <= 0000005a  (PC~0000001c)
# UVM_INFO C:/Documents/DoAnThietKeViMach/Project/SoC/VERIFICATION/Monitor/cpu_monitor.sv(251) @ 385000: uvm_test_top.env.agent.monitor [MEM] STORE Addr=10000300 Data=0000005a
# UVM_INFO C:/Documents/DoAnThietKeViMach/Project/SoC/VERIFICATION/Monitor/cpu_monitor.sv(276) @ 385000: uvm_test_top.env.agent.monitor [WB] x05 <= 0000005a  (PC~0000001c)
# UVM_INFO C:/Documents/DoAnThietKeViMach/Project/SoC/VERIFICATION/Monitor/cpu_monitor.sv(251) @ 395000: uvm_test_top.env.agent.monitor [MEM] STORE Addr=10000300 Data=0000005a
# UVM_INFO C:/Documents/DoAnThietKeViMach/Project/SoC/VERIFICATION/Monitor/cpu_monitor.sv(276) @ 395000: uvm_test_top.env.agent.monitor [WB] x05 <= 0000005a  (PC~0000001c)
# UVM_INFO C:/Documents/DoAnThietKeViMach/Project/SoC/VERIFICATION/Monitor/cpu_monitor.sv(251) @ 405000: uvm_test_top.env.agent.monitor [MEM] STORE Addr=10000300 Data=0000005a
# UVM_INFO C:/Documents/DoAnThietKeViMach/Project/SoC/VERIFICATION/Monitor/cpu_monitor.sv(276) @ 405000: uvm_test_top.env.agent.monitor [WB] x05 <= 0000005a  (PC~0000001c)
# UVM_INFO C:/Documents/DoAnThietKeViMach/Project/SoC/VERIFICATION/Monitor/cpu_monitor.sv(336) @ 415000: uvm_test_top.env.agent.monitor [AXI_RD] CPU <- IRAM  Addr=00000020 Data=05a00393 RRESP=00
# UVM_INFO C:/Documents/DoAnThietKeViMach/Project/SoC/VERIFICATION/Monitor/cpu_monitor.sv(251) @ 415000: uvm_test_top.env.agent.monitor [MEM] STORE Addr=10000300 Data=0000005a
# UVM_INFO C:/Documents/DoAnThietKeViMach/Project/SoC/VERIFICATION/Monitor/cpu_monitor.sv(276) @ 415000: uvm_test_top.env.agent.monitor [WB] x05 <= 0000005a  (PC~0000001c)
# [DRAM READ] addr=10000300 data=0000005a
# UVM_INFO C:/Documents/DoAnThietKeViMach/Project/SoC/VERIFICATION/Monitor/cpu_monitor.sv(336) @ 455000: uvm_test_top.env.agent.monitor [AXI_RD] CPU <- DRAM  Addr=10000300 Data=0000005a RRESP=00
# UVM_INFO C:/Documents/DoAnThietKeViMach/Project/SoC/VERIFICATION/Scoreboard/cpu_scoreboard.sv(141) @ 455000: uvm_test_top.env.scoreboard [SCB_PASS] [DRAM] READ PASS Addr=10000300 Expected=0000005a Got=0000005a
# UVM_INFO C:/Documents/DoAnThietKeViMach/Project/SoC/VERIFICATION/Monitor/cpu_monitor.sv(336) @ 495000: uvm_test_top.env.agent.monitor [AXI_RD] CPU <- IRAM  Addr=00000020 Data=05a00393 RRESP=00
# UVM_INFO C:/Documents/DoAnThietKeViMach/Project/SoC/VERIFICATION/Monitor/cpu_monitor.sv(230) @ 495000: uvm_test_top.env.agent.monitor [IF] PC=00000020  INSTR=05a00393  [ADDI x7, x0, 90]            
# UVM_INFO C:/Documents/DoAnThietKeViMach/Project/SoC/VERIFICATION/Monitor/cpu_monitor.sv(276) @ 505000: uvm_test_top.env.agent.monitor [WB] x06 <= 0000005a  (PC~00000020)
# UVM_INFO C:/Documents/DoAnThietKeViMach/Project/SoC/VERIFICATION/Monitor/cpu_monitor.sv(276) @ 515000: uvm_test_top.env.agent.monitor [WB] x06 <= 0000005a  (PC~00000020)
# UVM_INFO C:/Documents/DoAnThietKeViMach/Project/SoC/VERIFICATION/Monitor/cpu_monitor.sv(276) @ 525000: uvm_test_top.env.agent.monitor [WB] x06 <= 0000005a  (PC~00000020)
# UVM_INFO C:/Documents/DoAnThietKeViMach/Project/SoC/VERIFICATION/Monitor/cpu_monitor.sv(336) @ 535000: uvm_test_top.env.agent.monitor [AXI_RD] CPU <- IRAM  Addr=00000024 Data=0080006f RRESP=00
# UVM_INFO C:/Documents/DoAnThietKeViMach/Project/SoC/VERIFICATION/Monitor/cpu_monitor.sv(230) @ 535000: uvm_test_top.env.agent.monitor [IF] PC=00000024  INSTR=0080006f  [JAL  x0, ...]            
# UVM_INFO C:/Documents/DoAnThietKeViMach/Project/SoC/VERIFICATION/Monitor/cpu_monitor.sv(276) @ 535000: uvm_test_top.env.agent.monitor [WB] x06 <= 0000005a  (PC~00000024)
# UVM_INFO C:/Documents/DoAnThietKeViMach/Project/SoC/VERIFICATION/Monitor/cpu_monitor.sv(336) @ 575000: uvm_test_top.env.agent.monitor [AXI_RD] CPU <- IRAM  Addr=00000028 Data=0a500393 RRESP=00
# UVM_INFO C:/Documents/DoAnThietKeViMach/Project/SoC/VERIFICATION/Monitor/cpu_monitor.sv(230) @ 575000: uvm_test_top.env.agent.monitor [IF] PC=00000028  INSTR=0a500393  [ADDI x7, x0, 165]            
# UVM_INFO C:/Documents/DoAnThietKeViMach/Project/SoC/VERIFICATION/Monitor/cpu_monitor.sv(336) @ 615000: uvm_test_top.env.agent.monitor [AXI_RD] CPU <- IRAM  Addr=0000002c Data=3e70a823 RRESP=00
# UVM_INFO C:/Documents/DoAnThietKeViMach/Project/SoC/VERIFICATION/Monitor/cpu_monitor.sv(230) @ 615000: uvm_test_top.env.agent.monitor [IF] PC=0000002c  INSTR=3e70a823  [SW   x7, 999(x1)]            
# UVM_INFO C:/Documents/DoAnThietKeViMach/Project/SoC/VERIFICATION/Monitor/cpu_monitor.sv(276) @ 625000: uvm_test_top.env.agent.monitor [WB] x07 <= 0000005a  (PC~0000002c)
# UVM_INFO C:/Documents/DoAnThietKeViMach/Project/SoC/VERIFICATION/Monitor/cpu_monitor.sv(276) @ 635000: uvm_test_top.env.agent.monitor [WB] x07 <= 0000005a  (PC~0000002c)
# UVM_INFO C:/Documents/DoAnThietKeViMach/Project/SoC/VERIFICATION/Monitor/cpu_monitor.sv(276) @ 645000: uvm_test_top.env.agent.monitor [WB] x07 <= 0000005a  (PC~0000002c)
# UVM_INFO C:/Documents/DoAnThietKeViMach/Project/SoC/VERIFICATION/Monitor/cpu_monitor.sv(336) @ 655000: uvm_test_top.env.agent.monitor [AXI_RD] CPU <- IRAM  Addr=0000002c Data=3e70a823 RRESP=00
# UVM_INFO C:/Documents/DoAnThietKeViMach/Project/SoC/VERIFICATION/Monitor/cpu_monitor.sv(276) @ 655000: uvm_test_top.env.agent.monitor [WB] x07 <= 0000005a  (PC~0000002c)
# UVM_INFO C:/Documents/DoAnThietKeViMach/Project/SoC/VERIFICATION/Monitor/cpu_monitor.sv(336) @ 695000: uvm_test_top.env.agent.monitor [AXI_RD] CPU <- IRAM  Addr=00000030 Data=00005263 RRESP=00
# UVM_INFO C:/Documents/DoAnThietKeViMach/Project/SoC/VERIFICATION/Monitor/cpu_monitor.sv(230) @ 695000: uvm_test_top.env.agent.monitor [IF] PC=00000030  INSTR=00005263  [BGE  x0, x0, ...]            
# UVM_INFO C:/Documents/DoAnThietKeViMach/Project/SoC/VERIFICATION/Monitor/cpu_monitor.sv(336) @ 735000: uvm_test_top.env.agent.monitor [AXI_RD] CPU <- IRAM  Addr=00000034 Data=2d99c293 RRESP=00
# UVM_INFO C:/Documents/DoAnThietKeViMach/Project/SoC/VERIFICATION/Monitor/cpu_monitor.sv(230) @ 735000: uvm_test_top.env.agent.monitor [IF] PC=00000034  INSTR=2d99c293  [XORI x5, x19, 729]            
# UVM_INFO C:/Documents/DoAnThietKeViMach/Project/SoC/VERIFICATION/Monitor/cpu_monitor.sv(251) @ 745000: uvm_test_top.env.agent.monitor [MEM] STORE Addr=100003f0 Data=0000005a
# UVM_INFO C:/Documents/DoAnThietKeViMach/Project/SoC/VERIFICATION/Monitor/cpu_monitor.sv(251) @ 755000: uvm_test_top.env.agent.monitor [MEM] STORE Addr=100003f0 Data=0000005a
# [DRAM WRITE] addr=100003f0 data=0000005a
# UVM_INFO C:/Documents/DoAnThietKeViMach/Project/SoC/VERIFICATION/Monitor/cpu_monitor.sv(251) @ 765000: uvm_test_top.env.agent.monitor [MEM] STORE Addr=100003f0 Data=0000005a
# UVM_INFO C:/Documents/DoAnThietKeViMach/Project/SoC/VERIFICATION/Monitor/cpu_monitor.sv(310) @ 775000: uvm_test_top.env.agent.monitor [AXI_WR] CPU -> DRAM  Addr=100003f0 Data=0000005a Strb=1111 BRESP=00
# UVM_INFO C:/Documents/DoAnThietKeViMach/Project/SoC/VERIFICATION/Scoreboard/cpu_scoreboard.sv(272) @ 775000: uvm_test_top.env.scoreboard [SOC_SW] SOC_SOFTWARE PASS signature detected: Addr = 100003f0 Data = 0000005a
# UVM_INFO C:/Documents/DoAnThietKeViMach/Project/SoC/VERIFICATION/Monitor/cpu_monitor.sv(251) @ 775000: uvm_test_top.env.agent.monitor [MEM] STORE Addr=100003f0 Data=0000005a
# UVM_INFO C:/Documents/DoAnThietKeViMach/Project/SoC/VERIFICATION/Monitor/cpu_monitor.sv(251) @ 785000: uvm_test_top.env.agent.monitor [MEM] STORE Addr=100003f0 Data=0000005a
# UVM_INFO C:/Documents/DoAnThietKeViMach/Project/SoC/VERIFICATION/Monitor/cpu_monitor.sv(251) @ 795000: uvm_test_top.env.agent.monitor [MEM] STORE Addr=100003f0 Data=0000005a
# UVM_INFO C:/Documents/DoAnThietKeViMach/Project/SoC/VERIFICATION/Monitor/cpu_monitor.sv(251) @ 805000: uvm_test_top.env.agent.monitor [MEM] STORE Addr=100003f0 Data=0000005a
# UVM_INFO C:/Documents/DoAnThietKeViMach/Project/SoC/VERIFICATION/Monitor/cpu_monitor.sv(336) @ 815000: uvm_test_top.env.agent.monitor [AXI_RD] CPU <- IRAM  Addr=00000038 Data=0081a003 RRESP=00
# UVM_INFO C:/Documents/DoAnThietKeViMach/Project/SoC/VERIFICATION/Monitor/cpu_monitor.sv(230) @ 815000: uvm_test_top.env.agent.monitor [IF] PC=00000038  INSTR=0081a003  [LW   x0, 8(x3)]            
# UVM_INFO C:/Documents/DoAnThietKeViMach/Project/SoC/VERIFICATION/Monitor/cpu_monitor.sv(251) @ 815000: uvm_test_top.env.agent.monitor [MEM] STORE Addr=100003f0 Data=0000005a
# UVM_INFO C:/Documents/DoAnThietKeViMach/Project/SoC/VERIFICATION/Monitor/cpu_monitor.sv(336) @ 855000: uvm_test_top.env.agent.monitor [AXI_RD] CPU <- IRAM  Addr=00000034 Data=2d99c293 RRESP=00
# UVM_INFO C:/Documents/DoAnThietKeViMach/Project/SoC/VERIFICATION/Monitor/cpu_monitor.sv(230) @ 855000: uvm_test_top.env.agent.monitor [IF] PC=00000034  INSTR=2d99c293  [XORI x5, x19, 729]            
# UVM_INFO C:/Documents/DoAnThietKeViMach/Project/SoC/VERIFICATION/Monitor/cpu_monitor.sv(336) @ 895000: uvm_test_top.env.agent.monitor [AXI_RD] CPU <- IRAM  Addr=00000038 Data=0081a003 RRESP=00
# UVM_INFO C:/Documents/DoAnThietKeViMach/Project/SoC/VERIFICATION/Monitor/cpu_monitor.sv(230) @ 895000: uvm_test_top.env.agent.monitor [IF] PC=00000038  INSTR=0081a003  [LW   x0, 8(x3)]            
# UVM_INFO C:/Documents/DoAnThietKeViMach/Project/SoC/VERIFICATION/Monitor/cpu_monitor.sv(336) @ 935000: uvm_test_top.env.agent.monitor [AXI_RD] CPU <- IRAM  Addr=0000003c Data=00022003 RRESP=00
# UVM_INFO C:/Documents/DoAnThietKeViMach/Project/SoC/VERIFICATION/Monitor/cpu_monitor.sv(230) @ 935000: uvm_test_top.env.agent.monitor [IF] PC=0000003c  INSTR=00022003  [LW   x0, 0(x4)]            
# UVM_INFO C:/Documents/DoAnThietKeViMach/Project/SoC/VERIFICATION/Monitor/cpu_monitor.sv(336) @ 975000: uvm_test_top.env.agent.monitor [AXI_RD] CPU <- IRAM  Addr=00000040 Data=0040066f RRESP=00
# UVM_INFO C:/Documents/DoAnThietKeViMach/Project/SoC/VERIFICATION/Monitor/cpu_monitor.sv(336) @ 1015000: uvm_test_top.env.agent.monitor [AXI_RD] CPU <- UART  Addr=30000008 Data=00000000 RRESP=00
# UVM_INFO C:/Documents/DoAnThietKeViMach/Project/SoC/VERIFICATION/Scoreboard/cpu_scoreboard.sv(254) @ 1015000: uvm_test_top.env.scoreboard [SCB_PERIPH] [UART] READ Addr=30000008 Data=00000000 (volatile, compare skipped)
# UVM_INFO C:/Documents/DoAnThietKeViMach/Project/SoC/VERIFICATION/Monitor/cpu_monitor.sv(276) @ 1015000: uvm_test_top.env.agent.monitor [WB] x05 <= 000002d9  (PC~0000003c)
# UVM_INFO C:/Documents/DoAnThietKeViMach/Project/SoC/VERIFICATION/Monitor/cpu_monitor.sv(276) @ 1025000: uvm_test_top.env.agent.monitor [WB] x05 <= 000002d9  (PC~0000003c)
# UVM_INFO C:/Documents/DoAnThietKeViMach/Project/SoC/VERIFICATION/Monitor/cpu_monitor.sv(276) @ 1035000: uvm_test_top.env.agent.monitor [WB] x05 <= 000002d9  (PC~0000003c)
# UVM_INFO C:/Documents/DoAnThietKeViMach/Project/SoC/VERIFICATION/Monitor/cpu_monitor.sv(276) @ 1045000: uvm_test_top.env.agent.monitor [WB] x05 <= 000002d9  (PC~0000003c)
# UVM_INFO C:/Documents/DoAnThietKeViMach/Project/SoC/VERIFICATION/Monitor/cpu_monitor.sv(336) @ 1055000: uvm_test_top.env.agent.monitor [AXI_RD] CPU <- IRAM  Addr=00000040 Data=0040066f RRESP=00
# UVM_INFO C:/Documents/DoAnThietKeViMach/Project/SoC/VERIFICATION/Monitor/cpu_monitor.sv(230) @ 1055000: uvm_test_top.env.agent.monitor [IF] PC=00000040  INSTR=0040066f  [JAL  x12, ...]            
# UVM_INFO C:/Documents/DoAnThietKeViMach/Project/SoC/VERIFICATION/Monitor/cpu_monitor.sv(276) @ 1055000: uvm_test_top.env.agent.monitor [WB] x05 <= 000002d9  (PC~00000040)
# UVM_INFO C:/Documents/DoAnThietKeViMach/Project/SoC/VERIFICATION/Monitor/cpu_monitor.sv(336) @ 1095000: uvm_test_top.env.agent.monitor [AXI_RD] CPU <- IRAM  Addr=00000044 Data=00012f03 RRESP=00
# UVM_INFO C:/Documents/DoAnThietKeViMach/Project/SoC/VERIFICATION/Monitor/cpu_monitor.sv(336) @ 1135000: uvm_test_top.env.agent.monitor [AXI_RD] CPU <- SPI  Addr=40000000 Data=00000000 RRESP=00
# UVM_INFO C:/Documents/DoAnThietKeViMach/Project/SoC/VERIFICATION/Scoreboard/cpu_scoreboard.sv(254) @ 1135000: uvm_test_top.env.scoreboard [SCB_PERIPH] [SPI] READ Addr=40000000 Data=00000000 (volatile, compare skipped)
# UVM_INFO C:/Documents/DoAnThietKeViMach/Project/SoC/VERIFICATION/Monitor/cpu_monitor.sv(336) @ 1175000: uvm_test_top.env.agent.monitor [AXI_RD] CPU <- IRAM  Addr=00000044 Data=00012f03 RRESP=00
# UVM_INFO C:/Documents/DoAnThietKeViMach/Project/SoC/VERIFICATION/Monitor/cpu_monitor.sv(230) @ 1175000: uvm_test_top.env.agent.monitor [IF] PC=00000044  INSTR=00012f03  [LW   x30, 0(x2)]            
# UVM_INFO C:/Documents/DoAnThietKeViMach/Project/SoC/VERIFICATION/Monitor/cpu_monitor.sv(336) @ 1215000: uvm_test_top.env.agent.monitor [AXI_RD] CPU <- IRAM  Addr=00000048 Data=00000263 RRESP=00
# UVM_INFO C:/Documents/DoAnThietKeViMach/Project/SoC/VERIFICATION/Monitor/cpu_monitor.sv(230) @ 1215000: uvm_test_top.env.agent.monitor [IF] PC=00000048  INSTR=00000263  [BEQ  x0, x0, ...]            
# UVM_INFO C:/Documents/DoAnThietKeViMach/Project/SoC/VERIFICATION/Monitor/cpu_monitor.sv(336) @ 1255000: uvm_test_top.env.agent.monitor [AXI_RD] CPU <- IRAM  Addr=00000044 Data=00012f03 RRESP=00
# UVM_INFO C:/Documents/DoAnThietKeViMach/Project/SoC/VERIFICATION/Monitor/cpu_monitor.sv(230) @ 1255000: uvm_test_top.env.agent.monitor [IF] PC=00000044  INSTR=00012f03  [LW   x30, 0(x2)]            
# UVM_INFO C:/Documents/DoAnThietKeViMach/Project/SoC/VERIFICATION/Monitor/cpu_monitor.sv(276) @ 1265000: uvm_test_top.env.agent.monitor [WB] x12 <= 00000044  (PC~00000044)
# UVM_INFO C:/Documents/DoAnThietKeViMach/Project/SoC/VERIFICATION/Monitor/cpu_monitor.sv(276) @ 1275000: uvm_test_top.env.agent.monitor [WB] x12 <= 00000044  (PC~00000044)
# UVM_INFO C:/Documents/DoAnThietKeViMach/Project/SoC/VERIFICATION/Monitor/cpu_monitor.sv(276) @ 1285000: uvm_test_top.env.agent.monitor [WB] x12 <= 00000044  (PC~00000044)
# UVM_INFO C:/Documents/DoAnThietKeViMach/Project/SoC/VERIFICATION/Monitor/cpu_monitor.sv(336) @ 1295000: uvm_test_top.env.agent.monitor [AXI_RD] CPU <- IRAM  Addr=00000048 Data=00000263 RRESP=00
# UVM_INFO C:/Documents/DoAnThietKeViMach/Project/SoC/VERIFICATION/Monitor/cpu_monitor.sv(230) @ 1295000: uvm_test_top.env.agent.monitor [IF] PC=00000048  INSTR=00000263  [BEQ  x0, x0, ...]            
# UVM_INFO C:/Documents/DoAnThietKeViMach/Project/SoC/VERIFICATION/Monitor/cpu_monitor.sv(276) @ 1295000: uvm_test_top.env.agent.monitor [WB] x12 <= 00000044  (PC~00000048)
# UVM_INFO C:/Documents/DoAnThietKeViMach/Project/SoC/VERIFICATION/Monitor/cpu_monitor.sv(336) @ 1335000: uvm_test_top.env.agent.monitor [AXI_RD] CPU <- IRAM  Addr=0000004c Data=004007ef RRESP=00
# UVM_INFO C:/Documents/DoAnThietKeViMach/Project/SoC/VERIFICATION/Monitor/cpu_monitor.sv(230) @ 1335000: uvm_test_top.env.agent.monitor [IF] PC=0000004c  INSTR=004007ef  [JAL  x15, ...]            
# UVM_INFO C:/Documents/DoAnThietKeViMach/Project/SoC/VERIFICATION/Monitor/cpu_monitor.sv(336) @ 1375000: uvm_test_top.env.agent.monitor [AXI_RD] CPU <- TIMER  Addr=20000000 Data=00000000 RRESP=00
# UVM_INFO C:/Documents/DoAnThietKeViMach/Project/SoC/VERIFICATION/Scoreboard/cpu_scoreboard.sv(141) @ 1375000: uvm_test_top.env.scoreboard [SCB_PASS] [TIMER] READ PASS Addr=20000000 Expected=00000000 Got=00000000
# UVM_INFO C:/Documents/DoAnThietKeViMach/Project/SoC/VERIFICATION/Monitor/cpu_monitor.sv(336) @ 1415000: uvm_test_top.env.agent.monitor [AXI_RD] CPU <- IRAM  Addr=00000050 Data=00000263 RRESP=00
# UVM_INFO C:/Documents/DoAnThietKeViMach/Project/SoC/VERIFICATION/Monitor/cpu_monitor.sv(230) @ 1415000: uvm_test_top.env.agent.monitor [IF] PC=00000050  INSTR=00000263  [BEQ  x0, x0, ...]            
# UVM_INFO C:/Documents/DoAnThietKeViMach/Project/SoC/VERIFICATION/Monitor/cpu_monitor.sv(276) @ 1425000: uvm_test_top.env.agent.monitor [WB] x30 <= 00000000  (PC~00000050)
# UVM_INFO C:/Documents/DoAnThietKeViMach/Project/SoC/VERIFICATION/Monitor/cpu_monitor.sv(276) @ 1435000: uvm_test_top.env.agent.monitor [WB] x30 <= 00000000  (PC~00000050)
# UVM_INFO C:/Documents/DoAnThietKeViMach/Project/SoC/VERIFICATION/Monitor/cpu_monitor.sv(276) @ 1445000: uvm_test_top.env.agent.monitor [WB] x30 <= 00000000  (PC~00000050)
# UVM_INFO C:/Documents/DoAnThietKeViMach/Project/SoC/VERIFICATION/Monitor/cpu_monitor.sv(336) @ 1455000: uvm_test_top.env.agent.monitor [AXI_RD] CPU <- IRAM  Addr=0000004c Data=004007ef RRESP=00
# UVM_INFO C:/Documents/DoAnThietKeViMach/Project/SoC/VERIFICATION/Monitor/cpu_monitor.sv(230) @ 1455000: uvm_test_top.env.agent.monitor [IF] PC=0000004c  INSTR=004007ef  [JAL  x15, ...]            
# UVM_INFO C:/Documents/DoAnThietKeViMach/Project/SoC/VERIFICATION/Monitor/cpu_monitor.sv(276) @ 1455000: uvm_test_top.env.agent.monitor [WB] x30 <= 00000000  (PC~0000004c)
# UVM_INFO C:/Documents/DoAnThietKeViMach/Project/SoC/VERIFICATION/Monitor/cpu_monitor.sv(336) @ 1495000: uvm_test_top.env.agent.monitor [AXI_RD] CPU <- IRAM  Addr=00000050 Data=00000263 RRESP=00
# UVM_INFO C:/Documents/DoAnThietKeViMach/Project/SoC/VERIFICATION/Monitor/cpu_monitor.sv(230) @ 1495000: uvm_test_top.env.agent.monitor [IF] PC=00000050  INSTR=00000263  [BEQ  x0, x0, ...]            
# UVM_INFO C:/Documents/DoAnThietKeViMach/Project/SoC/VERIFICATION/Monitor/cpu_monitor.sv(336) @ 1535000: uvm_test_top.env.agent.monitor [AXI_RD] CPU <- IRAM  Addr=00000054 Data=00005263 RRESP=00
# UVM_INFO C:/Documents/DoAnThietKeViMach/Project/SoC/VERIFICATION/Monitor/cpu_monitor.sv(230) @ 1535000: uvm_test_top.env.agent.monitor [IF] PC=00000054  INSTR=00005263  [BGE  x0, x0, ...]            
# UVM_INFO C:/Documents/DoAnThietKeViMach/Project/SoC/VERIFICATION/Monitor/cpu_monitor.sv(336) @ 1575000: uvm_test_top.env.agent.monitor [AXI_RD] CPU <- IRAM  Addr=00000050 Data=00000263 RRESP=00
# UVM_INFO C:/Documents/DoAnThietKeViMach/Project/SoC/VERIFICATION/Monitor/cpu_monitor.sv(230) @ 1575000: uvm_test_top.env.agent.monitor [IF] PC=00000050  INSTR=00000263  [BEQ  x0, x0, ...]            
# UVM_INFO C:/Documents/DoAnThietKeViMach/Project/SoC/VERIFICATION/Monitor/cpu_monitor.sv(276) @ 1585000: uvm_test_top.env.agent.monitor [WB] x15 <= 00000050  (PC~00000050)
# UVM_INFO C:/Documents/DoAnThietKeViMach/Project/SoC/VERIFICATION/Monitor/cpu_monitor.sv(276) @ 1595000: uvm_test_top.env.agent.monitor [WB] x15 <= 00000050  (PC~00000050)
# UVM_INFO C:/Documents/DoAnThietKeViMach/Project/SoC/VERIFICATION/Monitor/cpu_monitor.sv(276) @ 1605000: uvm_test_top.env.agent.monitor [WB] x15 <= 00000050  (PC~00000050)
# UVM_INFO C:/Documents/DoAnThietKeViMach/Project/SoC/VERIFICATION/Monitor/cpu_monitor.sv(336) @ 1615000: uvm_test_top.env.agent.monitor [AXI_RD] CPU <- IRAM  Addr=00000054 Data=00005263 RRESP=00
# UVM_INFO C:/Documents/DoAnThietKeViMach/Project/SoC/VERIFICATION/Monitor/cpu_monitor.sv(230) @ 1615000: uvm_test_top.env.agent.monitor [IF] PC=00000054  INSTR=00005263  [BGE  x0, x0, ...]            
# UVM_INFO C:/Documents/DoAnThietKeViMach/Project/SoC/VERIFICATION/Monitor/cpu_monitor.sv(276) @ 1615000: uvm_test_top.env.agent.monitor [WB] x15 <= 00000050  (PC~00000054)
# UVM_INFO C:/Documents/DoAnThietKeViMach/Project/SoC/VERIFICATION/Monitor/cpu_monitor.sv(336) @ 1655000: uvm_test_top.env.agent.monitor [AXI_RD] CPU <- IRAM  Addr=00000058 Data=00000263 RRESP=00
# UVM_INFO C:/Documents/DoAnThietKeViMach/Project/SoC/VERIFICATION/Monitor/cpu_monitor.sv(230) @ 1655000: uvm_test_top.env.agent.monitor [IF] PC=00000058  INSTR=00000263  [BEQ  x0, x0, ...]            
# UVM_INFO C:/Documents/DoAnThietKeViMach/Project/SoC/VERIFICATION/Monitor/cpu_monitor.sv(336) @ 1695000: uvm_test_top.env.agent.monitor [AXI_RD] CPU <- IRAM  Addr=00000054 Data=00005263 RRESP=00
# UVM_INFO C:/Documents/DoAnThietKeViMach/Project/SoC/VERIFICATION/Monitor/cpu_monitor.sv(230) @ 1695000: uvm_test_top.env.agent.monitor [IF] PC=00000054  INSTR=00005263  [BGE  x0, x0, ...]            
# UVM_INFO C:/Documents/DoAnThietKeViMach/Project/SoC/VERIFICATION/Monitor/cpu_monitor.sv(336) @ 1735000: uvm_test_top.env.agent.monitor [AXI_RD] CPU <- IRAM  Addr=00000058 Data=00000263 RRESP=00
# UVM_INFO C:/Documents/DoAnThietKeViMach/Project/SoC/VERIFICATION/Monitor/cpu_monitor.sv(230) @ 1735000: uvm_test_top.env.agent.monitor [IF] PC=00000058  INSTR=00000263  [BEQ  x0, x0, ...]            
# UVM_INFO C:/Documents/DoAnThietKeViMach/Project/SoC/VERIFICATION/Monitor/cpu_monitor.sv(336) @ 1775000: uvm_test_top.env.agent.monitor [AXI_RD] CPU <- IRAM  Addr=0000005c Data=00801263 RRESP=00
# UVM_INFO C:/Documents/DoAnThietKeViMach/Project/SoC/VERIFICATION/Monitor/cpu_monitor.sv(230) @ 1775000: uvm_test_top.env.agent.monitor [IF] PC=0000005c  INSTR=00801263  [BNE  x0, x8, ...]            
# UVM_INFO C:/Documents/DoAnThietKeViMach/Project/SoC/VERIFICATION/Monitor/cpu_monitor.sv(336) @ 1815000: uvm_test_top.env.agent.monitor [AXI_RD] CPU <- IRAM  Addr=00000058 Data=00000263 RRESP=00
# UVM_INFO C:/Documents/DoAnThietKeViMach/Project/SoC/VERIFICATION/Monitor/cpu_monitor.sv(230) @ 1815000: uvm_test_top.env.agent.monitor [IF] PC=00000058  INSTR=00000263  [BEQ  x0, x0, ...]            
# UVM_INFO C:/Documents/DoAnThietKeViMach/Project/SoC/VERIFICATION/Monitor/cpu_monitor.sv(336) @ 1855000: uvm_test_top.env.agent.monitor [AXI_RD] CPU <- IRAM  Addr=0000005c Data=00801263 RRESP=00
# UVM_INFO C:/Documents/DoAnThietKeViMach/Project/SoC/VERIFICATION/Monitor/cpu_monitor.sv(230) @ 1855000: uvm_test_top.env.agent.monitor [IF] PC=0000005c  INSTR=00801263  [BNE  x0, x8, ...]            
# UVM_INFO C:/Documents/DoAnThietKeViMach/Project/SoC/VERIFICATION/Monitor/cpu_monitor.sv(336) @ 1895000: uvm_test_top.env.agent.monitor [AXI_RD] CPU <- IRAM  Addr=00000060 Data=00007263 RRESP=00
# UVM_INFO C:/Documents/DoAnThietKeViMach/Project/SoC/VERIFICATION/Monitor/cpu_monitor.sv(230) @ 1895000: uvm_test_top.env.agent.monitor [IF] PC=00000060  INSTR=00007263  [BR?? x0, x0, ...]            
# UVM_INFO C:/Documents/DoAnThietKeViMach/Project/SoC/VERIFICATION/Monitor/cpu_monitor.sv(336) @ 1935000: uvm_test_top.env.agent.monitor [AXI_RD] CPU <- IRAM  Addr=0000005c Data=00801263 RRESP=00
# UVM_INFO C:/Documents/DoAnThietKeViMach/Project/SoC/VERIFICATION/Monitor/cpu_monitor.sv(230) @ 1935000: uvm_test_top.env.agent.monitor [IF] PC=0000005c  INSTR=00801263  [BNE  x0, x8, ...]            
# UVM_INFO C:/Documents/DoAnThietKeViMach/Project/SoC/VERIFICATION/Monitor/cpu_monitor.sv(336) @ 1975000: uvm_test_top.env.agent.monitor [AXI_RD] CPU <- IRAM  Addr=00000060 Data=00007263 RRESP=00
# UVM_INFO C:/Documents/DoAnThietKeViMach/Project/SoC/VERIFICATION/Monitor/cpu_monitor.sv(230) @ 1975000: uvm_test_top.env.agent.monitor [IF] PC=00000060  INSTR=00007263  [BR?? x0, x0, ...]            
# UVM_INFO C:/Documents/DoAnThietKeViMach/Project/SoC/VERIFICATION/Monitor/cpu_monitor.sv(336) @ 2015000: uvm_test_top.env.agent.monitor [AXI_RD] CPU <- IRAM  Addr=00000064 Data=01c06263 RRESP=00
# UVM_INFO C:/Documents/DoAnThietKeViMach/Project/SoC/VERIFICATION/Monitor/cpu_monitor.sv(230) @ 2015000: uvm_test_top.env.agent.monitor [IF] PC=00000064  INSTR=01c06263  [BR?? x0, x28, ...]            
# UVM_INFO C:/Documents/DoAnThietKeViMach/Project/SoC/VERIFICATION/Monitor/cpu_monitor.sv(336) @ 2055000: uvm_test_top.env.agent.monitor [AXI_RD] CPU <- IRAM  Addr=00000068 Data=01112223 RRESP=00
# UVM_INFO C:/Documents/DoAnThietKeViMach/Project/SoC/VERIFICATION/Monitor/cpu_monitor.sv(230) @ 2055000: uvm_test_top.env.agent.monitor [IF] PC=00000068  INSTR=01112223  [SW   x17, 17(x2)]            
# UVM_INFO C:/Documents/DoAnThietKeViMach/Project/SoC/VERIFICATION/Monitor/cpu_monitor.sv(336) @ 2095000: uvm_test_top.env.agent.monitor [AXI_RD] CPU <- IRAM  Addr=00000064 Data=01c06263 RRESP=00
# UVM_INFO C:/Documents/DoAnThietKeViMach/Project/SoC/VERIFICATION/Monitor/cpu_monitor.sv(230) @ 2095000: uvm_test_top.env.agent.monitor [IF] PC=00000064  INSTR=01c06263  [BR?? x0, x28, ...]            
# UVM_INFO C:/Documents/DoAnThietKeViMach/Project/SoC/VERIFICATION/Monitor/cpu_monitor.sv(336) @ 2135000: uvm_test_top.env.agent.monitor [AXI_RD] CPU <- IRAM  Addr=00000068 Data=01112223 RRESP=00
# UVM_INFO C:/Documents/DoAnThietKeViMach/Project/SoC/VERIFICATION/Monitor/cpu_monitor.sv(230) @ 2135000: uvm_test_top.env.agent.monitor [IF] PC=00000068  INSTR=01112223  [SW   x17, 17(x2)]            
# UVM_INFO C:/Documents/DoAnThietKeViMach/Project/SoC/VERIFICATION/Monitor/cpu_monitor.sv(336) @ 2175000: uvm_test_top.env.agent.monitor [AXI_RD] CPU <- IRAM  Addr=0000006c Data=69aa6813 RRESP=00
# UVM_INFO C:/Documents/DoAnThietKeViMach/Project/SoC/VERIFICATION/Monitor/cpu_monitor.sv(230) @ 2175000: uvm_test_top.env.agent.monitor [IF] PC=0000006c  INSTR=69aa6813  [ORI  x16, x20, 1690]            
# UVM_INFO C:/Documents/DoAnThietKeViMach/Project/SoC/VERIFICATION/Monitor/cpu_monitor.sv(336) @ 2215000: uvm_test_top.env.agent.monitor [AXI_RD] CPU <- IRAM  Addr=00000070 Data=00af4b33 RRESP=00
# UVM_INFO C:/Documents/DoAnThietKeViMach/Project/SoC/VERIFICATION/Monitor/cpu_monitor.sv(230) @ 2215000: uvm_test_top.env.agent.monitor [IF] PC=00000070  INSTR=00af4b33  [XOR  x22, x30, x10]            
# UVM_INFO C:/Documents/DoAnThietKeViMach/Project/SoC/VERIFICATION/Monitor/cpu_monitor.sv(251) @ 2225000: uvm_test_top.env.agent.monitor [MEM] STORE Addr=20000004 Data=00000000
# UVM_INFO C:/Documents/DoAnThietKeViMach/Project/SoC/VERIFICATION/Monitor/cpu_monitor.sv(251) @ 2235000: uvm_test_top.env.agent.monitor [MEM] STORE Addr=20000004 Data=00000000
# UVM_INFO C:/Documents/DoAnThietKeViMach/Project/SoC/VERIFICATION/Monitor/cpu_monitor.sv(251) @ 2245000: uvm_test_top.env.agent.monitor [MEM] STORE Addr=20000004 Data=00000000
# UVM_INFO C:/Documents/DoAnThietKeViMach/Project/SoC/VERIFICATION/Monitor/cpu_monitor.sv(251) @ 2255000: uvm_test_top.env.agent.monitor [MEM] STORE Addr=20000004 Data=00000000
# UVM_INFO C:/Documents/DoAnThietKeViMach/Project/SoC/VERIFICATION/Monitor/cpu_monitor.sv(310) @ 2265000: uvm_test_top.env.agent.monitor [AXI_WR] CPU -> TIMER  Addr=20000004 Data=00000000 Strb=1111 BRESP=00
# UVM_INFO C:/Documents/DoAnThietKeViMach/Project/SoC/VERIFICATION/Scoreboard/cpu_scoreboard.sv(250) @ 2265000: uvm_test_top.env.scoreboard [SCB_PERIPH] [TIMER] WRITE Addr=20000004 Data=00000000
# UVM_INFO C:/Documents/DoAnThietKeViMach/Project/SoC/VERIFICATION/Monitor/cpu_monitor.sv(251) @ 2265000: uvm_test_top.env.agent.monitor [MEM] STORE Addr=20000004 Data=00000000
# UVM_INFO C:/Documents/DoAnThietKeViMach/Project/SoC/VERIFICATION/Monitor/cpu_monitor.sv(251) @ 2275000: uvm_test_top.env.agent.monitor [MEM] STORE Addr=20000004 Data=00000000
# UVM_INFO C:/Documents/DoAnThietKeViMach/Project/SoC/VERIFICATION/Monitor/cpu_monitor.sv(251) @ 2285000: uvm_test_top.env.agent.monitor [MEM] STORE Addr=20000004 Data=00000000
# UVM_INFO C:/Documents/DoAnThietKeViMach/Project/SoC/VERIFICATION/Monitor/cpu_monitor.sv(251) @ 2295000: uvm_test_top.env.agent.monitor [MEM] STORE Addr=20000004 Data=00000000
# UVM_INFO C:/Documents/DoAnThietKeViMach/Project/SoC/VERIFICATION/Monitor/cpu_monitor.sv(336) @ 2305000: uvm_test_top.env.agent.monitor [AXI_RD] CPU <- IRAM  Addr=00000074 Data=5ac0a403 RRESP=00
# UVM_INFO C:/Documents/DoAnThietKeViMach/Project/SoC/VERIFICATION/Monitor/cpu_monitor.sv(230) @ 2305000: uvm_test_top.env.agent.monitor [IF] PC=00000074  INSTR=5ac0a403  [LW   x8, 1452(x1)]            
# UVM_INFO C:/Documents/DoAnThietKeViMach/Project/SoC/VERIFICATION/Monitor/cpu_monitor.sv(251) @ 2305000: uvm_test_top.env.agent.monitor [MEM] STORE Addr=20000004 Data=00000000
# UVM_INFO C:/Documents/DoAnThietKeViMach/Project/SoC/VERIFICATION/Monitor/cpu_monitor.sv(336) @ 2345000: uvm_test_top.env.agent.monitor [AXI_RD] CPU <- IRAM  Addr=00000078 Data=00c2a433 RRESP=00
# UVM_INFO C:/Documents/DoAnThietKeViMach/Project/SoC/VERIFICATION/Monitor/cpu_monitor.sv(230) @ 2345000: uvm_test_top.env.agent.monitor [IF] PC=00000078  INSTR=00c2a433  [SLT  x8, x5, x12]            
# UVM_INFO C:/Documents/DoAnThietKeViMach/Project/SoC/VERIFICATION/Monitor/cpu_monitor.sv(276) @ 2355000: uvm_test_top.env.agent.monitor [WB] x16 <= 0000069a  (PC~00000078)
# UVM_INFO C:/Documents/DoAnThietKeViMach/Project/SoC/VERIFICATION/Monitor/cpu_monitor.sv(276) @ 2365000: uvm_test_top.env.agent.monitor [WB] x16 <= 0000069a  (PC~00000078)
# UVM_INFO C:/Documents/DoAnThietKeViMach/Project/SoC/VERIFICATION/Monitor/cpu_monitor.sv(276) @ 2375000: uvm_test_top.env.agent.monitor [WB] x16 <= 0000069a  (PC~00000078)
# UVM_INFO C:/Documents/DoAnThietKeViMach/Project/SoC/VERIFICATION/Monitor/cpu_monitor.sv(336) @ 2385000: uvm_test_top.env.agent.monitor [AXI_RD] CPU <- IRAM  Addr=0000007c Data=00d04263 RRESP=00
# UVM_INFO C:/Documents/DoAnThietKeViMach/Project/SoC/VERIFICATION/Monitor/cpu_monitor.sv(230) @ 2385000: uvm_test_top.env.agent.monitor [IF] PC=0000007c  INSTR=00d04263  [BLT  x0, x13, ...]            
# UVM_INFO C:/Documents/DoAnThietKeViMach/Project/SoC/VERIFICATION/Monitor/cpu_monitor.sv(276) @ 2385000: uvm_test_top.env.agent.monitor [WB] x16 <= 0000069a  (PC~0000007c)
# [DRAM READ] addr=100005ac data=00000000
# UVM_INFO C:/Documents/DoAnThietKeViMach/Project/SoC/VERIFICATION/Monitor/cpu_monitor.sv(336) @ 2425000: uvm_test_top.env.agent.monitor [AXI_RD] CPU <- DRAM  Addr=100005ac Data=00000000 RRESP=00
# UVM_INFO C:/Documents/DoAnThietKeViMach/Project/SoC/VERIFICATION/Scoreboard/cpu_scoreboard.sv(141) @ 2425000: uvm_test_top.env.scoreboard [SCB_PASS] [DRAM] READ PASS Addr=100005ac Expected=00000000 Got=00000000
# UVM_INFO C:/Documents/DoAnThietKeViMach/Project/SoC/VERIFICATION/Monitor/cpu_monitor.sv(276) @ 2425000: uvm_test_top.env.agent.monitor [WB] x22 <= 00000000  (PC~0000007c)
# UVM_INFO C:/Documents/DoAnThietKeViMach/Project/SoC/VERIFICATION/Monitor/cpu_monitor.sv(276) @ 2435000: uvm_test_top.env.agent.monitor [WB] x22 <= 00000000  (PC~0000007c)
# UVM_INFO C:/Documents/DoAnThietKeViMach/Project/SoC/VERIFICATION/Monitor/cpu_monitor.sv(276) @ 2445000: uvm_test_top.env.agent.monitor [WB] x22 <= 00000000  (PC~0000007c)
# UVM_INFO C:/Documents/DoAnThietKeViMach/Project/SoC/VERIFICATION/Monitor/cpu_monitor.sv(276) @ 2455000: uvm_test_top.env.agent.monitor [WB] x22 <= 00000000  (PC~0000007c)
# UVM_INFO C:/Documents/DoAnThietKeViMach/Project/SoC/VERIFICATION/Monitor/cpu_monitor.sv(336) @ 2465000: uvm_test_top.env.agent.monitor [AXI_RD] CPU <- IRAM  Addr=00000080 Data=4667e813 RRESP=00
# UVM_INFO C:/Documents/DoAnThietKeViMach/Project/SoC/VERIFICATION/Monitor/cpu_monitor.sv(230) @ 2465000: uvm_test_top.env.agent.monitor [IF] PC=00000080  INSTR=4667e813  [ORI  x16, x15, 1126]            
# UVM_INFO C:/Documents/DoAnThietKeViMach/Project/SoC/VERIFICATION/Monitor/cpu_monitor.sv(276) @ 2465000: uvm_test_top.env.agent.monitor [WB] x22 <= 00000000  (PC~00000080)
# UVM_INFO C:/Documents/DoAnThietKeViMach/Project/SoC/VERIFICATION/Monitor/cpu_monitor.sv(276) @ 2475000: uvm_test_top.env.agent.monitor [WB] x08 <= 00000000  (PC~00000080)
# UVM_INFO C:/Documents/DoAnThietKeViMach/Project/SoC/VERIFICATION/Monitor/cpu_monitor.sv(276) @ 2485000: uvm_test_top.env.agent.monitor [WB] x08 <= 00000000  (PC~00000080)
# UVM_INFO C:/Documents/DoAnThietKeViMach/Project/SoC/VERIFICATION/Monitor/cpu_monitor.sv(276) @ 2495000: uvm_test_top.env.agent.monitor [WB] x08 <= 00000000  (PC~00000080)
# UVM_INFO C:/Documents/DoAnThietKeViMach/Project/SoC/VERIFICATION/Monitor/cpu_monitor.sv(336) @ 2505000: uvm_test_top.env.agent.monitor [AXI_RD] CPU <- IRAM  Addr=00000084 Data=004002ef RRESP=00
# UVM_INFO C:/Documents/DoAnThietKeViMach/Project/SoC/VERIFICATION/Monitor/cpu_monitor.sv(230) @ 2505000: uvm_test_top.env.agent.monitor [IF] PC=00000084  INSTR=004002ef  [JAL  x5, ...]            
# UVM_INFO C:/Documents/DoAnThietKeViMach/Project/SoC/VERIFICATION/Monitor/cpu_monitor.sv(276) @ 2505000: uvm_test_top.env.agent.monitor [WB] x08 <= 00000000  (PC~00000084)
# UVM_INFO C:/Documents/DoAnThietKeViMach/Project/SoC/VERIFICATION/Monitor/cpu_monitor.sv(276) @ 2515000: uvm_test_top.env.agent.monitor [WB] x08 <= 00000000  (PC~00000084)
# UVM_INFO C:/Documents/DoAnThietKeViMach/Project/SoC/VERIFICATION/Monitor/cpu_monitor.sv(276) @ 2525000: uvm_test_top.env.agent.monitor [WB] x08 <= 00000000  (PC~00000084)
# UVM_INFO C:/Documents/DoAnThietKeViMach/Project/SoC/VERIFICATION/Monitor/cpu_monitor.sv(276) @ 2535000: uvm_test_top.env.agent.monitor [WB] x08 <= 00000000  (PC~00000084)
# UVM_INFO C:/Documents/DoAnThietKeViMach/Project/SoC/VERIFICATION/Monitor/cpu_monitor.sv(336) @ 2545000: uvm_test_top.env.agent.monitor [AXI_RD] CPU <- IRAM  Addr=00000088 Data=0081a003 RRESP=00
# UVM_INFO C:/Documents/DoAnThietKeViMach/Project/SoC/VERIFICATION/Monitor/cpu_monitor.sv(230) @ 2545000: uvm_test_top.env.agent.monitor [IF] PC=00000088  INSTR=0081a003  [LW   x0, 8(x3)]            
# UVM_INFO C:/Documents/DoAnThietKeViMach/Project/SoC/VERIFICATION/Monitor/cpu_monitor.sv(276) @ 2545000: uvm_test_top.env.agent.monitor [WB] x08 <= 00000000  (PC~00000088)
# UVM_INFO C:/Documents/DoAnThietKeViMach/Project/SoC/VERIFICATION/Monitor/cpu_monitor.sv(336) @ 2585000: uvm_test_top.env.agent.monitor [AXI_RD] CPU <- IRAM  Addr=0000008c Data=80d9ee13 RRESP=00
# UVM_INFO C:/Documents/DoAnThietKeViMach/Project/SoC/VERIFICATION/Monitor/cpu_monitor.sv(230) @ 2585000: uvm_test_top.env.agent.monitor [IF] PC=0000008c  INSTR=80d9ee13  [ORI  x28, x19, -2035]            
# UVM_INFO C:/Documents/DoAnThietKeViMach/Project/SoC/VERIFICATION/Monitor/cpu_monitor.sv(276) @ 2595000: uvm_test_top.env.agent.monitor [WB] x16 <= 00000476  (PC~0000008c)
# UVM_INFO C:/Documents/DoAnThietKeViMach/Project/SoC/VERIFICATION/Monitor/cpu_monitor.sv(276) @ 2605000: uvm_test_top.env.agent.monitor [WB] x16 <= 00000476  (PC~0000008c)
# UVM_INFO C:/Documents/DoAnThietKeViMach/Project/SoC/VERIFICATION/Monitor/cpu_monitor.sv(276) @ 2615000: uvm_test_top.env.agent.monitor [WB] x16 <= 00000476  (PC~0000008c)
# UVM_INFO C:/Documents/DoAnThietKeViMach/Project/SoC/VERIFICATION/Monitor/cpu_monitor.sv(336) @ 2625000: uvm_test_top.env.agent.monitor [AXI_RD] CPU <- IRAM  Addr=00000088 Data=0081a003 RRESP=00
# UVM_INFO C:/Documents/DoAnThietKeViMach/Project/SoC/VERIFICATION/Monitor/cpu_monitor.sv(230) @ 2625000: uvm_test_top.env.agent.monitor [IF] PC=00000088  INSTR=0081a003  [LW   x0, 8(x3)]            
# UVM_INFO C:/Documents/DoAnThietKeViMach/Project/SoC/VERIFICATION/Monitor/cpu_monitor.sv(276) @ 2625000: uvm_test_top.env.agent.monitor [WB] x16 <= 00000476  (PC~00000088)
# UVM_INFO C:/Documents/DoAnThietKeViMach/Project/SoC/VERIFICATION/Monitor/cpu_monitor.sv(276) @ 2635000: uvm_test_top.env.agent.monitor [WB] x05 <= 00000088  (PC~00000088)
# UVM_INFO C:/Documents/DoAnThietKeViMach/Project/SoC/VERIFICATION/Monitor/cpu_monitor.sv(276) @ 2645000: uvm_test_top.env.agent.monitor [WB] x05 <= 00000088  (PC~00000088)
# UVM_INFO C:/Documents/DoAnThietKeViMach/Project/SoC/VERIFICATION/Monitor/cpu_monitor.sv(276) @ 2655000: uvm_test_top.env.agent.monitor [WB] x05 <= 00000088  (PC~00000088)
# UVM_INFO C:/Documents/DoAnThietKeViMach/Project/SoC/VERIFICATION/Monitor/cpu_monitor.sv(336) @ 2665000: uvm_test_top.env.agent.monitor [AXI_RD] CPU <- IRAM  Addr=0000008c Data=80d9ee13 RRESP=00
# UVM_INFO C:/Documents/DoAnThietKeViMach/Project/SoC/VERIFICATION/Monitor/cpu_monitor.sv(230) @ 2665000: uvm_test_top.env.agent.monitor [IF] PC=0000008c  INSTR=80d9ee13  [ORI  x28, x19, -2035]            
# UVM_INFO C:/Documents/DoAnThietKeViMach/Project/SoC/VERIFICATION/Monitor/cpu_monitor.sv(276) @ 2665000: uvm_test_top.env.agent.monitor [WB] x05 <= 00000088  (PC~0000008c)
# UVM_INFO C:/Documents/DoAnThietKeViMach/Project/SoC/VERIFICATION/Monitor/cpu_monitor.sv(336) @ 2705000: uvm_test_top.env.agent.monitor [AXI_RD] CPU <- IRAM  Addr=00000090 Data=00012f83 RRESP=00
# UVM_INFO C:/Documents/DoAnThietKeViMach/Project/SoC/VERIFICATION/Monitor/cpu_monitor.sv(230) @ 2705000: uvm_test_top.env.agent.monitor [IF] PC=00000090  INSTR=00012f83  [LW   x31, 0(x2)]            
# UVM_INFO C:/Documents/DoAnThietKeViMach/Project/SoC/VERIFICATION/Monitor/cpu_monitor.sv(336) @ 2745000: uvm_test_top.env.agent.monitor [AXI_RD] CPU <- UART  Addr=30000008 Data=00000000 RRESP=00
# UVM_INFO C:/Documents/DoAnThietKeViMach/Project/SoC/VERIFICATION/Scoreboard/cpu_scoreboard.sv(254) @ 2745000: uvm_test_top.env.scoreboard [SCB_PERIPH] [UART] READ Addr=30000008 Data=00000000 (volatile, compare skipped)
# UVM_INFO C:/Documents/DoAnThietKeViMach/Project/SoC/VERIFICATION/Monitor/cpu_monitor.sv(336) @ 2785000: uvm_test_top.env.agent.monitor [AXI_RD] CPU <- IRAM  Addr=00000094 Data=00000263 RRESP=00
# UVM_INFO C:/Documents/DoAnThietKeViMach/Project/SoC/VERIFICATION/Monitor/cpu_monitor.sv(230) @ 2785000: uvm_test_top.env.agent.monitor [IF] PC=00000094  INSTR=00000263  [BEQ  x0, x0, ...]            
# UVM_INFO C:/Documents/DoAnThietKeViMach/Project/SoC/VERIFICATION/Monitor/cpu_monitor.sv(336) @ 2825000: uvm_test_top.env.agent.monitor [AXI_RD] CPU <- IRAM  Addr=00000098 Data=1950a023 RRESP=00
# UVM_INFO C:/Documents/DoAnThietKeViMach/Project/SoC/VERIFICATION/Monitor/cpu_monitor.sv(230) @ 2825000: uvm_test_top.env.agent.monitor [IF] PC=00000098  INSTR=1950a023  [SW   x21, 405(x1)]            
# UVM_INFO C:/Documents/DoAnThietKeViMach/Project/SoC/VERIFICATION/Monitor/cpu_monitor.sv(336) @ 2865000: uvm_test_top.env.agent.monitor [AXI_RD] CPU <- TIMER  Addr=20000000 Data=00000000 RRESP=00
# UVM_INFO C:/Documents/DoAnThietKeViMach/Project/SoC/VERIFICATION/Scoreboard/cpu_scoreboard.sv(141) @ 2865000: uvm_test_top.env.scoreboard [SCB_PASS] [TIMER] READ PASS Addr=20000000 Expected=00000000 Got=00000000
# UVM_INFO C:/Documents/DoAnThietKeViMach/Project/SoC/VERIFICATION/Monitor/cpu_monitor.sv(276) @ 2865000: uvm_test_top.env.agent.monitor [WB] x28 <= fffff80d  (PC~00000098)
# UVM_INFO C:/Documents/DoAnThietKeViMach/Project/SoC/VERIFICATION/Monitor/cpu_monitor.sv(276) @ 2875000: uvm_test_top.env.agent.monitor [WB] x28 <= fffff80d  (PC~00000098)
# UVM_INFO C:/Documents/DoAnThietKeViMach/Project/SoC/VERIFICATION/Monitor/cpu_monitor.sv(276) @ 2885000: uvm_test_top.env.agent.monitor [WB] x28 <= fffff80d  (PC~00000098)
# UVM_INFO C:/Documents/DoAnThietKeViMach/Project/SoC/VERIFICATION/Monitor/cpu_monitor.sv(276) @ 2895000: uvm_test_top.env.agent.monitor [WB] x28 <= fffff80d  (PC~00000098)
# UVM_INFO C:/Documents/DoAnThietKeViMach/Project/SoC/VERIFICATION/Monitor/cpu_monitor.sv(336) @ 2905000: uvm_test_top.env.agent.monitor [AXI_RD] CPU <- IRAM  Addr=0000009c Data=00922623 RRESP=00
# UVM_INFO C:/Documents/DoAnThietKeViMach/Project/SoC/VERIFICATION/Monitor/cpu_monitor.sv(230) @ 2905000: uvm_test_top.env.agent.monitor [IF] PC=0000009c  INSTR=00922623  [SW   x9, 9(x4)]            
# UVM_INFO C:/Documents/DoAnThietKeViMach/Project/SoC/VERIFICATION/Monitor/cpu_monitor.sv(276) @ 2905000: uvm_test_top.env.agent.monitor [WB] x28 <= fffff80d  (PC~0000009c)
# UVM_INFO C:/Documents/DoAnThietKeViMach/Project/SoC/VERIFICATION/Monitor/cpu_monitor.sv(276) @ 2915000: uvm_test_top.env.agent.monitor [WB] x31 <= 00000000  (PC~0000009c)
# UVM_INFO C:/Documents/DoAnThietKeViMach/Project/SoC/VERIFICATION/Monitor/cpu_monitor.sv(276) @ 2925000: uvm_test_top.env.agent.monitor [WB] x31 <= 00000000  (PC~0000009c)
# UVM_INFO C:/Documents/DoAnThietKeViMach/Project/SoC/VERIFICATION/Monitor/cpu_monitor.sv(276) @ 2935000: uvm_test_top.env.agent.monitor [WB] x31 <= 00000000  (PC~0000009c)
# UVM_INFO C:/Documents/DoAnThietKeViMach/Project/SoC/VERIFICATION/Monitor/cpu_monitor.sv(336) @ 2945000: uvm_test_top.env.agent.monitor [AXI_RD] CPU <- IRAM  Addr=00000098 Data=1950a023 RRESP=00
# UVM_INFO C:/Documents/DoAnThietKeViMach/Project/SoC/VERIFICATION/Monitor/cpu_monitor.sv(230) @ 2945000: uvm_test_top.env.agent.monitor [IF] PC=00000098  INSTR=1950a023  [SW   x21, 405(x1)]            
# UVM_INFO C:/Documents/DoAnThietKeViMach/Project/SoC/VERIFICATION/Monitor/cpu_monitor.sv(276) @ 2945000: uvm_test_top.env.agent.monitor [WB] x31 <= 00000000  (PC~00000098)
# UVM_INFO C:/Documents/DoAnThietKeViMach/Project/SoC/VERIFICATION/Monitor/cpu_monitor.sv(336) @ 2985000: uvm_test_top.env.agent.monitor [AXI_RD] CPU <- IRAM  Addr=0000009c Data=00922623 RRESP=00
# UVM_INFO C:/Documents/DoAnThietKeViMach/Project/SoC/VERIFICATION/Monitor/cpu_monitor.sv(230) @ 2985000: uvm_test_top.env.agent.monitor [IF] PC=0000009c  INSTR=00922623  [SW   x9, 9(x4)]            
# UVM_INFO C:/Documents/DoAnThietKeViMach/Project/SoC/VERIFICATION/Monitor/cpu_monitor.sv(336) @ 3025000: uvm_test_top.env.agent.monitor [AXI_RD] CPU <- IRAM  Addr=000000a0 Data=00007263 RRESP=00
# UVM_INFO C:/Documents/DoAnThietKeViMach/Project/SoC/VERIFICATION/Monitor/cpu_monitor.sv(230) @ 3025000: uvm_test_top.env.agent.monitor [IF] PC=000000a0  INSTR=00007263  [BR?? x0, x0, ...]            
# UVM_INFO C:/Documents/DoAnThietKeViMach/Project/SoC/VERIFICATION/Monitor/cpu_monitor.sv(251) @ 3035000: uvm_test_top.env.agent.monitor [MEM] STORE Addr=10000180 Data=00000000
# UVM_INFO C:/Documents/DoAnThietKeViMach/Project/SoC/VERIFICATION/Monitor/cpu_monitor.sv(251) @ 3045000: uvm_test_top.env.agent.monitor [MEM] STORE Addr=10000180 Data=00000000
# [DRAM WRITE] addr=10000180 data=00000000
# UVM_INFO C:/Documents/DoAnThietKeViMach/Project/SoC/VERIFICATION/Monitor/cpu_monitor.sv(251) @ 3055000: uvm_test_top.env.agent.monitor [MEM] STORE Addr=10000180 Data=00000000
# UVM_INFO C:/Documents/DoAnThietKeViMach/Project/SoC/VERIFICATION/Monitor/cpu_monitor.sv(310) @ 3065000: uvm_test_top.env.agent.monitor [AXI_WR] CPU -> DRAM  Addr=10000180 Data=00000000 Strb=1111 BRESP=00
# UVM_INFO C:/Documents/DoAnThietKeViMach/Project/SoC/VERIFICATION/Monitor/cpu_monitor.sv(251) @ 3065000: uvm_test_top.env.agent.monitor [MEM] STORE Addr=10000180 Data=00000000
# UVM_INFO C:/Documents/DoAnThietKeViMach/Project/SoC/VERIFICATION/Monitor/cpu_monitor.sv(251) @ 3075000: uvm_test_top.env.agent.monitor [MEM] STORE Addr=10000180 Data=00000000
# UVM_INFO C:/Documents/DoAnThietKeViMach/Project/SoC/VERIFICATION/Monitor/cpu_monitor.sv(251) @ 3085000: uvm_test_top.env.agent.monitor [MEM] STORE Addr=10000180 Data=00000000
# UVM_INFO C:/Documents/DoAnThietKeViMach/Project/SoC/VERIFICATION/Monitor/cpu_monitor.sv(251) @ 3095000: uvm_test_top.env.agent.monitor [MEM] STORE Addr=10000180 Data=00000000
# UVM_INFO C:/Documents/DoAnThietKeViMach/Project/SoC/VERIFICATION/Monitor/cpu_monitor.sv(336) @ 3105000: uvm_test_top.env.agent.monitor [AXI_RD] CPU <- IRAM  Addr=000000a4 Data=00412e83 RRESP=00
# UVM_INFO C:/Documents/DoAnThietKeViMach/Project/SoC/VERIFICATION/Monitor/cpu_monitor.sv(230) @ 3105000: uvm_test_top.env.agent.monitor [IF] PC=000000a4  INSTR=00412e83  [LW   x29, 4(x2)]            
# UVM_INFO C:/Documents/DoAnThietKeViMach/Project/SoC/VERIFICATION/Monitor/cpu_monitor.sv(251) @ 3105000: uvm_test_top.env.agent.monitor [MEM] STORE Addr=10000180 Data=00000000
# UVM_INFO C:/Documents/DoAnThietKeViMach/Project/SoC/VERIFICATION/Monitor/cpu_monitor.sv(251) @ 3115000: uvm_test_top.env.agent.monitor [MEM] STORE Addr=4000000c Data=00000000
# UVM_INFO C:/Documents/DoAnThietKeViMach/Project/SoC/VERIFICATION/Monitor/cpu_monitor.sv(251) @ 3125000: uvm_test_top.env.agent.monitor [MEM] STORE Addr=4000000c Data=00000000
# UVM_INFO C:/Documents/DoAnThietKeViMach/Project/SoC/VERIFICATION/Monitor/cpu_monitor.sv(251) @ 3135000: uvm_test_top.env.agent.monitor [MEM] STORE Addr=4000000c Data=00000000
# UVM_INFO C:/Documents/DoAnThietKeViMach/Project/SoC/VERIFICATION/Monitor/cpu_monitor.sv(310) @ 3145000: uvm_test_top.env.agent.monitor [AXI_WR] CPU -> SPI  Addr=4000000c Data=00000000 Strb=1111 BRESP=00
# UVM_INFO C:/Documents/DoAnThietKeViMach/Project/SoC/VERIFICATION/Scoreboard/cpu_scoreboard.sv(250) @ 3145000: uvm_test_top.env.scoreboard [SCB_PERIPH] [SPI] WRITE Addr=4000000c Data=00000000
# UVM_INFO C:/Documents/DoAnThietKeViMach/Project/SoC/VERIFICATION/Monitor/cpu_monitor.sv(251) @ 3145000: uvm_test_top.env.agent.monitor [MEM] STORE Addr=4000000c Data=00000000
# UVM_INFO C:/Documents/DoAnThietKeViMach/Project/SoC/VERIFICATION/Monitor/cpu_monitor.sv(251) @ 3155000: uvm_test_top.env.agent.monitor [MEM] STORE Addr=4000000c Data=00000000
# UVM_INFO C:/Documents/DoAnThietKeViMach/Project/SoC/VERIFICATION/Monitor/cpu_monitor.sv(251) @ 3165000: uvm_test_top.env.agent.monitor [MEM] STORE Addr=4000000c Data=00000000
# UVM_INFO C:/Documents/DoAnThietKeViMach/Project/SoC/VERIFICATION/Monitor/cpu_monitor.sv(251) @ 3175000: uvm_test_top.env.agent.monitor [MEM] STORE Addr=4000000c Data=00000000
# UVM_INFO C:/Documents/DoAnThietKeViMach/Project/SoC/VERIFICATION/Monitor/cpu_monitor.sv(336) @ 3185000: uvm_test_top.env.agent.monitor [AXI_RD] CPU <- IRAM  Addr=000000a8 Data=6ac0a683 RRESP=00
# UVM_INFO C:/Documents/DoAnThietKeViMach/Project/SoC/VERIFICATION/Monitor/cpu_monitor.sv(230) @ 3185000: uvm_test_top.env.agent.monitor [IF] PC=000000a8  INSTR=6ac0a683  [LW   x13, 1708(x1)]            
# UVM_INFO C:/Documents/DoAnThietKeViMach/Project/SoC/VERIFICATION/Monitor/cpu_monitor.sv(251) @ 3185000: uvm_test_top.env.agent.monitor [MEM] STORE Addr=4000000c Data=00000000
# UVM_INFO C:/Documents/DoAnThietKeViMach/Project/SoC/VERIFICATION/Monitor/cpu_monitor.sv(336) @ 3225000: uvm_test_top.env.agent.monitor [AXI_RD] CPU <- IRAM  Addr=000000a4 Data=00412e83 RRESP=00
# UVM_INFO C:/Documents/DoAnThietKeViMach/Project/SoC/VERIFICATION/Monitor/cpu_monitor.sv(230) @ 3225000: uvm_test_top.env.agent.monitor [IF] PC=000000a4  INSTR=00412e83  [LW   x29, 4(x2)]            
# UVM_INFO C:/Documents/DoAnThietKeViMach/Project/SoC/VERIFICATION/Monitor/cpu_monitor.sv(336) @ 3265000: uvm_test_top.env.agent.monitor [AXI_RD] CPU <- IRAM  Addr=000000a8 Data=6ac0a683 RRESP=00
# UVM_INFO C:/Documents/DoAnThietKeViMach/Project/SoC/VERIFICATION/Monitor/cpu_monitor.sv(230) @ 3265000: uvm_test_top.env.agent.monitor [IF] PC=000000a8  INSTR=6ac0a683  [LW   x13, 1708(x1)]            
# UVM_INFO C:/Documents/DoAnThietKeViMach/Project/SoC/VERIFICATION/Monitor/cpu_monitor.sv(336) @ 3305000: uvm_test_top.env.agent.monitor [AXI_RD] CPU <- IRAM  Addr=000000ac Data=01d06263 RRESP=00
# UVM_INFO C:/Documents/DoAnThietKeViMach/Project/SoC/VERIFICATION/Monitor/cpu_monitor.sv(230) @ 3305000: uvm_test_top.env.agent.monitor [IF] PC=000000ac  INSTR=01d06263  [BR?? x0, x29, ...]            
# UVM_INFO C:/Documents/DoAnThietKeViMach/Project/SoC/VERIFICATION/Monitor/cpu_monitor.sv(336) @ 3345000: uvm_test_top.env.agent.monitor [AXI_RD] CPU <- TIMER  Addr=20000004 Data=00000000 RRESP=00
# UVM_INFO C:/Documents/DoAnThietKeViMach/Project/SoC/VERIFICATION/Scoreboard/cpu_scoreboard.sv(141) @ 3345000: uvm_test_top.env.scoreboard [SCB_PASS] [TIMER] READ PASS Addr=20000004 Expected=00000000 Got=00000000
# UVM_INFO C:/Documents/DoAnThietKeViMach/Project/SoC/VERIFICATION/Monitor/cpu_monitor.sv(336) @ 3385000: uvm_test_top.env.agent.monitor [AXI_RD] CPU <- IRAM  Addr=000000b0 Data=01912223 RRESP=00
# UVM_INFO C:/Documents/DoAnThietKeViMach/Project/SoC/VERIFICATION/Monitor/cpu_monitor.sv(230) @ 3385000: uvm_test_top.env.agent.monitor [IF] PC=000000b0  INSTR=01912223  [SW   x25, 25(x2)]            
# [DRAM READ] addr=100006ac data=00000000
# UVM_INFO C:/Documents/DoAnThietKeViMach/Project/SoC/VERIFICATION/Monitor/cpu_monitor.sv(336) @ 3425000: uvm_test_top.env.agent.monitor [AXI_RD] CPU <- DRAM  Addr=100006ac Data=00000000 RRESP=00
# UVM_INFO C:/Documents/DoAnThietKeViMach/Project/SoC/VERIFICATION/Scoreboard/cpu_scoreboard.sv(141) @ 3425000: uvm_test_top.env.scoreboard [SCB_PASS] [DRAM] READ PASS Addr=100006ac Expected=00000000 Got=00000000
# UVM_INFO C:/Documents/DoAnThietKeViMach/Project/SoC/VERIFICATION/Monitor/cpu_monitor.sv(276) @ 3425000: uvm_test_top.env.agent.monitor [WB] x29 <= 00000000  (PC~000000b0)
# UVM_INFO C:/Documents/DoAnThietKeViMach/Project/SoC/VERIFICATION/Monitor/cpu_monitor.sv(276) @ 3435000: uvm_test_top.env.agent.monitor [WB] x29 <= 00000000  (PC~000000b0)
# UVM_INFO C:/Documents/DoAnThietKeViMach/Project/SoC/VERIFICATION/Monitor/cpu_monitor.sv(276) @ 3445000: uvm_test_top.env.agent.monitor [WB] x29 <= 00000000  (PC~000000b0)
# UVM_INFO C:/Documents/DoAnThietKeViMach/Project/SoC/VERIFICATION/Monitor/cpu_monitor.sv(276) @ 3455000: uvm_test_top.env.agent.monitor [WB] x29 <= 00000000  (PC~000000b0)
# UVM_INFO C:/Documents/DoAnThietKeViMach/Project/SoC/VERIFICATION/Monitor/cpu_monitor.sv(336) @ 3465000: uvm_test_top.env.agent.monitor [AXI_RD] CPU <- IRAM  Addr=000000b4 Data=00007263 RRESP=00
# UVM_INFO C:/Documents/DoAnThietKeViMach/Project/SoC/VERIFICATION/Monitor/cpu_monitor.sv(230) @ 3465000: uvm_test_top.env.agent.monitor [IF] PC=000000b4  INSTR=00007263  [BR?? x0, x0, ...]            
# UVM_INFO C:/Documents/DoAnThietKeViMach/Project/SoC/VERIFICATION/Monitor/cpu_monitor.sv(276) @ 3465000: uvm_test_top.env.agent.monitor [WB] x29 <= 00000000  (PC~000000b4)
# UVM_INFO C:/Documents/DoAnThietKeViMach/Project/SoC/VERIFICATION/Monitor/cpu_monitor.sv(276) @ 3475000: uvm_test_top.env.agent.monitor [WB] x13 <= 00000000  (PC~000000b4)
# UVM_INFO C:/Documents/DoAnThietKeViMach/Project/SoC/VERIFICATION/Monitor/cpu_monitor.sv(276) @ 3485000: uvm_test_top.env.agent.monitor [WB] x13 <= 00000000  (PC~000000b4)
# UVM_INFO C:/Documents/DoAnThietKeViMach/Project/SoC/VERIFICATION/Monitor/cpu_monitor.sv(276) @ 3495000: uvm_test_top.env.agent.monitor [WB] x13 <= 00000000  (PC~000000b4)
# UVM_INFO C:/Documents/DoAnThietKeViMach/Project/SoC/VERIFICATION/Monitor/cpu_monitor.sv(336) @ 3505000: uvm_test_top.env.agent.monitor [AXI_RD] CPU <- IRAM  Addr=000000b8 Data=cb184e93 RRESP=00
# UVM_INFO C:/Documents/DoAnThietKeViMach/Project/SoC/VERIFICATION/Monitor/cpu_monitor.sv(230) @ 3505000: uvm_test_top.env.agent.monitor [IF] PC=000000b8  INSTR=cb184e93  [XORI x29, x16, -847]            
# UVM_INFO C:/Documents/DoAnThietKeViMach/Project/SoC/VERIFICATION/Monitor/cpu_monitor.sv(276) @ 3505000: uvm_test_top.env.agent.monitor [WB] x13 <= 00000000  (PC~000000b8)
# UVM_INFO C:/Documents/DoAnThietKeViMach/Project/SoC/VERIFICATION/Monitor/cpu_monitor.sv(251) @ 3515000: uvm_test_top.env.agent.monitor [MEM] STORE Addr=20000004 Data=00000000
# UVM_INFO C:/Documents/DoAnThietKeViMach/Project/SoC/VERIFICATION/Monitor/cpu_monitor.sv(251) @ 3525000: uvm_test_top.env.agent.monitor [MEM] STORE Addr=20000004 Data=00000000
# UVM_INFO C:/Documents/DoAnThietKeViMach/Project/SoC/VERIFICATION/Monitor/cpu_monitor.sv(251) @ 3535000: uvm_test_top.env.agent.monitor [MEM] STORE Addr=20000004 Data=00000000
# UVM_INFO C:/Documents/DoAnThietKeViMach/Project/SoC/VERIFICATION/Monitor/cpu_monitor.sv(251) @ 3545000: uvm_test_top.env.agent.monitor [MEM] STORE Addr=20000004 Data=00000000
# UVM_INFO C:/Documents/DoAnThietKeViMach/Project/SoC/VERIFICATION/Monitor/cpu_monitor.sv(310) @ 3555000: uvm_test_top.env.agent.monitor [AXI_WR] CPU -> TIMER  Addr=20000004 Data=00000000 Strb=1111 BRESP=00
# UVM_INFO C:/Documents/DoAnThietKeViMach/Project/SoC/VERIFICATION/Scoreboard/cpu_scoreboard.sv(250) @ 3555000: uvm_test_top.env.scoreboard [SCB_PERIPH] [TIMER] WRITE Addr=20000004 Data=00000000
# UVM_INFO C:/Documents/DoAnThietKeViMach/Project/SoC/VERIFICATION/Monitor/cpu_monitor.sv(251) @ 3555000: uvm_test_top.env.agent.monitor [MEM] STORE Addr=20000004 Data=00000000
# UVM_INFO C:/Documents/DoAnThietKeViMach/Project/SoC/VERIFICATION/Monitor/cpu_monitor.sv(251) @ 3565000: uvm_test_top.env.agent.monitor [MEM] STORE Addr=20000004 Data=00000000
# UVM_INFO C:/Documents/DoAnThietKeViMach/Project/SoC/VERIFICATION/Monitor/cpu_monitor.sv(251) @ 3575000: uvm_test_top.env.agent.monitor [MEM] STORE Addr=20000004 Data=00000000
# UVM_INFO C:/Documents/DoAnThietKeViMach/Project/SoC/VERIFICATION/Monitor/cpu_monitor.sv(251) @ 3585000: uvm_test_top.env.agent.monitor [MEM] STORE Addr=20000004 Data=00000000
# UVM_INFO C:/Documents/DoAnThietKeViMach/Project/SoC/VERIFICATION/Monitor/cpu_monitor.sv(336) @ 3595000: uvm_test_top.env.agent.monitor [AXI_RD] CPU <- IRAM  Addr=000000bc Data=7280ac03 RRESP=00
# UVM_INFO C:/Documents/DoAnThietKeViMach/Project/SoC/VERIFICATION/Monitor/cpu_monitor.sv(230) @ 3595000: uvm_test_top.env.agent.monitor [IF] PC=000000bc  INSTR=7280ac03  [LW   x24, 1832(x1)]            
# UVM_INFO C:/Documents/DoAnThietKeViMach/Project/SoC/VERIFICATION/Monitor/cpu_monitor.sv(251) @ 3595000: uvm_test_top.env.agent.monitor [MEM] STORE Addr=20000004 Data=00000000
# UVM_INFO C:/Documents/DoAnThietKeViMach/Project/SoC/VERIFICATION/Monitor/cpu_monitor.sv(336) @ 3635000: uvm_test_top.env.agent.monitor [AXI_RD] CPU <- IRAM  Addr=000000b8 Data=cb184e93 RRESP=00
# UVM_INFO C:/Documents/DoAnThietKeViMach/Project/SoC/VERIFICATION/Monitor/cpu_monitor.sv(230) @ 3635000: uvm_test_top.env.agent.monitor [IF] PC=000000b8  INSTR=cb184e93  [XORI x29, x16, -847]            
# UVM_INFO C:/Documents/DoAnThietKeViMach/Project/SoC/VERIFICATION/Monitor/cpu_monitor.sv(336) @ 3675000: uvm_test_top.env.agent.monitor [AXI_RD] CPU <- IRAM  Addr=000000bc Data=7280ac03 RRESP=00
# UVM_INFO C:/Documents/DoAnThietKeViMach/Project/SoC/VERIFICATION/Monitor/cpu_monitor.sv(230) @ 3675000: uvm_test_top.env.agent.monitor [IF] PC=000000bc  INSTR=7280ac03  [LW   x24, 1832(x1)]            
# UVM_INFO C:/Documents/DoAnThietKeViMach/Project/SoC/VERIFICATION/Monitor/cpu_monitor.sv(336) @ 3715000: uvm_test_top.env.agent.monitor [AXI_RD] CPU <- IRAM  Addr=000000c0 Data=00007263 RRESP=00
# UVM_INFO C:/Documents/DoAnThietKeViMach/Project/SoC/VERIFICATION/Monitor/cpu_monitor.sv(230) @ 3715000: uvm_test_top.env.agent.monitor [IF] PC=000000c0  INSTR=00007263  [BR?? x0, x0, ...]            
# UVM_INFO C:/Documents/DoAnThietKeViMach/Project/SoC/VERIFICATION/Monitor/cpu_monitor.sv(336) @ 3755000: uvm_test_top.env.agent.monitor [AXI_RD] CPU <- IRAM  Addr=000000c4 Data=01822223 RRESP=00
# UVM_INFO C:/Documents/DoAnThietKeViMach/Project/SoC/VERIFICATION/Monitor/cpu_monitor.sv(230) @ 3755000: uvm_test_top.env.agent.monitor [IF] PC=000000c4  INSTR=01822223  [SW   x24, 24(x4)]            
# [DRAM READ] addr=10000728 data=00000000
# UVM_INFO C:/Documents/DoAnThietKeViMach/Project/SoC/VERIFICATION/Monitor/cpu_monitor.sv(336) @ 3795000: uvm_test_top.env.agent.monitor [AXI_RD] CPU <- DRAM  Addr=10000728 Data=00000000 RRESP=00
# UVM_INFO C:/Documents/DoAnThietKeViMach/Project/SoC/VERIFICATION/Scoreboard/cpu_scoreboard.sv(141) @ 3795000: uvm_test_top.env.scoreboard [SCB_PASS] [DRAM] READ PASS Addr=10000728 Expected=00000000 Got=00000000
# UVM_INFO C:/Documents/DoAnThietKeViMach/Project/SoC/VERIFICATION/Monitor/cpu_monitor.sv(276) @ 3795000: uvm_test_top.env.agent.monitor [WB] x29 <= fffff8c7  (PC~000000c4)
# UVM_INFO C:/Documents/DoAnThietKeViMach/Project/SoC/VERIFICATION/Monitor/cpu_monitor.sv(276) @ 3805000: uvm_test_top.env.agent.monitor [WB] x29 <= fffff8c7  (PC~000000c4)
# UVM_INFO C:/Documents/DoAnThietKeViMach/Project/SoC/VERIFICATION/Monitor/cpu_monitor.sv(276) @ 3815000: uvm_test_top.env.agent.monitor [WB] x29 <= fffff8c7  (PC~000000c4)
# UVM_INFO C:/Documents/DoAnThietKeViMach/Project/SoC/VERIFICATION/Monitor/cpu_monitor.sv(276) @ 3825000: uvm_test_top.env.agent.monitor [WB] x29 <= fffff8c7  (PC~000000c4)
# UVM_INFO C:/Documents/DoAnThietKeViMach/Project/SoC/VERIFICATION/Monitor/cpu_monitor.sv(336) @ 3835000: uvm_test_top.env.agent.monitor [AXI_RD] CPU <- IRAM  Addr=000000c8 Data=0101a623 RRESP=00
# UVM_INFO C:/Documents/DoAnThietKeViMach/Project/SoC/VERIFICATION/Monitor/cpu_monitor.sv(230) @ 3835000: uvm_test_top.env.agent.monitor [IF] PC=000000c8  INSTR=0101a623  [SW   x16, 16(x3)]            
# UVM_INFO C:/Documents/DoAnThietKeViMach/Project/SoC/VERIFICATION/Monitor/cpu_monitor.sv(276) @ 3835000: uvm_test_top.env.agent.monitor [WB] x29 <= fffff8c7  (PC~000000c8)
# UVM_INFO C:/Documents/DoAnThietKeViMach/Project/SoC/VERIFICATION/Monitor/cpu_monitor.sv(276) @ 3845000: uvm_test_top.env.agent.monitor [WB] x24 <= 00000000  (PC~000000c8)
# UVM_INFO C:/Documents/DoAnThietKeViMach/Project/SoC/VERIFICATION/Monitor/cpu_monitor.sv(276) @ 3855000: uvm_test_top.env.agent.monitor [WB] x24 <= 00000000  (PC~000000c8)
# UVM_INFO C:/Documents/DoAnThietKeViMach/Project/SoC/VERIFICATION/Monitor/cpu_monitor.sv(276) @ 3865000: uvm_test_top.env.agent.monitor [WB] x24 <= 00000000  (PC~000000c8)
# UVM_INFO C:/Documents/DoAnThietKeViMach/Project/SoC/VERIFICATION/Monitor/cpu_monitor.sv(336) @ 3875000: uvm_test_top.env.agent.monitor [AXI_RD] CPU <- IRAM  Addr=000000c4 Data=01822223 RRESP=00
# UVM_INFO C:/Documents/DoAnThietKeViMach/Project/SoC/VERIFICATION/Monitor/cpu_monitor.sv(230) @ 3875000: uvm_test_top.env.agent.monitor [IF] PC=000000c4  INSTR=01822223  [SW   x24, 24(x4)]            
# UVM_INFO C:/Documents/DoAnThietKeViMach/Project/SoC/VERIFICATION/Monitor/cpu_monitor.sv(276) @ 3875000: uvm_test_top.env.agent.monitor [WB] x24 <= 00000000  (PC~000000c4)
# UVM_INFO C:/Documents/DoAnThietKeViMach/Project/SoC/VERIFICATION/Monitor/cpu_monitor.sv(336) @ 3915000: uvm_test_top.env.agent.monitor [AXI_RD] CPU <- IRAM  Addr=000000c8 Data=0101a623 RRESP=00
# UVM_INFO C:/Documents/DoAnThietKeViMach/Project/SoC/VERIFICATION/Monitor/cpu_monitor.sv(230) @ 3915000: uvm_test_top.env.agent.monitor [IF] PC=000000c8  INSTR=0101a623  [SW   x16, 16(x3)]            
# UVM_INFO C:/Documents/DoAnThietKeViMach/Project/SoC/VERIFICATION/Monitor/cpu_monitor.sv(336) @ 3955000: uvm_test_top.env.agent.monitor [AXI_RD] CPU <- IRAM  Addr=000000cc Data=e7748c13 RRESP=00
# UVM_INFO C:/Documents/DoAnThietKeViMach/Project/SoC/VERIFICATION/Monitor/cpu_monitor.sv(230) @ 3955000: uvm_test_top.env.agent.monitor [IF] PC=000000cc  INSTR=e7748c13  [ADDI x24, x9, -393]            
# UVM_INFO C:/Documents/DoAnThietKeViMach/Project/SoC/VERIFICATION/Monitor/cpu_monitor.sv(251) @ 3965000: uvm_test_top.env.agent.monitor [MEM] STORE Addr=40000004 Data=00000000
# UVM_INFO C:/Documents/DoAnThietKeViMach/Project/SoC/VERIFICATION/Monitor/cpu_monitor.sv(251) @ 3975000: uvm_test_top.env.agent.monitor [MEM] STORE Addr=40000004 Data=00000000
# UVM_INFO C:/Documents/DoAnThietKeViMach/Project/SoC/VERIFICATION/Monitor/cpu_monitor.sv(251) @ 3985000: uvm_test_top.env.agent.monitor [MEM] STORE Addr=40000004 Data=00000000
# UVM_INFO C:/Documents/DoAnThietKeViMach/Project/SoC/VERIFICATION/Monitor/cpu_monitor.sv(310) @ 3995000: uvm_test_top.env.agent.monitor [AXI_WR] CPU -> SPI  Addr=40000004 Data=00000000 Strb=1111 BRESP=00
# UVM_INFO C:/Documents/DoAnThietKeViMach/Project/SoC/VERIFICATION/Scoreboard/cpu_scoreboard.sv(250) @ 3995000: uvm_test_top.env.scoreboard [SCB_PERIPH] [SPI] WRITE Addr=40000004 Data=00000000
# UVM_INFO C:/Documents/DoAnThietKeViMach/Project/SoC/VERIFICATION/Monitor/cpu_monitor.sv(251) @ 3995000: uvm_test_top.env.agent.monitor [MEM] STORE Addr=40000004 Data=00000000
# UVM_INFO C:/Documents/DoAnThietKeViMach/Project/SoC/VERIFICATION/Monitor/cpu_monitor.sv(251) @ 4005000: uvm_test_top.env.agent.monitor [MEM] STORE Addr=40000004 Data=00000000
# UVM_INFO C:/Documents/DoAnThietKeViMach/Project/SoC/VERIFICATION/Monitor/cpu_monitor.sv(251) @ 4015000: uvm_test_top.env.agent.monitor [MEM] STORE Addr=40000004 Data=00000000
# UVM_INFO C:/Documents/DoAnThietKeViMach/Project/SoC/VERIFICATION/Monitor/cpu_monitor.sv(251) @ 4025000: uvm_test_top.env.agent.monitor [MEM] STORE Addr=40000004 Data=00000000
# UVM_INFO C:/Documents/DoAnThietKeViMach/Project/SoC/VERIFICATION/Monitor/cpu_monitor.sv(336) @ 4035000: uvm_test_top.env.agent.monitor [AXI_RD] CPU <- IRAM  Addr=000000d0 Data=00812003 RRESP=00
# UVM_INFO C:/Documents/DoAnThietKeViMach/Project/SoC/VERIFICATION/Monitor/cpu_monitor.sv(230) @ 4035000: uvm_test_top.env.agent.monitor [IF] PC=000000d0  INSTR=00812003  [LW   x0, 8(x2)]            
# UVM_INFO C:/Documents/DoAnThietKeViMach/Project/SoC/VERIFICATION/Monitor/cpu_monitor.sv(251) @ 4035000: uvm_test_top.env.agent.monitor [MEM] STORE Addr=40000004 Data=00000000
# UVM_INFO C:/Documents/DoAnThietKeViMach/Project/SoC/VERIFICATION/Monitor/cpu_monitor.sv(251) @ 4045000: uvm_test_top.env.agent.monitor [MEM] STORE Addr=3000000c Data=00000476
# UVM_INFO C:/Documents/DoAnThietKeViMach/Project/SoC/VERIFICATION/Monitor/cpu_monitor.sv(251) @ 4055000: uvm_test_top.env.agent.monitor [MEM] STORE Addr=3000000c Data=00000476
# UVM_INFO C:/Documents/DoAnThietKeViMach/Project/SoC/VERIFICATION/Monitor/cpu_monitor.sv(251) @ 4065000: uvm_test_top.env.agent.monitor [MEM] STORE Addr=3000000c Data=00000476
# UVM_INFO C:/Documents/DoAnThietKeViMach/Project/SoC/VERIFICATION/Monitor/cpu_monitor.sv(310) @ 4075000: uvm_test_top.env.agent.monitor [AXI_WR] CPU -> UART  Addr=3000000c Data=00000476 Strb=1111 BRESP=00
# UVM_INFO C:/Documents/DoAnThietKeViMach/Project/SoC/VERIFICATION/Scoreboard/cpu_scoreboard.sv(250) @ 4075000: uvm_test_top.env.scoreboard [SCB_PERIPH] [UART] WRITE Addr=3000000c Data=00000476
# UVM_INFO C:/Documents/DoAnThietKeViMach/Project/SoC/VERIFICATION/Monitor/cpu_monitor.sv(251) @ 4075000: uvm_test_top.env.agent.monitor [MEM] STORE Addr=3000000c Data=00000476
# UVM_INFO C:/Documents/DoAnThietKeViMach/Project/SoC/VERIFICATION/Monitor/cpu_monitor.sv(251) @ 4085000: uvm_test_top.env.agent.monitor [MEM] STORE Addr=3000000c Data=00000476
# UVM_INFO C:/Documents/DoAnThietKeViMach/Project/SoC/VERIFICATION/Monitor/cpu_monitor.sv(251) @ 4095000: uvm_test_top.env.agent.monitor [MEM] STORE Addr=3000000c Data=00000476
# UVM_INFO C:/Documents/DoAnThietKeViMach/Project/SoC/VERIFICATION/Monitor/cpu_monitor.sv(251) @ 4105000: uvm_test_top.env.agent.monitor [MEM] STORE Addr=3000000c Data=00000476
# UVM_INFO C:/Documents/DoAnThietKeViMach/Project/SoC/VERIFICATION/Monitor/cpu_monitor.sv(336) @ 4115000: uvm_test_top.env.agent.monitor [AXI_RD] CPU <- IRAM  Addr=000000d4 Data=0086ea33 RRESP=00
# UVM_INFO C:/Documents/DoAnThietKeViMach/Project/SoC/VERIFICATION/Monitor/cpu_monitor.sv(230) @ 4115000: uvm_test_top.env.agent.monitor [IF] PC=000000d4  INSTR=0086ea33  [OR   x20, x13, x8]            
# UVM_INFO C:/Documents/DoAnThietKeViMach/Project/SoC/VERIFICATION/Monitor/cpu_monitor.sv(251) @ 4115000: uvm_test_top.env.agent.monitor [MEM] STORE Addr=3000000c Data=00000476
# UVM_INFO C:/Documents/DoAnThietKeViMach/Project/SoC/VERIFICATION/Monitor/cpu_monitor.sv(336) @ 4155000: uvm_test_top.env.agent.monitor [AXI_RD] CPU <- IRAM  Addr=000000d8 Data=00005263 RRESP=00
# UVM_INFO C:/Documents/DoAnThietKeViMach/Project/SoC/VERIFICATION/Monitor/cpu_monitor.sv(230) @ 4155000: uvm_test_top.env.agent.monitor [IF] PC=000000d8  INSTR=00005263  [BGE  x0, x0, ...]            
# UVM_INFO C:/Documents/DoAnThietKeViMach/Project/SoC/VERIFICATION/Monitor/cpu_monitor.sv(336) @ 4195000: uvm_test_top.env.agent.monitor [AXI_RD] CPU <- TIMER  Addr=20000008 Data=00000000 RRESP=00
# UVM_INFO C:/Documents/DoAnThietKeViMach/Project/SoC/VERIFICATION/Scoreboard/cpu_scoreboard.sv(254) @ 4195000: uvm_test_top.env.scoreboard [SCB_PERIPH] [TIMER] READ Addr=20000008 Data=00000000 (volatile, compare skipped)
# UVM_INFO C:/Documents/DoAnThietKeViMach/Project/SoC/VERIFICATION/Monitor/cpu_monitor.sv(276) @ 4195000: uvm_test_top.env.agent.monitor [WB] x24 <= fffffe77  (PC~000000d8)
# UVM_INFO C:/Documents/DoAnThietKeViMach/Project/SoC/VERIFICATION/Monitor/cpu_monitor.sv(276) @ 4205000: uvm_test_top.env.agent.monitor [WB] x24 <= fffffe77  (PC~000000d8)
# UVM_INFO C:/Documents/DoAnThietKeViMach/Project/SoC/VERIFICATION/Monitor/cpu_monitor.sv(276) @ 4215000: uvm_test_top.env.agent.monitor [WB] x24 <= fffffe77  (PC~000000d8)
# UVM_INFO C:/Documents/DoAnThietKeViMach/Project/SoC/VERIFICATION/Monitor/cpu_monitor.sv(276) @ 4225000: uvm_test_top.env.agent.monitor [WB] x24 <= fffffe77  (PC~000000d8)
# UVM_INFO C:/Documents/DoAnThietKeViMach/Project/SoC/VERIFICATION/Monitor/cpu_monitor.sv(336) @ 4235000: uvm_test_top.env.agent.monitor [AXI_RD] CPU <- IRAM  Addr=000000dc Data=00512023 RRESP=00
# UVM_INFO C:/Documents/DoAnThietKeViMach/Project/SoC/VERIFICATION/Monitor/cpu_monitor.sv(230) @ 4235000: uvm_test_top.env.agent.monitor [IF] PC=000000dc  INSTR=00512023  [SW   x5, 5(x2)]            
# UVM_INFO C:/Documents/DoAnThietKeViMach/Project/SoC/VERIFICATION/Monitor/cpu_monitor.sv(276) @ 4235000: uvm_test_top.env.agent.monitor [WB] x24 <= fffffe77  (PC~000000dc)
# UVM_INFO C:/Documents/DoAnThietKeViMach/Project/SoC/VERIFICATION/Monitor/cpu_monitor.sv(336) @ 4275000: uvm_test_top.env.agent.monitor [AXI_RD] CPU <- IRAM  Addr=000000e0 Data=00901263 RRESP=00
# UVM_INFO C:/Documents/DoAnThietKeViMach/Project/SoC/VERIFICATION/Monitor/cpu_monitor.sv(230) @ 4275000: uvm_test_top.env.agent.monitor [IF] PC=000000e0  INSTR=00901263  [BNE  x0, x9, ...]            
# UVM_INFO C:/Documents/DoAnThietKeViMach/Project/SoC/VERIFICATION/Monitor/cpu_monitor.sv(276) @ 4285000: uvm_test_top.env.agent.monitor [WB] x20 <= 00000000  (PC~000000e0)
# UVM_INFO C:/Documents/DoAnThietKeViMach/Project/SoC/VERIFICATION/Monitor/cpu_monitor.sv(276) @ 4295000: uvm_test_top.env.agent.monitor [WB] x20 <= 00000000  (PC~000000e0)
# UVM_INFO C:/Documents/DoAnThietKeViMach/Project/SoC/VERIFICATION/Monitor/cpu_monitor.sv(276) @ 4305000: uvm_test_top.env.agent.monitor [WB] x20 <= 00000000  (PC~000000e0)
# UVM_INFO C:/Documents/DoAnThietKeViMach/Project/SoC/VERIFICATION/Monitor/cpu_monitor.sv(336) @ 4315000: uvm_test_top.env.agent.monitor [AXI_RD] CPU <- IRAM  Addr=000000dc Data=00512023 RRESP=00
# UVM_INFO C:/Documents/DoAnThietKeViMach/Project/SoC/VERIFICATION/Monitor/cpu_monitor.sv(230) @ 4315000: uvm_test_top.env.agent.monitor [IF] PC=000000dc  INSTR=00512023  [SW   x5, 5(x2)]            
# UVM_INFO C:/Documents/DoAnThietKeViMach/Project/SoC/VERIFICATION/Monitor/cpu_monitor.sv(276) @ 4315000: uvm_test_top.env.agent.monitor [WB] x20 <= 00000000  (PC~000000dc)
# UVM_INFO C:/Documents/DoAnThietKeViMach/Project/SoC/VERIFICATION/Monitor/cpu_monitor.sv(336) @ 4355000: uvm_test_top.env.agent.monitor [AXI_RD] CPU <- IRAM  Addr=000000e0 Data=00901263 RRESP=00
# UVM_INFO C:/Documents/DoAnThietKeViMach/Project/SoC/VERIFICATION/Monitor/cpu_monitor.sv(230) @ 4355000: uvm_test_top.env.agent.monitor [IF] PC=000000e0  INSTR=00901263  [BNE  x0, x9, ...]            
# UVM_INFO C:/Documents/DoAnThietKeViMach/Project/SoC/VERIFICATION/Monitor/cpu_monitor.sv(336) @ 4395000: uvm_test_top.env.agent.monitor [AXI_RD] CPU <- IRAM  Addr=000000e4 Data=00400e6f RRESP=00
# UVM_INFO C:/Documents/DoAnThietKeViMach/Project/SoC/VERIFICATION/Monitor/cpu_monitor.sv(230) @ 4395000: uvm_test_top.env.agent.monitor [IF] PC=000000e4  INSTR=00400e6f  [JAL  x28, ...]            
# UVM_INFO C:/Documents/DoAnThietKeViMach/Project/SoC/VERIFICATION/Monitor/cpu_monitor.sv(251) @ 4405000: uvm_test_top.env.agent.monitor [MEM] STORE Addr=20000000 Data=00000088
# UVM_INFO C:/Documents/DoAnThietKeViMach/Project/SoC/VERIFICATION/Monitor/cpu_monitor.sv(251) @ 4415000: uvm_test_top.env.agent.monitor [MEM] STORE Addr=20000000 Data=00000088
# UVM_INFO C:/Documents/DoAnThietKeViMach/Project/SoC/VERIFICATION/Monitor/cpu_monitor.sv(251) @ 4425000: uvm_test_top.env.agent.monitor [MEM] STORE Addr=20000000 Data=00000088
# UVM_INFO C:/Documents/DoAnThietKeViMach/Project/SoC/VERIFICATION/Monitor/cpu_monitor.sv(251) @ 4435000: uvm_test_top.env.agent.monitor [MEM] STORE Addr=20000000 Data=00000088
# UVM_INFO C:/Documents/DoAnThietKeViMach/Project/SoC/VERIFICATION/Monitor/cpu_monitor.sv(310) @ 4445000: uvm_test_top.env.agent.monitor [AXI_WR] CPU -> TIMER  Addr=20000000 Data=00000088 Strb=1111 BRESP=00
# UVM_INFO C:/Documents/DoAnThietKeViMach/Project/SoC/VERIFICATION/Scoreboard/cpu_scoreboard.sv(250) @ 4445000: uvm_test_top.env.scoreboard [SCB_PERIPH] [TIMER] WRITE Addr=20000000 Data=00000088
# UVM_INFO C:/Documents/DoAnThietKeViMach/Project/SoC/VERIFICATION/Monitor/cpu_monitor.sv(251) @ 4445000: uvm_test_top.env.agent.monitor [MEM] STORE Addr=20000000 Data=00000088
# UVM_INFO C:/Documents/DoAnThietKeViMach/Project/SoC/VERIFICATION/Monitor/cpu_monitor.sv(251) @ 4455000: uvm_test_top.env.agent.monitor [MEM] STORE Addr=20000000 Data=00000088
# UVM_INFO C:/Documents/DoAnThietKeViMach/Project/SoC/VERIFICATION/Monitor/cpu_monitor.sv(251) @ 4465000: uvm_test_top.env.agent.monitor [MEM] STORE Addr=20000000 Data=00000088
# UVM_INFO C:/Documents/DoAnThietKeViMach/Project/SoC/VERIFICATION/Monitor/cpu_monitor.sv(251) @ 4475000: uvm_test_top.env.agent.monitor [MEM] STORE Addr=20000000 Data=00000088
# UVM_INFO C:/Documents/DoAnThietKeViMach/Project/SoC/VERIFICATION/Monitor/cpu_monitor.sv(336) @ 4485000: uvm_test_top.env.agent.monitor [AXI_RD] CPU <- IRAM  Addr=000000e8 Data=77ba2893 RRESP=00
# UVM_INFO C:/Documents/DoAnThietKeViMach/Project/SoC/VERIFICATION/Monitor/cpu_monitor.sv(230) @ 4485000: uvm_test_top.env.agent.monitor [IF] PC=000000e8  INSTR=77ba2893  [I-?? x17, x20, 1915]            
# UVM_INFO C:/Documents/DoAnThietKeViMach/Project/SoC/VERIFICATION/Monitor/cpu_monitor.sv(251) @ 4485000: uvm_test_top.env.agent.monitor [MEM] STORE Addr=20000000 Data=00000088
# UVM_INFO C:/Documents/DoAnThietKeViMach/Project/SoC/VERIFICATION/Monitor/cpu_monitor.sv(336) @ 4525000: uvm_test_top.env.agent.monitor [AXI_RD] CPU <- IRAM  Addr=000000ec Data=00400b6f RRESP=00
# UVM_INFO C:/Documents/DoAnThietKeViMach/Project/SoC/VERIFICATION/Monitor/cpu_monitor.sv(230) @ 4525000: uvm_test_top.env.agent.monitor [IF] PC=000000ec  INSTR=00400b6f  [JAL  x22, ...]            
# UVM_INFO C:/Documents/DoAnThietKeViMach/Project/SoC/VERIFICATION/Monitor/cpu_monitor.sv(336) @ 4565000: uvm_test_top.env.agent.monitor [AXI_RD] CPU <- IRAM  Addr=000000e8 Data=77ba2893 RRESP=00
# UVM_INFO C:/Documents/DoAnThietKeViMach/Project/SoC/VERIFICATION/Monitor/cpu_monitor.sv(230) @ 4565000: uvm_test_top.env.agent.monitor [IF] PC=000000e8  INSTR=77ba2893  [I-?? x17, x20, 1915]            
# UVM_INFO C:/Documents/DoAnThietKeViMach/Project/SoC/VERIFICATION/Monitor/cpu_monitor.sv(276) @ 4575000: uvm_test_top.env.agent.monitor [WB] x28 <= 000000e8  (PC~000000e8)
# UVM_INFO C:/Documents/DoAnThietKeViMach/Project/SoC/VERIFICATION/Monitor/cpu_monitor.sv(276) @ 4585000: uvm_test_top.env.agent.monitor [WB] x28 <= 000000e8  (PC~000000e8)
# UVM_INFO C:/Documents/DoAnThietKeViMach/Project/SoC/VERIFICATION/Monitor/cpu_monitor.sv(276) @ 4595000: uvm_test_top.env.agent.monitor [WB] x28 <= 000000e8  (PC~000000e8)
# UVM_INFO C:/Documents/DoAnThietKeViMach/Project/SoC/VERIFICATION/Monitor/cpu_monitor.sv(336) @ 4605000: uvm_test_top.env.agent.monitor [AXI_RD] CPU <- IRAM  Addr=000000ec Data=00400b6f RRESP=00
# UVM_INFO C:/Documents/DoAnThietKeViMach/Project/SoC/VERIFICATION/Monitor/cpu_monitor.sv(230) @ 4605000: uvm_test_top.env.agent.monitor [IF] PC=000000ec  INSTR=00400b6f  [JAL  x22, ...]            
# UVM_INFO C:/Documents/DoAnThietKeViMach/Project/SoC/VERIFICATION/Monitor/cpu_monitor.sv(276) @ 4605000: uvm_test_top.env.agent.monitor [WB] x28 <= 000000e8  (PC~000000ec)
# UVM_INFO C:/Documents/DoAnThietKeViMach/Project/SoC/VERIFICATION/Monitor/cpu_monitor.sv(336) @ 4645000: uvm_test_top.env.agent.monitor [AXI_RD] CPU <- IRAM  Addr=000000f0 Data=00422683 RRESP=00
# UVM_INFO C:/Documents/DoAnThietKeViMach/Project/SoC/VERIFICATION/Monitor/cpu_monitor.sv(230) @ 4645000: uvm_test_top.env.agent.monitor [IF] PC=000000f0  INSTR=00422683  [LW   x13, 4(x4)]            
# UVM_INFO C:/Documents/DoAnThietKeViMach/Project/SoC/VERIFICATION/Monitor/cpu_monitor.sv(336) @ 4685000: uvm_test_top.env.agent.monitor [AXI_RD] CPU <- IRAM  Addr=000000f4 Data=007b2f33 RRESP=00
# UVM_INFO C:/Documents/DoAnThietKeViMach/Project/SoC/VERIFICATION/Monitor/cpu_monitor.sv(230) @ 4685000: uvm_test_top.env.agent.monitor [IF] PC=000000f4  INSTR=007b2f33  [SLT  x30, x22, x7]            
# UVM_INFO C:/Documents/DoAnThietKeViMach/Project/SoC/VERIFICATION/Monitor/cpu_monitor.sv(276) @ 4695000: uvm_test_top.env.agent.monitor [WB] x17 <= 00000001  (PC~000000f4)
# UVM_INFO C:/Documents/DoAnThietKeViMach/Project/SoC/VERIFICATION/Monitor/cpu_monitor.sv(276) @ 4705000: uvm_test_top.env.agent.monitor [WB] x17 <= 00000001  (PC~000000f4)
# UVM_INFO C:/Documents/DoAnThietKeViMach/Project/SoC/VERIFICATION/Monitor/cpu_monitor.sv(276) @ 4715000: uvm_test_top.env.agent.monitor [WB] x17 <= 00000001  (PC~000000f4)
# UVM_INFO C:/Documents/DoAnThietKeViMach/Project/SoC/VERIFICATION/Monitor/cpu_monitor.sv(336) @ 4725000: uvm_test_top.env.agent.monitor [AXI_RD] CPU <- IRAM  Addr=000000f0 Data=00422683 RRESP=00
# UVM_INFO C:/Documents/DoAnThietKeViMach/Project/SoC/VERIFICATION/Monitor/cpu_monitor.sv(230) @ 4725000: uvm_test_top.env.agent.monitor [IF] PC=000000f0  INSTR=00422683  [LW   x13, 4(x4)]            
# UVM_INFO C:/Documents/DoAnThietKeViMach/Project/SoC/VERIFICATION/Monitor/cpu_monitor.sv(276) @ 4725000: uvm_test_top.env.agent.monitor [WB] x17 <= 00000001  (PC~000000f0)
# UVM_INFO C:/Documents/DoAnThietKeViMach/Project/SoC/VERIFICATION/Monitor/cpu_monitor.sv(276) @ 4735000: uvm_test_top.env.agent.monitor [WB] x22 <= 000000f0  (PC~000000f0)
# UVM_INFO C:/Documents/DoAnThietKeViMach/Project/SoC/VERIFICATION/Monitor/cpu_monitor.sv(276) @ 4745000: uvm_test_top.env.agent.monitor [WB] x22 <= 000000f0  (PC~000000f0)
# UVM_INFO C:/Documents/DoAnThietKeViMach/Project/SoC/VERIFICATION/Monitor/cpu_monitor.sv(276) @ 4755000: uvm_test_top.env.agent.monitor [WB] x22 <= 000000f0  (PC~000000f0)
# UVM_INFO C:/Documents/DoAnThietKeViMach/Project/SoC/VERIFICATION/Monitor/cpu_monitor.sv(336) @ 4765000: uvm_test_top.env.agent.monitor [AXI_RD] CPU <- IRAM  Addr=000000f4 Data=007b2f33 RRESP=00
# UVM_INFO C:/Documents/DoAnThietKeViMach/Project/SoC/VERIFICATION/Monitor/cpu_monitor.sv(230) @ 4765000: uvm_test_top.env.agent.monitor [IF] PC=000000f4  INSTR=007b2f33  [SLT  x30, x22, x7]            
# UVM_INFO C:/Documents/DoAnThietKeViMach/Project/SoC/VERIFICATION/Monitor/cpu_monitor.sv(276) @ 4765000: uvm_test_top.env.agent.monitor [WB] x22 <= 000000f0  (PC~000000f4)
# UVM_INFO C:/Documents/DoAnThietKeViMach/Project/SoC/VERIFICATION/Monitor/cpu_monitor.sv(336) @ 4805000: uvm_test_top.env.agent.monitor [AXI_RD] CPU <- IRAM  Addr=000000f8 Data=01312023 RRESP=00
# UVM_INFO C:/Documents/DoAnThietKeViMach/Project/SoC/VERIFICATION/Monitor/cpu_monitor.sv(230) @ 4805000: uvm_test_top.env.agent.monitor [IF] PC=000000f8  INSTR=01312023  [SW   x19, 19(x2)]            
# UVM_INFO C:/Documents/DoAnThietKeViMach/Project/SoC/VERIFICATION/Monitor/cpu_monitor.sv(336) @ 4845000: uvm_test_top.env.agent.monitor [AXI_RD] CPU <- SPI  Addr=40000004 Data=00000000 RRESP=00
# UVM_INFO C:/Documents/DoAnThietKeViMach/Project/SoC/VERIFICATION/Scoreboard/cpu_scoreboard.sv(141) @ 4845000: uvm_test_top.env.scoreboard [SCB_PASS] [SPI] READ PASS Addr=40000004 Expected=00000000 Got=00000000
# UVM_INFO C:/Documents/DoAnThietKeViMach/Project/SoC/VERIFICATION/Monitor/cpu_monitor.sv(336) @ 4885000: uvm_test_top.env.agent.monitor [AXI_RD] CPU <- IRAM  Addr=000000fc Data=5b47ee13 RRESP=00
# UVM_INFO C:/Documents/DoAnThietKeViMach/Project/SoC/VERIFICATION/Monitor/cpu_monitor.sv(230) @ 4885000: uvm_test_top.env.agent.monitor [IF] PC=000000fc  INSTR=5b47ee13  [ORI  x28, x15, 1460]            
# UVM_INFO C:/Documents/DoAnThietKeViMach/Project/SoC/VERIFICATION/Monitor/cpu_monitor.sv(276) @ 4895000: uvm_test_top.env.agent.monitor [WB] x13 <= 00000000  (PC~000000fc)
# UVM_INFO C:/Documents/DoAnThietKeViMach/Project/SoC/VERIFICATION/Monitor/cpu_monitor.sv(276) @ 4905000: uvm_test_top.env.agent.monitor [WB] x13 <= 00000000  (PC~000000fc)
# UVM_INFO C:/Documents/DoAnThietKeViMach/Project/SoC/VERIFICATION/Monitor/cpu_monitor.sv(276) @ 4915000: uvm_test_top.env.agent.monitor [WB] x13 <= 00000000  (PC~000000fc)
# UVM_INFO C:/Documents/DoAnThietKeViMach/Project/SoC/VERIFICATION/Monitor/cpu_monitor.sv(336) @ 4925000: uvm_test_top.env.agent.monitor [AXI_RD] CPU <- IRAM  Addr=00000100 Data=01a89ab3 RRESP=00
# UVM_INFO C:/Documents/DoAnThietKeViMach/Project/SoC/VERIFICATION/Monitor/cpu_monitor.sv(230) @ 4925000: uvm_test_top.env.agent.monitor [IF] PC=00000100  INSTR=01a89ab3  [SLL  x21, x17, x26]            
# UVM_INFO C:/Documents/DoAnThietKeViMach/Project/SoC/VERIFICATION/Monitor/cpu_monitor.sv(276) @ 4925000: uvm_test_top.env.agent.monitor [WB] x13 <= 00000000  (PC~00000100)
# UVM_INFO C:/Documents/DoAnThietKeViMach/Project/SoC/VERIFICATION/Monitor/cpu_monitor.sv(251) @ 4935000: uvm_test_top.env.agent.monitor [MEM] STORE Addr=20000000 Data=00000000
# UVM_INFO C:/Documents/DoAnThietKeViMach/Project/SoC/VERIFICATION/Monitor/cpu_monitor.sv(251) @ 4945000: uvm_test_top.env.agent.monitor [MEM] STORE Addr=20000000 Data=00000000
# UVM_INFO C:/Documents/DoAnThietKeViMach/Project/SoC/VERIFICATION/Monitor/cpu_monitor.sv(251) @ 4955000: uvm_test_top.env.agent.monitor [MEM] STORE Addr=20000000 Data=00000000
# UVM_INFO C:/Documents/DoAnThietKeViMach/Project/SoC/VERIFICATION/Monitor/cpu_monitor.sv(251) @ 4965000: uvm_test_top.env.agent.monitor [MEM] STORE Addr=20000000 Data=00000000
# UVM_INFO C:/Documents/DoAnThietKeViMach/Project/SoC/VERIFICATION/Monitor/cpu_monitor.sv(310) @ 4975000: uvm_test_top.env.agent.monitor [AXI_WR] CPU -> TIMER  Addr=20000000 Data=00000000 Strb=1111 BRESP=00
# UVM_INFO C:/Documents/DoAnThietKeViMach/Project/SoC/VERIFICATION/Scoreboard/cpu_scoreboard.sv(250) @ 4975000: uvm_test_top.env.scoreboard [SCB_PERIPH] [TIMER] WRITE Addr=20000000 Data=00000000
# UVM_INFO C:/Documents/DoAnThietKeViMach/Project/SoC/VERIFICATION/Monitor/cpu_monitor.sv(251) @ 4975000: uvm_test_top.env.agent.monitor [MEM] STORE Addr=20000000 Data=00000000
# UVM_INFO C:/Documents/DoAnThietKeViMach/Project/SoC/VERIFICATION/Monitor/cpu_monitor.sv(276) @ 4975000: uvm_test_top.env.agent.monitor [WB] x30 <= 00000000  (PC~00000100)
# UVM_INFO C:/Documents/DoAnThietKeViMach/Project/SoC/VERIFICATION/Monitor/cpu_monitor.sv(251) @ 4985000: uvm_test_top.env.agent.monitor [MEM] STORE Addr=20000000 Data=00000000
# UVM_INFO C:/Documents/DoAnThietKeViMach/Project/SoC/VERIFICATION/Monitor/cpu_monitor.sv(276) @ 4985000: uvm_test_top.env.agent.monitor [WB] x30 <= 00000000  (PC~00000100)
# UVM_INFO C:/Documents/DoAnThietKeViMach/Project/SoC/VERIFICATION/Monitor/cpu_monitor.sv(251) @ 4995000: uvm_test_top.env.agent.monitor [MEM] STORE Addr=20000000 Data=00000000
# UVM_INFO C:/Documents/DoAnThietKeViMach/Project/SoC/VERIFICATION/Monitor/cpu_monitor.sv(276) @ 4995000: uvm_test_top.env.agent.monitor [WB] x30 <= 00000000  (PC~00000100)
# UVM_INFO C:/Documents/DoAnThietKeViMach/Project/SoC/VERIFICATION/Monitor/cpu_monitor.sv(251) @ 5005000: uvm_test_top.env.agent.monitor [MEM] STORE Addr=20000000 Data=00000000
# UVM_INFO C:/Documents/DoAnThietKeViMach/Project/SoC/VERIFICATION/Monitor/cpu_monitor.sv(276) @ 5005000: uvm_test_top.env.agent.monitor [WB] x30 <= 00000000  (PC~00000100)
# UVM_INFO C:/Documents/DoAnThietKeViMach/Project/SoC/VERIFICATION/Monitor/cpu_monitor.sv(336) @ 5015000: uvm_test_top.env.agent.monitor [AXI_RD] CPU <- IRAM  Addr=00000104 Data=01e1a623 RRESP=00
# UVM_INFO C:/Documents/DoAnThietKeViMach/Project/SoC/VERIFICATION/Monitor/cpu_monitor.sv(230) @ 5015000: uvm_test_top.env.agent.monitor [IF] PC=00000104  INSTR=01e1a623  [SW   x30, 30(x3)]            
# UVM_INFO C:/Documents/DoAnThietKeViMach/Project/SoC/VERIFICATION/Monitor/cpu_monitor.sv(251) @ 5015000: uvm_test_top.env.agent.monitor [MEM] STORE Addr=20000000 Data=00000000
# UVM_INFO C:/Documents/DoAnThietKeViMach/Project/SoC/VERIFICATION/Monitor/cpu_monitor.sv(276) @ 5015000: uvm_test_top.env.agent.monitor [WB] x30 <= 00000000  (PC~00000104)
# UVM_INFO C:/Documents/DoAnThietKeViMach/Project/SoC/VERIFICATION/Monitor/cpu_monitor.sv(336) @ 5055000: uvm_test_top.env.agent.monitor [AXI_RD] CPU <- IRAM  Addr=00000108 Data=00412383 RRESP=00
# UVM_INFO C:/Documents/DoAnThietKeViMach/Project/SoC/VERIFICATION/Monitor/cpu_monitor.sv(230) @ 5055000: uvm_test_top.env.agent.monitor [IF] PC=00000108  INSTR=00412383  [LW   x7, 4(x2)]            
# UVM_INFO C:/Documents/DoAnThietKeViMach/Project/SoC/VERIFICATION/Monitor/cpu_monitor.sv(276) @ 5065000: uvm_test_top.env.agent.monitor [WB] x28 <= 000005f4  (PC~00000108)
# UVM_INFO C:/Documents/DoAnThietKeViMach/Project/SoC/VERIFICATION/Monitor/cpu_monitor.sv(276) @ 5075000: uvm_test_top.env.agent.monitor [WB] x28 <= 000005f4  (PC~00000108)
# UVM_INFO C:/Documents/DoAnThietKeViMach/Project/SoC/VERIFICATION/Monitor/cpu_monitor.sv(276) @ 5085000: uvm_test_top.env.agent.monitor [WB] x28 <= 000005f4  (PC~00000108)
# UVM_INFO C:/Documents/DoAnThietKeViMach/Project/SoC/VERIFICATION/Monitor/cpu_monitor.sv(336) @ 5095000: uvm_test_top.env.agent.monitor [AXI_RD] CPU <- IRAM  Addr=0000010c Data=00412f03 RRESP=00
# UVM_INFO C:/Documents/DoAnThietKeViMach/Project/SoC/VERIFICATION/Monitor/cpu_monitor.sv(230) @ 5095000: uvm_test_top.env.agent.monitor [IF] PC=0000010c  INSTR=00412f03  [LW   x30, 4(x2)]            
# UVM_INFO C:/Documents/DoAnThietKeViMach/Project/SoC/VERIFICATION/Monitor/cpu_monitor.sv(276) @ 5095000: uvm_test_top.env.agent.monitor [WB] x28 <= 000005f4  (PC~0000010c)
# UVM_INFO C:/Documents/DoAnThietKeViMach/Project/SoC/VERIFICATION/Monitor/cpu_monitor.sv(251) @ 5105000: uvm_test_top.env.agent.monitor [MEM] STORE Addr=3000000c Data=00000000
# UVM_INFO C:/Documents/DoAnThietKeViMach/Project/SoC/VERIFICATION/Monitor/cpu_monitor.sv(251) @ 5115000: uvm_test_top.env.agent.monitor [MEM] STORE Addr=3000000c Data=00000000
# UVM_INFO C:/Documents/DoAnThietKeViMach/Project/SoC/VERIFICATION/Monitor/cpu_monitor.sv(251) @ 5125000: uvm_test_top.env.agent.monitor [MEM] STORE Addr=3000000c Data=00000000
# UVM_INFO C:/Documents/DoAnThietKeViMach/Project/SoC/VERIFICATION/Monitor/cpu_monitor.sv(310) @ 5135000: uvm_test_top.env.agent.monitor [AXI_WR] CPU -> UART  Addr=3000000c Data=00000000 Strb=1111 BRESP=00
# UVM_INFO C:/Documents/DoAnThietKeViMach/Project/SoC/VERIFICATION/Scoreboard/cpu_scoreboard.sv(250) @ 5135000: uvm_test_top.env.scoreboard [SCB_PERIPH] [UART] WRITE Addr=3000000c Data=00000000
# UVM_INFO C:/Documents/DoAnThietKeViMach/Project/SoC/VERIFICATION/Monitor/cpu_monitor.sv(251) @ 5135000: uvm_test_top.env.agent.monitor [MEM] STORE Addr=3000000c Data=00000000
# UVM_INFO C:/Documents/DoAnThietKeViMach/Project/SoC/VERIFICATION/Monitor/cpu_monitor.sv(276) @ 5135000: uvm_test_top.env.agent.monitor [WB] x21 <= 00000001  (PC~0000010c)
# UVM_INFO C:/Documents/DoAnThietKeViMach/Project/SoC/VERIFICATION/Monitor/cpu_monitor.sv(251) @ 5145000: uvm_test_top.env.agent.monitor [MEM] STORE Addr=3000000c Data=00000000
# UVM_INFO C:/Documents/DoAnThietKeViMach/Project/SoC/VERIFICATION/Monitor/cpu_monitor.sv(276) @ 5145000: uvm_test_top.env.agent.monitor [WB] x21 <= 00000001  (PC~0000010c)
# UVM_INFO C:/Documents/DoAnThietKeViMach/Project/SoC/VERIFICATION/Monitor/cpu_monitor.sv(251) @ 5155000: uvm_test_top.env.agent.monitor [MEM] STORE Addr=3000000c Data=00000000
# UVM_INFO C:/Documents/DoAnThietKeViMach/Project/SoC/VERIFICATION/Monitor/cpu_monitor.sv(276) @ 5155000: uvm_test_top.env.agent.monitor [WB] x21 <= 00000001  (PC~0000010c)
