# vsim +UVM_TESTNAME=spi_test -coverage -do {coverage save -onexit spi_coverage.ucdb; run -all; quit} -c spi_vopt 
# //  Questa Sim-64
# //  Version 10.2c Unknown Platform Jul 19 2013
# //
# //  Copyright 1991-2013 Mentor Graphics Corporation
# //  All Rights Reserved.
# //
# //  THIS WORK CONTAINS TRADE SECRET AND PROPRIETARY INFORMATION
# //  WHICH IS THE PROPERTY OF MENTOR GRAPHICS CORPORATION OR ITS
# //  LICENSORS AND IS SUBJECT TO LICENSE TERMS.
# //
# Loading sv_std.std
# Loading mtiUvm.uvm_pkg
# Loading work.spi_pkg(fast)
# Loading work.spi_top_tb(fast)
# Loading work.clk_rst_inf(fast)
# Loading work.soc_inf(fast)
# Loading work.SPI(fast)
# Loading work.spi_sva(fast)
# Loading mtiUvm.questa_uvm_pkg(fast)
# Loading C:/app/QuestaSim/uvm-1.1d\win64\uvm_dpi.dll
# coverage save -onexit spi_coverage.ucdb 
#  run -all 
# ----------------------------------------------------------------
# UVM-1.1d
# (C) 2007-2013 Mentor Graphics Corporation
# (C) 2007-2013 Cadence Design Systems, Inc.
# (C) 2006-2013 Synopsys, Inc.
# (C) 2011-2013 Cypress Semiconductor Corp.
# ----------------------------------------------------------------
# 
#   ***********       IMPORTANT RELEASE NOTES         ************
# 
#   You are using a version of the UVM library that has been compiled
#   with `UVM_NO_DEPRECATED undefined.
#   See http://www.eda.org/svdb/view.php?id=3313 for more details.
# 
#   You are using a version of the UVM library that has been compiled
#   with `UVM_OBJECT_MUST_HAVE_CONSTRUCTOR undefined.
#   See http://www.eda.org/svdb/view.php?id=3770 for more details.
# 
#       (Specify +UVM_NO_RELNOTES to turn off this notice)
# 
# UVM_INFO verilog_src/questa_uvm_pkg-1.2/src/questa_uvm_pkg.sv(215) @ 0: reporter [Questa UVM] QUESTA_UVM-1.2.2
# UVM_INFO verilog_src/questa_uvm_pkg-1.2/src/questa_uvm_pkg.sv(217) @ 0: reporter [Questa UVM]  questa_uvm::init(+struct)
# UVM_INFO @ 0: reporter [RNTST] Running test spi_test...
# UVM_INFO C:/Documents/DoAnThietKeViMach/Project/SoC/VERIFICATION/Sequence/spi_sequence.sv(10) @ 35000: uvm_test_top.env.agent.sequencer@@seq [SPI_SEQ] Start SPI directed + random sequence
# UVM_INFO C:/Documents/DoAnThietKeViMach/Project/SoC/VERIFICATION/Monitor/spi_monitor.sv(71) @ 65000: uvm_test_top.env.agent.monitor [SPI_MON_AXI] READ addr=40000000 data=00000000 prot=000 resp=00
# UVM_INFO C:/Documents/DoAnThietKeViMach/Project/SoC/VERIFICATION/Scoreboard/spi_scoreboard.sv(128) @ 65000: uvm_test_top.env.scoreboard [SPI_SCB] DATA RX READ no expected rx, got=00000000
# UVM_INFO C:/Documents/DoAnThietKeViMach/Project/SoC/VERIFICATION/Monitor/spi_monitor.sv(71) @ 105000: uvm_test_top.env.agent.monitor [SPI_MON_AXI] READ addr=40000004 data=00000008 prot=000 resp=00
# UVM_INFO C:/Documents/DoAnThietKeViMach/Project/SoC/VERIFICATION/Scoreboard/spi_scoreboard.sv(139) @ 105000: uvm_test_top.env.scoreboard [SPI_SCB] CTRL READ PASS got=00000008
# UVM_INFO C:/Documents/DoAnThietKeViMach/Project/SoC/VERIFICATION/Monitor/spi_monitor.sv(71) @ 145000: uvm_test_top.env.agent.monitor [SPI_MON_AXI] READ addr=40000008 data=00000000 prot=000 resp=00
# UVM_INFO C:/Documents/DoAnThietKeViMach/Project/SoC/VERIFICATION/Scoreboard/spi_scoreboard.sv(150) @ 145000: uvm_test_top.env.scoreboard [SPI_SCB] STATUS PASS got=00000000
# UVM_INFO C:/Documents/DoAnThietKeViMach/Project/SoC/VERIFICATION/Monitor/spi_monitor.sv(71) @ 185000: uvm_test_top.env.agent.monitor [SPI_MON_AXI] READ addr=4000000c data=0000000a prot=000 resp=00
# UVM_INFO C:/Documents/DoAnThietKeViMach/Project/SoC/VERIFICATION/Scoreboard/spi_scoreboard.sv(161) @ 185000: uvm_test_top.env.scoreboard [SPI_SCB] BAUD READ PASS got=0000000a
# UVM_INFO C:/Documents/DoAnThietKeViMach/Project/SoC/VERIFICATION/Monitor/spi_monitor.sv(57) @ 215000: uvm_test_top.env.agent.monitor [SPI_MON_AXI] WRITE addr=40000000 data=000000a5 prot=001 strb=1111 start=0
# UVM_INFO C:/Documents/DoAnThietKeViMach/Project/SoC/VERIFICATION/Scoreboard/spi_scoreboard.sv(72) @ 215000: uvm_test_top.env.scoreboard [SPI_SCB] DATA WRITE PASS tx=a5
# UVM_INFO C:/Documents/DoAnThietKeViMach/Project/SoC/VERIFICATION/Scoreboard/spi_scoreboard.sv(41) @ 255000: uvm_test_top.env.scoreboard [SPI_SCB] EXPECT TRANSFER rx=3c
# UVM_INFO C:/Documents/DoAnThietKeViMach/Project/SoC/VERIFICATION/Monitor/spi_monitor.sv(57) @ 255000: uvm_test_top.env.agent.monitor [SPI_MON_AXI] WRITE addr=40000004 data=00000001 prot=001 strb=1111 start=1
# UVM_INFO C:/Documents/DoAnThietKeViMach/Project/SoC/VERIFICATION/Scoreboard/spi_scoreboard.sv(79) @ 255000: uvm_test_top.env.scoreboard [SPI_SCB] CTRL START WRITE data=00000001
# UVM_INFO C:/Documents/DoAnThietKeViMach/Project/SoC/VERIFICATION/Monitor/spi_monitor.sv(71) @ 1935000: uvm_test_top.env.agent.monitor [SPI_MON_AXI] READ addr=40000008 data=00000001 prot=001 resp=00
# UVM_INFO C:/Documents/DoAnThietKeViMach/Project/SoC/VERIFICATION/Scoreboard/spi_scoreboard.sv(150) @ 1935000: uvm_test_top.env.scoreboard [SPI_SCB] STATUS PASS got=00000001
# UVM_INFO C:/Documents/DoAnThietKeViMach/Project/SoC/VERIFICATION/Monitor/spi_monitor.sv(71) @ 1975000: uvm_test_top.env.agent.monitor [SPI_MON_AXI] READ addr=40000008 data=00000001 prot=001 resp=00
# UVM_INFO C:/Documents/DoAnThietKeViMach/Project/SoC/VERIFICATION/Scoreboard/spi_scoreboard.sv(150) @ 1975000: uvm_test_top.env.scoreboard [SPI_SCB] STATUS PASS got=00000001
# UVM_INFO C:/Documents/DoAnThietKeViMach/Project/SoC/VERIFICATION/Monitor/spi_monitor.sv(71) @ 2015000: uvm_test_top.env.agent.monitor [SPI_MON_AXI] READ addr=40000008 data=00000001 prot=001 resp=00
# UVM_INFO C:/Documents/DoAnThietKeViMach/Project/SoC/VERIFICATION/Scoreboard/spi_scoreboard.sv(150) @ 2015000: uvm_test_top.env.scoreboard [SPI_SCB] STATUS PASS got=00000001
# UVM_INFO C:/Documents/DoAnThietKeViMach/Project/SoC/VERIFICATION/Monitor/spi_monitor.sv(71) @ 2055000: uvm_test_top.env.agent.monitor [SPI_MON_AXI] READ addr=40000008 data=00000000 prot=001 resp=00
# UVM_INFO C:/Documents/DoAnThietKeViMach/Project/SoC/VERIFICATION/Scoreboard/spi_scoreboard.sv(150) @ 2055000: uvm_test_top.env.scoreboard [SPI_SCB] STATUS PASS got=00000000
# UVM_INFO C:/Documents/DoAnThietKeViMach/Project/SoC/VERIFICATION/Monitor/spi_monitor.sv(71) @ 2095000: uvm_test_top.env.agent.monitor [SPI_MON_AXI] READ addr=40000008 data=00000000 prot=001 resp=00
# UVM_INFO C:/Documents/DoAnThietKeViMach/Project/SoC/VERIFICATION/Scoreboard/spi_scoreboard.sv(150) @ 2095000: uvm_test_top.env.scoreboard [SPI_SCB] STATUS PASS got=00000000
# UVM_INFO C:/Documents/DoAnThietKeViMach/Project/SoC/VERIFICATION/Monitor/spi_monitor.sv(71) @ 2135000: uvm_test_top.env.agent.monitor [SPI_MON_AXI] READ addr=40000008 data=00000000 prot=001 resp=00
# UVM_INFO C:/Documents/DoAnThietKeViMach/Project/SoC/VERIFICATION/Scoreboard/spi_scoreboard.sv(150) @ 2135000: uvm_test_top.env.scoreboard [SPI_SCB] STATUS PASS got=00000000
# UVM_INFO C:/Documents/DoAnThietKeViMach/Project/SoC/VERIFICATION/Monitor/spi_monitor.sv(71) @ 2175000: uvm_test_top.env.agent.monitor [SPI_MON_AXI] READ addr=40000008 data=00000000 prot=001 resp=00
# UVM_INFO C:/Documents/DoAnThietKeViMach/Project/SoC/VERIFICATION/Scoreboard/spi_scoreboard.sv(150) @ 2175000: uvm_test_top.env.scoreboard [SPI_SCB] STATUS PASS got=00000000
# UVM_INFO C:/Documents/DoAnThietKeViMach/Project/SoC/VERIFICATION/Monitor/spi_monitor.sv(71) @ 2215000: uvm_test_top.env.agent.monitor [SPI_MON_AXI] READ addr=40000008 data=00000000 prot=001 resp=00
# UVM_INFO C:/Documents/DoAnThietKeViMach/Project/SoC/VERIFICATION/Scoreboard/spi_scoreboard.sv(150) @ 2215000: uvm_test_top.env.scoreboard [SPI_SCB] STATUS PASS got=00000000
# UVM_INFO C:/Documents/DoAnThietKeViMach/Project/SoC/VERIFICATION/Monitor/spi_monitor.sv(71) @ 2255000: uvm_test_top.env.agent.monitor [SPI_MON_AXI] READ addr=40000008 data=00000000 prot=001 resp=00
# UVM_INFO C:/Documents/DoAnThietKeViMach/Project/SoC/VERIFICATION/Scoreboard/spi_scoreboard.sv(150) @ 2255000: uvm_test_top.env.scoreboard [SPI_SCB] STATUS PASS got=00000000
# UVM_INFO C:/Documents/DoAnThietKeViMach/Project/SoC/VERIFICATION/Monitor/spi_monitor.sv(71) @ 2295000: uvm_test_top.env.agent.monitor [SPI_MON_AXI] READ addr=40000008 data=00000000 prot=001 resp=00
# UVM_INFO C:/Documents/DoAnThietKeViMach/Project/SoC/VERIFICATION/Scoreboard/spi_scoreboard.sv(150) @ 2295000: uvm_test_top.env.scoreboard [SPI_SCB] STATUS PASS got=00000000
# UVM_INFO C:/Documents/DoAnThietKeViMach/Project/SoC/VERIFICATION/Monitor/spi_monitor.sv(71) @ 2335000: uvm_test_top.env.agent.monitor [SPI_MON_AXI] READ addr=40000008 data=00000000 prot=001 resp=00
# UVM_INFO C:/Documents/DoAnThietKeViMach/Project/SoC/VERIFICATION/Scoreboard/spi_scoreboard.sv(150) @ 2335000: uvm_test_top.env.scoreboard [SPI_SCB] STATUS PASS got=00000000
# UVM_INFO C:/Documents/DoAnThietKeViMach/Project/SoC/VERIFICATION/Monitor/spi_monitor.sv(71) @ 2375000: uvm_test_top.env.agent.monitor [SPI_MON_AXI] READ addr=40000008 data=00000000 prot=001 resp=00
# UVM_INFO C:/Documents/DoAnThietKeViMach/Project/SoC/VERIFICATION/Scoreboard/spi_scoreboard.sv(150) @ 2375000: uvm_test_top.env.scoreboard [SPI_SCB] STATUS PASS got=00000000
# UVM_INFO C:/Documents/DoAnThietKeViMach/Project/SoC/VERIFICATION/Monitor/spi_monitor.sv(71) @ 2415000: uvm_test_top.env.agent.monitor [SPI_MON_AXI] READ addr=40000008 data=00000000 prot=001 resp=00
# UVM_INFO C:/Documents/DoAnThietKeViMach/Project/SoC/VERIFICATION/Scoreboard/spi_scoreboard.sv(150) @ 2415000: uvm_test_top.env.scoreboard [SPI_SCB] STATUS PASS got=00000000
# UVM_INFO C:/Documents/DoAnThietKeViMach/Project/SoC/VERIFICATION/Monitor/spi_monitor.sv(71) @ 2455000: uvm_test_top.env.agent.monitor [SPI_MON_AXI] READ addr=40000008 data=00000000 prot=001 resp=00
# UVM_INFO C:/Documents/DoAnThietKeViMach/Project/SoC/VERIFICATION/Scoreboard/spi_scoreboard.sv(150) @ 2455000: uvm_test_top.env.scoreboard [SPI_SCB] STATUS PASS got=00000000
# UVM_INFO C:/Documents/DoAnThietKeViMach/Project/SoC/VERIFICATION/Monitor/spi_monitor.sv(71) @ 2495000: uvm_test_top.env.agent.monitor [SPI_MON_AXI] READ addr=40000008 data=00000000 prot=001 resp=00
# UVM_INFO C:/Documents/DoAnThietKeViMach/Project/SoC/VERIFICATION/Scoreboard/spi_scoreboard.sv(150) @ 2495000: uvm_test_top.env.scoreboard [SPI_SCB] STATUS PASS got=00000000
# UVM_INFO C:/Documents/DoAnThietKeViMach/Project/SoC/VERIFICATION/Monitor/spi_monitor.sv(71) @ 2535000: uvm_test_top.env.agent.monitor [SPI_MON_AXI] READ addr=40000008 data=00000000 prot=001 resp=00
# UVM_INFO C:/Documents/DoAnThietKeViMach/Project/SoC/VERIFICATION/Scoreboard/spi_scoreboard.sv(150) @ 2535000: uvm_test_top.env.scoreboard [SPI_SCB] STATUS PASS got=00000000
# UVM_INFO C:/Documents/DoAnThietKeViMach/Project/SoC/VERIFICATION/Monitor/spi_monitor.sv(71) @ 2575000: uvm_test_top.env.agent.monitor [SPI_MON_AXI] READ addr=40000008 data=00000000 prot=001 resp=00
# UVM_INFO C:/Documents/DoAnThietKeViMach/Project/SoC/VERIFICATION/Scoreboard/spi_scoreboard.sv(150) @ 2575000: uvm_test_top.env.scoreboard [SPI_SCB] STATUS PASS got=00000000
# UVM_INFO C:/Documents/DoAnThietKeViMach/Project/SoC/VERIFICATION/Monitor/spi_monitor.sv(71) @ 2615000: uvm_test_top.env.agent.monitor [SPI_MON_AXI] READ addr=40000008 data=00000000 prot=001 resp=00
# UVM_INFO C:/Documents/DoAnThietKeViMach/Project/SoC/VERIFICATION/Scoreboard/spi_scoreboard.sv(150) @ 2615000: uvm_test_top.env.scoreboard [SPI_SCB] STATUS PASS got=00000000
# UVM_INFO C:/Documents/DoAnThietKeViMach/Project/SoC/VERIFICATION/Monitor/spi_monitor.sv(71) @ 2655000: uvm_test_top.env.agent.monitor [SPI_MON_AXI] READ addr=40000008 data=00000000 prot=001 resp=00
# UVM_INFO C:/Documents/DoAnThietKeViMach/Project/SoC/VERIFICATION/Scoreboard/spi_scoreboard.sv(150) @ 2655000: uvm_test_top.env.scoreboard [SPI_SCB] STATUS PASS got=00000000
# UVM_INFO C:/Documents/DoAnThietKeViMach/Project/SoC/VERIFICATION/Monitor/spi_monitor.sv(71) @ 2695000: uvm_test_top.env.agent.monitor [SPI_MON_AXI] READ addr=40000008 data=00000000 prot=001 resp=00
# UVM_INFO C:/Documents/DoAnThietKeViMach/Project/SoC/VERIFICATION/Scoreboard/spi_scoreboard.sv(150) @ 2695000: uvm_test_top.env.scoreboard [SPI_SCB] STATUS PASS got=00000000
# UVM_INFO C:/Documents/DoAnThietKeViMach/Project/SoC/VERIFICATION/Monitor/spi_monitor.sv(71) @ 2735000: uvm_test_top.env.agent.monitor [SPI_MON_AXI] READ addr=40000000 data=0000003c prot=001 resp=00
# UVM_INFO C:/Documents/DoAnThietKeViMach/Project/SoC/VERIFICATION/Scoreboard/spi_scoreboard.sv(121) @ 2735000: uvm_test_top.env.scoreboard [SPI_SCB] DATA RX READ PASS got=0000003c
# UVM_INFO C:/Documents/DoAnThietKeViMach/Project/SoC/VERIFICATION/Monitor/spi_monitor.sv(106) @ 2755000: uvm_test_top.env.agent.monitor [SPI_MON_PIN] SPI transfer observed MOSI=a5 MISO=3c
# UVM_INFO C:/Documents/DoAnThietKeViMach/Project/SoC/VERIFICATION/Scoreboard/spi_scoreboard.sv(54) @ 2755000: uvm_test_top.env.scoreboard [SPI_SCB] PIN TRANSFER PASS miso=3c
# UVM_INFO C:/Documents/DoAnThietKeViMach/Project/SoC/VERIFICATION/Monitor/spi_monitor.sv(57) @ 2765000: uvm_test_top.env.agent.monitor [SPI_MON_AXI] WRITE addr=40000004 data=00000008 prot=001 strb=1111 start=0
# UVM_INFO C:/Documents/DoAnThietKeViMach/Project/SoC/VERIFICATION/Scoreboard/spi_scoreboard.sv(81) @ 2765000: uvm_test_top.env.scoreboard [SPI_SCB] CTRL WRITE PASS data=00000008
# UVM_INFO C:/Documents/DoAnThietKeViMach/Project/SoC/VERIFICATION/Monitor/spi_monitor.sv(57) @ 2805000: uvm_test_top.env.agent.monitor [SPI_MON_AXI] WRITE addr=40000000 data=00000000 prot=010 strb=1111 start=0
# UVM_INFO C:/Documents/DoAnThietKeViMach/Project/SoC/VERIFICATION/Scoreboard/spi_scoreboard.sv(72) @ 2805000: uvm_test_top.env.scoreboard [SPI_SCB] DATA WRITE PASS tx=00
# UVM_INFO C:/Documents/DoAnThietKeViMach/Project/SoC/VERIFICATION/Scoreboard/spi_scoreboard.sv(41) @ 2845000: uvm_test_top.env.scoreboard [SPI_SCB] EXPECT TRANSFER rx=00
# UVM_INFO C:/Documents/DoAnThietKeViMach/Project/SoC/VERIFICATION/Monitor/spi_monitor.sv(57) @ 2845000: uvm_test_top.env.agent.monitor [SPI_MON_AXI] WRITE addr=40000004 data=00000001 prot=010 strb=1111 start=1
# UVM_INFO C:/Documents/DoAnThietKeViMach/Project/SoC/VERIFICATION/Scoreboard/spi_scoreboard.sv(79) @ 2845000: uvm_test_top.env.scoreboard [SPI_SCB] CTRL START WRITE data=00000001
# UVM_INFO C:/Documents/DoAnThietKeViMach/Project/SoC/VERIFICATION/Monitor/spi_monitor.sv(71) @ 4525000: uvm_test_top.env.agent.monitor [SPI_MON_AXI] READ addr=40000008 data=00000001 prot=010 resp=00
# UVM_INFO C:/Documents/DoAnThietKeViMach/Project/SoC/VERIFICATION/Scoreboard/spi_scoreboard.sv(150) @ 4525000: uvm_test_top.env.scoreboard [SPI_SCB] STATUS PASS got=00000001
# UVM_INFO C:/Documents/DoAnThietKeViMach/Project/SoC/VERIFICATION/Monitor/spi_monitor.sv(71) @ 4565000: uvm_test_top.env.agent.monitor [SPI_MON_AXI] READ addr=40000008 data=00000001 prot=010 resp=00
# UVM_INFO C:/Documents/DoAnThietKeViMach/Project/SoC/VERIFICATION/Scoreboard/spi_scoreboard.sv(150) @ 4565000: uvm_test_top.env.scoreboard [SPI_SCB] STATUS PASS got=00000001
# UVM_INFO C:/Documents/DoAnThietKeViMach/Project/SoC/VERIFICATION/Monitor/spi_monitor.sv(71) @ 4605000: uvm_test_top.env.agent.monitor [SPI_MON_AXI] READ addr=40000008 data=00000001 prot=010 resp=00
# UVM_INFO C:/Documents/DoAnThietKeViMach/Project/SoC/VERIFICATION/Scoreboard/spi_scoreboard.sv(150) @ 4605000: uvm_test_top.env.scoreboard [SPI_SCB] STATUS PASS got=00000001
# UVM_INFO C:/Documents/DoAnThietKeViMach/Project/SoC/VERIFICATION/Monitor/spi_monitor.sv(71) @ 4645000: uvm_test_top.env.agent.monitor [SPI_MON_AXI] READ addr=40000008 data=00000000 prot=010 resp=00
# UVM_INFO C:/Documents/DoAnThietKeViMach/Project/SoC/VERIFICATION/Scoreboard/spi_scoreboard.sv(150) @ 4645000: uvm_test_top.env.scoreboard [SPI_SCB] STATUS PASS got=00000000
# UVM_INFO C:/Documents/DoAnThietKeViMach/Project/SoC/VERIFICATION/Monitor/spi_monitor.sv(71) @ 4685000: uvm_test_top.env.agent.monitor [SPI_MON_AXI] READ addr=40000008 data=00000000 prot=010 resp=00
# UVM_INFO C:/Documents/DoAnThietKeViMach/Project/SoC/VERIFICATION/Scoreboard/spi_scoreboard.sv(150) @ 4685000: uvm_test_top.env.scoreboard [SPI_SCB] STATUS PASS got=00000000
# UVM_INFO C:/Documents/DoAnThietKeViMach/Project/SoC/VERIFICATION/Monitor/spi_monitor.sv(71) @ 4725000: uvm_test_top.env.agent.monitor [SPI_MON_AXI] READ addr=40000008 data=00000000 prot=010 resp=00
# UVM_INFO C:/Documents/DoAnThietKeViMach/Project/SoC/VERIFICATION/Scoreboard/spi_scoreboard.sv(150) @ 4725000: uvm_test_top.env.scoreboard [SPI_SCB] STATUS PASS got=00000000
# UVM_INFO C:/Documents/DoAnThietKeViMach/Project/SoC/VERIFICATION/Monitor/spi_monitor.sv(71) @ 4765000: uvm_test_top.env.agent.monitor [SPI_MON_AXI] READ addr=40000008 data=00000000 prot=010 resp=00
# UVM_INFO C:/Documents/DoAnThietKeViMach/Project/SoC/VERIFICATION/Scoreboard/spi_scoreboard.sv(150) @ 4765000: uvm_test_top.env.scoreboard [SPI_SCB] STATUS PASS got=00000000
# UVM_INFO C:/Documents/DoAnThietKeViMach/Project/SoC/VERIFICATION/Monitor/spi_monitor.sv(71) @ 4805000: uvm_test_top.env.agent.monitor [SPI_MON_AXI] READ addr=40000008 data=00000000 prot=010 resp=00
# UVM_INFO C:/Documents/DoAnThietKeViMach/Project/SoC/VERIFICATION/Scoreboard/spi_scoreboard.sv(150) @ 4805000: uvm_test_top.env.scoreboard [SPI_SCB] STATUS PASS got=00000000
# UVM_INFO C:/Documents/DoAnThietKeViMach/Project/SoC/VERIFICATION/Monitor/spi_monitor.sv(71) @ 4845000: uvm_test_top.env.agent.monitor [SPI_MON_AXI] READ addr=40000008 data=00000000 prot=010 resp=00
# UVM_INFO C:/Documents/DoAnThietKeViMach/Project/SoC/VERIFICATION/Scoreboard/spi_scoreboard.sv(150) @ 4845000: uvm_test_top.env.scoreboard [SPI_SCB] STATUS PASS got=00000000
# UVM_INFO C:/Documents/DoAnThietKeViMach/Project/SoC/VERIFICATION/Monitor/spi_monitor.sv(71) @ 4885000: uvm_test_top.env.agent.monitor [SPI_MON_AXI] READ addr=40000008 data=00000000 prot=010 resp=00
# UVM_INFO C:/Documents/DoAnThietKeViMach/Project/SoC/VERIFICATION/Scoreboard/spi_scoreboard.sv(150) @ 4885000: uvm_test_top.env.scoreboard [SPI_SCB] STATUS PASS got=00000000
# UVM_INFO C:/Documents/DoAnThietKeViMach/Project/SoC/VERIFICATION/Monitor/spi_monitor.sv(71) @ 4925000: uvm_test_top.env.agent.monitor [SPI_MON_AXI] READ addr=40000008 data=00000000 prot=010 resp=00
# UVM_INFO C:/Documents/DoAnThietKeViMach/Project/SoC/VERIFICATION/Scoreboard/spi_scoreboard.sv(150) @ 4925000: uvm_test_top.env.scoreboard [SPI_SCB] STATUS PASS got=00000000
# UVM_INFO C:/Documents/DoAnThietKeViMach/Project/SoC/VERIFICATION/Monitor/spi_monitor.sv(71) @ 4965000: uvm_test_top.env.agent.monitor [SPI_MON_AXI] READ addr=40000008 data=00000000 prot=010 resp=00
# UVM_INFO C:/Documents/DoAnThietKeViMach/Project/SoC/VERIFICATION/Scoreboard/spi_scoreboard.sv(150) @ 4965000: uvm_test_top.env.scoreboard [SPI_SCB] STATUS PASS got=00000000
# UVM_INFO C:/Documents/DoAnThietKeViMach/Project/SoC/VERIFICATION/Monitor/spi_monitor.sv(71) @ 5005000: uvm_test_top.env.agent.monitor [SPI_MON_AXI] READ addr=40000008 data=00000000 prot=010 resp=00
# UVM_INFO C:/Documents/DoAnThietKeViMach/Project/SoC/VERIFICATION/Scoreboard/spi_scoreboard.sv(150) @ 5005000: uvm_test_top.env.scoreboard [SPI_SCB] STATUS PASS got=00000000
# UVM_INFO C:/Documents/DoAnThietKeViMach/Project/SoC/VERIFICATION/Monitor/spi_monitor.sv(71) @ 5045000: uvm_test_top.env.agent.monitor [SPI_MON_AXI] READ addr=40000008 data=00000000 prot=010 resp=00
# UVM_INFO C:/Documents/DoAnThietKeViMach/Project/SoC/VERIFICATION/Scoreboard/spi_scoreboard.sv(150) @ 5045000: uvm_test_top.env.scoreboard [SPI_SCB] STATUS PASS got=00000000
# UVM_INFO C:/Documents/DoAnThietKeViMach/Project/SoC/VERIFICATION/Monitor/spi_monitor.sv(71) @ 5085000: uvm_test_top.env.agent.monitor [SPI_MON_AXI] READ addr=40000008 data=00000000 prot=010 resp=00
# UVM_INFO C:/Documents/DoAnThietKeViMach/Project/SoC/VERIFICATION/Scoreboard/spi_scoreboard.sv(150) @ 5085000: uvm_test_top.env.scoreboard [SPI_SCB] STATUS PASS got=00000000
# UVM_INFO C:/Documents/DoAnThietKeViMach/Project/SoC/VERIFICATION/Monitor/spi_monitor.sv(71) @ 5125000: uvm_test_top.env.agent.monitor [SPI_MON_AXI] READ addr=40000008 data=00000000 prot=010 resp=00
# UVM_INFO C:/Documents/DoAnThietKeViMach/Project/SoC/VERIFICATION/Scoreboard/spi_scoreboard.sv(150) @ 5125000: uvm_test_top.env.scoreboard [SPI_SCB] STATUS PASS got=00000000
# UVM_INFO C:/Documents/DoAnThietKeViMach/Project/SoC/VERIFICATION/Monitor/spi_monitor.sv(71) @ 5165000: uvm_test_top.env.agent.monitor [SPI_MON_AXI] READ addr=40000008 data=00000000 prot=010 resp=00
# UVM_INFO C:/Documents/DoAnThietKeViMach/Project/SoC/VERIFICATION/Scoreboard/spi_scoreboard.sv(150) @ 5165000: uvm_test_top.env.scoreboard [SPI_SCB] STATUS PASS got=00000000
# UVM_INFO C:/Documents/DoAnThietKeViMach/Project/SoC/VERIFICATION/Monitor/spi_monitor.sv(71) @ 5205000: uvm_test_top.env.agent.monitor [SPI_MON_AXI] READ addr=40000008 data=00000000 prot=010 resp=00
# UVM_INFO C:/Documents/DoAnThietKeViMach/Project/SoC/VERIFICATION/Scoreboard/spi_scoreboard.sv(150) @ 5205000: uvm_test_top.env.scoreboard [SPI_SCB] STATUS PASS got=00000000
# UVM_INFO C:/Documents/DoAnThietKeViMach/Project/SoC/VERIFICATION/Monitor/spi_monitor.sv(71) @ 5245000: uvm_test_top.env.agent.monitor [SPI_MON_AXI] READ addr=40000008 data=00000000 prot=010 resp=00
# UVM_INFO C:/Documents/DoAnThietKeViMach/Project/SoC/VERIFICATION/Scoreboard/spi_scoreboard.sv(150) @ 5245000: uvm_test_top.env.scoreboard [SPI_SCB] STATUS PASS got=00000000
# UVM_INFO C:/Documents/DoAnThietKeViMach/Project/SoC/VERIFICATION/Monitor/spi_monitor.sv(71) @ 5285000: uvm_test_top.env.agent.monitor [SPI_MON_AXI] READ addr=40000008 data=00000000 prot=010 resp=00
# UVM_INFO C:/Documents/DoAnThietKeViMach/Project/SoC/VERIFICATION/Scoreboard/spi_scoreboard.sv(150) @ 5285000: uvm_test_top.env.scoreboard [SPI_SCB] STATUS PASS got=00000000
# UVM_INFO C:/Documents/DoAnThietKeViMach/Project/SoC/VERIFICATION/Monitor/spi_monitor.sv(71) @ 5325000: uvm_test_top.env.agent.monitor [SPI_MON_AXI] READ addr=40000000 data=00000000 prot=010 resp=00
# UVM_INFO C:/Documents/DoAnThietKeViMach/Project/SoC/VERIFICATION/Scoreboard/spi_scoreboard.sv(121) @ 5325000: uvm_test_top.env.scoreboard [SPI_SCB] DATA RX READ PASS got=00000000
# UVM_INFO C:/Documents/DoAnThietKeViMach/Project/SoC/VERIFICATION/Monitor/spi_monitor.sv(106) @ 5345000: uvm_test_top.env.agent.monitor [SPI_MON_PIN] SPI transfer observed MOSI=00 MISO=00
# UVM_INFO C:/Documents/DoAnThietKeViMach/Project/SoC/VERIFICATION/Scoreboard/spi_scoreboard.sv(54) @ 5345000: uvm_test_top.env.scoreboard [SPI_SCB] PIN TRANSFER PASS miso=00
# UVM_INFO C:/Documents/DoAnThietKeViMach/Project/SoC/VERIFICATION/Monitor/spi_monitor.sv(57) @ 5355000: uvm_test_top.env.agent.monitor [SPI_MON_AXI] WRITE addr=40000004 data=00000008 prot=010 strb=1111 start=0
# UVM_INFO C:/Documents/DoAnThietKeViMach/Project/SoC/VERIFICATION/Scoreboard/spi_scoreboard.sv(81) @ 5355000: uvm_test_top.env.scoreboard [SPI_SCB] CTRL WRITE PASS data=00000008
# UVM_INFO C:/Documents/DoAnThietKeViMach/Project/SoC/VERIFICATION/Monitor/spi_monitor.sv(57) @ 5395000: uvm_test_top.env.agent.monitor [SPI_MON_AXI] WRITE addr=40000000 data=000000ff prot=011 strb=1111 start=0
# UVM_INFO C:/Documents/DoAnThietKeViMach/Project/SoC/VERIFICATION/Scoreboard/spi_scoreboard.sv(72) @ 5395000: uvm_test_top.env.scoreboard [SPI_SCB] DATA WRITE PASS tx=ff
# UVM_INFO C:/Documents/DoAnThietKeViMach/Project/SoC/VERIFICATION/Scoreboard/spi_scoreboard.sv(41) @ 5435000: uvm_test_top.env.scoreboard [SPI_SCB] EXPECT TRANSFER rx=ff
# UVM_INFO C:/Documents/DoAnThietKeViMach/Project/SoC/VERIFICATION/Monitor/spi_monitor.sv(57) @ 5435000: uvm_test_top.env.agent.monitor [SPI_MON_AXI] WRITE addr=40000004 data=00000001 prot=011 strb=1111 start=1
# UVM_INFO C:/Documents/DoAnThietKeViMach/Project/SoC/VERIFICATION/Scoreboard/spi_scoreboard.sv(79) @ 5435000: uvm_test_top.env.scoreboard [SPI_SCB] CTRL START WRITE data=00000001
# UVM_INFO C:/Documents/DoAnThietKeViMach/Project/SoC/VERIFICATION/Monitor/spi_monitor.sv(71) @ 7115000: uvm_test_top.env.agent.monitor [SPI_MON_AXI] READ addr=40000008 data=00000001 prot=011 resp=00
# UVM_INFO C:/Documents/DoAnThietKeViMach/Project/SoC/VERIFICATION/Scoreboard/spi_scoreboard.sv(150) @ 7115000: uvm_test_top.env.scoreboard [SPI_SCB] STATUS PASS got=00000001
# UVM_INFO C:/Documents/DoAnThietKeViMach/Project/SoC/VERIFICATION/Monitor/spi_monitor.sv(71) @ 7155000: uvm_test_top.env.agent.monitor [SPI_MON_AXI] READ addr=40000008 data=00000001 prot=011 resp=00
# UVM_INFO C:/Documents/DoAnThietKeViMach/Project/SoC/VERIFICATION/Scoreboard/spi_scoreboard.sv(150) @ 7155000: uvm_test_top.env.scoreboard [SPI_SCB] STATUS PASS got=00000001
# UVM_INFO C:/Documents/DoAnThietKeViMach/Project/SoC/VERIFICATION/Monitor/spi_monitor.sv(71) @ 7195000: uvm_test_top.env.agent.monitor [SPI_MON_AXI] READ addr=40000008 data=00000001 prot=011 resp=00
# UVM_INFO C:/Documents/DoAnThietKeViMach/Project/SoC/VERIFICATION/Scoreboard/spi_scoreboard.sv(150) @ 7195000: uvm_test_top.env.scoreboard [SPI_SCB] STATUS PASS got=00000001
# UVM_INFO C:/Documents/DoAnThietKeViMach/Project/SoC/VERIFICATION/Monitor/spi_monitor.sv(71) @ 7235000: uvm_test_top.env.agent.monitor [SPI_MON_AXI] READ addr=40000008 data=00000000 prot=011 resp=00
# UVM_INFO C:/Documents/DoAnThietKeViMach/Project/SoC/VERIFICATION/Scoreboard/spi_scoreboard.sv(150) @ 7235000: uvm_test_top.env.scoreboard [SPI_SCB] STATUS PASS got=00000000
# UVM_INFO C:/Documents/DoAnThietKeViMach/Project/SoC/VERIFICATION/Monitor/spi_monitor.sv(71) @ 7275000: uvm_test_top.env.agent.monitor [SPI_MON_AXI] READ addr=40000008 data=00000000 prot=011 resp=00
# UVM_INFO C:/Documents/DoAnThietKeViMach/Project/SoC/VERIFICATION/Scoreboard/spi_scoreboard.sv(150) @ 7275000: uvm_test_top.env.scoreboard [SPI_SCB] STATUS PASS got=00000000
# UVM_INFO C:/Documents/DoAnThietKeViMach/Project/SoC/VERIFICATION/Monitor/spi_monitor.sv(71) @ 7315000: uvm_test_top.env.agent.monitor [SPI_MON_AXI] READ addr=40000008 data=00000000 prot=011 resp=00
# UVM_INFO C:/Documents/DoAnThietKeViMach/Project/SoC/VERIFICATION/Scoreboard/spi_scoreboard.sv(150) @ 7315000: uvm_test_top.env.scoreboard [SPI_SCB] STATUS PASS got=00000000
# UVM_INFO C:/Documents/DoAnThietKeViMach/Project/SoC/VERIFICATION/Monitor/spi_monitor.sv(71) @ 7355000: uvm_test_top.env.agent.monitor [SPI_MON_AXI] READ addr=40000008 data=00000000 prot=011 resp=00
# UVM_INFO C:/Documents/DoAnThietKeViMach/Project/SoC/VERIFICATION/Scoreboard/spi_scoreboard.sv(150) @ 7355000: uvm_test_top.env.scoreboard [SPI_SCB] STATUS PASS got=00000000
# UVM_INFO C:/Documents/DoAnThietKeViMach/Project/SoC/VERIFICATION/Monitor/spi_monitor.sv(71) @ 7395000: uvm_test_top.env.agent.monitor [SPI_MON_AXI] READ addr=40000008 data=00000000 prot=011 resp=00
# UVM_INFO C:/Documents/DoAnThietKeViMach/Project/SoC/VERIFICATION/Scoreboard/spi_scoreboard.sv(150) @ 7395000: uvm_test_top.env.scoreboard [SPI_SCB] STATUS PASS got=00000000
# UVM_INFO C:/Documents/DoAnThietKeViMach/Project/SoC/VERIFICATION/Monitor/spi_monitor.sv(71) @ 7435000: uvm_test_top.env.agent.monitor [SPI_MON_AXI] READ addr=40000008 data=00000000 prot=011 resp=00
# UVM_INFO C:/Documents/DoAnThietKeViMach/Project/SoC/VERIFICATION/Scoreboard/spi_scoreboard.sv(150) @ 7435000: uvm_test_top.env.scoreboard [SPI_SCB] STATUS PASS got=00000000
# UVM_INFO C:/Documents/DoAnThietKeViMach/Project/SoC/VERIFICATION/Monitor/spi_monitor.sv(71) @ 7475000: uvm_test_top.env.agent.monitor [SPI_MON_AXI] READ addr=40000008 data=00000000 prot=011 resp=00
# UVM_INFO C:/Documents/DoAnThietKeViMach/Project/SoC/VERIFICATION/Scoreboard/spi_scoreboard.sv(150) @ 7475000: uvm_test_top.env.scoreboard [SPI_SCB] STATUS PASS got=00000000
# UVM_INFO C:/Documents/DoAnThietKeViMach/Project/SoC/VERIFICATION/Monitor/spi_monitor.sv(71) @ 7515000: uvm_test_top.env.agent.monitor [SPI_MON_AXI] READ addr=40000008 data=00000000 prot=011 resp=00
# UVM_INFO C:/Documents/DoAnThietKeViMach/Project/SoC/VERIFICATION/Scoreboard/spi_scoreboard.sv(150) @ 7515000: uvm_test_top.env.scoreboard [SPI_SCB] STATUS PASS got=00000000
# UVM_INFO C:/Documents/DoAnThietKeViMach/Project/SoC/VERIFICATION/Monitor/spi_monitor.sv(71) @ 7555000: uvm_test_top.env.agent.monitor [SPI_MON_AXI] READ addr=40000008 data=00000000 prot=011 resp=00
# UVM_INFO C:/Documents/DoAnThietKeViMach/Project/SoC/VERIFICATION/Scoreboard/spi_scoreboard.sv(150) @ 7555000: uvm_test_top.env.scoreboard [SPI_SCB] STATUS PASS got=00000000
# UVM_INFO C:/Documents/DoAnThietKeViMach/Project/SoC/VERIFICATION/Monitor/spi_monitor.sv(71) @ 7595000: uvm_test_top.env.agent.monitor [SPI_MON_AXI] READ addr=40000008 data=00000000 prot=011 resp=00
# UVM_INFO C:/Documents/DoAnThietKeViMach/Project/SoC/VERIFICATION/Scoreboard/spi_scoreboard.sv(150) @ 7595000: uvm_test_top.env.scoreboard [SPI_SCB] STATUS PASS got=00000000
# UVM_INFO C:/Documents/DoAnThietKeViMach/Project/SoC/VERIFICATION/Monitor/spi_monitor.sv(71) @ 7635000: uvm_test_top.env.agent.monitor [SPI_MON_AXI] READ addr=40000008 data=00000000 prot=011 resp=00
# UVM_INFO C:/Documents/DoAnThietKeViMach/Project/SoC/VERIFICATION/Scoreboard/spi_scoreboard.sv(150) @ 7635000: uvm_test_top.env.scoreboard [SPI_SCB] STATUS PASS got=00000000
# UVM_INFO C:/Documents/DoAnThietKeViMach/Project/SoC/VERIFICATION/Monitor/spi_monitor.sv(71) @ 7675000: uvm_test_top.env.agent.monitor [SPI_MON_AXI] READ addr=40000008 data=00000000 prot=011 resp=00
# UVM_INFO C:/Documents/DoAnThietKeViMach/Project/SoC/VERIFICATION/Scoreboard/spi_scoreboard.sv(150) @ 7675000: uvm_test_top.env.scoreboard [SPI_SCB] STATUS PASS got=00000000
# UVM_INFO C:/Documents/DoAnThietKeViMach/Project/SoC/VERIFICATION/Monitor/spi_monitor.sv(71) @ 7715000: uvm_test_top.env.agent.monitor [SPI_MON_AXI] READ addr=40000008 data=00000000 prot=011 resp=00
# UVM_INFO C:/Documents/DoAnThietKeViMach/Project/SoC/VERIFICATION/Scoreboard/spi_scoreboard.sv(150) @ 7715000: uvm_test_top.env.scoreboard [SPI_SCB] STATUS PASS got=00000000
# UVM_INFO C:/Documents/DoAnThietKeViMach/Project/SoC/VERIFICATION/Monitor/spi_monitor.sv(71) @ 7755000: uvm_test_top.env.agent.monitor [SPI_MON_AXI] READ addr=40000008 data=00000000 prot=011 resp=00
# UVM_INFO C:/Documents/DoAnThietKeViMach/Project/SoC/VERIFICATION/Scoreboard/spi_scoreboard.sv(150) @ 7755000: uvm_test_top.env.scoreboard [SPI_SCB] STATUS PASS got=00000000
# UVM_INFO C:/Documents/DoAnThietKeViMach/Project/SoC/VERIFICATION/Monitor/spi_monitor.sv(71) @ 7795000: uvm_test_top.env.agent.monitor [SPI_MON_AXI] READ addr=40000008 data=00000000 prot=011 resp=00
# UVM_INFO C:/Documents/DoAnThietKeViMach/Project/SoC/VERIFICATION/Scoreboard/spi_scoreboard.sv(150) @ 7795000: uvm_test_top.env.scoreboard [SPI_SCB] STATUS PASS got=00000000
# UVM_INFO C:/Documents/DoAnThietKeViMach/Project/SoC/VERIFICATION/Monitor/spi_monitor.sv(71) @ 7835000: uvm_test_top.env.agent.monitor [SPI_MON_AXI] READ addr=40000008 data=00000000 prot=011 resp=00
# UVM_INFO C:/Documents/DoAnThietKeViMach/Project/SoC/VERIFICATION/Scoreboard/spi_scoreboard.sv(150) @ 7835000: uvm_test_top.env.scoreboard [SPI_SCB] STATUS PASS got=00000000
# UVM_INFO C:/Documents/DoAnThietKeViMach/Project/SoC/VERIFICATION/Monitor/spi_monitor.sv(71) @ 7875000: uvm_test_top.env.agent.monitor [SPI_MON_AXI] READ addr=40000008 data=00000000 prot=011 resp=00
# UVM_INFO C:/Documents/DoAnThietKeViMach/Project/SoC/VERIFICATION/Scoreboard/spi_scoreboard.sv(150) @ 7875000: uvm_test_top.env.scoreboard [SPI_SCB] STATUS PASS got=00000000
# UVM_INFO C:/Documents/DoAnThietKeViMach/Project/SoC/VERIFICATION/Monitor/spi_monitor.sv(71) @ 7915000: uvm_test_top.env.agent.monitor [SPI_MON_AXI] READ addr=40000000 data=000000ff prot=011 resp=00
# UVM_INFO C:/Documents/DoAnThietKeViMach/Project/SoC/VERIFICATION/Scoreboard/spi_scoreboard.sv(121) @ 7915000: uvm_test_top.env.scoreboard [SPI_SCB] DATA RX READ PASS got=000000ff
# UVM_INFO C:/Documents/DoAnThietKeViMach/Project/SoC/VERIFICATION/Monitor/spi_monitor.sv(106) @ 7935000: uvm_test_top.env.agent.monitor [SPI_MON_PIN] SPI transfer observed MOSI=ff MISO=ff
# UVM_INFO C:/Documents/DoAnThietKeViMach/Project/SoC/VERIFICATION/Scoreboard/spi_scoreboard.sv(54) @ 7935000: uvm_test_top.env.scoreboard [SPI_SCB] PIN TRANSFER PASS miso=ff
# UVM_INFO C:/Documents/DoAnThietKeViMach/Project/SoC/VERIFICATION/Monitor/spi_monitor.sv(57) @ 7945000: uvm_test_top.env.agent.monitor [SPI_MON_AXI] WRITE addr=40000004 data=00000008 prot=011 strb=1111 start=0
# UVM_INFO C:/Documents/DoAnThietKeViMach/Project/SoC/VERIFICATION/Scoreboard/spi_scoreboard.sv(81) @ 7945000: uvm_test_top.env.scoreboard [SPI_SCB] CTRL WRITE PASS data=00000008
# UVM_INFO C:/Documents/DoAnThietKeViMach/Project/SoC/VERIFICATION/Monitor/spi_monitor.sv(57) @ 7985000: uvm_test_top.env.agent.monitor [SPI_MON_AXI] WRITE addr=40000000 data=00000055 prot=100 strb=1111 start=0
# UVM_INFO C:/Documents/DoAnThietKeViMach/Project/SoC/VERIFICATION/Scoreboard/spi_scoreboard.sv(72) @ 7985000: uvm_test_top.env.scoreboard [SPI_SCB] DATA WRITE PASS tx=55
# UVM_INFO C:/Documents/DoAnThietKeViMach/Project/SoC/VERIFICATION/Scoreboard/spi_scoreboard.sv(41) @ 8025000: uvm_test_top.env.scoreboard [SPI_SCB] EXPECT TRANSFER rx=aa
# UVM_INFO C:/Documents/DoAnThietKeViMach/Project/SoC/VERIFICATION/Monitor/spi_monitor.sv(57) @ 8025000: uvm_test_top.env.agent.monitor [SPI_MON_AXI] WRITE addr=40000004 data=00000001 prot=100 strb=1111 start=1
# UVM_INFO C:/Documents/DoAnThietKeViMach/Project/SoC/VERIFICATION/Scoreboard/spi_scoreboard.sv(79) @ 8025000: uvm_test_top.env.scoreboard [SPI_SCB] CTRL START WRITE data=00000001
# UVM_INFO C:/Documents/DoAnThietKeViMach/Project/SoC/VERIFICATION/Monitor/spi_monitor.sv(71) @ 9705000: uvm_test_top.env.agent.monitor [SPI_MON_AXI] READ addr=40000008 data=00000001 prot=100 resp=00
# UVM_INFO C:/Documents/DoAnThietKeViMach/Project/SoC/VERIFICATION/Scoreboard/spi_scoreboard.sv(150) @ 9705000: uvm_test_top.env.scoreboard [SPI_SCB] STATUS PASS got=00000001
# UVM_INFO C:/Documents/DoAnThietKeViMach/Project/SoC/VERIFICATION/Monitor/spi_monitor.sv(71) @ 9745000: uvm_test_top.env.agent.monitor [SPI_MON_AXI] READ addr=40000008 data=00000001 prot=100 resp=00
# UVM_INFO C:/Documents/DoAnThietKeViMach/Project/SoC/VERIFICATION/Scoreboard/spi_scoreboard.sv(150) @ 9745000: uvm_test_top.env.scoreboard [SPI_SCB] STATUS PASS got=00000001
# UVM_INFO C:/Documents/DoAnThietKeViMach/Project/SoC/VERIFICATION/Monitor/spi_monitor.sv(71) @ 9785000: uvm_test_top.env.agent.monitor [SPI_MON_AXI] READ addr=40000008 data=00000001 prot=100 resp=00
# UVM_INFO C:/Documents/DoAnThietKeViMach/Project/SoC/VERIFICATION/Scoreboard/spi_scoreboard.sv(150) @ 9785000: uvm_test_top.env.scoreboard [SPI_SCB] STATUS PASS got=00000001
# UVM_INFO C:/Documents/DoAnThietKeViMach/Project/SoC/VERIFICATION/Monitor/spi_monitor.sv(71) @ 9825000: uvm_test_top.env.agent.monitor [SPI_MON_AXI] READ addr=40000008 data=00000000 prot=100 resp=00
# UVM_INFO C:/Documents/DoAnThietKeViMach/Project/SoC/VERIFICATION/Scoreboard/spi_scoreboard.sv(150) @ 9825000: uvm_test_top.env.scoreboard [SPI_SCB] STATUS PASS got=00000000
# UVM_INFO C:/Documents/DoAnThietKeViMach/Project/SoC/VERIFICATION/Monitor/spi_monitor.sv(71) @ 9865000: uvm_test_top.env.agent.monitor [SPI_MON_AXI] READ addr=40000008 data=00000000 prot=100 resp=00
# UVM_INFO C:/Documents/DoAnThietKeViMach/Project/SoC/VERIFICATION/Scoreboard/spi_scoreboard.sv(150) @ 9865000: uvm_test_top.env.scoreboard [SPI_SCB] STATUS PASS got=00000000
# UVM_INFO C:/Documents/DoAnThietKeViMach/Project/SoC/VERIFICATION/Monitor/spi_monitor.sv(71) @ 9905000: uvm_test_top.env.agent.monitor [SPI_MON_AXI] READ addr=40000008 data=00000000 prot=100 resp=00
# UVM_INFO C:/Documents/DoAnThietKeViMach/Project/SoC/VERIFICATION/Scoreboard/spi_scoreboard.sv(150) @ 9905000: uvm_test_top.env.scoreboard [SPI_SCB] STATUS PASS got=00000000
# UVM_INFO C:/Documents/DoAnThietKeViMach/Project/SoC/VERIFICATION/Monitor/spi_monitor.sv(71) @ 9945000: uvm_test_top.env.agent.monitor [SPI_MON_AXI] READ addr=40000008 data=00000000 prot=100 resp=00
# UVM_INFO C:/Documents/DoAnThietKeViMach/Project/SoC/VERIFICATION/Scoreboard/spi_scoreboard.sv(150) @ 9945000: uvm_test_top.env.scoreboard [SPI_SCB] STATUS PASS got=00000000
# UVM_INFO C:/Documents/DoAnThietKeViMach/Project/SoC/VERIFICATION/Monitor/spi_monitor.sv(71) @ 9985000: uvm_test_top.env.agent.monitor [SPI_MON_AXI] READ addr=40000008 data=00000000 prot=100 resp=00
# UVM_INFO C:/Documents/DoAnThietKeViMach/Project/SoC/VERIFICATION/Scoreboard/spi_scoreboard.sv(150) @ 9985000: uvm_test_top.env.scoreboard [SPI_SCB] STATUS PASS got=00000000
# UVM_INFO C:/Documents/DoAnThietKeViMach/Project/SoC/VERIFICATION/Monitor/spi_monitor.sv(71) @ 10025000: uvm_test_top.env.agent.monitor [SPI_MON_AXI] READ addr=40000008 data=00000000 prot=100 resp=00
# UVM_INFO C:/Documents/DoAnThietKeViMach/Project/SoC/VERIFICATION/Scoreboard/spi_scoreboard.sv(150) @ 10025000: uvm_test_top.env.scoreboard [SPI_SCB] STATUS PASS got=00000000
# UVM_INFO C:/Documents/DoAnThietKeViMach/Project/SoC/VERIFICATION/Monitor/spi_monitor.sv(71) @ 10065000: uvm_test_top.env.agent.monitor [SPI_MON_AXI] READ addr=40000008 data=00000000 prot=100 resp=00
# UVM_INFO C:/Documents/DoAnThietKeViMach/Project/SoC/VERIFICATION/Scoreboard/spi_scoreboard.sv(150) @ 10065000: uvm_test_top.env.scoreboard [SPI_SCB] STATUS PASS got=00000000
# UVM_INFO C:/Documents/DoAnThietKeViMach/Project/SoC/VERIFICATION/Monitor/spi_monitor.sv(71) @ 10105000: uvm_test_top.env.agent.monitor [SPI_MON_AXI] READ addr=40000008 data=00000000 prot=100 resp=00
# UVM_INFO C:/Documents/DoAnThietKeViMach/Project/SoC/VERIFICATION/Scoreboard/spi_scoreboard.sv(150) @ 10105000: uvm_test_top.env.scoreboard [SPI_SCB] STATUS PASS got=00000000
# UVM_INFO C:/Documents/DoAnThietKeViMach/Project/SoC/VERIFICATION/Monitor/spi_monitor.sv(71) @ 10145000: uvm_test_top.env.agent.monitor [SPI_MON_AXI] READ addr=40000008 data=00000000 prot=100 resp=00
# UVM_INFO C:/Documents/DoAnThietKeViMach/Project/SoC/VERIFICATION/Scoreboard/spi_scoreboard.sv(150) @ 10145000: uvm_test_top.env.scoreboard [SPI_SCB] STATUS PASS got=00000000
# UVM_INFO C:/Documents/DoAnThietKeViMach/Project/SoC/VERIFICATION/Monitor/spi_monitor.sv(71) @ 10185000: uvm_test_top.env.agent.monitor [SPI_MON_AXI] READ addr=40000008 data=00000000 prot=100 resp=00
# UVM_INFO C:/Documents/DoAnThietKeViMach/Project/SoC/VERIFICATION/Scoreboard/spi_scoreboard.sv(150) @ 10185000: uvm_test_top.env.scoreboard [SPI_SCB] STATUS PASS got=00000000
# UVM_INFO C:/Documents/DoAnThietKeViMach/Project/SoC/VERIFICATION/Monitor/spi_monitor.sv(71) @ 10225000: uvm_test_top.env.agent.monitor [SPI_MON_AXI] READ addr=40000008 data=00000000 prot=100 resp=00
# UVM_INFO C:/Documents/DoAnThietKeViMach/Project/SoC/VERIFICATION/Scoreboard/spi_scoreboard.sv(150) @ 10225000: uvm_test_top.env.scoreboard [SPI_SCB] STATUS PASS got=00000000
# UVM_INFO C:/Documents/DoAnThietKeViMach/Project/SoC/VERIFICATION/Monitor/spi_monitor.sv(71) @ 10265000: uvm_test_top.env.agent.monitor [SPI_MON_AXI] READ addr=40000008 data=00000000 prot=100 resp=00
# UVM_INFO C:/Documents/DoAnThietKeViMach/Project/SoC/VERIFICATION/Scoreboard/spi_scoreboard.sv(150) @ 10265000: uvm_test_top.env.scoreboard [SPI_SCB] STATUS PASS got=00000000
# UVM_INFO C:/Documents/DoAnThietKeViMach/Project/SoC/VERIFICATION/Monitor/spi_monitor.sv(71) @ 10305000: uvm_test_top.env.agent.monitor [SPI_MON_AXI] READ addr=40000008 data=00000000 prot=100 resp=00
# UVM_INFO C:/Documents/DoAnThietKeViMach/Project/SoC/VERIFICATION/Scoreboard/spi_scoreboard.sv(150) @ 10305000: uvm_test_top.env.scoreboard [SPI_SCB] STATUS PASS got=00000000
# UVM_INFO C:/Documents/DoAnThietKeViMach/Project/SoC/VERIFICATION/Monitor/spi_monitor.sv(71) @ 10345000: uvm_test_top.env.agent.monitor [SPI_MON_AXI] READ addr=40000008 data=00000000 prot=100 resp=00
# UVM_INFO C:/Documents/DoAnThietKeViMach/Project/SoC/VERIFICATION/Scoreboard/spi_scoreboard.sv(150) @ 10345000: uvm_test_top.env.scoreboard [SPI_SCB] STATUS PASS got=00000000
# UVM_INFO C:/Documents/DoAnThietKeViMach/Project/SoC/VERIFICATION/Monitor/spi_monitor.sv(71) @ 10385000: uvm_test_top.env.agent.monitor [SPI_MON_AXI] READ addr=40000008 data=00000000 prot=100 resp=00
# UVM_INFO C:/Documents/DoAnThietKeViMach/Project/SoC/VERIFICATION/Scoreboard/spi_scoreboard.sv(150) @ 10385000: uvm_test_top.env.scoreboard [SPI_SCB] STATUS PASS got=00000000
# UVM_INFO C:/Documents/DoAnThietKeViMach/Project/SoC/VERIFICATION/Monitor/spi_monitor.sv(71) @ 10425000: uvm_test_top.env.agent.monitor [SPI_MON_AXI] READ addr=40000008 data=00000000 prot=100 resp=00
# UVM_INFO C:/Documents/DoAnThietKeViMach/Project/SoC/VERIFICATION/Scoreboard/spi_scoreboard.sv(150) @ 10425000: uvm_test_top.env.scoreboard [SPI_SCB] STATUS PASS got=00000000
# UVM_INFO C:/Documents/DoAnThietKeViMach/Project/SoC/VERIFICATION/Monitor/spi_monitor.sv(71) @ 10465000: uvm_test_top.env.agent.monitor [SPI_MON_AXI] READ addr=40000008 data=00000000 prot=100 resp=00
# UVM_INFO C:/Documents/DoAnThietKeViMach/Project/SoC/VERIFICATION/Scoreboard/spi_scoreboard.sv(150) @ 10465000: uvm_test_top.env.scoreboard [SPI_SCB] STATUS PASS got=00000000
# UVM_INFO C:/Documents/DoAnThietKeViMach/Project/SoC/VERIFICATION/Monitor/spi_monitor.sv(71) @ 10505000: uvm_test_top.env.agent.monitor [SPI_MON_AXI] READ addr=40000000 data=000000aa prot=100 resp=00
# UVM_INFO C:/Documents/DoAnThietKeViMach/Project/SoC/VERIFICATION/Scoreboard/spi_scoreboard.sv(121) @ 10505000: uvm_test_top.env.scoreboard [SPI_SCB] DATA RX READ PASS got=000000aa
# UVM_INFO C:/Documents/DoAnThietKeViMach/Project/SoC/VERIFICATION/Monitor/spi_monitor.sv(106) @ 10525000: uvm_test_top.env.agent.monitor [SPI_MON_PIN] SPI transfer observed MOSI=55 MISO=aa
# UVM_INFO C:/Documents/DoAnThietKeViMach/Project/SoC/VERIFICATION/Scoreboard/spi_scoreboard.sv(54) @ 10525000: uvm_test_top.env.scoreboard [SPI_SCB] PIN TRANSFER PASS miso=aa
# UVM_INFO C:/Documents/DoAnThietKeViMach/Project/SoC/VERIFICATION/Monitor/spi_monitor.sv(57) @ 10535000: uvm_test_top.env.agent.monitor [SPI_MON_AXI] WRITE addr=40000004 data=00000008 prot=100 strb=1111 start=0
# UVM_INFO C:/Documents/DoAnThietKeViMach/Project/SoC/VERIFICATION/Scoreboard/spi_scoreboard.sv(81) @ 10535000: uvm_test_top.env.scoreboard [SPI_SCB] CTRL WRITE PASS data=00000008
# UVM_INFO C:/Documents/DoAnThietKeViMach/Project/SoC/VERIFICATION/Monitor/spi_monitor.sv(57) @ 10575000: uvm_test_top.env.agent.monitor [SPI_MON_AXI] WRITE addr=40000000 data=000000aa prot=101 strb=1111 start=0
# UVM_INFO C:/Documents/DoAnThietKeViMach/Project/SoC/VERIFICATION/Scoreboard/spi_scoreboard.sv(72) @ 10575000: uvm_test_top.env.scoreboard [SPI_SCB] DATA WRITE PASS tx=aa
# UVM_INFO C:/Documents/DoAnThietKeViMach/Project/SoC/VERIFICATION/Scoreboard/spi_scoreboard.sv(41) @ 10615000: uvm_test_top.env.scoreboard [SPI_SCB] EXPECT TRANSFER rx=55
# UVM_INFO C:/Documents/DoAnThietKeViMach/Project/SoC/VERIFICATION/Monitor/spi_monitor.sv(57) @ 10615000: uvm_test_top.env.agent.monitor [SPI_MON_AXI] WRITE addr=40000004 data=00000001 prot=101 strb=1111 start=1
# UVM_INFO C:/Documents/DoAnThietKeViMach/Project/SoC/VERIFICATION/Scoreboard/spi_scoreboard.sv(79) @ 10615000: uvm_test_top.env.scoreboard [SPI_SCB] CTRL START WRITE data=00000001
# UVM_INFO C:/Documents/DoAnThietKeViMach/Project/SoC/VERIFICATION/Monitor/spi_monitor.sv(71) @ 12295000: uvm_test_top.env.agent.monitor [SPI_MON_AXI] READ addr=40000008 data=00000001 prot=101 resp=00
# UVM_INFO C:/Documents/DoAnThietKeViMach/Project/SoC/VERIFICATION/Scoreboard/spi_scoreboard.sv(150) @ 12295000: uvm_test_top.env.scoreboard [SPI_SCB] STATUS PASS got=00000001
# UVM_INFO C:/Documents/DoAnThietKeViMach/Project/SoC/VERIFICATION/Monitor/spi_monitor.sv(71) @ 12335000: uvm_test_top.env.agent.monitor [SPI_MON_AXI] READ addr=40000008 data=00000001 prot=101 resp=00
# UVM_INFO C:/Documents/DoAnThietKeViMach/Project/SoC/VERIFICATION/Scoreboard/spi_scoreboard.sv(150) @ 12335000: uvm_test_top.env.scoreboard [SPI_SCB] STATUS PASS got=00000001
# UVM_INFO C:/Documents/DoAnThietKeViMach/Project/SoC/VERIFICATION/Monitor/spi_monitor.sv(71) @ 12375000: uvm_test_top.env.agent.monitor [SPI_MON_AXI] READ addr=40000008 data=00000001 prot=101 resp=00
# UVM_INFO C:/Documents/DoAnThietKeViMach/Project/SoC/VERIFICATION/Scoreboard/spi_scoreboard.sv(150) @ 12375000: uvm_test_top.env.scoreboard [SPI_SCB] STATUS PASS got=00000001
# UVM_INFO C:/Documents/DoAnThietKeViMach/Project/SoC/VERIFICATION/Monitor/spi_monitor.sv(71) @ 12415000: uvm_test_top.env.agent.monitor [SPI_MON_AXI] READ addr=40000008 data=00000000 prot=101 resp=00
# UVM_INFO C:/Documents/DoAnThietKeViMach/Project/SoC/VERIFICATION/Scoreboard/spi_scoreboard.sv(150) @ 12415000: uvm_test_top.env.scoreboard [SPI_SCB] STATUS PASS got=00000000
# UVM_INFO C:/Documents/DoAnThietKeViMach/Project/SoC/VERIFICATION/Monitor/spi_monitor.sv(71) @ 12455000: uvm_test_top.env.agent.monitor [SPI_MON_AXI] READ addr=40000008 data=00000000 prot=101 resp=00
# UVM_INFO C:/Documents/DoAnThietKeViMach/Project/SoC/VERIFICATION/Scoreboard/spi_scoreboard.sv(150) @ 12455000: uvm_test_top.env.scoreboard [SPI_SCB] STATUS PASS got=00000000
# UVM_INFO C:/Documents/DoAnThietKeViMach/Project/SoC/VERIFICATION/Monitor/spi_monitor.sv(71) @ 12495000: uvm_test_top.env.agent.monitor [SPI_MON_AXI] READ addr=40000008 data=00000000 prot=101 resp=00
# UVM_INFO C:/Documents/DoAnThietKeViMach/Project/SoC/VERIFICATION/Scoreboard/spi_scoreboard.sv(150) @ 12495000: uvm_test_top.env.scoreboard [SPI_SCB] STATUS PASS got=00000000
# UVM_INFO C:/Documents/DoAnThietKeViMach/Project/SoC/VERIFICATION/Monitor/spi_monitor.sv(71) @ 12535000: uvm_test_top.env.agent.monitor [SPI_MON_AXI] READ addr=40000008 data=00000000 prot=101 resp=00
# UVM_INFO C:/Documents/DoAnThietKeViMach/Project/SoC/VERIFICATION/Scoreboard/spi_scoreboard.sv(150) @ 12535000: uvm_test_top.env.scoreboard [SPI_SCB] STATUS PASS got=00000000
# UVM_INFO C:/Documents/DoAnThietKeViMach/Project/SoC/VERIFICATION/Monitor/spi_monitor.sv(71) @ 12575000: uvm_test_top.env.agent.monitor [SPI_MON_AXI] READ addr=40000008 data=00000000 prot=101 resp=00
# UVM_INFO C:/Documents/DoAnThietKeViMach/Project/SoC/VERIFICATION/Scoreboard/spi_scoreboard.sv(150) @ 12575000: uvm_test_top.env.scoreboard [SPI_SCB] STATUS PASS got=00000000
# UVM_INFO C:/Documents/DoAnThietKeViMach/Project/SoC/VERIFICATION/Monitor/spi_monitor.sv(71) @ 12615000: uvm_test_top.env.agent.monitor [SPI_MON_AXI] READ addr=40000008 data=00000000 prot=101 resp=00
# UVM_INFO C:/Documents/DoAnThietKeViMach/Project/SoC/VERIFICATION/Scoreboard/spi_scoreboard.sv(150) @ 12615000: uvm_test_top.env.scoreboard [SPI_SCB] STATUS PASS got=00000000
# UVM_INFO C:/Documents/DoAnThietKeViMach/Project/SoC/VERIFICATION/Monitor/spi_monitor.sv(71) @ 12655000: uvm_test_top.env.agent.monitor [SPI_MON_AXI] READ addr=40000008 data=00000000 prot=101 resp=00
# UVM_INFO C:/Documents/DoAnThietKeViMach/Project/SoC/VERIFICATION/Scoreboard/spi_scoreboard.sv(150) @ 12655000: uvm_test_top.env.scoreboard [SPI_SCB] STATUS PASS got=00000000
# UVM_INFO C:/Documents/DoAnThietKeViMach/Project/SoC/VERIFICATION/Monitor/spi_monitor.sv(71) @ 12695000: uvm_test_top.env.agent.monitor [SPI_MON_AXI] READ addr=40000008 data=00000000 prot=101 resp=00
# UVM_INFO C:/Documents/DoAnThietKeViMach/Project/SoC/VERIFICATION/Scoreboard/spi_scoreboard.sv(150) @ 12695000: uvm_test_top.env.scoreboard [SPI_SCB] STATUS PASS got=00000000
# UVM_INFO C:/Documents/DoAnThietKeViMach/Project/SoC/VERIFICATION/Monitor/spi_monitor.sv(71) @ 12735000: uvm_test_top.env.agent.monitor [SPI_MON_AXI] READ addr=40000008 data=00000000 prot=101 resp=00
# UVM_INFO C:/Documents/DoAnThietKeViMach/Project/SoC/VERIFICATION/Scoreboard/spi_scoreboard.sv(150) @ 12735000: uvm_test_top.env.scoreboard [SPI_SCB] STATUS PASS got=00000000
# UVM_INFO C:/Documents/DoAnThietKeViMach/Project/SoC/VERIFICATION/Monitor/spi_monitor.sv(71) @ 12775000: uvm_test_top.env.agent.monitor [SPI_MON_AXI] READ addr=40000008 data=00000000 prot=101 resp=00
# UVM_INFO C:/Documents/DoAnThietKeViMach/Project/SoC/VERIFICATION/Scoreboard/spi_scoreboard.sv(150) @ 12775000: uvm_test_top.env.scoreboard [SPI_SCB] STATUS PASS got=00000000
# UVM_INFO C:/Documents/DoAnThietKeViMach/Project/SoC/VERIFICATION/Monitor/spi_monitor.sv(71) @ 12815000: uvm_test_top.env.agent.monitor [SPI_MON_AXI] READ addr=40000008 data=00000000 prot=101 resp=00
# UVM_INFO C:/Documents/DoAnThietKeViMach/Project/SoC/VERIFICATION/Scoreboard/spi_scoreboard.sv(150) @ 12815000: uvm_test_top.env.scoreboard [SPI_SCB] STATUS PASS got=00000000
# UVM_INFO C:/Documents/DoAnThietKeViMach/Project/SoC/VERIFICATION/Monitor/spi_monitor.sv(71) @ 12855000: uvm_test_top.env.agent.monitor [SPI_MON_AXI] READ addr=40000008 data=00000000 prot=101 resp=00
# UVM_INFO C:/Documents/DoAnThietKeViMach/Project/SoC/VERIFICATION/Scoreboard/spi_scoreboard.sv(150) @ 12855000: uvm_test_top.env.scoreboard [SPI_SCB] STATUS PASS got=00000000
# UVM_INFO C:/Documents/DoAnThietKeViMach/Project/SoC/VERIFICATION/Monitor/spi_monitor.sv(71) @ 12895000: uvm_test_top.env.agent.monitor [SPI_MON_AXI] READ addr=40000008 data=00000000 prot=101 resp=00
# UVM_INFO C:/Documents/DoAnThietKeViMach/Project/SoC/VERIFICATION/Scoreboard/spi_scoreboard.sv(150) @ 12895000: uvm_test_top.env.scoreboard [SPI_SCB] STATUS PASS got=00000000
# UVM_INFO C:/Documents/DoAnThietKeViMach/Project/SoC/VERIFICATION/Monitor/spi_monitor.sv(71) @ 12935000: uvm_test_top.env.agent.monitor [SPI_MON_AXI] READ addr=40000008 data=00000000 prot=101 resp=00
# UVM_INFO C:/Documents/DoAnThietKeViMach/Project/SoC/VERIFICATION/Scoreboard/spi_scoreboard.sv(150) @ 12935000: uvm_test_top.env.scoreboard [SPI_SCB] STATUS PASS got=00000000
# UVM_INFO C:/Documents/DoAnThietKeViMach/Project/SoC/VERIFICATION/Monitor/spi_monitor.sv(71) @ 12975000: uvm_test_top.env.agent.monitor [SPI_MON_AXI] READ addr=40000008 data=00000000 prot=101 resp=00
# UVM_INFO C:/Documents/DoAnThietKeViMach/Project/SoC/VERIFICATION/Scoreboard/spi_scoreboard.sv(150) @ 12975000: uvm_test_top.env.scoreboard [SPI_SCB] STATUS PASS got=00000000
# UVM_INFO C:/Documents/DoAnThietKeViMach/Project/SoC/VERIFICATION/Monitor/spi_monitor.sv(71) @ 13015000: uvm_test_top.env.agent.monitor [SPI_MON_AXI] READ addr=40000008 data=00000000 prot=101 resp=00
# UVM_INFO C:/Documents/DoAnThietKeViMach/Project/SoC/VERIFICATION/Scoreboard/spi_scoreboard.sv(150) @ 13015000: uvm_test_top.env.scoreboard [SPI_SCB] STATUS PASS got=00000000
# UVM_INFO C:/Documents/DoAnThietKeViMach/Project/SoC/VERIFICATION/Monitor/spi_monitor.sv(71) @ 13055000: uvm_test_top.env.agent.monitor [SPI_MON_AXI] READ addr=40000008 data=00000000 prot=101 resp=00
# UVM_INFO C:/Documents/DoAnThietKeViMach/Project/SoC/VERIFICATION/Scoreboard/spi_scoreboard.sv(150) @ 13055000: uvm_test_top.env.scoreboard [SPI_SCB] STATUS PASS got=00000000
# UVM_INFO C:/Documents/DoAnThietKeViMach/Project/SoC/VERIFICATION/Monitor/spi_monitor.sv(71) @ 13095000: uvm_test_top.env.agent.monitor [SPI_MON_AXI] READ addr=40000000 data=00000055 prot=101 resp=00
# UVM_INFO C:/Documents/DoAnThietKeViMach/Project/SoC/VERIFICATION/Scoreboard/spi_scoreboard.sv(121) @ 13095000: uvm_test_top.env.scoreboard [SPI_SCB] DATA RX READ PASS got=00000055
# UVM_INFO C:/Documents/DoAnThietKeViMach/Project/SoC/VERIFICATION/Monitor/spi_monitor.sv(106) @ 13115000: uvm_test_top.env.agent.monitor [SPI_MON_PIN] SPI transfer observed MOSI=aa MISO=55
# UVM_INFO C:/Documents/DoAnThietKeViMach/Project/SoC/VERIFICATION/Scoreboard/spi_scoreboard.sv(54) @ 13115000: uvm_test_top.env.scoreboard [SPI_SCB] PIN TRANSFER PASS miso=55
# UVM_INFO C:/Documents/DoAnThietKeViMach/Project/SoC/VERIFICATION/Monitor/spi_monitor.sv(57) @ 13125000: uvm_test_top.env.agent.monitor [SPI_MON_AXI] WRITE addr=40000004 data=00000008 prot=101 strb=1111 start=0
# UVM_INFO C:/Documents/DoAnThietKeViMach/Project/SoC/VERIFICATION/Scoreboard/spi_scoreboard.sv(81) @ 13125000: uvm_test_top.env.scoreboard [SPI_SCB] CTRL WRITE PASS data=00000008
# UVM_INFO C:/Documents/DoAnThietKeViMach/Project/SoC/VERIFICATION/Monitor/spi_monitor.sv(57) @ 13165000: uvm_test_top.env.agent.monitor [SPI_MON_AXI] WRITE addr=4000000c data=00000002 prot=110 strb=1111 start=0
# UVM_INFO C:/Documents/DoAnThietKeViMach/Project/SoC/VERIFICATION/Scoreboard/spi_scoreboard.sv(94) @ 13165000: uvm_test_top.env.scoreboard [SPI_SCB] BAUD WRITE PASS data=00000002
# UVM_INFO C:/Documents/DoAnThietKeViMach/Project/SoC/VERIFICATION/Scoreboard/spi_scoreboard.sv(41) @ 13205000: uvm_test_top.env.scoreboard [SPI_SCB] EXPECT TRANSFER rx=34
# UVM_INFO C:/Documents/DoAnThietKeViMach/Project/SoC/VERIFICATION/Monitor/spi_monitor.sv(57) @ 13205000: uvm_test_top.env.agent.monitor [SPI_MON_AXI] WRITE addr=40000004 data=00000001 prot=110 strb=1111 start=1
# UVM_INFO C:/Documents/DoAnThietKeViMach/Project/SoC/VERIFICATION/Scoreboard/spi_scoreboard.sv(79) @ 13205000: uvm_test_top.env.scoreboard [SPI_SCB] CTRL START WRITE data=00000001
# UVM_INFO C:/Documents/DoAnThietKeViMach/Project/SoC/VERIFICATION/Monitor/spi_monitor.sv(57) @ 13675000: uvm_test_top.env.agent.monitor [SPI_MON_AXI] WRITE addr=40000004 data=00000001 prot=110 strb=1111 start=1
# UVM_INFO C:/Documents/DoAnThietKeViMach/Project/SoC/VERIFICATION/Scoreboard/spi_scoreboard.sv(79) @ 13675000: uvm_test_top.env.scoreboard [SPI_SCB] CTRL START WRITE data=00000001
# UVM_INFO C:/Documents/DoAnThietKeViMach/Project/SoC/VERIFICATION/Monitor/spi_monitor.sv(71) @ 13725000: uvm_test_top.env.agent.monitor [SPI_MON_AXI] READ addr=40000008 data=00000000 prot=110 resp=00
# UVM_INFO C:/Documents/DoAnThietKeViMach/Project/SoC/VERIFICATION/Scoreboard/spi_scoreboard.sv(150) @ 13725000: uvm_test_top.env.scoreboard [SPI_SCB] STATUS PASS got=00000000
# UVM_INFO C:/Documents/DoAnThietKeViMach/Project/SoC/VERIFICATION/Monitor/spi_monitor.sv(71) @ 13765000: uvm_test_top.env.agent.monitor [SPI_MON_AXI] READ addr=40000008 data=00000000 prot=110 resp=00
# UVM_INFO C:/Documents/DoAnThietKeViMach/Project/SoC/VERIFICATION/Scoreboard/spi_scoreboard.sv(150) @ 13765000: uvm_test_top.env.scoreboard [SPI_SCB] STATUS PASS got=00000000
# UVM_INFO C:/Documents/DoAnThietKeViMach/Project/SoC/VERIFICATION/Monitor/spi_monitor.sv(71) @ 13805000: uvm_test_top.env.agent.monitor [SPI_MON_AXI] READ addr=40000008 data=00000000 prot=110 resp=00
# UVM_INFO C:/Documents/DoAnThietKeViMach/Project/SoC/VERIFICATION/Scoreboard/spi_scoreboard.sv(150) @ 13805000: uvm_test_top.env.scoreboard [SPI_SCB] STATUS PASS got=00000000
# UVM_INFO C:/Documents/DoAnThietKeViMach/Project/SoC/VERIFICATION/Monitor/spi_monitor.sv(71) @ 13845000: uvm_test_top.env.agent.monitor [SPI_MON_AXI] READ addr=40000008 data=00000000 prot=110 resp=00
# UVM_INFO C:/Documents/DoAnThietKeViMach/Project/SoC/VERIFICATION/Scoreboard/spi_scoreboard.sv(150) @ 13845000: uvm_test_top.env.scoreboard [SPI_SCB] STATUS PASS got=00000000
# UVM_INFO C:/Documents/DoAnThietKeViMach/Project/SoC/VERIFICATION/Monitor/spi_monitor.sv(71) @ 13885000: uvm_test_top.env.agent.monitor [SPI_MON_AXI] READ addr=40000008 data=00000000 prot=110 resp=00
# UVM_INFO C:/Documents/DoAnThietKeViMach/Project/SoC/VERIFICATION/Scoreboard/spi_scoreboard.sv(150) @ 13885000: uvm_test_top.env.scoreboard [SPI_SCB] STATUS PASS got=00000000
# UVM_INFO C:/Documents/DoAnThietKeViMach/Project/SoC/VERIFICATION/Monitor/spi_monitor.sv(71) @ 13925000: uvm_test_top.env.agent.monitor [SPI_MON_AXI] READ addr=40000008 data=00000000 prot=110 resp=00
# UVM_INFO C:/Documents/DoAnThietKeViMach/Project/SoC/VERIFICATION/Scoreboard/spi_scoreboard.sv(150) @ 13925000: uvm_test_top.env.scoreboard [SPI_SCB] STATUS PASS got=00000000
# UVM_INFO C:/Documents/DoAnThietKeViMach/Project/SoC/VERIFICATION/Monitor/spi_monitor.sv(71) @ 13965000: uvm_test_top.env.agent.monitor [SPI_MON_AXI] READ addr=40000008 data=00000000 prot=110 resp=00
# UVM_INFO C:/Documents/DoAnThietKeViMach/Project/SoC/VERIFICATION/Scoreboard/spi_scoreboard.sv(150) @ 13965000: uvm_test_top.env.scoreboard [SPI_SCB] STATUS PASS got=00000000
# UVM_INFO C:/Documents/DoAnThietKeViMach/Project/SoC/VERIFICATION/Monitor/spi_monitor.sv(71) @ 14005000: uvm_test_top.env.agent.monitor [SPI_MON_AXI] READ addr=40000008 data=00000000 prot=110 resp=00
# UVM_INFO C:/Documents/DoAnThietKeViMach/Project/SoC/VERIFICATION/Scoreboard/spi_scoreboard.sv(150) @ 14005000: uvm_test_top.env.scoreboard [SPI_SCB] STATUS PASS got=00000000
# UVM_INFO C:/Documents/DoAnThietKeViMach/Project/SoC/VERIFICATION/Monitor/spi_monitor.sv(71) @ 14045000: uvm_test_top.env.agent.monitor [SPI_MON_AXI] READ addr=40000008 data=00000000 prot=110 resp=00
# UVM_INFO C:/Documents/DoAnThietKeViMach/Project/SoC/VERIFICATION/Scoreboard/spi_scoreboard.sv(150) @ 14045000: uvm_test_top.env.scoreboard [SPI_SCB] STATUS PASS got=00000000
# UVM_INFO C:/Documents/DoAnThietKeViMach/Project/SoC/VERIFICATION/Monitor/spi_monitor.sv(71) @ 14085000: uvm_test_top.env.agent.monitor [SPI_MON_AXI] READ addr=40000008 data=00000000 prot=110 resp=00
# UVM_INFO C:/Documents/DoAnThietKeViMach/Project/SoC/VERIFICATION/Scoreboard/spi_scoreboard.sv(150) @ 14085000: uvm_test_top.env.scoreboard [SPI_SCB] STATUS PASS got=00000000
# UVM_INFO C:/Documents/DoAnThietKeViMach/Project/SoC/VERIFICATION/Monitor/spi_monitor.sv(71) @ 14125000: uvm_test_top.env.agent.monitor [SPI_MON_AXI] READ addr=40000008 data=00000000 prot=110 resp=00
# UVM_INFO C:/Documents/DoAnThietKeViMach/Project/SoC/VERIFICATION/Scoreboard/spi_scoreboard.sv(150) @ 14125000: uvm_test_top.env.scoreboard [SPI_SCB] STATUS PASS got=00000000
# UVM_INFO C:/Documents/DoAnThietKeViMach/Project/SoC/VERIFICATION/Monitor/spi_monitor.sv(71) @ 14165000: uvm_test_top.env.agent.monitor [SPI_MON_AXI] READ addr=40000008 data=00000000 prot=110 resp=00
# UVM_INFO C:/Documents/DoAnThietKeViMach/Project/SoC/VERIFICATION/Scoreboard/spi_scoreboard.sv(150) @ 14165000: uvm_test_top.env.scoreboard [SPI_SCB] STATUS PASS got=00000000
# UVM_INFO C:/Documents/DoAnThietKeViMach/Project/SoC/VERIFICATION/Monitor/spi_monitor.sv(71) @ 14205000: uvm_test_top.env.agent.monitor [SPI_MON_AXI] READ addr=40000008 data=00000000 prot=110 resp=00
# UVM_INFO C:/Documents/DoAnThietKeViMach/Project/SoC/VERIFICATION/Scoreboard/spi_scoreboard.sv(150) @ 14205000: uvm_test_top.env.scoreboard [SPI_SCB] STATUS PASS got=00000000
# UVM_INFO C:/Documents/DoAnThietKeViMach/Project/SoC/VERIFICATION/Monitor/spi_monitor.sv(71) @ 14245000: uvm_test_top.env.agent.monitor [SPI_MON_AXI] READ addr=40000008 data=00000000 prot=110 resp=00
# UVM_INFO C:/Documents/DoAnThietKeViMach/Project/SoC/VERIFICATION/Scoreboard/spi_scoreboard.sv(150) @ 14245000: uvm_test_top.env.scoreboard [SPI_SCB] STATUS PASS got=00000000
# UVM_INFO C:/Documents/DoAnThietKeViMach/Project/SoC/VERIFICATION/Monitor/spi_monitor.sv(71) @ 14285000: uvm_test_top.env.agent.monitor [SPI_MON_AXI] READ addr=40000008 data=00000000 prot=110 resp=00
# UVM_INFO C:/Documents/DoAnThietKeViMach/Project/SoC/VERIFICATION/Scoreboard/spi_scoreboard.sv(150) @ 14285000: uvm_test_top.env.scoreboard [SPI_SCB] STATUS PASS got=00000000
# UVM_INFO C:/Documents/DoAnThietKeViMach/Project/SoC/VERIFICATION/Monitor/spi_monitor.sv(71) @ 14325000: uvm_test_top.env.agent.monitor [SPI_MON_AXI] READ addr=40000008 data=00000000 prot=110 resp=00
# UVM_INFO C:/Documents/DoAnThietKeViMach/Project/SoC/VERIFICATION/Scoreboard/spi_scoreboard.sv(150) @ 14325000: uvm_test_top.env.scoreboard [SPI_SCB] STATUS PASS got=00000000
# UVM_INFO C:/Documents/DoAnThietKeViMach/Project/SoC/VERIFICATION/Monitor/spi_monitor.sv(71) @ 14365000: uvm_test_top.env.agent.monitor [SPI_MON_AXI] READ addr=40000008 data=00000000 prot=110 resp=00
# UVM_INFO C:/Documents/DoAnThietKeViMach/Project/SoC/VERIFICATION/Scoreboard/spi_scoreboard.sv(150) @ 14365000: uvm_test_top.env.scoreboard [SPI_SCB] STATUS PASS got=00000000
# UVM_INFO C:/Documents/DoAnThietKeViMach/Project/SoC/VERIFICATION/Monitor/spi_monitor.sv(71) @ 14405000: uvm_test_top.env.agent.monitor [SPI_MON_AXI] READ addr=40000008 data=00000000 prot=110 resp=00
# UVM_INFO C:/Documents/DoAnThietKeViMach/Project/SoC/VERIFICATION/Scoreboard/spi_scoreboard.sv(150) @ 14405000: uvm_test_top.env.scoreboard [SPI_SCB] STATUS PASS got=00000000
# UVM_INFO C:/Documents/DoAnThietKeViMach/Project/SoC/VERIFICATION/Monitor/spi_monitor.sv(71) @ 14445000: uvm_test_top.env.agent.monitor [SPI_MON_AXI] READ addr=40000008 data=00000000 prot=110 resp=00
# UVM_INFO C:/Documents/DoAnThietKeViMach/Project/SoC/VERIFICATION/Scoreboard/spi_scoreboard.sv(150) @ 14445000: uvm_test_top.env.scoreboard [SPI_SCB] STATUS PASS got=00000000
# UVM_INFO C:/Documents/DoAnThietKeViMach/Project/SoC/VERIFICATION/Monitor/spi_monitor.sv(71) @ 14485000: uvm_test_top.env.agent.monitor [SPI_MON_AXI] READ addr=40000008 data=00000000 prot=110 resp=00
# UVM_INFO C:/Documents/DoAnThietKeViMach/Project/SoC/VERIFICATION/Scoreboard/spi_scoreboard.sv(150) @ 14485000: uvm_test_top.env.scoreboard [SPI_SCB] STATUS PASS got=00000000
# UVM_INFO C:/Documents/DoAnThietKeViMach/Project/SoC/VERIFICATION/Monitor/spi_monitor.sv(71) @ 14525000: uvm_test_top.env.agent.monitor [SPI_MON_AXI] READ addr=40000008 data=00000000 prot=110 resp=00
# UVM_INFO C:/Documents/DoAnThietKeViMach/Project/SoC/VERIFICATION/Scoreboard/spi_scoreboard.sv(150) @ 14525000: uvm_test_top.env.scoreboard [SPI_SCB] STATUS PASS got=00000000
# UVM_INFO C:/Documents/DoAnThietKeViMach/Project/SoC/VERIFICATION/Monitor/spi_monitor.sv(71) @ 14565000: uvm_test_top.env.agent.monitor [SPI_MON_AXI] READ addr=40000008 data=00000000 prot=110 resp=00
# UVM_INFO C:/Documents/DoAnThietKeViMach/Project/SoC/VERIFICATION/Scoreboard/spi_scoreboard.sv(150) @ 14565000: uvm_test_top.env.scoreboard [SPI_SCB] STATUS PASS got=00000000
# UVM_INFO C:/Documents/DoAnThietKeViMach/Project/SoC/VERIFICATION/Monitor/spi_monitor.sv(71) @ 14605000: uvm_test_top.env.agent.monitor [SPI_MON_AXI] READ addr=40000008 data=00000000 prot=110 resp=00
# UVM_INFO C:/Documents/DoAnThietKeViMach/Project/SoC/VERIFICATION/Scoreboard/spi_scoreboard.sv(150) @ 14605000: uvm_test_top.env.scoreboard [SPI_SCB] STATUS PASS got=00000000
# UVM_INFO C:/Documents/DoAnThietKeViMach/Project/SoC/VERIFICATION/Monitor/spi_monitor.sv(71) @ 14645000: uvm_test_top.env.agent.monitor [SPI_MON_AXI] READ addr=40000008 data=00000000 prot=110 resp=00
# UVM_INFO C:/Documents/DoAnThietKeViMach/Project/SoC/VERIFICATION/Scoreboard/spi_scoreboard.sv(150) @ 14645000: uvm_test_top.env.scoreboard [SPI_SCB] STATUS PASS got=00000000
# UVM_INFO C:/Documents/DoAnThietKeViMach/Project/SoC/VERIFICATION/Monitor/spi_monitor.sv(71) @ 14685000: uvm_test_top.env.agent.monitor [SPI_MON_AXI] READ addr=40000008 data=00000000 prot=110 resp=00
# UVM_INFO C:/Documents/DoAnThietKeViMach/Project/SoC/VERIFICATION/Scoreboard/spi_scoreboard.sv(150) @ 14685000: uvm_test_top.env.scoreboard [SPI_SCB] STATUS PASS got=00000000
# UVM_INFO C:/Documents/DoAnThietKeViMach/Project/SoC/VERIFICATION/Monitor/spi_monitor.sv(71) @ 14725000: uvm_test_top.env.agent.monitor [SPI_MON_AXI] READ addr=40000008 data=00000000 prot=110 resp=00
# UVM_INFO C:/Documents/DoAnThietKeViMach/Project/SoC/VERIFICATION/Scoreboard/spi_scoreboard.sv(150) @ 14725000: uvm_test_top.env.scoreboard [SPI_SCB] STATUS PASS got=00000000
# UVM_INFO C:/Documents/DoAnThietKeViMach/Project/SoC/VERIFICATION/Monitor/spi_monitor.sv(71) @ 14765000: uvm_test_top.env.agent.monitor [SPI_MON_AXI] READ addr=40000008 data=00000000 prot=110 resp=00
# UVM_INFO C:/Documents/DoAnThietKeViMach/Project/SoC/VERIFICATION/Scoreboard/spi_scoreboard.sv(150) @ 14765000: uvm_test_top.env.scoreboard [SPI_SCB] STATUS PASS got=00000000
# UVM_INFO C:/Documents/DoAnThietKeViMach/Project/SoC/VERIFICATION/Monitor/spi_monitor.sv(71) @ 14805000: uvm_test_top.env.agent.monitor [SPI_MON_AXI] READ addr=40000008 data=00000000 prot=110 resp=00
# UVM_INFO C:/Documents/DoAnThietKeViMach/Project/SoC/VERIFICATION/Scoreboard/spi_scoreboard.sv(150) @ 14805000: uvm_test_top.env.scoreboard [SPI_SCB] STATUS PASS got=00000000
# UVM_INFO C:/Documents/DoAnThietKeViMach/Project/SoC/VERIFICATION/Monitor/spi_monitor.sv(71) @ 14845000: uvm_test_top.env.agent.monitor [SPI_MON_AXI] READ addr=40000008 data=00000000 prot=110 resp=00
# UVM_INFO C:/Documents/DoAnThietKeViMach/Project/SoC/VERIFICATION/Scoreboard/spi_scoreboard.sv(150) @ 14845000: uvm_test_top.env.scoreboard [SPI_SCB] STATUS PASS got=00000000
# UVM_INFO C:/Documents/DoAnThietKeViMach/Project/SoC/VERIFICATION/Monitor/spi_monitor.sv(71) @ 14885000: uvm_test_top.env.agent.monitor [SPI_MON_AXI] READ addr=40000008 data=00000000 prot=110 resp=00
# UVM_INFO C:/Documents/DoAnThietKeViMach/Project/SoC/VERIFICATION/Scoreboard/spi_scoreboard.sv(150) @ 14885000: uvm_test_top.env.scoreboard [SPI_SCB] STATUS PASS got=00000000
# UVM_INFO C:/Documents/DoAnThietKeViMach/Project/SoC/VERIFICATION/Monitor/spi_monitor.sv(71) @ 14925000: uvm_test_top.env.agent.monitor [SPI_MON_AXI] READ addr=40000000 data=00000034 prot=110 resp=00
# UVM_INFO C:/Documents/DoAnThietKeViMach/Project/SoC/VERIFICATION/Scoreboard/spi_scoreboard.sv(121) @ 14925000: uvm_test_top.env.scoreboard [SPI_SCB] DATA RX READ PASS got=00000034
# UVM_INFO C:/Documents/DoAnThietKeViMach/Project/SoC/VERIFICATION/Monitor/spi_monitor.sv(106) @ 14945000: uvm_test_top.env.agent.monitor [SPI_MON_PIN] SPI transfer observed MOSI=aa MISO=34
# UVM_INFO C:/Documents/DoAnThietKeViMach/Project/SoC/VERIFICATION/Scoreboard/spi_scoreboard.sv(54) @ 14945000: uvm_test_top.env.scoreboard [SPI_SCB] PIN TRANSFER PASS miso=34
# UVM_INFO C:/Documents/DoAnThietKeViMach/Project/SoC/VERIFICATION/Monitor/spi_monitor.sv(57) @ 14955000: uvm_test_top.env.agent.monitor [SPI_MON_AXI] WRITE addr=40000004 data=00000008 prot=110 strb=1111 start=0
# UVM_INFO C:/Documents/DoAnThietKeViMach/Project/SoC/VERIFICATION/Scoreboard/spi_scoreboard.sv(81) @ 14955000: uvm_test_top.env.scoreboard [SPI_SCB] CTRL WRITE PASS data=00000008
# UVM_INFO C:/Documents/DoAnThietKeViMach/Project/SoC/VERIFICATION/Monitor/spi_monitor.sv(57) @ 14995000: uvm_test_top.env.agent.monitor [SPI_MON_AXI] WRITE addr=40000008 data=deadbeef prot=111 strb=1111 start=0
# UVM_INFO C:/Documents/DoAnThietKeViMach/Project/SoC/VERIFICATION/Scoreboard/spi_scoreboard.sv(88) @ 14995000: uvm_test_top.env.scoreboard [SPI_SCB] WRITE IGNORED addr=40000008 data=deadbeef
# UVM_INFO C:/Documents/DoAnThietKeViMach/Project/SoC/VERIFICATION/Monitor/spi_monitor.sv(57) @ 15035000: uvm_test_top.env.agent.monitor [SPI_MON_AXI] WRITE addr=4000000c data=0000000a prot=111 strb=1111 start=0
# UVM_INFO C:/Documents/DoAnThietKeViMach/Project/SoC/VERIFICATION/Scoreboard/spi_scoreboard.sv(94) @ 15035000: uvm_test_top.env.scoreboard [SPI_SCB] BAUD WRITE PASS data=0000000a
# UVM_INFO C:/Documents/DoAnThietKeViMach/Project/SoC/VERIFICATION/Monitor/spi_monitor.sv(71) @ 15085000: uvm_test_top.env.agent.monitor [SPI_MON_AXI] READ addr=40000004 data=00000008 prot=111 resp=00
# UVM_INFO C:/Documents/DoAnThietKeViMach/Project/SoC/VERIFICATION/Scoreboard/spi_scoreboard.sv(139) @ 15085000: uvm_test_top.env.scoreboard [SPI_SCB] CTRL READ PASS got=00000008
# UVM_INFO C:/Documents/DoAnThietKeViMach/Project/SoC/VERIFICATION/Monitor/spi_monitor.sv(71) @ 15125000: uvm_test_top.env.agent.monitor [SPI_MON_AXI] READ addr=4000000c data=0000000a prot=111 resp=00
# UVM_INFO C:/Documents/DoAnThietKeViMach/Project/SoC/VERIFICATION/Scoreboard/spi_scoreboard.sv(161) @ 15125000: uvm_test_top.env.scoreboard [SPI_SCB] BAUD READ PASS got=0000000a
# UVM_INFO C:/Documents/DoAnThietKeViMach/Project/SoC/VERIFICATION/Monitor/spi_monitor.sv(57) @ 15155000: uvm_test_top.env.agent.monitor [SPI_MON_AXI] WRITE addr=40000000 data=000000d1 prot=010 strb=1111 start=0
# UVM_INFO C:/Documents/DoAnThietKeViMach/Project/SoC/VERIFICATION/Scoreboard/spi_scoreboard.sv(72) @ 15155000: uvm_test_top.env.scoreboard [SPI_SCB] DATA WRITE PASS tx=d1
# UVM_INFO C:/Documents/DoAnThietKeViMach/Project/SoC/VERIFICATION/Scoreboard/spi_scoreboard.sv(41) @ 15195000: uvm_test_top.env.scoreboard [SPI_SCB] EXPECT TRANSFER rx=66
# UVM_INFO C:/Documents/DoAnThietKeViMach/Project/SoC/VERIFICATION/Monitor/spi_monitor.sv(57) @ 15195000: uvm_test_top.env.agent.monitor [SPI_MON_AXI] WRITE addr=40000004 data=00000001 prot=010 strb=1111 start=1
# UVM_INFO C:/Documents/DoAnThietKeViMach/Project/SoC/VERIFICATION/Scoreboard/spi_scoreboard.sv(79) @ 15195000: uvm_test_top.env.scoreboard [SPI_SCB] CTRL START WRITE data=00000001
# UVM_INFO C:/Documents/DoAnThietKeViMach/Project/SoC/VERIFICATION/Monitor/spi_monitor.sv(71) @ 16875000: uvm_test_top.env.agent.monitor [SPI_MON_AXI] READ addr=40000008 data=00000001 prot=010 resp=00
# UVM_INFO C:/Documents/DoAnThietKeViMach/Project/SoC/VERIFICATION/Scoreboard/spi_scoreboard.sv(150) @ 16875000: uvm_test_top.env.scoreboard [SPI_SCB] STATUS PASS got=00000001
# UVM_INFO C:/Documents/DoAnThietKeViMach/Project/SoC/VERIFICATION/Monitor/spi_monitor.sv(71) @ 16915000: uvm_test_top.env.agent.monitor [SPI_MON_AXI] READ addr=40000008 data=00000001 prot=010 resp=00
# UVM_INFO C:/Documents/DoAnThietKeViMach/Project/SoC/VERIFICATION/Scoreboard/spi_scoreboard.sv(150) @ 16915000: uvm_test_top.env.scoreboard [SPI_SCB] STATUS PASS got=00000001
# UVM_INFO C:/Documents/DoAnThietKeViMach/Project/SoC/VERIFICATION/Monitor/spi_monitor.sv(71) @ 16955000: uvm_test_top.env.agent.monitor [SPI_MON_AXI] READ addr=40000008 data=00000001 prot=010 resp=00
# UVM_INFO C:/Documents/DoAnThietKeViMach/Project/SoC/VERIFICATION/Scoreboard/spi_scoreboard.sv(150) @ 16955000: uvm_test_top.env.scoreboard [SPI_SCB] STATUS PASS got=00000001
# UVM_INFO C:/Documents/DoAnThietKeViMach/Project/SoC/VERIFICATION/Monitor/spi_monitor.sv(71) @ 16995000: uvm_test_top.env.agent.monitor [SPI_MON_AXI] READ addr=40000008 data=00000000 prot=010 resp=00
# UVM_INFO C:/Documents/DoAnThietKeViMach/Project/SoC/VERIFICATION/Scoreboard/spi_scoreboard.sv(150) @ 16995000: uvm_test_top.env.scoreboard [SPI_SCB] STATUS PASS got=00000000
# UVM_INFO C:/Documents/DoAnThietKeViMach/Project/SoC/VERIFICATION/Monitor/spi_monitor.sv(71) @ 17035000: uvm_test_top.env.agent.monitor [SPI_MON_AXI] READ addr=40000008 data=00000000 prot=010 resp=00
# UVM_INFO C:/Documents/DoAnThietKeViMach/Project/SoC/VERIFICATION/Scoreboard/spi_scoreboard.sv(150) @ 17035000: uvm_test_top.env.scoreboard [SPI_SCB] STATUS PASS got=00000000
# UVM_INFO C:/Documents/DoAnThietKeViMach/Project/SoC/VERIFICATION/Monitor/spi_monitor.sv(71) @ 17075000: uvm_test_top.env.agent.monitor [SPI_MON_AXI] READ addr=40000008 data=00000000 prot=010 resp=00
# UVM_INFO C:/Documents/DoAnThietKeViMach/Project/SoC/VERIFICATION/Scoreboard/spi_scoreboard.sv(150) @ 17075000: uvm_test_top.env.scoreboard [SPI_SCB] STATUS PASS got=00000000
# UVM_INFO C:/Documents/DoAnThietKeViMach/Project/SoC/VERIFICATION/Monitor/spi_monitor.sv(71) @ 17115000: uvm_test_top.env.agent.monitor [SPI_MON_AXI] READ addr=40000008 data=00000000 prot=010 resp=00
# UVM_INFO C:/Documents/DoAnThietKeViMach/Project/SoC/VERIFICATION/Scoreboard/spi_scoreboard.sv(150) @ 17115000: uvm_test_top.env.scoreboard [SPI_SCB] STATUS PASS got=00000000
# UVM_INFO C:/Documents/DoAnThietKeViMach/Project/SoC/VERIFICATION/Monitor/spi_monitor.sv(71) @ 17155000: uvm_test_top.env.agent.monitor [SPI_MON_AXI] READ addr=40000008 data=00000000 prot=010 resp=00
# UVM_INFO C:/Documents/DoAnThietKeViMach/Project/SoC/VERIFICATION/Scoreboard/spi_scoreboard.sv(150) @ 17155000: uvm_test_top.env.scoreboard [SPI_SCB] STATUS PASS got=00000000
# UVM_INFO C:/Documents/DoAnThietKeViMach/Project/SoC/VERIFICATION/Monitor/spi_monitor.sv(71) @ 17195000: uvm_test_top.env.agent.monitor [SPI_MON_AXI] READ addr=40000008 data=00000000 prot=010 resp=00
# UVM_INFO C:/Documents/DoAnThietKeViMach/Project/SoC/VERIFICATION/Scoreboard/spi_scoreboard.sv(150) @ 17195000: uvm_test_top.env.scoreboard [SPI_SCB] STATUS PASS got=00000000
# UVM_INFO C:/Documents/DoAnThietKeViMach/Project/SoC/VERIFICATION/Monitor/spi_monitor.sv(71) @ 17235000: uvm_test_top.env.agent.monitor [SPI_MON_AXI] READ addr=40000008 data=00000000 prot=010 resp=00
# UVM_INFO C:/Documents/DoAnThietKeViMach/Project/SoC/VERIFICATION/Scoreboard/spi_scoreboard.sv(150) @ 17235000: uvm_test_top.env.scoreboard [SPI_SCB] STATUS PASS got=00000000
# UVM_INFO C:/Documents/DoAnThietKeViMach/Project/SoC/VERIFICATION/Monitor/spi_monitor.sv(71) @ 17275000: uvm_test_top.env.agent.monitor [SPI_MON_AXI] READ addr=40000008 data=00000000 prot=010 resp=00
# UVM_INFO C:/Documents/DoAnThietKeViMach/Project/SoC/VERIFICATION/Scoreboard/spi_scoreboard.sv(150) @ 17275000: uvm_test_top.env.scoreboard [SPI_SCB] STATUS PASS got=00000000
# UVM_INFO C:/Documents/DoAnThietKeViMach/Project/SoC/VERIFICATION/Monitor/spi_monitor.sv(71) @ 17315000: uvm_test_top.env.agent.monitor [SPI_MON_AXI] READ addr=40000008 data=00000000 prot=010 resp=00
# UVM_INFO C:/Documents/DoAnThietKeViMach/Project/SoC/VERIFICATION/Scoreboard/spi_scoreboard.sv(150) @ 17315000: uvm_test_top.env.scoreboard [SPI_SCB] STATUS PASS got=00000000
# UVM_INFO C:/Documents/DoAnThietKeViMach/Project/SoC/VERIFICATION/Monitor/spi_monitor.sv(71) @ 17355000: uvm_test_top.env.agent.monitor [SPI_MON_AXI] READ addr=40000008 data=00000000 prot=010 resp=00
# UVM_INFO C:/Documents/DoAnThietKeViMach/Project/SoC/VERIFICATION/Scoreboard/spi_scoreboard.sv(150) @ 17355000: uvm_test_top.env.scoreboard [SPI_SCB] STATUS PASS got=00000000
# UVM_INFO C:/Documents/DoAnThietKeViMach/Project/SoC/VERIFICATION/Monitor/spi_monitor.sv(71) @ 17395000: uvm_test_top.env.agent.monitor [SPI_MON_AXI] READ addr=40000008 data=00000000 prot=010 resp=00
# UVM_INFO C:/Documents/DoAnThietKeViMach/Project/SoC/VERIFICATION/Scoreboard/spi_scoreboard.sv(150) @ 17395000: uvm_test_top.env.scoreboard [SPI_SCB] STATUS PASS got=00000000
# UVM_INFO C:/Documents/DoAnThietKeViMach/Project/SoC/VERIFICATION/Monitor/spi_monitor.sv(71) @ 17435000: uvm_test_top.env.agent.monitor [SPI_MON_AXI] READ addr=40000008 data=00000000 prot=010 resp=00
# UVM_INFO C:/Documents/DoAnThietKeViMach/Project/SoC/VERIFICATION/Scoreboard/spi_scoreboard.sv(150) @ 17435000: uvm_test_top.env.scoreboard [SPI_SCB] STATUS PASS got=00000000
# UVM_INFO C:/Documents/DoAnThietKeViMach/Project/SoC/VERIFICATION/Monitor/spi_monitor.sv(71) @ 17475000: uvm_test_top.env.agent.monitor [SPI_MON_AXI] READ addr=40000008 data=00000000 prot=010 resp=00
# UVM_INFO C:/Documents/DoAnThietKeViMach/Project/SoC/VERIFICATION/Scoreboard/spi_scoreboard.sv(150) @ 17475000: uvm_test_top.env.scoreboard [SPI_SCB] STATUS PASS got=00000000
# UVM_INFO C:/Documents/DoAnThietKeViMach/Project/SoC/VERIFICATION/Monitor/spi_monitor.sv(71) @ 17515000: uvm_test_top.env.agent.monitor [SPI_MON_AXI] READ addr=40000008 data=00000000 prot=010 resp=00
# UVM_INFO C:/Documents/DoAnThietKeViMach/Project/SoC/VERIFICATION/Scoreboard/spi_scoreboard.sv(150) @ 17515000: uvm_test_top.env.scoreboard [SPI_SCB] STATUS PASS got=00000000
# UVM_INFO C:/Documents/DoAnThietKeViMach/Project/SoC/VERIFICATION/Monitor/spi_monitor.sv(71) @ 17555000: uvm_test_top.env.agent.monitor [SPI_MON_AXI] READ addr=40000008 data=00000000 prot=010 resp=00
# UVM_INFO C:/Documents/DoAnThietKeViMach/Project/SoC/VERIFICATION/Scoreboard/spi_scoreboard.sv(150) @ 17555000: uvm_test_top.env.scoreboard [SPI_SCB] STATUS PASS got=00000000
# UVM_INFO C:/Documents/DoAnThietKeViMach/Project/SoC/VERIFICATION/Monitor/spi_monitor.sv(71) @ 17595000: uvm_test_top.env.agent.monitor [SPI_MON_AXI] READ addr=40000008 data=00000000 prot=010 resp=00
# UVM_INFO C:/Documents/DoAnThietKeViMach/Project/SoC/VERIFICATION/Scoreboard/spi_scoreboard.sv(150) @ 17595000: uvm_test_top.env.scoreboard [SPI_SCB] STATUS PASS got=00000000
# UVM_INFO C:/Documents/DoAnThietKeViMach/Project/SoC/VERIFICATION/Monitor/spi_monitor.sv(71) @ 17635000: uvm_test_top.env.agent.monitor [SPI_MON_AXI] READ addr=40000008 data=00000000 prot=010 resp=00
# UVM_INFO C:/Documents/DoAnThietKeViMach/Project/SoC/VERIFICATION/Scoreboard/spi_scoreboard.sv(150) @ 17635000: uvm_test_top.env.scoreboard [SPI_SCB] STATUS PASS got=00000000
# UVM_INFO C:/Documents/DoAnThietKeViMach/Project/SoC/VERIFICATION/Monitor/spi_monitor.sv(71) @ 17675000: uvm_test_top.env.agent.monitor [SPI_MON_AXI] READ addr=40000000 data=00000066 prot=010 resp=00
# UVM_INFO C:/Documents/DoAnThietKeViMach/Project/SoC/VERIFICATION/Scoreboard/spi_scoreboard.sv(121) @ 17675000: uvm_test_top.env.scoreboard [SPI_SCB] DATA RX READ PASS got=00000066
# UVM_INFO C:/Documents/DoAnThietKeViMach/Project/SoC/VERIFICATION/Monitor/spi_monitor.sv(106) @ 17695000: uvm_test_top.env.agent.monitor [SPI_MON_PIN] SPI transfer observed MOSI=d1 MISO=66
# UVM_INFO C:/Documents/DoAnThietKeViMach/Project/SoC/VERIFICATION/Scoreboard/spi_scoreboard.sv(54) @ 17695000: uvm_test_top.env.scoreboard [SPI_SCB] PIN TRANSFER PASS miso=66
# UVM_INFO C:/Documents/DoAnThietKeViMach/Project/SoC/VERIFICATION/Monitor/spi_monitor.sv(57) @ 17705000: uvm_test_top.env.agent.monitor [SPI_MON_AXI] WRITE addr=40000004 data=00000008 prot=010 strb=1111 start=0
# UVM_INFO C:/Documents/DoAnThietKeViMach/Project/SoC/VERIFICATION/Scoreboard/spi_scoreboard.sv(81) @ 17705000: uvm_test_top.env.scoreboard [SPI_SCB] CTRL WRITE PASS data=00000008
# UVM_INFO C:/Documents/DoAnThietKeViMach/Project/SoC/VERIFICATION/Monitor/spi_monitor.sv(57) @ 17745000: uvm_test_top.env.agent.monitor [SPI_MON_AXI] WRITE addr=40000000 data=0000003e prot=100 strb=1111 start=0
# UVM_INFO C:/Documents/DoAnThietKeViMach/Project/SoC/VERIFICATION/Scoreboard/spi_scoreboard.sv(72) @ 17745000: uvm_test_top.env.scoreboard [SPI_SCB] DATA WRITE PASS tx=3e
# UVM_INFO C:/Documents/DoAnThietKeViMach/Project/SoC/VERIFICATION/Scoreboard/spi_scoreboard.sv(41) @ 17785000: uvm_test_top.env.scoreboard [SPI_SCB] EXPECT TRANSFER rx=49
# UVM_INFO C:/Documents/DoAnThietKeViMach/Project/SoC/VERIFICATION/Monitor/spi_monitor.sv(57) @ 17785000: uvm_test_top.env.agent.monitor [SPI_MON_AXI] WRITE addr=40000004 data=00000001 prot=100 strb=1111 start=1
# UVM_INFO C:/Documents/DoAnThietKeViMach/Project/SoC/VERIFICATION/Scoreboard/spi_scoreboard.sv(79) @ 17785000: uvm_test_top.env.scoreboard [SPI_SCB] CTRL START WRITE data=00000001
# UVM_INFO C:/Documents/DoAnThietKeViMach/Project/SoC/VERIFICATION/Monitor/spi_monitor.sv(71) @ 19465000: uvm_test_top.env.agent.monitor [SPI_MON_AXI] READ addr=40000008 data=00000001 prot=100 resp=00
# UVM_INFO C:/Documents/DoAnThietKeViMach/Project/SoC/VERIFICATION/Scoreboard/spi_scoreboard.sv(150) @ 19465000: uvm_test_top.env.scoreboard [SPI_SCB] STATUS PASS got=00000001
# UVM_INFO C:/Documents/DoAnThietKeViMach/Project/SoC/VERIFICATION/Monitor/spi_monitor.sv(71) @ 19505000: uvm_test_top.env.agent.monitor [SPI_MON_AXI] READ addr=40000008 data=00000001 prot=100 resp=00
# UVM_INFO C:/Documents/DoAnThietKeViMach/Project/SoC/VERIFICATION/Scoreboard/spi_scoreboard.sv(150) @ 19505000: uvm_test_top.env.scoreboard [SPI_SCB] STATUS PASS got=00000001
# UVM_INFO C:/Documents/DoAnThietKeViMach/Project/SoC/VERIFICATION/Monitor/spi_monitor.sv(71) @ 19545000: uvm_test_top.env.agent.monitor [SPI_MON_AXI] READ addr=40000008 data=00000001 prot=100 resp=00
# UVM_INFO C:/Documents/DoAnThietKeViMach/Project/SoC/VERIFICATION/Scoreboard/spi_scoreboard.sv(150) @ 19545000: uvm_test_top.env.scoreboard [SPI_SCB] STATUS PASS got=00000001
# UVM_INFO C:/Documents/DoAnThietKeViMach/Project/SoC/VERIFICATION/Monitor/spi_monitor.sv(71) @ 19585000: uvm_test_top.env.agent.monitor [SPI_MON_AXI] READ addr=40000008 data=00000000 prot=100 resp=00
# UVM_INFO C:/Documents/DoAnThietKeViMach/Project/SoC/VERIFICATION/Scoreboard/spi_scoreboard.sv(150) @ 19585000: uvm_test_top.env.scoreboard [SPI_SCB] STATUS PASS got=00000000
# UVM_INFO C:/Documents/DoAnThietKeViMach/Project/SoC/VERIFICATION/Monitor/spi_monitor.sv(71) @ 19625000: uvm_test_top.env.agent.monitor [SPI_MON_AXI] READ addr=40000008 data=00000000 prot=100 resp=00
# UVM_INFO C:/Documents/DoAnThietKeViMach/Project/SoC/VERIFICATION/Scoreboard/spi_scoreboard.sv(150) @ 19625000: uvm_test_top.env.scoreboard [SPI_SCB] STATUS PASS got=00000000
# UVM_INFO C:/Documents/DoAnThietKeViMach/Project/SoC/VERIFICATION/Monitor/spi_monitor.sv(71) @ 19665000: uvm_test_top.env.agent.monitor [SPI_MON_AXI] READ addr=40000008 data=00000000 prot=100 resp=00
# UVM_INFO C:/Documents/DoAnThietKeViMach/Project/SoC/VERIFICATION/Scoreboard/spi_scoreboard.sv(150) @ 19665000: uvm_test_top.env.scoreboard [SPI_SCB] STATUS PASS got=00000000
# UVM_INFO C:/Documents/DoAnThietKeViMach/Project/SoC/VERIFICATION/Monitor/spi_monitor.sv(71) @ 19705000: uvm_test_top.env.agent.monitor [SPI_MON_AXI] READ addr=40000008 data=00000000 prot=100 resp=00
# UVM_INFO C:/Documents/DoAnThietKeViMach/Project/SoC/VERIFICATION/Scoreboard/spi_scoreboard.sv(150) @ 19705000: uvm_test_top.env.scoreboard [SPI_SCB] STATUS PASS got=00000000
# UVM_INFO C:/Documents/DoAnThietKeViMach/Project/SoC/VERIFICATION/Monitor/spi_monitor.sv(71) @ 19745000: uvm_test_top.env.agent.monitor [SPI_MON_AXI] READ addr=40000008 data=00000000 prot=100 resp=00
# UVM_INFO C:/Documents/DoAnThietKeViMach/Project/SoC/VERIFICATION/Scoreboard/spi_scoreboard.sv(150) @ 19745000: uvm_test_top.env.scoreboard [SPI_SCB] STATUS PASS got=00000000
# UVM_INFO C:/Documents/DoAnThietKeViMach/Project/SoC/VERIFICATION/Monitor/spi_monitor.sv(71) @ 19785000: uvm_test_top.env.agent.monitor [SPI_MON_AXI] READ addr=40000008 data=00000000 prot=100 resp=00
# UVM_INFO C:/Documents/DoAnThietKeViMach/Project/SoC/VERIFICATION/Scoreboard/spi_scoreboard.sv(150) @ 19785000: uvm_test_top.env.scoreboard [SPI_SCB] STATUS PASS got=00000000
# UVM_INFO C:/Documents/DoAnThietKeViMach/Project/SoC/VERIFICATION/Monitor/spi_monitor.sv(71) @ 19825000: uvm_test_top.env.agent.monitor [SPI_MON_AXI] READ addr=40000008 data=00000000 prot=100 resp=00
# UVM_INFO C:/Documents/DoAnThietKeViMach/Project/SoC/VERIFICATION/Scoreboard/spi_scoreboard.sv(150) @ 19825000: uvm_test_top.env.scoreboard [SPI_SCB] STATUS PASS got=00000000
# UVM_INFO C:/Documents/DoAnThietKeViMach/Project/SoC/VERIFICATION/Monitor/spi_monitor.sv(71) @ 19865000: uvm_test_top.env.agent.monitor [SPI_MON_AXI] READ addr=40000008 data=00000000 prot=100 resp=00
# UVM_INFO C:/Documents/DoAnThietKeViMach/Project/SoC/VERIFICATION/Scoreboard/spi_scoreboard.sv(150) @ 19865000: uvm_test_top.env.scoreboard [SPI_SCB] STATUS PASS got=00000000
# UVM_INFO C:/Documents/DoAnThietKeViMach/Project/SoC/VERIFICATION/Monitor/spi_monitor.sv(71) @ 19905000: uvm_test_top.env.agent.monitor [SPI_MON_AXI] READ addr=40000008 data=00000000 prot=100 resp=00
# UVM_INFO C:/Documents/DoAnThietKeViMach/Project/SoC/VERIFICATION/Scoreboard/spi_scoreboard.sv(150) @ 19905000: uvm_test_top.env.scoreboard [SPI_SCB] STATUS PASS got=00000000
# UVM_INFO C:/Documents/DoAnThietKeViMach/Project/SoC/VERIFICATION/Monitor/spi_monitor.sv(71) @ 19945000: uvm_test_top.env.agent.monitor [SPI_MON_AXI] READ addr=40000008 data=00000000 prot=100 resp=00
# UVM_INFO C:/Documents/DoAnThietKeViMach/Project/SoC/VERIFICATION/Scoreboard/spi_scoreboard.sv(150) @ 19945000: uvm_test_top.env.scoreboard [SPI_SCB] STATUS PASS got=00000000
# UVM_INFO C:/Documents/DoAnThietKeViMach/Project/SoC/VERIFICATION/Monitor/spi_monitor.sv(71) @ 19985000: uvm_test_top.env.agent.monitor [SPI_MON_AXI] READ addr=40000008 data=00000000 prot=100 resp=00
# UVM_INFO C:/Documents/DoAnThietKeViMach/Project/SoC/VERIFICATION/Scoreboard/spi_scoreboard.sv(150) @ 19985000: uvm_test_top.env.scoreboard [SPI_SCB] STATUS PASS got=00000000
# UVM_INFO C:/Documents/DoAnThietKeViMach/Project/SoC/VERIFICATION/Monitor/spi_monitor.sv(71) @ 20025000: uvm_test_top.env.agent.monitor [SPI_MON_AXI] READ addr=40000008 data=00000000 prot=100 resp=00
# UVM_INFO C:/Documents/DoAnThietKeViMach/Project/SoC/VERIFICATION/Scoreboard/spi_scoreboard.sv(150) @ 20025000: uvm_test_top.env.scoreboard [SPI_SCB] STATUS PASS got=00000000
# UVM_INFO C:/Documents/DoAnThietKeViMach/Project/SoC/VERIFICATION/Monitor/spi_monitor.sv(71) @ 20065000: uvm_test_top.env.agent.monitor [SPI_MON_AXI] READ addr=40000008 data=00000000 prot=100 resp=00
# UVM_INFO C:/Documents/DoAnThietKeViMach/Project/SoC/VERIFICATION/Scoreboard/spi_scoreboard.sv(150) @ 20065000: uvm_test_top.env.scoreboard [SPI_SCB] STATUS PASS got=00000000
# UVM_INFO C:/Documents/DoAnThietKeViMach/Project/SoC/VERIFICATION/Monitor/spi_monitor.sv(71) @ 20105000: uvm_test_top.env.agent.monitor [SPI_MON_AXI] READ addr=40000008 data=00000000 prot=100 resp=00
# UVM_INFO C:/Documents/DoAnThietKeViMach/Project/SoC/VERIFICATION/Scoreboard/spi_scoreboard.sv(150) @ 20105000: uvm_test_top.env.scoreboard [SPI_SCB] STATUS PASS got=00000000
# UVM_INFO C:/Documents/DoAnThietKeViMach/Project/SoC/VERIFICATION/Monitor/spi_monitor.sv(71) @ 20145000: uvm_test_top.env.agent.monitor [SPI_MON_AXI] READ addr=40000008 data=00000000 prot=100 resp=00
# UVM_INFO C:/Documents/DoAnThietKeViMach/Project/SoC/VERIFICATION/Scoreboard/spi_scoreboard.sv(150) @ 20145000: uvm_test_top.env.scoreboard [SPI_SCB] STATUS PASS got=00000000
# UVM_INFO C:/Documents/DoAnThietKeViMach/Project/SoC/VERIFICATION/Monitor/spi_monitor.sv(71) @ 20185000: uvm_test_top.env.agent.monitor [SPI_MON_AXI] READ addr=40000008 data=00000000 prot=100 resp=00
# UVM_INFO C:/Documents/DoAnThietKeViMach/Project/SoC/VERIFICATION/Scoreboard/spi_scoreboard.sv(150) @ 20185000: uvm_test_top.env.scoreboard [SPI_SCB] STATUS PASS got=00000000
# UVM_INFO C:/Documents/DoAnThietKeViMach/Project/SoC/VERIFICATION/Monitor/spi_monitor.sv(71) @ 20225000: uvm_test_top.env.agent.monitor [SPI_MON_AXI] READ addr=40000008 data=00000000 prot=100 resp=00
# UVM_INFO C:/Documents/DoAnThietKeViMach/Project/SoC/VERIFICATION/Scoreboard/spi_scoreboard.sv(150) @ 20225000: uvm_test_top.env.scoreboard [SPI_SCB] STATUS PASS got=00000000
# UVM_INFO C:/Documents/DoAnThietKeViMach/Project/SoC/VERIFICATION/Monitor/spi_monitor.sv(71) @ 20265000: uvm_test_top.env.agent.monitor [SPI_MON_AXI] READ addr=40000000 data=00000049 prot=100 resp=00
# UVM_INFO C:/Documents/DoAnThietKeViMach/Project/SoC/VERIFICATION/Scoreboard/spi_scoreboard.sv(121) @ 20265000: uvm_test_top.env.scoreboard [SPI_SCB] DATA RX READ PASS got=00000049
# UVM_INFO C:/Documents/DoAnThietKeViMach/Project/SoC/VERIFICATION/Monitor/spi_monitor.sv(106) @ 20285000: uvm_test_top.env.agent.monitor [SPI_MON_PIN] SPI transfer observed MOSI=3e MISO=49
# UVM_INFO C:/Documents/DoAnThietKeViMach/Project/SoC/VERIFICATION/Scoreboard/spi_scoreboard.sv(54) @ 20285000: uvm_test_top.env.scoreboard [SPI_SCB] PIN TRANSFER PASS miso=49
# UVM_INFO C:/Documents/DoAnThietKeViMach/Project/SoC/VERIFICATION/Monitor/spi_monitor.sv(57) @ 20295000: uvm_test_top.env.agent.monitor [SPI_MON_AXI] WRITE addr=40000004 data=00000008 prot=100 strb=1111 start=0
# UVM_INFO C:/Documents/DoAnThietKeViMach/Project/SoC/VERIFICATION/Scoreboard/spi_scoreboard.sv(81) @ 20295000: uvm_test_top.env.scoreboard [SPI_SCB] CTRL WRITE PASS data=00000008
# UVM_INFO C:/Documents/DoAnThietKeViMach/Project/SoC/VERIFICATION/Monitor/spi_monitor.sv(57) @ 20335000: uvm_test_top.env.agent.monitor [SPI_MON_AXI] WRITE addr=40000000 data=00000036 prot=111 strb=1111 start=0
# UVM_INFO C:/Documents/DoAnThietKeViMach/Project/SoC/VERIFICATION/Scoreboard/spi_scoreboard.sv(72) @ 20335000: uvm_test_top.env.scoreboard [SPI_SCB] DATA WRITE PASS tx=36
# UVM_INFO C:/Documents/DoAnThietKeViMach/Project/SoC/VERIFICATION/Scoreboard/spi_scoreboard.sv(41) @ 20375000: uvm_test_top.env.scoreboard [SPI_SCB] EXPECT TRANSFER rx=b6
# UVM_INFO C:/Documents/DoAnThietKeViMach/Project/SoC/VERIFICATION/Monitor/spi_monitor.sv(57) @ 20375000: uvm_test_top.env.agent.monitor [SPI_MON_AXI] WRITE addr=40000004 data=00000001 prot=111 strb=1111 start=1
# UVM_INFO C:/Documents/DoAnThietKeViMach/Project/SoC/VERIFICATION/Scoreboard/spi_scoreboard.sv(79) @ 20375000: uvm_test_top.env.scoreboard [SPI_SCB] CTRL START WRITE data=00000001
# UVM_INFO C:/Documents/DoAnThietKeViMach/Project/SoC/VERIFICATION/Monitor/spi_monitor.sv(71) @ 22055000: uvm_test_top.env.agent.monitor [SPI_MON_AXI] READ addr=40000008 data=00000001 prot=111 resp=00
# UVM_INFO C:/Documents/DoAnThietKeViMach/Project/SoC/VERIFICATION/Scoreboard/spi_scoreboard.sv(150) @ 22055000: uvm_test_top.env.scoreboard [SPI_SCB] STATUS PASS got=00000001
# UVM_INFO C:/Documents/DoAnThietKeViMach/Project/SoC/VERIFICATION/Monitor/spi_monitor.sv(71) @ 22095000: uvm_test_top.env.agent.monitor [SPI_MON_AXI] READ addr=40000008 data=00000001 prot=111 resp=00
# UVM_INFO C:/Documents/DoAnThietKeViMach/Project/SoC/VERIFICATION/Scoreboard/spi_scoreboard.sv(150) @ 22095000: uvm_test_top.env.scoreboard [SPI_SCB] STATUS PASS got=00000001
# UVM_INFO C:/Documents/DoAnThietKeViMach/Project/SoC/VERIFICATION/Monitor/spi_monitor.sv(71) @ 22135000: uvm_test_top.env.agent.monitor [SPI_MON_AXI] READ addr=40000008 data=00000001 prot=111 resp=00
# UVM_INFO C:/Documents/DoAnThietKeViMach/Project/SoC/VERIFICATION/Scoreboard/spi_scoreboard.sv(150) @ 22135000: uvm_test_top.env.scoreboard [SPI_SCB] STATUS PASS got=00000001
# UVM_INFO C:/Documents/DoAnThietKeViMach/Project/SoC/VERIFICATION/Monitor/spi_monitor.sv(71) @ 22175000: uvm_test_top.env.agent.monitor [SPI_MON_AXI] READ addr=40000008 data=00000000 prot=111 resp=00
# UVM_INFO C:/Documents/DoAnThietKeViMach/Project/SoC/VERIFICATION/Scoreboard/spi_scoreboard.sv(150) @ 22175000: uvm_test_top.env.scoreboard [SPI_SCB] STATUS PASS got=00000000
# UVM_INFO C:/Documents/DoAnThietKeViMach/Project/SoC/VERIFICATION/Monitor/spi_monitor.sv(71) @ 22215000: uvm_test_top.env.agent.monitor [SPI_MON_AXI] READ addr=40000008 data=00000000 prot=111 resp=00
# UVM_INFO C:/Documents/DoAnThietKeViMach/Project/SoC/VERIFICATION/Scoreboard/spi_scoreboard.sv(150) @ 22215000: uvm_test_top.env.scoreboard [SPI_SCB] STATUS PASS got=00000000
# UVM_INFO C:/Documents/DoAnThietKeViMach/Project/SoC/VERIFICATION/Monitor/spi_monitor.sv(71) @ 22255000: uvm_test_top.env.agent.monitor [SPI_MON_AXI] READ addr=40000008 data=00000000 prot=111 resp=00
# UVM_INFO C:/Documents/DoAnThietKeViMach/Project/SoC/VERIFICATION/Scoreboard/spi_scoreboard.sv(150) @ 22255000: uvm_test_top.env.scoreboard [SPI_SCB] STATUS PASS got=00000000
# UVM_INFO C:/Documents/DoAnThietKeViMach/Project/SoC/VERIFICATION/Monitor/spi_monitor.sv(71) @ 22295000: uvm_test_top.env.agent.monitor [SPI_MON_AXI] READ addr=40000008 data=00000000 prot=111 resp=00
# UVM_INFO C:/Documents/DoAnThietKeViMach/Project/SoC/VERIFICATION/Scoreboard/spi_scoreboard.sv(150) @ 22295000: uvm_test_top.env.scoreboard [SPI_SCB] STATUS PASS got=00000000
# UVM_INFO C:/Documents/DoAnThietKeViMach/Project/SoC/VERIFICATION/Monitor/spi_monitor.sv(71) @ 22335000: uvm_test_top.env.agent.monitor [SPI_MON_AXI] READ addr=40000008 data=00000000 prot=111 resp=00
# UVM_INFO C:/Documents/DoAnThietKeViMach/Project/SoC/VERIFICATION/Scoreboard/spi_scoreboard.sv(150) @ 22335000: uvm_test_top.env.scoreboard [SPI_SCB] STATUS PASS got=00000000
# UVM_INFO C:/Documents/DoAnThietKeViMach/Project/SoC/VERIFICATION/Monitor/spi_monitor.sv(71) @ 22375000: uvm_test_top.env.agent.monitor [SPI_MON_AXI] READ addr=40000008 data=00000000 prot=111 resp=00
# UVM_INFO C:/Documents/DoAnThietKeViMach/Project/SoC/VERIFICATION/Scoreboard/spi_scoreboard.sv(150) @ 22375000: uvm_test_top.env.scoreboard [SPI_SCB] STATUS PASS got=00000000
# UVM_INFO C:/Documents/DoAnThietKeViMach/Project/SoC/VERIFICATION/Monitor/spi_monitor.sv(71) @ 22415000: uvm_test_top.env.agent.monitor [SPI_MON_AXI] READ addr=40000008 data=00000000 prot=111 resp=00
# UVM_INFO C:/Documents/DoAnThietKeViMach/Project/SoC/VERIFICATION/Scoreboard/spi_scoreboard.sv(150) @ 22415000: uvm_test_top.env.scoreboard [SPI_SCB] STATUS PASS got=00000000
# UVM_INFO C:/Documents/DoAnThietKeViMach/Project/SoC/VERIFICATION/Monitor/spi_monitor.sv(71) @ 22455000: uvm_test_top.env.agent.monitor [SPI_MON_AXI] READ addr=40000008 data=00000000 prot=111 resp=00
# UVM_INFO C:/Documents/DoAnThietKeViMach/Project/SoC/VERIFICATION/Scoreboard/spi_scoreboard.sv(150) @ 22455000: uvm_test_top.env.scoreboard [SPI_SCB] STATUS PASS got=00000000
# UVM_INFO C:/Documents/DoAnThietKeViMach/Project/SoC/VERIFICATION/Monitor/spi_monitor.sv(71) @ 22495000: uvm_test_top.env.agent.monitor [SPI_MON_AXI] READ addr=40000008 data=00000000 prot=111 resp=00
# UVM_INFO C:/Documents/DoAnThietKeViMach/Project/SoC/VERIFICATION/Scoreboard/spi_scoreboard.sv(150) @ 22495000: uvm_test_top.env.scoreboard [SPI_SCB] STATUS PASS got=00000000
# UVM_INFO C:/Documents/DoAnThietKeViMach/Project/SoC/VERIFICATION/Monitor/spi_monitor.sv(71) @ 22535000: uvm_test_top.env.agent.monitor [SPI_MON_AXI] READ addr=40000008 data=00000000 prot=111 resp=00
# UVM_INFO C:/Documents/DoAnThietKeViMach/Project/SoC/VERIFICATION/Scoreboard/spi_scoreboard.sv(150) @ 22535000: uvm_test_top.env.scoreboard [SPI_SCB] STATUS PASS got=00000000
# UVM_INFO C:/Documents/DoAnThietKeViMach/Project/SoC/VERIFICATION/Monitor/spi_monitor.sv(71) @ 22575000: uvm_test_top.env.agent.monitor [SPI_MON_AXI] READ addr=40000008 data=00000000 prot=111 resp=00
# UVM_INFO C:/Documents/DoAnThietKeViMach/Project/SoC/VERIFICATION/Scoreboard/spi_scoreboard.sv(150) @ 22575000: uvm_test_top.env.scoreboard [SPI_SCB] STATUS PASS got=00000000
# UVM_INFO C:/Documents/DoAnThietKeViMach/Project/SoC/VERIFICATION/Monitor/spi_monitor.sv(71) @ 22615000: uvm_test_top.env.agent.monitor [SPI_MON_AXI] READ addr=40000008 data=00000000 prot=111 resp=00
# UVM_INFO C:/Documents/DoAnThietKeViMach/Project/SoC/VERIFICATION/Scoreboard/spi_scoreboard.sv(150) @ 22615000: uvm_test_top.env.scoreboard [SPI_SCB] STATUS PASS got=00000000
# UVM_INFO C:/Documents/DoAnThietKeViMach/Project/SoC/VERIFICATION/Monitor/spi_monitor.sv(71) @ 22655000: uvm_test_top.env.agent.monitor [SPI_MON_AXI] READ addr=40000008 data=00000000 prot=111 resp=00
# UVM_INFO C:/Documents/DoAnThietKeViMach/Project/SoC/VERIFICATION/Scoreboard/spi_scoreboard.sv(150) @ 22655000: uvm_test_top.env.scoreboard [SPI_SCB] STATUS PASS got=00000000
# UVM_INFO C:/Documents/DoAnThietKeViMach/Project/SoC/VERIFICATION/Monitor/spi_monitor.sv(71) @ 22695000: uvm_test_top.env.agent.monitor [SPI_MON_AXI] READ addr=40000008 data=00000000 prot=111 resp=00
# UVM_INFO C:/Documents/DoAnThietKeViMach/Project/SoC/VERIFICATION/Scoreboard/spi_scoreboard.sv(150) @ 22695000: uvm_test_top.env.scoreboard [SPI_SCB] STATUS PASS got=00000000
# UVM_INFO C:/Documents/DoAnThietKeViMach/Project/SoC/VERIFICATION/Monitor/spi_monitor.sv(71) @ 22735000: uvm_test_top.env.agent.monitor [SPI_MON_AXI] READ addr=40000008 data=00000000 prot=111 resp=00
# UVM_INFO C:/Documents/DoAnThietKeViMach/Project/SoC/VERIFICATION/Scoreboard/spi_scoreboard.sv(150) @ 22735000: uvm_test_top.env.scoreboard [SPI_SCB] STATUS PASS got=00000000
# UVM_INFO C:/Documents/DoAnThietKeViMach/Project/SoC/VERIFICATION/Monitor/spi_monitor.sv(71) @ 22775000: uvm_test_top.env.agent.monitor [SPI_MON_AXI] READ addr=40000008 data=00000000 prot=111 resp=00
# UVM_INFO C:/Documents/DoAnThietKeViMach/Project/SoC/VERIFICATION/Scoreboard/spi_scoreboard.sv(150) @ 22775000: uvm_test_top.env.scoreboard [SPI_SCB] STATUS PASS got=00000000
# UVM_INFO C:/Documents/DoAnThietKeViMach/Project/SoC/VERIFICATION/Monitor/spi_monitor.sv(71) @ 22815000: uvm_test_top.env.agent.monitor [SPI_MON_AXI] READ addr=40000008 data=00000000 prot=111 resp=00
# UVM_INFO C:/Documents/DoAnThietKeViMach/Project/SoC/VERIFICATION/Scoreboard/spi_scoreboard.sv(150) @ 22815000: uvm_test_top.env.scoreboard [SPI_SCB] STATUS PASS got=00000000
# UVM_INFO C:/Documents/DoAnThietKeViMach/Project/SoC/VERIFICATION/Monitor/spi_monitor.sv(71) @ 22855000: uvm_test_top.env.agent.monitor [SPI_MON_AXI] READ addr=40000000 data=000000b6 prot=111 resp=00
# UVM_INFO C:/Documents/DoAnThietKeViMach/Project/SoC/VERIFICATION/Scoreboard/spi_scoreboard.sv(121) @ 22855000: uvm_test_top.env.scoreboard [SPI_SCB] DATA RX READ PASS got=000000b6
# UVM_INFO C:/Documents/DoAnThietKeViMach/Project/SoC/VERIFICATION/Monitor/spi_monitor.sv(106) @ 22875000: uvm_test_top.env.agent.monitor [SPI_MON_PIN] SPI transfer observed MOSI=36 MISO=b6
# UVM_INFO C:/Documents/DoAnThietKeViMach/Project/SoC/VERIFICATION/Scoreboard/spi_scoreboard.sv(54) @ 22875000: uvm_test_top.env.scoreboard [SPI_SCB] PIN TRANSFER PASS miso=b6
# UVM_INFO C:/Documents/DoAnThietKeViMach/Project/SoC/VERIFICATION/Monitor/spi_monitor.sv(57) @ 22885000: uvm_test_top.env.agent.monitor [SPI_MON_AXI] WRITE addr=40000004 data=00000008 prot=111 strb=1111 start=0
# UVM_INFO C:/Documents/DoAnThietKeViMach/Project/SoC/VERIFICATION/Scoreboard/spi_scoreboard.sv(81) @ 22885000: uvm_test_top.env.scoreboard [SPI_SCB] CTRL WRITE PASS data=00000008
# UVM_INFO C:/Documents/DoAnThietKeViMach/Project/SoC/VERIFICATION/Monitor/spi_monitor.sv(57) @ 22925000: uvm_test_top.env.agent.monitor [SPI_MON_AXI] WRITE addr=40000000 data=000000bd prot=001 strb=1111 start=0
# UVM_INFO C:/Documents/DoAnThietKeViMach/Project/SoC/VERIFICATION/Scoreboard/spi_scoreboard.sv(72) @ 22925000: uvm_test_top.env.scoreboard [SPI_SCB] DATA WRITE PASS tx=bd
# UVM_INFO C:/Documents/DoAnThietKeViMach/Project/SoC/VERIFICATION/Scoreboard/spi_scoreboard.sv(41) @ 22965000: uvm_test_top.env.scoreboard [SPI_SCB] EXPECT TRANSFER rx=dd
# UVM_INFO C:/Documents/DoAnThietKeViMach/Project/SoC/VERIFICATION/Monitor/spi_monitor.sv(57) @ 22965000: uvm_test_top.env.agent.monitor [SPI_MON_AXI] WRITE addr=40000004 data=00000001 prot=001 strb=1111 start=1
# UVM_INFO C:/Documents/DoAnThietKeViMach/Project/SoC/VERIFICATION/Scoreboard/spi_scoreboard.sv(79) @ 22965000: uvm_test_top.env.scoreboard [SPI_SCB] CTRL START WRITE data=00000001
# UVM_INFO C:/Documents/DoAnThietKeViMach/Project/SoC/VERIFICATION/Monitor/spi_monitor.sv(71) @ 24645000: uvm_test_top.env.agent.monitor [SPI_MON_AXI] READ addr=40000008 data=00000001 prot=001 resp=00
# UVM_INFO C:/Documents/DoAnThietKeViMach/Project/SoC/VERIFICATION/Scoreboard/spi_scoreboard.sv(150) @ 24645000: uvm_test_top.env.scoreboard [SPI_SCB] STATUS PASS got=00000001
# UVM_INFO C:/Documents/DoAnThietKeViMach/Project/SoC/VERIFICATION/Monitor/spi_monitor.sv(71) @ 24685000: uvm_test_top.env.agent.monitor [SPI_MON_AXI] READ addr=40000008 data=00000001 prot=001 resp=00
# UVM_INFO C:/Documents/DoAnThietKeViMach/Project/SoC/VERIFICATION/Scoreboard/spi_scoreboard.sv(150) @ 24685000: uvm_test_top.env.scoreboard [SPI_SCB] STATUS PASS got=00000001
# UVM_INFO C:/Documents/DoAnThietKeViMach/Project/SoC/VERIFICATION/Monitor/spi_monitor.sv(71) @ 24725000: uvm_test_top.env.agent.monitor [SPI_MON_AXI] READ addr=40000008 data=00000001 prot=001 resp=00
# UVM_INFO C:/Documents/DoAnThietKeViMach/Project/SoC/VERIFICATION/Scoreboard/spi_scoreboard.sv(150) @ 24725000: uvm_test_top.env.scoreboard [SPI_SCB] STATUS PASS got=00000001
# UVM_INFO C:/Documents/DoAnThietKeViMach/Project/SoC/VERIFICATION/Monitor/spi_monitor.sv(71) @ 24765000: uvm_test_top.env.agent.monitor [SPI_MON_AXI] READ addr=40000008 data=00000000 prot=001 resp=00
# UVM_INFO C:/Documents/DoAnThietKeViMach/Project/SoC/VERIFICATION/Scoreboard/spi_scoreboard.sv(150) @ 24765000: uvm_test_top.env.scoreboard [SPI_SCB] STATUS PASS got=00000000
# UVM_INFO C:/Documents/DoAnThietKeViMach/Project/SoC/VERIFICATION/Monitor/spi_monitor.sv(71) @ 24805000: uvm_test_top.env.agent.monitor [SPI_MON_AXI] READ addr=40000008 data=00000000 prot=001 resp=00
# UVM_INFO C:/Documents/DoAnThietKeViMach/Project/SoC/VERIFICATION/Scoreboard/spi_scoreboard.sv(150) @ 24805000: uvm_test_top.env.scoreboard [SPI_SCB] STATUS PASS got=00000000
# UVM_INFO C:/Documents/DoAnThietKeViMach/Project/SoC/VERIFICATION/Monitor/spi_monitor.sv(71) @ 24845000: uvm_test_top.env.agent.monitor [SPI_MON_AXI] READ addr=40000008 data=00000000 prot=001 resp=00
# UVM_INFO C:/Documents/DoAnThietKeViMach/Project/SoC/VERIFICATION/Scoreboard/spi_scoreboard.sv(150) @ 24845000: uvm_test_top.env.scoreboard [SPI_SCB] STATUS PASS got=00000000
# UVM_INFO C:/Documents/DoAnThietKeViMach/Project/SoC/VERIFICATION/Monitor/spi_monitor.sv(71) @ 24885000: uvm_test_top.env.agent.monitor [SPI_MON_AXI] READ addr=40000008 data=00000000 prot=001 resp=00
# UVM_INFO C:/Documents/DoAnThietKeViMach/Project/SoC/VERIFICATION/Scoreboard/spi_scoreboard.sv(150) @ 24885000: uvm_test_top.env.scoreboard [SPI_SCB] STATUS PASS got=00000000
# UVM_INFO C:/Documents/DoAnThietKeViMach/Project/SoC/VERIFICATION/Monitor/spi_monitor.sv(71) @ 24925000: uvm_test_top.env.agent.monitor [SPI_MON_AXI] READ addr=40000008 data=00000000 prot=001 resp=00
# UVM_INFO C:/Documents/DoAnThietKeViMach/Project/SoC/VERIFICATION/Scoreboard/spi_scoreboard.sv(150) @ 24925000: uvm_test_top.env.scoreboard [SPI_SCB] STATUS PASS got=00000000
